! TOUCHSTONE file generated by CST DESIGN STUDIO
! Date and time: Tue Feb  4 16:28:34 2025
! Project name: C:\Work\MatlabApps\UnitCellOptimizationMatlab\CST\unitcell.cst
! Tree item: Tasks\Sweep1\SPara1\S-Parameters
! Header version: 2024
! Port assignment regex: !\s*Touchstone port\s*([0-9]+)\s*=\s*(CST MWS port|CST DES external port|CST DES block port)\s*(.+)\s* \(\"(.*)\"\)(\s*mode\s*([0-9]+))?.*
! Touchstone port assignment:
! Touchstone port 1 = CST DES external port 1 ("")
# GHz S MA R 50
9                    0.924475806     -81.3586497
9.001                0.924218053     -81.4955137
9.002                0.923959793     -81.6327532
9.003                0.923701027     -81.7703693
9.004                0.923441756     -81.9083634
9.005                0.923181979     -82.0467368
9.006                0.922921697     -82.1854908
9.007                 0.92266091     -82.3246269
9.008                0.922399619     -82.4641462
9.009                0.922137825     -82.6040502
9.01                 0.921875526     -82.7443403
9.011                0.921612725     -82.8850177
9.012                 0.92134942     -83.0260838
9.013                0.921085614     -83.1675399
9.014                0.920821306     -83.3093875
9.015                0.920556496     -83.4516279
9.016                0.920291186     -83.5942625
9.017                0.920025375     -83.7372925
9.018                0.919759065     -83.8807195
9.019                0.919492255     -84.0245447
9.02                 0.919224947     -84.1687697
9.021                0.918957141     -84.3133956
9.022                0.918688838      -84.458424
9.023                0.918420038     -84.6038562
9.024                0.918150742     -84.7496936
9.025                 0.91788095     -84.8959377
9.026                0.917610664     -85.0425897
9.027                0.917339883     -85.1896512
9.028                 0.91706861     -85.3371235
9.029                0.916796844     -85.4850081
9.03                 0.916524586     -85.6333063
9.031                0.916251838     -85.7820196
9.032                0.915978599     -85.9311494
9.033                0.915704871     -86.0806971
9.034                0.915430655     -86.2306642
9.035                0.915155951      -86.381052
9.036                 0.91488076      -86.531862
9.037                0.914605085     -86.6830957
9.038                0.914328924     -86.8347545
9.039                 0.91405228     -86.9868398
9.04                 0.913775153     -87.1393531
9.041                0.913497544     -87.2922959
9.042                0.913219455     -87.4456695
9.043                0.912940886     -87.5994754
9.044                0.912661839     -87.7537151
9.045                0.912382315     -87.9083901
9.046                0.912102315     -88.0635017
9.047                 0.91182184     -88.2190516
9.048                0.911540891     -88.3750411
9.049                 0.91125947     -88.5314717
9.05                 0.910977577     -88.6883449
9.051                0.910695215     -88.8456621
9.052                0.910412384     -89.0034249
9.053                0.910129086     -89.1616348
9.054                0.909845323     -89.3202931
9.055                0.909561095     -89.4794014
9.056                0.909276404     -89.6389612
9.057                0.908991251     -89.7989739
9.058                0.908705639     -89.9594412
9.059                0.908419568     -90.1203643
9.06                  0.90813304     -90.2817449
9.061                0.907846057     -90.4435845
9.062                0.907558621     -90.6058845
9.063                0.907270732     -90.7686465
9.064                0.906982394     -90.9318719
9.065                0.906693606     -91.0955623
9.066                0.906404372     -91.2597191
9.067                0.906114693     -91.4243439
9.068                0.905824571     -91.5894382
9.069                0.905534008     -91.7550035
9.07                 0.905243005     -91.9210414
9.071                0.904951564     -92.0875532
9.072                0.904659689     -92.2545406
9.073                0.904367379     -92.4220051
9.074                0.904074638     -92.5899482
9.075                0.903781468     -92.7583713
9.076                0.903487871     -92.9272761
9.077                0.903193848     -93.0966641
9.078                0.902899403     -93.2665367
9.079                0.902604536     -93.4368956
9.08                 0.902309252     -93.6077422
9.081                0.902013551      -93.779078
9.082                0.901717437     -93.9509046
9.083                0.901420911     -94.1232236
9.084                0.901123976     -94.2960363
9.085                0.900826634     -94.4693445
9.086                0.900528889     -94.6431496
9.087                0.900230742     -94.8174531
9.088                0.899932197     -94.9922565
9.089                0.899633255     -95.1675615
9.09                 0.899333919     -95.3433695
9.091                0.899034193     -95.5196821
9.092                0.898734079     -95.6965007
9.093                 0.89843358      -95.873827
9.094                0.898132698     -96.0516624
9.095                0.897831436     -96.2300086
9.096                0.897529799     -96.4088669
9.097                0.897227787      -96.588239
9.098                0.896925405     -96.7681263
9.099                0.896622656     -96.9485305
9.1                  0.896319543      -97.129453
9.101                0.896016068     -97.3108954
9.102                0.895712236     -97.4928591
9.103                0.895408049     -97.6753458
9.104                 0.89510351     -97.8583568
9.105                0.894798624     -98.0418939
9.106                0.894493394     -98.2259584
9.107                0.894187822     -98.4105519
9.108                0.893881913      -98.595676
9.109                0.893575671      -98.781332
9.11                 0.893269098     -98.9675216
9.111                0.892962199     -99.1542463
9.112                0.892654977     -99.3415076
9.113                0.892347435     -99.5293069
9.114                0.892039579     -99.7176458
9.115                0.891731412     -99.9065258
9.116                0.891422937     -100.095948
9.117                 0.89111416     -100.285915
9.118                0.890805083     -100.476427
9.119                0.890495711     -100.667487
9.12                 0.890186048     -100.859095
9.121                0.889876099     -101.051253
9.122                0.889565868     -101.243962
9.123                0.889255358     -101.437225
9.124                0.888944576     -101.631042
9.125                0.888633524     -101.825415
9.126                0.888322208     -102.020345
9.127                0.888010632     -102.215834
9.128                  0.8876988     -102.411884
9.129                0.887386719     -102.608496
9.13                 0.887074392     -102.805671
9.131                0.886761824      -103.00341
9.132                 0.88644902     -103.201716
9.133                0.886135985     -103.400589
9.134                0.885822724     -103.600032
9.135                0.885509243     -103.800044
9.136                0.885195546     -104.000629
9.137                0.884881638     -104.201787
9.138                0.884567526      -104.40352
9.139                0.884253214     -104.605829
9.14                 0.883938708     -104.808716
9.141                0.883624013     -105.012181
9.142                0.883309135     -105.216227
9.143                0.882994079     -105.420854
9.144                0.882678852     -105.626065
9.145                0.882363459      -105.83186
9.146                0.882047905     -106.038241
9.147                0.881732198     -106.245209
9.148                0.881416342     -106.452765
9.149                0.881100344     -106.660912
9.15                 0.880784209      -106.86965
9.151                0.880467945      -107.07898
9.152                0.880151558     -107.288904
9.153                0.879835053     -107.499423
9.154                0.879518438     -107.710539
9.155                0.879201718     -107.922252
9.156                0.878884901     -108.134564
9.157                0.878567992     -108.347477
9.158                   0.878251     -108.560991
9.159                0.877933929     -108.775109
9.16                 0.877616788      -108.98983
9.161                0.877299584     -109.205157
9.162                0.876982323      -109.42109
9.163                0.876665012     -109.637631
9.164                0.876347659     -109.854781
9.165                 0.87603027     -110.072541
9.166                0.875712854     -110.290912
9.167                0.875395418     -110.509896
9.168                0.875077969     -110.729494
9.169                0.874760515     -110.949707
9.17                 0.874443063     -111.170535
9.171                0.874125621     -111.391981
9.172                0.873808197     -111.614045
9.173                0.873490799     -111.836729
9.174                0.873173435     -112.060033
9.175                0.872856113     -112.283958
9.176                0.872538841     -112.508506
9.177                0.872221627     -112.733678
9.178                 0.87190448     -112.959475
9.179                0.871587407     -113.185897
9.18                 0.871270419     -113.412946
9.181                0.870953522     -113.640623
9.182                0.870636726     -113.868929
9.183                0.870320039     -114.097864
9.184                0.870003471      -114.32743
9.185                 0.86968703     -114.557628
9.186                0.869370725     -114.788458
9.187                0.869054565     -115.019922
9.188                0.868738559      -115.25202
9.189                0.868422717     -115.484754
9.19                 0.868107048     -115.718123
9.191                0.867791561      -115.95213
9.192                0.867476266     -116.186774
9.193                0.867161172     -116.422057
9.194                0.866846289      -116.65798
9.195                0.866531627     -116.894542
9.196                0.866217196     -117.131746
9.197                0.865903005     -117.369591
9.198                0.865589065     -117.608079
9.199                0.865275385      -117.84721
9.2                  0.864961977     -118.086985
9.201                0.864648849     -118.327405
9.202                0.864336013     -118.568469
9.203                0.864023478      -118.81018
9.204                0.863711256     -119.052537
9.205                0.863399357     -119.295541
9.206                0.863087792     -119.539192
9.207                0.862776572     -119.783492
9.208                0.862465706      -120.02844
9.209                0.862155207     -120.274038
9.21                 0.861845086     -120.520285
9.211                0.861535353     -120.767182
9.212                 0.86122602      -121.01473
9.213                0.860917097     -121.262929
9.214                0.860608598      -121.51178
9.215                0.860300532     -121.761282
9.216                0.859992911     -122.011436
9.217                0.859685748     -122.262243
9.218                0.859379054     -122.513703
9.219                 0.85907284     -122.765816
9.22                 0.858767118     -123.018582
9.221                0.858461901     -123.272002
9.222                0.858157201     -123.526075
9.223                 0.85785303     -123.780803
9.224                0.857549399     -124.036184
9.225                0.857246322      -124.29222
9.226                 0.85694381      -124.54891
9.227                0.856641876     -124.806255
9.228                0.856340533     -125.064254
9.229                0.856039793     -125.322908
9.23                  0.85573967     -125.582216
9.231                0.855440175     -125.842179
9.232                0.855141321     -126.102797
9.233                0.854843123     -126.364068
9.234                0.854545592     -126.625994
9.235                0.854248741     -126.888574
9.236                0.853952585     -127.151809
9.237                0.853657135     -127.415696
9.238                0.853362406     -127.680238
9.239                0.853068411     -127.945433
9.24                 0.852775164      -128.21128
9.241                0.852482677     -128.477781
9.242                0.852190965     -128.744934
9.243                0.851900041     -129.012738
9.244                0.851609918     -129.281195
9.245                0.851320612     -129.550302
9.246                0.851032135      -129.82006
9.247                0.850744502     -130.090469
9.248                0.850457727     -130.361527
9.249                0.850171823     -130.633234
9.25                 0.849886805     -130.905589
9.251                0.849602687     -131.178592
9.252                0.849319484     -131.452243
9.253                0.849037209     -131.726539
9.254                0.848755878     -132.001482
9.255                0.848475504      -132.27707
9.256                0.848196102     -132.553301
9.257                0.847917687     -132.830176
9.258                0.847640274     -133.107694
9.259                0.847363876     -133.385852
9.26                 0.847088509     -133.664652
9.261                0.846814187     -133.944091
9.262                0.846540926     -134.224169
9.263                 0.84626874     -134.504884
9.264                0.845997645     -134.786236
9.265                0.845727654     -135.068223
9.266                0.845458784     -135.350844
9.267                0.845191048     -135.634098
9.268                0.844924463     -135.917984
9.269                0.844659044       -136.2025
9.27                 0.844394805     -136.487646
9.271                0.844131762     -136.773419
9.272                 0.84386993     -137.059818
9.273                0.843609325     -137.346843
9.274                0.843349961     -137.634491
9.275                0.843091855     -137.922761
9.276                 0.84283502     -138.211652
9.277                0.842579474     -138.501161
9.278                0.842325231     -138.791288
9.279                0.842072306      -139.08203
9.28                 0.841820716     -139.373386
9.281                0.841570475     -139.665354
9.282                0.841321599     -139.957933
9.283                0.841074104      -140.25112
9.284                0.840828005     -140.544914
9.285                0.840583318     -140.839312
9.286                0.840340058     -141.134313
9.287                0.840098241     -141.429915
9.288                0.839857882     -141.726116
9.289                0.839618997     -142.022914
9.29                 0.839381602     -142.320306
9.291                0.839145711      -142.61829
9.292                0.838911341     -142.916865
9.293                0.838678508     -143.216028
9.294                0.838447225     -143.515776
9.295                 0.83821751     -143.816108
9.296                0.837989378      -144.11702
9.297                0.837762844     -144.418512
9.298                0.837537923     -144.720579
9.299                0.837314632      -145.02322
9.3                  0.837092985     -145.326432
9.301                0.836872998     -145.630213
9.302                0.836654686     -145.934559
9.303                0.836438065     -146.239469
9.304                 0.83622315     -146.544939
9.305                0.836009957     -146.850967
9.306                  0.8357985      -147.15755
9.307                0.835588794     -147.464685
9.308                0.835380856     -147.772369
9.309                0.835174699     -148.080599
9.31                  0.83497034     -148.389373
9.311                0.834767792     -148.698686
9.312                0.834567072     -149.008537
9.313                0.834368194     -149.318922
9.314                0.834171172     -149.629838
9.315                0.833976022     -149.941282
9.316                0.833782759      -150.25325
9.317                0.833591397      -150.56574
9.318                 0.83340195     -150.878747
9.319                0.833214433     -151.192269
9.32                 0.833028861     -151.506302
9.321                0.832845248     -151.820842
9.322                0.832663608     -152.135887
9.323                0.832483956     -152.451432
9.324                0.832306305     -152.767474
9.325                 0.83213067     -153.084009
9.326                0.831957065     -153.401035
9.327                0.831785503     -153.718546
9.328                0.831615998     -154.036539
9.329                0.831448564     -154.355011
9.33                 0.831283214     -154.673957
9.331                0.831119962     -154.993374
9.332                0.830958822     -155.313258
9.333                0.830799806     -155.633605
9.334                0.830642928      -155.95441
9.335                  0.8304882      -156.27567
9.336                0.830335635      -156.59738
9.337                0.830185247     -156.919537
9.338                0.830037048     -157.242136
9.339                 0.82989105     -157.565174
9.34                 0.829747266     -157.888645
9.341                0.829605708     -158.212545
9.342                0.829466388     -158.536871
9.343                0.829329319     -158.861617
9.344                0.829194511      -159.18678
9.345                0.829061977     -159.512354
9.346                0.828931728     -159.838336
9.347                0.828803776     -160.164721
9.348                0.828678132     -160.491504
9.349                0.828554807      -160.81868
9.35                 0.828433812     -161.146246
9.351                0.828315158     -161.474195
9.352                0.828198855     -161.802524
9.353                0.828084914     -162.131228
9.354                0.827973345     -162.460302
9.355                0.827864158     -162.789741
9.356                0.827757364     -163.119539
9.357                0.827652972     -163.449694
9.358                0.827550991     -163.780198
9.359                0.827451431     -164.111048
9.36                 0.827354302     -164.442238
9.361                0.827259612     -164.773763
9.362                 0.82716737     -165.105619
9.363                0.827077585     -165.437799
9.364                0.826990266       -165.7703
9.365                 0.82690542     -166.103115
9.366                0.826823056     -166.436239
9.367                0.826743182     -166.769667
9.368                0.826665806     -167.103395
9.369                0.826590934     -167.437416
9.37                 0.826518575     -167.771725
9.371                0.826448735     -168.106317
9.372                0.826381422     -168.441186
9.373                0.826316642     -168.776328
9.374                0.826254401     -169.111736
9.375                0.826194705     -169.447405
9.376                0.826137562     -169.783329
9.377                0.826082976     -170.119503
9.378                0.826030954     -170.455922
9.379                  0.8259815      -170.79258
9.38                  0.82593462      -171.12947
9.381                0.825890319     -171.466588
9.382                0.825848601     -171.803928
9.383                0.825809472     -172.141484
9.384                0.825772934     -172.479251
9.385                0.825738993     -172.817222
9.386                0.825707652     -173.155392
9.387                0.825678915     -173.493755
9.388                0.825652785     -173.832305
9.389                0.825629265     -174.171037
9.39                 0.825608358     -174.509944
9.391                0.825590067     -174.849021
9.392                0.825574394     -175.188262
9.393                0.825561341     -175.527661
9.394                0.825550911     -175.867212
9.395                0.825543104     -176.206909
9.396                0.825537922     -176.546746
