! TOUCHSTONE file generated by CST DESIGN STUDIO
! Date and time: Tue Feb  4 16:28:29 2025
! Project name: C:\Work\MatlabApps\UnitCellOptimizationMatlab\CST\unitcell.cst
! Tree item: Tasks\Sweep1\SPara1\S-Parameters
! Header version: 2024
! Port assignment regex: !\s*Touchstone port\s*([0-9]+)\s*=\s*(CST MWS port|CST DES external port|CST DES block port)\s*(.+)\s* \(\"(.*)\"\)(\s*mode\s*([0-9]+))?.*
! Touchstone port assignment:
! Touchstone port 1 = CST DES external port 1 ("")
# GHz S MA R 50
9                    0.900131283     -100.958235
9.001                    0.89974     -101.152292
9.002                0.899348291     -101.346884
9.003                0.898956165     -101.542013
9.004                0.898563626      -101.73768
9.005                0.898170683     -101.933888
9.006                0.897777343     -102.130636
9.007                0.897383612     -102.327928
9.008                0.896989497     -102.525764
9.009                0.896595007     -102.724145
9.01                 0.896200147     -102.923074
9.011                0.895804926     -103.122552
9.012                 0.89540935     -103.322581
9.013                0.895013428     -103.523161
9.014                0.894617166     -103.724294
9.015                0.894220573     -103.925982
9.016                0.893823656     -104.128226
9.017                0.893426422     -104.331028
9.018                0.893028881     -104.534389
9.019                0.892631038     -104.738311
9.02                 0.892232904     -104.942795
9.021                0.891834484     -105.147842
9.022                0.891435789     -105.353455
9.023                0.891036825     -105.559633
9.024                0.890637602      -105.76638
9.025                0.890238126     -105.973695
9.026                0.889838408     -106.181582
9.027                0.889438455      -106.39004
9.028                0.889038277     -106.599072
9.029                0.888637881     -106.808679
9.03                 0.888237276     -107.018862
9.031                0.887836471     -107.229623
9.032                0.887435476     -107.440963
9.033                0.887034298     -107.652883
9.034                0.886632948     -107.865385
9.035                0.886231434      -108.07847
9.036                0.885829765      -108.29214
9.037                0.885427951     -108.506396
9.038                0.885026002     -108.721239
9.039                0.884623925     -108.936671
9.04                 0.884221732     -109.152692
9.041                0.883819432     -109.369305
9.042                0.883417035      -109.58651
9.043                0.883014549     -109.804309
9.044                0.882611986     -110.022703
9.045                0.882209355     -110.241693
9.046                0.881806666     -110.461281
9.047                0.881403929     -110.681468
9.048                0.881001155     -110.902256
9.049                0.880598353     -111.123644
9.05                 0.880195535     -111.345635
9.051                0.879792711     -111.568231
9.052                0.879389891     -111.791431
9.053                0.878987085     -112.015237
9.054                0.878584306     -112.239651
9.055                0.878181563     -112.464674
9.056                0.877778867     -112.690306
9.057                 0.87737623      -112.91655
9.058                0.876973663     -113.143405
9.059                0.876571176     -113.370874
9.06                 0.876168781     -113.598957
9.061                0.875766489     -113.827656
9.062                0.875364312     -114.056971
9.063                0.874962262     -114.286904
9.064                 0.87456035     -114.517456
9.065                0.874158587     -114.748627
9.066                0.873756986      -114.98042
9.067                0.873355559     -115.212834
9.068                0.872954317     -115.445871
9.069                0.872553272     -115.679531
9.07                 0.872152438     -115.913817
9.071                0.871751825     -116.148728
9.072                0.871351447     -116.384266
9.073                0.870951316     -116.620432
9.074                0.870551444     -116.857227
9.075                0.870151844     -117.094651
9.076                0.869752529     -117.332705
9.077                0.869353512     -117.571391
9.078                0.868954806     -117.810708
9.079                0.868556423     -118.050659
9.08                 0.868158376     -118.291243
9.081                 0.86776068     -118.532462
9.082                0.867363347     -118.774317
9.083                0.866966391     -119.016807
9.084                0.866569825     -119.259935
9.085                0.866173662       -119.5037
9.086                0.865777917     -119.748103
9.087                0.865382603     -119.993145
9.088                0.864987734     -120.238827
9.089                0.864593324     -120.485149
9.09                 0.864199387     -120.732113
9.091                0.863805937     -120.979717
9.092                0.863412988     -121.227964
9.093                0.863020555     -121.476854
9.094                0.862628652     -121.726386
9.095                0.862237293     -121.976563
9.096                0.861846494     -122.227384
9.097                0.861456268     -122.478849
9.098                0.861066631      -122.73096
9.099                0.860677597     -122.983717
9.1                  0.860289182     -123.237119
9.101                  0.8599014     -123.491168
9.102                0.859514267     -123.745864
9.103                0.859127797     -124.001207
9.104                0.858742006     -124.257197
9.105                 0.85835691     -124.513835
9.106                0.857972523     -124.771121
9.107                0.857588862     -125.029055
9.108                0.857205942     -125.287638
9.109                0.856823779     -125.546869
9.11                 0.856442388     -125.806749
9.111                0.856061786     -126.067278
9.112                0.855681989     -126.328456
9.113                0.855303011     -126.590284
9.114                0.854924871      -126.85276
9.115                0.854547583     -127.115886
9.116                0.854171165     -127.379661
9.117                0.853795632     -127.644085
9.118                0.853421001     -127.909158
9.119                0.853047288      -128.17488
9.12                 0.852674511     -128.441251
9.121                0.852302686     -128.708271
9.122                0.851931829     -128.975939
9.123                0.851561958     -129.244256
9.124                0.851193089     -129.513221
9.125                0.850825239     -129.782834
9.126                0.850458426     -130.053094
9.127                0.850092666     -130.324001
9.128                0.849727977     -130.595556
9.129                0.849364376     -130.867757
9.13                  0.84900188     -131.140604
9.131                0.848640506     -131.414096
9.132                0.848280273     -131.688234
9.133                0.847921198     -131.963016
9.134                0.847563297     -132.238443
9.135                 0.84720659     -132.514512
9.136                0.846851093     -132.791225
9.137                0.846496824     -133.068579
9.138                0.846143801     -133.346575
9.139                0.845792043     -133.625212
9.14                 0.845441566     -133.904489
9.141                0.845092389     -134.184405
9.142                0.844744529     -134.464959
9.143                0.844398006     -134.746151
9.144                0.844052836     -135.027979
9.145                0.843709039     -135.310442
9.146                0.843366632     -135.593541
9.147                0.843025633     -135.877273
9.148                0.842686062     -136.161637
9.149                0.842347935     -136.446633
9.15                 0.842011272     -136.732259
9.151                0.841676091     -137.018514
9.152                 0.84134241     -137.305397
9.153                0.841010247     -137.592907
9.154                0.840679622     -137.881042
9.155                0.840350553     -138.169801
9.156                0.840023058     -138.459183
9.157                0.839697155     -138.749186
9.158                0.839372864     -139.039809
9.159                0.839050203      -139.33105
9.16                  0.83872919     -139.622908
9.161                0.838409845     -139.915382
9.162                0.838092185     -140.208468
9.163                0.837776229     -140.502167
9.164                0.837461996     -140.796477
9.165                0.837149505     -141.091394
9.166                0.836838775     -141.386919
9.167                0.836529823     -141.683049
9.168                0.836222669     -141.979781
9.169                0.835917331     -142.277115
9.17                 0.835613827     -142.575048
9.171                0.835312178     -142.873579
9.172                  0.8350124     -143.172704
9.173                0.834714513     -143.472423
9.174                0.834418535     -143.772733
9.175                0.834124485     -144.073632
9.176                0.833832381     -144.375118
9.177                0.833542242     -144.677188
9.178                0.833254086      -144.97984
9.179                0.832967932     -145.283072
9.18                 0.832683798     -145.586882
9.181                0.832401703     -145.891267
9.182                0.832121664     -146.196224
9.183                0.831843701     -146.501751
9.184                0.831567831     -146.807846
9.185                0.831294072     -147.114506
9.186                0.831022444     -147.421728
9.187                0.830752963      -147.72951
9.188                0.830485648     -148.037849
9.189                0.830220517     -148.346742
9.19                 0.829957587     -148.656186
9.191                0.829696877     -148.966178
9.192                0.829438405     -149.276716
9.193                0.829182188     -149.587797
9.194                0.828928243     -149.899417
9.195                0.828676589     -150.211573
9.196                0.828427242     -150.524263
9.197                0.828180221     -150.837484
9.198                0.827935542     -151.151231
9.199                0.827693223     -151.465502
9.2                  0.827453281     -151.780294
9.201                0.827215733     -152.095603
9.202                0.826980595     -152.411426
9.203                0.826747885      -152.72776
9.204                 0.82651762     -153.044601
9.205                0.826289815     -153.361945
9.206                0.826064488     -153.679789
9.207                0.825841655      -153.99813
9.208                0.825621332     -154.316963
9.209                0.825403535     -154.636286
9.21                  0.82518828     -154.956094
9.211                0.824975584     -155.276383
9.212                0.824765461     -155.597151
9.213                0.824557928     -155.918392
9.214                   0.824353     -156.240104
9.215                0.824150693     -156.562282
9.216                0.823951021     -156.884921
9.217                0.823753999     -157.208019
9.218                0.823559644     -157.531571
9.219                0.823367968     -157.855573
9.22                 0.823178988     -158.180021
9.221                0.822992716     -158.504911
9.222                0.822809169     -158.830237
9.223                0.822628359     -159.155997
9.224                0.822450301     -159.482186
9.225                0.822275008     -159.808799
9.226                0.822102494     -160.135831
9.227                0.821932772      -160.46328
9.228                0.821765856     -160.791139
9.229                0.821601759     -161.119405
9.23                 0.821440493     -161.448073
9.231                0.821282072     -161.777138
9.232                0.821126507     -162.106595
9.233                0.820973811     -162.436441
9.234                0.820823996      -162.76667
9.235                0.820677073     -163.097277
9.236                0.820533055     -163.428258
9.237                0.820391954     -163.759607
9.238                0.820253779     -164.091321
9.239                0.820118542     -164.423393
9.24                 0.819986255     -164.755819
9.241                0.819856927     -165.088595
9.242                0.819730569     -165.421714
9.243                0.819607191     -165.755172
9.244                0.819486803     -166.088964
9.245                0.819369414     -166.423085
9.246                0.819255035     -166.757529
9.247                0.819143674     -167.092291
9.248                 0.81903534     -167.427367
9.249                0.818930043      -167.76275
9.25                 0.818827789     -168.098435
9.251                0.818728589     -168.434418
9.252                0.818632449     -168.770692
9.253                0.818539378     -169.107252
9.254                0.818449382     -169.444094
9.255                 0.81836247      -169.78121
9.256                0.818278648     -170.118597
9.257                0.818197922     -170.456248
9.258                  0.8181203     -170.794157
9.259                0.818045788      -171.13232
9.26                 0.817974391     -171.470731
9.261                0.817906114     -171.809383
9.262                0.817840965     -172.148272
9.263                0.817778947     -172.487391
9.264                0.817720065     -172.826735
9.265                0.817664324     -173.166299
9.266                0.817611728     -173.506075
9.267                0.817562282     -173.846059
9.268                0.817515989     -174.186245
9.269                0.817472852     -174.526627
9.27                 0.817432875     -174.867199
9.271                 0.81739606     -175.207955
9.272                0.817362411     -175.548889
9.273                0.817331929     -175.889996
9.274                0.817304616     -176.231269
9.275                0.817280475     -176.572703
9.276                0.817259506     -176.914291
9.277                0.817241711     -177.256027
9.278                0.817227091     -177.597906
9.279                0.817215646     -177.939922
9.28                 0.817207377     -178.282067
9.281                0.817202284     -178.624338
9.282                0.817200365     -178.966726
9.283                0.817201622     -179.309227
9.284                0.817206052     -179.651833
9.285                0.817213655      -179.99454
9.286                0.817224429       179.66266
9.287                0.817238373      179.319772
9.288                0.817255484      178.976802
9.289                 0.81727576      178.633757
9.29                 0.817299199      178.290642
9.291                0.817325797      177.947465
9.292                0.817355551      177.604231
9.293                0.817388458      177.260946
9.294                0.817424513      176.917616
9.295                0.817463714      176.574248
9.296                0.817506054      176.230848
9.297                 0.81755153      175.887422
9.298                0.817600137      175.543976
9.299                0.817651869      175.200516
9.3                   0.81770672       174.85705
9.301                0.817764686      174.513582
9.302                0.817825759      174.170119
9.303                0.817889933      173.826668
9.304                0.817957201      173.483234
9.305                0.818027557      173.139824
9.306                0.818100993      172.796443
9.307                0.818177501      172.453099
9.308                0.818257074      172.109797
9.309                0.818339703      171.766544
9.31                  0.81842538      171.423345
9.311                0.818514097      171.080207
9.312                0.818605843      170.737136
9.313                 0.81870061      170.394139
9.314                0.818798389       170.05122
9.315                0.818899169      169.708388
9.316                 0.81900294      169.365646
9.317                0.819109692      169.023003
9.318                0.819219415      168.680463
9.319                0.819332097      168.338034
9.32                 0.819447727       167.99572
9.321                0.819566294      167.653529
9.322                0.819687787      167.311465
9.323                0.819812192      166.969536
9.324                0.819939498      166.627748
9.325                0.820069693      166.286105
9.326                0.820202764      165.944615
9.327                0.820338697      165.603283
9.328                 0.82047748      165.262116
9.329                0.820619099      164.921118
9.33                  0.82076354      164.580297
9.331                0.820910791      164.239658
9.332                0.821060835      163.899206
9.333                 0.82121366      163.558949
9.334                 0.82136925      163.218891
9.335                 0.82152759      162.879038
9.336                0.821688666      162.539397
9.337                0.821852462      162.199973
9.338                0.822018963      161.860771
9.339                0.822188152      161.521799
9.34                 0.822360015       161.18306
9.341                0.822534535      160.844561
9.342                0.822711695      160.506308
9.343                0.822891479      160.168306
9.344                0.823073871      159.830561
9.345                0.823258853      159.493078
9.346                0.823446408      159.155863
9.347                0.823636518      158.818922
9.348                0.823829168      158.482259
9.349                0.824024337      158.145881
9.35                  0.82422201      157.809792
9.351                0.824422167      157.473999
9.352                0.824624791      157.138506
9.353                0.824829864       156.80332
9.354                0.825037365      156.468444
9.355                0.825247278      156.133885
9.356                0.825459583      155.799647
9.357                0.825674261      155.465737
9.358                0.825891292      155.132158
9.359                0.826110659      154.798917
9.36                  0.82633234      154.466018
9.361                0.826556317      154.133466
9.362                 0.82678257      153.801267
9.363                0.827011078      153.469425
9.364                0.827241823      153.137945
9.365                0.827474783      152.806833
9.366                0.827709939      152.476093
9.367                 0.82794727       152.14573
9.368                0.828186756      151.815748
9.369                0.828428377      151.486154
9.37                  0.82867211       151.15695
9.371                0.828917937      150.828142
9.372                0.829165835      150.499736
9.373                0.829415784      150.171734
9.374                0.829667763      149.844142
9.375                0.829921751      149.516965
9.376                0.830177726      149.190206
9.377                0.830435668      148.863871
9.378                0.830695554      148.537964
9.379                0.830957363      148.212488
9.38                 0.831221074      147.887449
9.381                0.831486665      147.562851
9.382                0.831754115      147.238698
9.383                0.832023401      146.914994
9.384                0.832294503      146.591744
9.385                0.832567397      146.268951
9.386                0.832842063      145.946619
9.387                0.833118479      145.624754
9.388                0.833396622      145.303358
9.389                 0.83367647      144.982435
9.39                 0.833958002       144.66199
9.391                0.834241195      144.342027
9.392                0.834526028      144.022548
9.393                0.834812478      143.703559
9.394                0.835100523      143.385062
9.395                0.835390141      143.067062
9.396                0.835681311      142.749562
