! TOUCHSTONE file generated by CST DESIGN STUDIO
! Date and time: Tue Feb  4 16:28:37 2025
! Project name: C:\Work\MatlabApps\UnitCellOptimizationMatlab\CST\unitcell.cst
! Tree item: Tasks\Sweep1\SPara1\S-Parameters
! Header version: 2024
! Port assignment regex: !\s*Touchstone port\s*([0-9]+)\s*=\s*(CST MWS port|CST DES external port|CST DES block port)\s*(.+)\s* \(\"(.*)\"\)(\s*mode\s*([0-9]+))?.*
! Touchstone port assignment:
! Touchstone port 1 = CST DES external port 1 ("")
# GHz S MA R 50
9                    0.939112524     -69.8335248
9.001                0.938927351     -69.9397534
9.002                0.938741826     -70.0462572
9.003                 0.93855595     -70.1530374
9.004                 0.93836972     -70.2600948
9.005                0.938183136     -70.3674305
9.006                0.937996198     -70.4750455
9.007                0.937808904     -70.5829408
9.008                0.937621255     -70.6911175
9.009                0.937433248     -70.7995764
9.01                 0.937244884     -70.9083188
9.011                0.937056161     -71.0173455
9.012                0.936867079     -71.1266576
9.013                0.936677637     -71.2362562
9.014                0.936487834     -71.3461423
9.015                0.936297669      -71.456317
9.016                0.936107142     -71.5667812
9.017                0.935916252      -71.677536
9.018                0.935724998     -71.7885826
9.019                0.935533379     -71.8999218
9.02                 0.935341394     -72.0115549
9.021                0.935149043     -72.1234828
9.022                0.934956325     -72.2357067
9.023                0.934763239     -72.3482276
9.024                0.934569784     -72.4610465
9.025                 0.93437596     -72.5741647
9.026                0.934181765      -72.687583
9.027                  0.9339872     -72.8013027
9.028                0.933792262     -72.9153248
9.029                0.933596952     -73.0296505
9.03                 0.933401269     -73.1442807
9.031                0.933205211     -73.2592167
9.032                0.933008778     -73.3744594
9.033                 0.93281197     -73.4900101
9.034                0.932614785     -73.6058699
9.035                0.932417223     -73.7220398
9.036                0.932219283      -73.838521
9.037                0.932020964     -73.9553146
9.038                0.931822266     -74.0724217
9.039                0.931623187     -74.1898435
9.04                 0.931423727     -74.3075811
9.041                0.931223886     -74.4256356
9.042                0.931023662     -74.5440082
9.043                0.930823054     -74.6627001
9.044                0.930622063     -74.7817123
9.045                0.930420686     -74.9010461
9.046                0.930218924     -75.0207025
9.047                0.930016776     -75.1406828
9.048                 0.92981424     -75.2609882
9.049                0.929611317     -75.3816197
9.05                 0.929408006     -75.5025786
9.051                0.929204305      -75.623866
9.052                0.929000214     -75.7454832
9.053                0.928795732     -75.8674313
9.054                0.928590859     -75.9897115
9.055                0.928385594      -76.112325
9.056                0.928179936     -76.2352729
9.057                0.927973885     -76.3585566
9.058                0.927767439     -76.4821771
9.059                0.927560598     -76.6061358
9.06                 0.927353362     -76.7304338
9.061                0.927145729     -76.8550723
9.062                  0.9269377     -76.9800525
9.063                0.926729272     -77.1053757
9.064                0.926520447     -77.2310432
9.065                0.926311222      -77.357056
9.066                0.926101598     -77.4834155
9.067                0.925891573      -77.610123
9.068                0.925681147     -77.7371795
9.069                 0.92547032     -77.8645865
9.07                  0.92525909     -77.9923451
9.071                0.925047458     -78.1204566
9.072                0.924835422     -78.2489222
9.073                0.924622982     -78.3777433
9.074                0.924410137      -78.506921
9.075                0.924196886     -78.6364567
9.076                 0.92398323     -78.7663516
9.077                0.923769167      -78.896607
9.078                0.923554697     -79.0272241
9.079                0.923339819     -79.1582043
9.08                 0.923124533     -79.2895488
9.081                0.922908838      -79.421259
9.082                0.922692734     -79.5533361
9.083                0.922476219     -79.6857814
9.084                0.922259294     -79.8185963
9.085                0.922041958     -79.9517819
9.086                0.921824211     -80.0853398
9.087                0.921606051      -80.219271
9.088                0.921387479      -80.353577
9.089                0.921168493     -80.4882591
9.09                 0.920949094     -80.6233186
9.091                0.920729281     -80.7587569
9.092                0.920509054     -80.8945752
9.093                0.920288411     -81.0307748
9.094                0.920067353     -81.1673573
9.095                 0.91984588     -81.3043238
9.096                0.919623989     -81.4416757
9.097                0.919401682     -81.5794144
9.098                0.919178958     -81.7175412
9.099                0.918955817     -81.8560574
9.1                  0.918732257     -81.9949645
9.101                 0.91850828     -82.1342638
9.102                0.918283883     -82.2739566
9.103                0.918059068     -82.4140443
9.104                0.917833833     -82.5545284
9.105                0.917608179     -82.6954101
9.106                0.917382105     -82.8366908
9.107                 0.91715561      -82.978372
9.108                0.916928695     -83.1204549
9.109                 0.91670136     -83.2629411
9.11                 0.916473603     -83.4058319
9.111                0.916245425     -83.5491286
9.112                0.916016825     -83.6928327
9.113                0.915787803     -83.8369456
9.114                 0.91555836     -83.9814686
9.115                0.915328494     -84.1264033
9.116                0.915098206     -84.2717509
9.117                0.914867496      -84.417513
9.118                0.914636363     -84.5636909
9.119                0.914404808      -84.710286
9.12                 0.914172829     -84.8572998
9.121                0.913940428     -85.0047337
9.122                0.913707603      -85.152589
9.123                0.913474356     -85.3008674
9.124                0.913240685     -85.4495701
9.125                0.913006592     -85.5986986
9.126                0.912772075     -85.7482544
9.127                0.912537135     -85.8982389
9.128                0.912301772     -86.0486535
9.129                0.912065986     -86.1994997
9.13                 0.911829777     -86.3507789
9.131                0.911593145     -86.5024926
9.132                0.911356091     -86.6546423
9.133                0.911118613     -86.8072293
9.134                0.910880714     -86.9602552
9.135                0.910642392     -87.1137214
9.136                0.910403648     -87.2676294
9.137                0.910164482     -87.4219807
9.138                0.909924894     -87.5767767
9.139                0.909684885     -87.7320188
9.14                 0.909444455     -87.8877086
9.141                0.909203604     -88.0438476
9.142                0.908962332     -88.2004372
9.143                 0.90872064     -88.3574789
9.144                0.908478529     -88.5149741
9.145                0.908235998     -88.6729244
9.146                0.907993048     -88.8313313
9.147                0.907749679     -88.9901962
9.148                0.907505893     -89.1495206
9.149                0.907261689      -89.309306
9.15                 0.907017067     -89.4695539
9.151                0.906772029     -89.6302659
9.152                0.906526576     -89.7914433
9.153                0.906280707     -89.9530878
9.154                0.906034423     -90.1152007
9.155                0.905787725     -90.2777837
9.156                0.905540613     -90.4408381
9.157                0.905293089     -90.6043656
9.158                0.905045153     -90.7683676
9.159                0.904796805     -90.9328455
9.16                 0.904548048     -91.0978011
9.161                 0.90429888     -91.2632356
9.162                0.904049304     -91.4291507
9.163                 0.90379932     -91.5955479
9.164                0.903548929     -91.7624286
9.165                0.903298132     -91.9297944
9.166                 0.90304693     -92.0976468
9.167                0.902795324     -92.2659873
9.168                0.902543314     -92.4348174
9.169                0.902290903     -92.6041387
9.17                 0.902038092     -92.7739526
9.171                 0.90178488     -92.9442607
9.172                 0.90153127     -93.1150645
9.173                0.901277263     -93.2863655
9.174                0.901022859     -93.4581652
9.175                0.900768061     -93.6304652
9.176                0.900512869     -93.8032669
9.177                0.900257286     -93.9765719
9.178                0.900001311     -94.1503817
9.179                0.899744947     -94.3246978
9.18                 0.899488196     -94.4995217
9.181                0.899231058      -94.674855
9.182                0.898973535     -94.8506991
9.183                0.898715629     -95.0270556
9.184                0.898457342     -95.2039261
9.185                0.898198674     -95.3813119
9.186                0.897939628     -95.5592146
9.187                0.897680206     -95.7376358
9.188                0.897420409     -95.9165769
9.189                0.897160239     -96.0960395
9.19                 0.896899698      -96.276025
9.191                0.896638788     -96.4565351
9.192                0.896377511     -96.6375711
9.193                0.896115868     -96.8191346
9.194                0.895853862      -97.001227
9.195                0.895591495       -97.18385
9.196                 0.89532877      -97.367005
9.197                0.895065687     -97.5506935
9.198                 0.89480225     -97.7349169
9.199                 0.89453846     -97.9196769
9.2                  0.894274321     -98.1049748
9.201                0.894009833     -98.2908121
9.202                0.893745001     -98.4771905
9.203                0.893479826     -98.6641113
9.204                 0.89321431     -98.8515759
9.205                0.892948457      -99.039586
9.206                0.892682268      -99.228143
9.207                0.892415747     -99.4172483
9.208                0.892148896     -99.6069035
9.209                0.891881719     -99.7971099
9.21                 0.891614217     -99.9878691
9.211                0.891346393     -100.179183
9.212                0.891078251     -100.371052
9.213                0.890809794     -100.563478
9.214                0.890541024     -100.756463
9.215                0.890271944     -100.950007
9.216                0.890002559     -101.144114
9.217                 0.88973287     -101.338783
9.218                0.889462881     -101.534016
9.219                0.889192596     -101.729815
9.22                 0.888922018     -101.926182
9.221                0.888651149     -102.123117
9.222                0.888379995     -102.320622
9.223                0.888108557     -102.518698
9.224                 0.88783684     -102.717347
9.225                0.887564848     -102.916571
9.226                0.887292584      -103.11637
9.227                0.887020052     -103.316746
9.228                0.886747255       -103.5177
9.229                0.886474198     -103.719234
9.23                 0.886200884      -103.92135
9.231                0.885927318     -104.124047
9.232                0.885653504     -104.327329
9.233                0.885379445     -104.531196
9.234                0.885105146     -104.735649
9.235                0.884830612      -104.94069
9.236                0.884555846      -105.14632
9.237                0.884280853     -105.352541
9.238                0.884005637     -105.559353
9.239                0.883730203     -105.766759
9.24                 0.883454556     -105.974759
9.241                  0.8831787     -106.183355
9.242                 0.88290264     -106.392547
9.243                0.882626381     -106.602338
9.244                0.882349927     -106.812729
9.245                0.882073284      -107.02372
9.246                0.881796456     -107.235313
9.247                0.881519449     -107.447509
9.248                0.881242268      -107.66031
9.249                0.880964918     -107.873717
9.25                 0.880687404      -108.08773
9.251                0.880409732     -108.302352
9.252                0.880131907     -108.517583
9.253                0.879853934     -108.733424
9.254                 0.87957582     -108.949877
9.255                0.879297569     -109.166942
9.256                0.879019189     -109.384622
9.257                0.878740683     -109.602916
9.258                0.878462059     -109.821827
9.259                0.878183322     -110.041355
9.26                 0.877904478     -110.261501
9.261                0.877625534     -110.482267
9.262                0.877346496     -110.703653
9.263                0.877067369     -110.925661
9.264                0.876788161     -111.148291
9.265                0.876508877     -111.371545
9.266                0.876229524     -111.595424
9.267                0.875950109     -111.819929
9.268                0.875670639      -112.04506
9.269                0.875391119     -112.270819
9.27                 0.875111558     -112.497206
9.271                0.874831961     -112.724223
9.272                0.874552336     -112.951871
9.273                0.874272691      -113.18015
9.274                0.873993031     -113.409061
9.275                0.873713364     -113.638606
9.276                0.873433699     -113.868785
9.277                0.873154041     -114.099599
9.278                0.872874399     -114.331049
9.279                0.872594779     -114.563135
9.28                 0.872315191     -114.795859
9.281                0.872035641     -115.029221
9.282                0.871756137     -115.263222
9.283                0.871476687     -115.497863
9.284                0.871197299     -115.733145
9.285                0.870917982     -115.969068
9.286                0.870638742     -116.205633
9.287                 0.87035959     -116.442841
9.288                0.870080532     -116.680692
9.289                0.869801578     -116.919187
9.29                 0.869522735     -117.158327
9.291                0.869244012     -117.398112
9.292                0.868965419     -117.638543
9.293                0.868686963     -117.879621
9.294                0.868408654     -118.121345
9.295                0.868130501     -118.363717
9.296                0.867852512     -118.606738
9.297                0.867574696     -118.850406
9.298                0.867297064     -119.094724
9.299                0.867019623     -119.339692
9.3                  0.866742384     -119.585309
9.301                0.866465356     -119.831577
9.302                0.866188547     -120.078496
9.303                0.865911969     -120.326065
9.304                0.865635631     -120.574287
9.305                0.865359542      -120.82316
9.306                0.865083712     -121.072685
9.307                0.864808152     -121.322862
9.308                0.864532871     -121.573692
9.309                0.864257879     -121.825175
9.31                 0.863983187     -122.077311
9.311                0.863708805       -122.3301
9.312                0.863434743     -122.583543
9.313                0.863161012     -122.837639
9.314                0.862887623     -123.092389
9.315                0.862614585     -123.347792
9.316                 0.86234191      -123.60385
9.317                0.862069608     -123.860561
9.318                0.861797691     -124.117925
9.319                0.861526169     -124.375944
9.32                 0.861255054     -124.634616
9.321                0.860984356     -124.893942
9.322                0.860714087     -125.153922
9.323                0.860444258     -125.414554
9.324                 0.86017488      -125.67584
9.325                0.859905966      -125.93778
9.326                0.859637525     -126.200371
9.327                0.859369571     -126.463616
9.328                0.859102115     -126.727512
9.329                0.858835168     -126.992061
9.33                 0.858568743     -127.257261
9.331                 0.85830285     -127.523113
9.332                0.858037504     -127.789615
9.333                0.857772714     -128.056768
9.334                0.857508495     -128.324571
9.335                0.857244857     -128.593023
9.336                0.856981814     -128.862124
9.337                0.856719377     -129.131873
9.338                0.856457559     -129.402271
9.339                0.856196372     -129.673315
9.34                  0.85593583     -129.945006
9.341                0.855675945     -130.217343
9.342                0.855416729     -130.490325
9.343                0.855158196     -130.763951
9.344                0.854900358     -131.038221
9.345                0.854643228     -131.313134
9.346                 0.85438682     -131.588689
9.347                0.854131146     -131.864884
9.348                 0.85387622      -132.14172
9.349                0.853622054     -132.419195
9.35                 0.853368662     -132.697308
9.351                0.853116058     -132.976058
9.352                0.852864254     -133.255444
9.353                0.852613265     -133.535466
9.354                0.852363103     -133.816121
9.355                0.852113782     -134.097409
9.356                0.851865316     -134.379328
9.357                0.851617719     -134.661877
9.358                0.851371004     -134.945055
9.359                0.851125185     -135.228861
9.36                 0.850880276     -135.513294
9.361                0.850636291     -135.798351
9.362                0.850393243     -136.084031
9.363                0.850151147     -136.370334
9.364                0.849910017     -136.657257
9.365                0.849669866     -136.944798
9.366                0.849430709     -137.232958
9.367                 0.84919256     -137.521732
9.368                0.848955433     -137.811121
9.369                0.848719342     -138.101122
9.37                 0.848484302     -138.391734
9.371                0.848250326     -138.682955
9.372                 0.84801743     -138.974782
9.373                0.847785627     -139.267215
9.374                0.847554932     -139.560251
9.375                0.847325359     -139.853888
9.376                0.847096923     -140.148125
9.377                0.846869637     -140.442959
9.378                0.846643518     -140.738388
9.379                0.846418578      -141.03441
9.38                 0.846194832     -141.331023
9.381                0.845972296     -141.628225
9.382                0.845750983     -141.926013
9.383                0.845530908     -142.224386
9.384                0.845312086     -142.523341
9.385                 0.84509453     -142.822875
9.386                0.844878257     -143.122987
9.387                0.844663279     -143.423673
9.388                0.844449613     -143.724932
9.389                0.844237272      -144.02676
9.39                  0.84402627     -144.329156
9.391                0.843816623     -144.632116
9.392                0.843608345     -144.935638
9.393                0.843401451     -145.239719
9.394                0.843195954     -145.544357
9.395                 0.84299187     -145.849549
9.396                0.842789213     -146.155292
