! TOUCHSTONE file generated by CST DESIGN STUDIO
! Date and time: Tue Feb  4 16:28:32 2025
! Project name: C:\Work\MatlabApps\UnitCellOptimizationMatlab\CST\unitcell.cst
! Tree item: Tasks\Sweep1\SPara1\S-Parameters
! Header version: 2024
! Port assignment regex: !\s*Touchstone port\s*([0-9]+)\s*=\s*(CST MWS port|CST DES external port|CST DES block port)\s*(.+)\s* \(\"(.*)\"\)(\s*mode\s*([0-9]+))?.*
! Touchstone port assignment:
! Touchstone port 1 = CST DES external port 1 ("")
# GHz S MA R 50
9                    0.916430901      -87.697677
9.001                0.916125078     -87.8526384
9.002                0.915818757     -88.0080278
9.003                0.915511942     -88.1638467
9.004                0.915204634     -88.3200967
9.005                0.914896834      -88.476779
9.006                0.914588545     -88.6338954
9.007                0.914279769     -88.7914472
9.008                0.913970507     -88.9494359
9.009                0.913660761     -89.1078631
9.01                 0.913350535     -89.2667303
9.011                0.913039828     -89.4260389
9.012                0.912728645     -89.5857905
9.013                0.912416986     -89.7459866
9.014                0.912104854     -89.9066286
9.015                0.911792251     -90.0677182
9.016                0.911479179     -90.2292569
9.017                 0.91116564     -90.3912461
9.018                0.910851637     -90.5536873
9.019                0.910537172     -90.7165822
9.02                 0.910222247     -90.8799322
9.021                0.909906864     -91.0437389
9.022                0.909591026     -91.2080038
9.023                0.909274735     -91.3727284
9.024                0.908957994     -91.5379143
9.025                0.908640805      -91.703563
9.026                 0.90832317      -91.869676
9.027                0.908005092     -92.0362549
9.028                0.907686574     -92.2033013
9.029                0.907367618     -92.3708166
9.03                 0.907048226     -92.5388024
9.031                0.906728402     -92.7072604
9.032                0.906408148     -92.8761919
9.033                0.906087466     -93.0455986
9.034                 0.90576636     -93.2154821
9.035                0.905444833     -93.3858438
9.036                0.905122886     -93.5566854
9.037                0.904800523     -93.7280083
9.038                0.904477747     -93.8998142
9.039                 0.90415456     -94.0721046
9.04                 0.903830967     -94.2448811
9.041                0.903506969     -94.4181452
9.042                 0.90318257     -94.5918984
9.043                0.902857772     -94.7661425
9.044                 0.90253258     -94.9408788
9.045                0.902206995      -95.116109
9.046                0.901881022     -95.2918346
9.047                0.901554664     -95.4680573
9.048                0.901227923     -95.6447785
9.049                0.900900803     -95.8219998
9.05                 0.900573308     -95.9997228
9.051                0.900245441     -96.1779491
9.052                0.899917206     -96.3566802
9.053                0.899588605     -96.5359177
9.054                0.899259643     -96.7156631
9.055                0.898930322      -96.895918
9.056                0.898600648      -97.076684
9.057                0.898270623     -97.2579626
9.058                0.897940251     -97.4397554
9.059                0.897609535     -97.6220639
9.06                 0.897278481     -97.8048898
9.061                0.896947091     -97.9882346
9.062                 0.89661537     -98.1720997
9.063                0.896283321     -98.3564869
9.064                0.895950948     -98.5413976
9.065                0.895618256     -98.7268334
9.066                0.895285249     -98.9127958
9.067                0.894951931     -99.0992864
9.068                0.894618305     -99.2863068
9.069                0.894284378     -99.4738585
9.07                 0.893950151      -99.661943
9.071                0.893615631     -99.8505619
9.072                0.893280821     -100.039717
9.073                0.892945727     -100.229409
9.074                0.892610352      -100.41964
9.075                0.892274701     -100.610412
9.076                0.891938778     -100.801726
9.077                 0.89160259     -100.993583
9.078                0.891266139     -101.185986
9.079                0.890929432     -101.378935
9.08                 0.890592472     -101.572432
9.081                0.890255266      -101.76648
9.082                0.889917817     -101.961078
9.083                0.889580132     -102.156229
9.084                0.889242214     -102.351934
9.085                 0.88890407     -102.548195
9.086                0.888565705     -102.745013
9.087                0.888227123     -102.942389
9.088                 0.88788833     -103.140326
9.089                0.887549332     -103.338825
9.09                 0.887210134     -103.537886
9.091                0.886870742     -103.737513
9.092                0.886531161     -103.937705
9.093                0.886191398     -104.138465
9.094                0.885851456     -104.339794
9.095                0.885511344     -104.541694
9.096                0.885171066     -104.744165
9.097                0.884830628      -104.94721
9.098                0.884490037     -105.150829
9.099                0.884149298     -105.355025
9.1                  0.883808417     -105.559798
9.101                0.883467402     -105.765151
9.102                0.883126258     -105.971084
9.103                0.882784991     -106.177599
9.104                0.882443608     -106.384697
9.105                0.882102115      -106.59238
9.106                 0.88176052     -106.800649
9.107                0.881418828     -107.009505
9.108                0.881077047      -107.21895
9.109                0.880735182     -107.428986
9.11                 0.880393242     -107.639613
9.111                0.880051233     -107.850833
9.112                0.879709162     -108.062647
9.113                0.879367035     -108.275056
9.114                0.879024861     -108.488063
9.115                0.878682646     -108.701668
9.116                0.878340398     -108.915872
9.117                0.877998125     -109.130677
9.118                0.877655833     -109.346084
9.119                0.877313529     -109.562094
9.12                 0.876971223     -109.778709
9.121                0.876628921      -109.99593
9.122                0.876286632     -110.213758
9.123                0.875944362     -110.432194
9.124                0.875602121      -110.65124
9.125                0.875259916     -110.870897
9.126                0.874917754     -111.091165
9.127                0.874575646     -111.312047
9.128                0.874233597     -111.533543
9.129                0.873891618     -111.755655
9.13                 0.873549716     -111.978383
9.131                  0.8732079      -112.20173
9.132                0.872866178     -112.425695
9.133                0.872524559      -112.65028
9.134                0.872183053     -112.875486
9.135                0.871841667     -113.101315
9.136                 0.87150041     -113.327767
9.137                0.871159292     -113.554843
9.138                0.870818322     -113.782545
9.139                0.870477509     -114.010874
9.14                 0.870136862      -114.23983
9.141                 0.86979639     -114.469414
9.142                0.869456103     -114.699628
9.143                0.869116011     -114.930472
9.144                0.868776123     -115.161948
9.145                0.868436448     -115.394057
9.146                0.868096997     -115.626798
9.147                0.867757779     -115.860174
9.148                0.867418805     -116.094185
9.149                0.867080083     -116.328832
9.15                 0.866741626     -116.564116
9.151                0.866403442     -116.800038
9.152                0.866065542     -117.036599
9.153                0.865727936     -117.273799
9.154                0.865390635     -117.511639
9.155                0.865053649      -117.75012
9.156                0.864716989     -117.989242
9.157                0.864380666     -118.229008
9.158                0.864044691     -118.469416
9.159                0.863709074     -118.710469
9.16                 0.863373827     -118.952166
9.161                 0.86303896     -119.194508
9.162                0.862704485     -119.437496
9.163                0.862370412     -119.681131
9.164                0.862036755     -119.925413
9.165                0.861703522     -120.170343
9.166                0.861370728     -120.415921
9.167                0.861038382     -120.662147
9.168                0.860706496     -120.909024
9.169                0.860375084     -121.156549
9.17                 0.860044155     -121.404726
9.171                0.859713722     -121.653553
9.172                0.859383798     -121.903031
9.173                0.859054395     -122.153161
9.174                0.858725523     -122.403943
9.175                0.858397197     -122.655377
9.176                0.858069428     -122.907464
9.177                0.857742229     -123.160205
9.178                0.857415613     -123.413598
9.179                0.857089591     -123.667645
9.18                 0.856764177     -123.922346
9.181                0.856439383       -124.1777
9.182                0.856115223     -124.433709
9.183                 0.85579171     -124.690373
9.184                0.855468856      -124.94769
9.185                0.855146674     -125.205663
9.186                0.854825179      -125.46429
9.187                0.854504383     -125.723572
9.188                0.854184299     -125.983509
9.189                0.853864941       -126.2441
9.19                 0.853546323     -126.505346
9.191                0.853228458     -126.767247
9.192                 0.85291136     -127.029803
9.193                0.852595043     -127.293013
9.194                 0.85227952     -127.556877
9.195                0.851964806     -127.821396
9.196                0.851650914     -128.086568
9.197                0.851337859     -128.352395
9.198                0.851025655     -128.618874
9.199                0.850714315     -128.886007
9.2                  0.850403855     -129.153793
9.201                0.850094289     -129.422232
9.202                0.849785631     -129.691322
9.203                0.849477895     -129.961064
9.204                0.849171097     -130.231458
9.205                 0.84886525     -130.502502
9.206                0.848560371     -130.774197
9.207                0.848256472     -131.046541
9.208                 0.84795357     -131.319534
9.209                0.847651679     -131.593176
9.21                 0.847350813     -131.867466
9.211                0.847050989     -132.142403
9.212                0.846752222     -132.417987
9.213                0.846454525     -132.694216
9.214                0.846157916      -132.97109
9.215                0.845862408     -133.248608
9.216                0.845568017      -133.52677
9.217                0.845274758     -133.805574
9.218                0.844982648     -134.085019
9.219                0.844691701     -134.365105
9.22                 0.844401933      -134.64583
9.221                 0.84411336     -134.927194
9.222                0.843825996     -135.209195
9.223                0.843539858     -135.491832
9.224                0.843254962     -135.775104
9.225                0.842971323     -136.059011
9.226                0.842688957      -136.34355
9.227                 0.84240788      -136.62872
9.228                0.842128107     -136.914521
9.229                0.841849655      -137.20095
9.23                  0.84157254     -137.488007
9.231                0.841296777      -137.77569
9.232                0.841022382     -138.063997
9.233                0.840749372     -138.352928
9.234                0.840477762      -138.64248
9.235                0.840207568     -138.932651
9.236                0.839938807     -139.223441
9.237                0.839671495     -139.514848
9.238                0.839405647      -139.80687
9.239                0.839141281     -140.099505
9.24                 0.838878411     -140.392751
9.241                0.838617055     -140.686607
9.242                0.838357228     -140.981071
9.243                0.838098947      -141.27614
9.244                0.837842227     -141.571814
9.245                0.837587085     -141.868089
9.246                0.837333538     -142.164964
9.247                  0.8370816     -142.462438
9.248                0.836831289     -142.760506
9.249                0.836582621     -143.059169
9.25                 0.836335611     -143.358422
9.251                0.836090276     -143.658265
9.252                0.835846633     -143.958695
9.253                0.835604696     -144.259709
9.254                0.835364483     -144.561305
9.255                0.835126009     -144.863481
9.256                0.834889291     -145.166234
9.257                0.834654344     -145.469562
9.258                0.834421184     -145.773462
9.259                0.834189828     -146.077931
9.26                 0.833960292     -146.382968
9.261                 0.83373259     -146.688569
9.262                 0.83350674     -146.994731
9.263                0.833282757     -147.301453
9.264                0.833060657      -147.60873
9.265                0.832840455      -147.91656
9.266                0.832622167     -148.224941
9.267                0.832405809     -148.533869
9.268                0.832191397     -148.843341
9.269                0.831978946     -149.153355
9.27                 0.831768471     -149.463907
9.271                0.831559988     -149.774994
9.272                0.831353512     -150.086612
9.273                0.831149059      -150.39876
9.274                0.830946643     -150.711433
9.275                 0.83074628     -151.024628
9.276                0.830547985     -151.338342
9.277                0.830351773     -151.652572
9.278                0.830157659     -151.967313
9.279                0.829965657     -152.282563
9.28                 0.829775782     -152.598318
9.281                 0.82958805     -152.914575
9.282                0.829402473      -153.23133
9.283                0.829219068     -153.548578
9.284                0.829037848     -153.866317
9.285                0.828858827     -154.184543
9.286                 0.82868202     -154.503253
9.287                0.828507441     -154.822441
9.288                0.828335103     -155.142104
9.289                 0.82816502     -155.462239
9.29                 0.827997207     -155.782842
9.291                0.827831676     -156.103908
9.292                0.827668441     -156.425433
9.293                0.827507516     -156.747414
9.294                0.827348913     -157.069846
9.295                0.827192645     -157.392725
9.296                0.827038727     -157.716047
9.297                0.826887169     -158.039808
9.298                0.826737986     -158.364003
9.299                0.826591189     -158.688628
9.3                   0.82644679     -159.013678
9.301                0.826304803      -159.33915
9.302                0.826165239     -159.665039
9.303                 0.82602811      -159.99134
9.304                0.825893428     -160.318048
9.305                0.825761204      -160.64516
9.306                 0.82563145      -160.97267
9.307                0.825504177     -161.300575
9.308                0.825379396     -161.628868
9.309                0.825257118     -161.957546
9.31                 0.825137354     -162.286604
9.311                0.825020115     -162.616037
9.312                 0.82490541      -162.94584
9.313                0.824793251     -163.276008
9.314                0.824683646     -163.606537
9.315                0.824576606      -163.93742
9.316                0.824472141     -164.268655
9.317                 0.82437026     -164.600234
9.318                0.824270972     -164.932154
9.319                0.824174287     -165.264409
9.32                 0.824080213     -165.596994
9.321                0.823988759     -165.929904
9.322                0.823899933     -166.263134
9.323                0.823813744     -166.596678
9.324                  0.8237302     -166.930532
9.325                0.823649309      -167.26469
9.326                0.823571077     -167.599146
9.327                0.823495514     -167.933895
9.328                0.823422625     -168.268933
9.329                0.823352418     -168.604253
9.33                   0.8232849      -168.93985
9.331                0.823220077     -169.275718
9.332                0.823157956     -169.611853
9.333                0.823098542     -169.948248
9.334                0.823041842     -170.284898
9.335                0.822987861     -170.621798
9.336                0.822936604     -170.958941
9.337                0.822888077     -171.296323
9.338                0.822842285     -171.633937
9.339                0.822799232     -171.971777
9.34                 0.822758923     -172.309839
9.341                0.822721362     -172.648117
9.342                0.822686553     -172.986604
9.343                  0.8226545     -173.325294
9.344                0.822625206     -173.664183
9.345                0.822598674     -174.003264
9.346                0.822574908     -174.342531
9.347                 0.82255391     -174.681979
9.348                0.822535683     -175.021602
9.349                0.822520229     -175.361393
9.35                  0.82250755     -175.701347
9.351                0.822497647     -176.041457
9.352                0.822490523     -176.381719
9.353                0.822486179     -176.722125
9.354                0.822484614     -177.062671
9.355                0.822485831     -177.403349
9.356                 0.82248983     -177.744154
9.357                 0.82249661     -178.085081
9.358                0.822506172     -178.426122
9.359                0.822518516     -178.767271
9.36                 0.822533641     -179.108524
9.361                0.822551545     -179.449873
9.362                0.822572229     -179.791312
9.363                0.822595691      179.867164
9.364                0.822621928      179.525561
9.365                 0.82265094      179.183887
9.366                0.822682724      178.842146
9.367                0.822717278      178.500346
9.368                0.822754599      178.158492
9.369                0.822794684       177.81659
9.37                 0.822837531      177.474646
9.371                0.822883135      177.132667
9.372                0.822931492      176.790659
9.373                  0.8229826      176.448628
9.374                0.823036454      176.106581
9.375                 0.82309305      175.764522
9.376                0.823152382      175.422459
9.377                0.823214445      175.080397
9.378                0.823279235      174.738344
9.379                0.823346747      174.396304
9.38                 0.823416973      174.054284
9.381                0.823489909      173.712291
9.382                0.823565549       173.37033
9.383                0.823643884      173.028408
9.384                 0.82372491       172.68653
9.385                0.823808619      172.344704
9.386                0.823895003      172.002934
9.387                0.823984056      171.661228
9.388                0.824075769       171.31959
9.389                0.824170134      170.978028
9.39                 0.824267144      170.636548
9.391                 0.82436679      170.295155
9.392                0.824469064      169.953856
9.393                0.824573955      169.612657
9.394                0.824681455      169.271563
9.395                0.824791556      168.930581
9.396                0.824904246      168.589718
