! TOUCHSTONE file generated by CST DESIGN STUDIO
! Date and time: Tue Feb  4 16:28:45 2025
! Project name: C:\Work\MatlabApps\UnitCellOptimizationMatlab\CST\unitcell.cst
! Tree item: Tasks\Sweep1\SPara1\S-Parameters
! Header version: 2024
! Port assignment regex: !\s*Touchstone port\s*([0-9]+)\s*=\s*(CST MWS port|CST DES external port|CST DES block port)\s*(.+)\s* \(\"(.*)\"\)(\s*mode\s*([0-9]+))?.*
! Touchstone port assignment:
! Touchstone port 1 = CST DES external port 1 ("")
# GHz S MA R 50
9                     0.96479087     -48.1446357
9.001                0.964715216     -48.2041793
9.002                0.964639468     -48.2638458
9.003                0.964563627     -48.3236357
9.004                0.964487692     -48.3835495
9.005                0.964411662     -48.4435875
9.006                0.964335538     -48.5037501
9.007                0.964259318     -48.5640379
9.008                0.964183002     -48.6244511
9.009                0.964106591     -48.6849903
9.01                 0.964030082     -48.7456558
9.011                0.963953477     -48.8064481
9.012                0.963876774     -48.8673677
9.013                0.963799973     -48.9284149
9.014                0.963723073     -48.9895901
9.015                0.963646075     -49.0508939
9.016                0.963568977     -49.1123266
9.017                0.963491779     -49.1738887
9.018                0.963414481     -49.2355806
9.019                0.963337083     -49.2974028
9.02                 0.963259582     -49.3593557
9.021                0.963181981     -49.4214398
9.022                0.963104276     -49.4836555
9.023                0.963026469     -49.5460032
9.024                0.962948559     -49.6084834
9.025                0.962870545     -49.6710965
9.026                0.962792426     -49.7338431
9.027                0.962714203     -49.7967235
9.028                0.962635874     -49.8597382
9.029                0.962557439     -49.9228877
9.03                 0.962478898     -49.9861724
9.031                 0.96240025     -50.0495928
9.032                0.962321494     -50.1131494
9.033                 0.96224263     -50.1768425
9.034                0.962163658     -50.2406728
9.035                0.962084576     -50.3046405
9.036                0.962005385     -50.3687463
9.037                0.961926083     -50.4329906
9.038                0.961846671     -50.4973739
9.039                0.961767147     -50.5618966
9.04                 0.961687511     -50.6265592
9.041                0.961607762     -50.6913622
9.042                  0.9615279      -50.756306
9.043                0.961447924     -50.8213913
9.044                0.961367834     -50.8866183
9.045                0.961287628     -50.9519877
9.046                0.961207307     -51.0174999
9.047                 0.96112687     -51.0831553
9.048                0.961046316     -51.1489546
9.049                0.960965644     -51.2148981
9.05                 0.960884855     -51.2809864
9.051                0.960803946       -51.34722
9.052                0.960722918     -51.4135994
9.053                 0.96064177      -51.480125
9.054                0.960560501     -51.5467974
9.055                0.960479111      -51.613617
9.056                0.960397599     -51.6805845
9.057                0.960315964     -51.7477002
9.058                0.960234206     -51.8149647
9.059                0.960152324     -51.8823785
9.06                 0.960070317     -51.9499422
9.061                0.959988184     -52.0176561
9.062                0.959905926      -52.085521
9.063                0.959823541     -52.1535371
9.064                0.959741028     -52.2217052
9.065                0.959658387     -52.2900257
9.066                0.959575617     -52.3584991
9.067                0.959492718      -52.427126
9.068                0.959409688     -52.4959069
9.069                0.959326527     -52.5648423
9.07                 0.959243234     -52.6339327
9.071                0.959159809     -52.7031787
9.072                0.959076251     -52.7725809
9.073                0.958992558     -52.8421397
9.074                0.958908731     -52.9118557
9.075                0.958824768     -52.9817294
9.076                0.958740669     -53.0517614
9.077                0.958656433     -53.1219523
9.078                0.958572059     -53.1923025
9.079                0.958487546     -53.2628127
9.08                 0.958402895     -53.3334833
9.081                0.958318102      -53.404315
9.082                0.958233169     -53.4753083
9.083                0.958148094     -53.5464637
9.084                0.958062877     -53.6177819
9.085                0.957977516     -53.6892633
9.086                0.957892011     -53.7609085
9.087                0.957806361     -53.8327182
9.088                0.957720565     -53.9046928
9.089                0.957634623     -53.9768329
9.09                 0.957548533     -54.0491392
9.091                0.957462295     -54.1216122
9.092                0.957375907     -54.1942524
9.093                 0.95728937     -54.2670605
9.094                0.957202681      -54.340037
9.095                0.957115841     -54.4131825
9.096                0.957028848     -54.4864976
9.097                0.956941702     -54.5599829
9.098                0.956854402      -54.633639
9.099                0.956766946     -54.7074665
9.1                  0.956679334     -54.7814659
9.101                0.956591565     -54.8556378
9.102                0.956503638      -54.929983
9.103                0.956415552     -55.0045018
9.104                0.956327307     -55.0791951
9.105                0.956238901     -55.1540633
9.106                0.956150333     -55.2291071
9.107                0.956061603      -55.304327
9.108                0.955972709     -55.3797238
9.109                0.955883651      -55.455298
9.11                 0.955794428     -55.5310502
9.111                0.955705038      -55.606981
9.112                0.955615482     -55.6830911
9.113                0.955525757     -55.7593811
9.114                0.955435863     -55.8358516
9.115                0.955345799     -55.9125033
9.116                0.955255564     -55.9893367
9.117                0.955165157     -56.0663526
9.118                0.955074576     -56.1435515
9.119                0.954983822     -56.2209341
9.12                 0.954892893      -56.298501
9.121                0.954801788     -56.3762528
9.122                0.954710506     -56.4541903
9.123                0.954619045      -56.532314
9.124                0.954527406     -56.6106246
9.125                0.954435587     -56.6891228
9.126                0.954343586     -56.7678092
9.127                0.954251403     -56.8466845
9.128                0.954159038     -56.9257493
9.129                0.954066488     -57.0050043
9.13                 0.953973752     -57.0844501
9.131                0.953880831     -57.1640874
9.132                0.953787722      -57.243917
9.133                0.953694424     -57.3239393
9.134                0.953600938     -57.4041553
9.135                 0.95350726     -57.4845654
9.136                0.953413391     -57.5651704
9.137                0.953319329      -57.645971
9.138                0.953225073     -57.7269678
9.139                0.953130622     -57.8081616
9.14                 0.953035975      -57.889553
9.141                0.952941131     -57.9711427
9.142                0.952846089     -58.0529315
9.143                0.952750847     -58.1349199
9.144                0.952655405     -58.2171088
9.145                0.952559761     -58.2994987
9.146                0.952463914     -58.3820905
9.147                0.952367863     -58.4648848
9.148                0.952271607     -58.5478823
9.149                0.952175145     -58.6310837
9.15                 0.952078476     -58.7144899
9.151                0.951981597     -58.7981014
9.152                 0.95188451     -58.8819189
9.153                0.951787211     -58.9659433
9.154                  0.9516897     -59.0501753
9.155                0.951591976     -59.1346155
9.156                0.951494037     -59.2192647
9.157                0.951395882     -59.3041236
9.158                0.951297511      -59.389193
9.159                0.951198922     -59.4744736
9.16                 0.951100113     -59.5599662
9.161                0.951001084     -59.6456714
9.162                0.950901833     -59.7315901
9.163                0.950802359      -59.817723
9.164                 0.95070266     -59.9040708
9.165                0.950602737     -59.9906343
9.166                0.950502586     -60.0774143
9.167                0.950402208     -60.1644114
9.168                  0.9503016     -60.2516266
9.169                0.950200762     -60.3390605
9.17                 0.950099692     -60.4267139
9.171                0.949998389     -60.5145876
9.172                0.949896852     -60.6026823
9.173                0.949795079     -60.6909989
9.174                0.949693069     -60.7795381
9.175                0.949590821     -60.8683007
9.176                0.949488334     -60.9572874
9.177                0.949385606     -61.0464992
9.178                0.949282635     -61.1359367
9.179                0.949179422     -61.2256007
9.18                 0.949075963     -61.3154921
9.181                0.948972259     -61.4056117
9.182                0.948868307     -61.4959602
9.183                0.948764106     -61.5865385
9.184                0.948659655     -61.6773474
9.185                0.948554953     -61.7683876
9.186                0.948449998     -61.8596601
9.187                0.948344789     -61.9511655
9.188                0.948239324     -62.0429048
9.189                0.948133603     -62.1348788
9.19                 0.948027623     -62.2270882
9.191                0.947921384      -62.319534
9.192                0.947814883     -62.4122169
9.193                 0.94770812     -62.5051378
9.194                0.947601094     -62.5982976
9.195                0.947493802      -62.691697
9.196                0.947386244     -62.7853369
9.197                0.947278417     -62.8792181
9.198                0.947170321     -62.9733416
9.199                0.947061955     -63.0677081
9.2                  0.946953316     -63.1623186
9.201                0.946844403     -63.2571738
9.202                0.946735215     -63.3522747
9.203                0.946625751     -63.4476221
9.204                0.946516008     -63.5432168
9.205                0.946405987     -63.6390598
9.206                0.946295684      -63.735152
9.207                0.946185099     -63.8314941
9.208                 0.94607423     -63.9280872
9.209                0.945963075      -64.024932
9.21                 0.945851634     -64.1220294
9.211                0.945739905     -64.2193804
9.212                0.945627886     -64.3169859
9.213                0.945515575     -64.4148467
9.214                0.945402972     -64.5129637
9.215                0.945290075     -64.6113379
9.216                0.945176882     -64.7099701
9.217                0.945063391     -64.8088613
9.218                0.944949602     -64.9080124
9.219                0.944835513     -65.0074243
9.22                 0.944721122     -65.1070979
9.221                0.944606428     -65.2070341
9.222                0.944491428     -65.3072339
9.223                0.944376123     -65.4076981
9.224                0.944260509     -65.5084278
9.225                0.944144586     -65.6094239
9.226                0.944028352     -65.7106873
9.227                0.943911806     -65.8122189
9.228                0.943794945     -65.9140197
9.229                0.943677769     -66.0160906
9.23                 0.943560276     -66.1184326
9.231                0.943442463     -66.2210467
9.232                0.943324331     -66.3239338
9.233                0.943205876     -66.4270948
9.234                0.943087098     -66.5305308
9.235                0.942967995     -66.6342427
9.236                0.942848565     -66.7382315
9.237                0.942728807     -66.8424981
9.238                0.942608719     -66.9470435
9.239                  0.9424883     -67.0518688
9.24                 0.942367548     -67.1569749
9.241                0.942246461     -67.2623627
9.242                0.942125037     -67.3680334
9.243                0.942003276     -67.4739878
9.244                0.941881175      -67.580227
9.245                0.941758733     -67.6867519
9.246                0.941635949     -67.7935637
9.247                 0.94151282     -67.9006633
9.248                0.941389345     -68.0080516
9.249                0.941265522     -68.1157298
9.25                  0.94114135     -68.2236989
9.251                0.941016828     -68.3319598
9.252                0.940891952     -68.4405136
9.253                0.940766723     -68.5493614
9.254                0.940641137     -68.6585041
9.255                0.940515195     -68.7679428
9.256                0.940388893     -68.8776785
9.257                 0.94026223     -68.9877124
9.258                0.940135205     -69.0980453
9.259                0.940007815     -69.2086785
9.26                  0.93988006     -69.3196128
9.261                0.939751937     -69.4308495
9.262                0.939623446     -69.5423896
9.263                0.939494583      -69.654234
9.264                0.939365348      -69.766384
9.265                0.939235739     -69.8788405
9.266                0.939105754     -69.9916046
9.267                0.938975392     -70.1046775
9.268                 0.93884465     -70.2180601
9.269                0.938713528     -70.3317537
9.27                 0.938582023     -70.4457592
9.271                0.938450133     -70.5600778
9.272                0.938317858     -70.6747106
9.273                0.938185195     -70.7896586
9.274                0.938052143      -70.904923
9.275                  0.9379187     -71.0205049
9.276                0.937784864     -71.1364054
9.277                0.937650634     -71.2526255
9.278                0.937516007     -71.3691665
9.279                0.937380983     -71.4860295
9.28                 0.937245559     -71.6032154
9.281                0.937109735     -71.7207256
9.282                0.936973507     -71.8385612
9.283                0.936836874     -71.9567231
9.284                0.936699836     -72.0752127
9.285                0.936562389      -72.194031
9.286                0.936424533     -72.3131792
9.287                0.936286265     -72.4326585
9.288                0.936147584     -72.5524699
9.289                0.936008488     -72.6726147
9.29                 0.935868976      -72.793094
9.291                0.935729045      -72.913909
9.292                0.935588694     -73.0350608
9.293                0.935447922     -73.1565506
9.294                0.935306727     -73.2783796
9.295                0.935165106      -73.400549
9.296                0.935023059     -73.5230599
9.297                0.934880583     -73.6459136
9.298                0.934737677     -73.7691111
9.299                0.934594339     -73.8926538
9.3                  0.934450568     -74.0165428
9.301                0.934306361     -74.1407793
9.302                0.934161718     -74.2653645
9.303                0.934016636     -74.3902996
9.304                0.933871113     -74.5155858
9.305                0.933725148     -74.6412244
9.306                 0.93357874     -74.7672165
9.307                0.933431886     -74.8935634
9.308                0.933284585     -75.0202662
9.309                0.933136836     -75.1473263
9.31                 0.932988636     -75.2747449
9.311                0.932839984     -75.4025231
9.312                0.932690878     -75.5306623
9.313                0.932541316     -75.6591636
9.314                0.932391298     -75.7880283
9.315                 0.93224082     -75.9172577
9.316                0.932089882      -76.046853
9.317                0.931938482     -76.1768154
9.318                0.931786618     -76.3071463
9.319                0.931634289     -76.4378469
9.32                 0.931481493     -76.5689183
9.321                0.931328228      -76.700362
9.322                0.931174492     -76.8321792
9.323                0.931020285     -76.9643712
9.324                0.930865604     -77.0969391
9.325                0.930710447     -77.2298844
9.326                0.930554814     -77.3632083
9.327                0.930398702     -77.4969121
9.328                0.930242111      -77.630997
9.329                0.930085037     -77.7654645
9.33                  0.92992748     -77.9003156
9.331                0.929769439     -78.0355519
9.332                 0.92961091     -78.1711746
9.333                0.929451894     -78.3071849
9.334                0.929292388     -78.4435842
9.335                0.929132391     -78.5803738
9.336                0.928971901     -78.7175551
9.337                0.928810917     -78.8551293
9.338                0.928649437     -78.9930977
9.339                0.928487459     -79.1314618
9.34                 0.928324983     -79.2702228
9.341                0.928162006      -79.409382
9.342                0.927998527     -79.5489408
9.343                0.927834545     -79.6889006
9.344                0.927670058     -79.8292626
9.345                0.927505064     -79.9700282
9.346                0.927339563     -80.1111988
9.347                0.927173552     -80.2527757
9.348                 0.92700703     -80.3947603
9.349                0.926839996     -80.5371539
9.35                 0.926672448     -80.6799579
9.351                0.926504385     -80.8231736
9.352                0.926335805     -80.9668024
9.353                0.926166707     -81.1108458
9.354                 0.92599709     -81.2553049
9.355                0.925826952     -81.4001813
9.356                0.925656292     -81.5454763
9.357                0.925485108     -81.6911912
9.358                  0.9253134     -81.8373275
9.359                0.925141165     -81.9838866
9.36                 0.924968402     -82.1308698
9.361                0.924795111     -82.2782785
9.362                 0.92462129     -82.4261141
9.363                0.924446937      -82.574378
9.364                0.924272051     -82.7230716
9.365                0.924096632     -82.8721963
9.366                0.923920677     -83.0217535
9.367                0.923744185     -83.1717446
9.368                0.923567156      -83.322171
9.369                0.923389588     -83.4730342
9.37                  0.92321148     -83.6243355
9.371                0.923032831     -83.7760763
9.372                0.922853639     -83.9282581
9.373                0.922673904     -84.0808822
9.374                0.922493624     -84.2339502
9.375                0.922312798     -84.3874634
9.376                0.922131425     -84.5414232
9.377                0.921949505     -84.6958312
9.378                0.921767035     -84.8506886
9.379                0.921584015     -85.0059969
9.38                 0.921400445     -85.1617576
9.381                0.921216322     -85.3179721
9.382                0.921031646     -85.4746419
9.383                0.920846416     -85.6317683
9.384                0.920660631     -85.7893528
9.385                0.920474291     -85.9473969
9.386                0.920287393     -86.1059019
9.387                0.920099938     -86.2648694
9.388                0.919911925     -86.4243008
9.389                0.919723352     -86.5841975
9.39                 0.919534219      -86.744561
9.391                0.919344525     -86.9053927
9.392                0.919154269     -87.0666942
9.393                0.918963451     -87.2284667
9.394                 0.91877207     -87.3907118
9.395                0.918580124      -87.553431
9.396                0.918387615     -87.7166257
