! TOUCHSTONE file generated by CST DESIGN STUDIO
! Date and time: Tue Feb  4 15:42:59 2025
! Project name: C:\Work\MatlabApps\UnitCellOptimizationMatlab\CST\unitcell.cst
! Tree item: Tasks\Sweep1\SPara1\S-Parameters
! Header version: 2024
! Port assignment regex: !\s*Touchstone port\s*([0-9]+)\s*=\s*(CST MWS port|CST DES external port|CST DES block port)\s*(.+)\s* \(\"(.*)\"\)(\s*mode\s*([0-9]+))?.*
! Touchstone port assignment:
! Touchstone port 1 = CST DES external port 1 ("")
# GHz S MA R 50
9                    0.973150531     -89.5379577
9.001                0.973114846     -89.6975866
9.002                0.973078819     -89.8576597
9.003                0.973042448     -90.0181781
9.004                0.973005732     -90.1791431
9.005                 0.97296867     -90.3405559
9.006                0.972931258     -90.5024176
9.007                0.972893496     -90.6647293
9.008                0.972855382     -90.8274924
9.009                0.972816914     -90.9907079
9.01                  0.97277809      -91.154377
9.011                0.972738909      -91.318501
9.012                0.972699369      -91.483081
9.013                0.972659467     -91.6481181
9.014                0.972619203     -91.8136135
9.015                0.972578575     -91.9795685
9.016                 0.97253758     -92.1459841
9.017                0.972496218     -92.3128616
9.018                0.972454487     -92.4802022
9.019                0.972412384     -92.6480069
9.02                 0.972369908      -92.816277
9.021                0.972327058     -92.9850136
9.022                0.972283832     -93.1542178
9.023                0.972240228      -93.323891
9.024                0.972196245     -93.4940341
9.025                 0.97215188     -93.6646484
9.026                0.972107133      -93.835735
9.027                0.972062001     -94.0072951
9.028                0.972016484     -94.1793298
9.029                0.971970579     -94.3518403
9.03                 0.971924284     -94.5248277
9.031                0.971877599     -94.6982931
9.032                0.971830522     -94.8722378
9.033                0.971783051     -95.0466628
9.034                0.971735184     -95.2215693
9.035                0.971686921     -95.3969585
9.036                0.971638259     -95.5728313
9.037                0.971589197     -95.7491891
9.038                0.971539734     -95.9260329
9.039                0.971489867     -96.1033638
9.04                 0.971439596     -96.2811829
9.041                0.971388919     -96.4594915
9.042                0.971337835     -96.6382905
9.043                0.971286342     -96.8175811
9.044                0.971234438     -96.9973644
9.045                0.971182123     -97.1776416
9.046                0.971129395     -97.3584136
9.047                0.971076252     -97.5396816
9.048                0.971022693     -97.7214468
9.049                0.970968717     -97.9037101
9.05                 0.970914323     -98.0864727
9.051                0.970859508     -98.2697357
9.052                0.970804273     -98.4535001
9.053                0.970748614      -98.637767
9.054                0.970692532     -98.8225374
9.055                0.970636025     -99.0078125
9.056                0.970579091     -99.1935933
9.057                 0.97052173     -99.3798809
9.058                 0.97046394     -99.5666763
9.059                 0.97040572     -99.7539805
9.06                 0.970347068     -99.9417945
9.061                0.970287985      -100.13012
9.062                0.970228467     -100.318956
9.063                0.970168515     -100.508306
9.064                0.970108127      -100.69817
9.065                0.970047302     -100.888549
9.066                 0.96998604     -101.079444
9.067                0.969924338     -101.270856
9.068                0.969862196     -101.462786
9.069                0.969799613     -101.655235
9.07                 0.969736588     -101.848204
9.071                0.969673119     -102.041694
9.072                0.969609207     -102.235706
9.073                 0.96954485     -102.430241
9.074                0.969480046     -102.625299
9.075                0.969414796     -102.820883
9.076                0.969349099     -103.016992
9.077                0.969282952     -103.213628
9.078                0.969216357     -103.410791
9.079                0.969149311     -103.608483
9.08                 0.969081815     -103.806705
9.081                0.969013866     -104.005457
9.082                0.968945466      -104.20474
9.083                0.968876612     -104.404555
9.084                0.968807304     -104.604904
9.085                0.968737542     -104.805786
9.086                0.968667325     -105.007203
9.087                0.968596652     -105.209156
9.088                0.968525523     -105.411645
9.089                0.968453937     -105.614672
9.09                 0.968381894     -105.818236
9.091                0.968309392      -106.02234
9.092                0.968236433     -106.226984
9.093                0.968163015     -106.432168
9.094                0.968089137     -106.637894
9.095                  0.9680148     -106.844162
9.096                0.967940004     -107.050973
9.097                0.967864746     -107.258328
9.098                0.967789029     -107.466227
9.099                 0.96771285     -107.674672
9.1                  0.967636211     -107.883662
9.101                 0.96755911       -108.0932
9.102                0.967481548     -108.303285
9.103                0.967403524     -108.513918
9.104                0.967325039       -108.7251
9.105                0.967246092     -108.936832
9.106                0.967166683     -109.149113
9.107                0.967086812     -109.361946
9.108                0.967006479     -109.575331
9.109                0.966925685     -109.789267
9.11                 0.966844429     -110.003757
9.111                0.966762711     -110.218799
9.112                0.966680532     -110.434396
9.113                0.966597892     -110.650548
9.114                0.966514791     -110.867255
9.115                 0.96643123     -111.084518
9.116                0.966347207     -111.302337
9.117                0.966262725     -111.520713
9.118                0.966177783     -111.739647
9.119                0.966092382     -111.959138
9.12                 0.966006522     -112.179188
9.121                0.965920204     -112.399797
9.122                0.965833427     -112.620966
9.123                0.965746194     -112.842694
9.124                0.965658504     -113.064983
9.125                0.965570358     -113.287833
9.126                0.965481756     -113.511243
9.127                  0.9653927     -113.735216
9.128                 0.96530319     -113.959751
9.129                0.965213228     -114.184848
9.13                 0.965122812     -114.410507
9.131                0.965031946      -114.63673
9.132                0.964940629     -114.863517
9.133                0.964848863     -115.090867
9.134                0.964756648     -115.318781
9.135                0.964663986      -115.54726
9.136                0.964570878     -115.776303
9.137                0.964477325     -116.005911
9.138                0.964383328     -116.236085
9.139                0.964288888     -116.466824
9.14                 0.964194007     -116.698128
9.141                0.964098685     -116.929998
9.142                0.964002925     -117.162434
9.143                0.963906728     -117.395436
9.144                0.963810095     -117.629004
9.145                0.963713027     -117.863139
9.146                0.963615527      -118.09784
9.147                0.963517596     -118.333108
9.148                0.963419235     -118.568942
9.149                0.963320446     -118.805343
9.15                 0.963221231     -119.042311
9.151                0.963121592     -119.279845
9.152                0.963021531     -119.517946
9.153                0.962921049     -119.756614
9.154                0.962820148     -119.995848
9.155                0.962718831     -120.235649
9.156                0.962617099     -120.476016
9.157                0.962514955      -120.71695
9.158                  0.9624124      -120.95845
9.159                0.962309437     -121.200515
9.16                 0.962206068     -121.443147
9.161                0.962102296     -121.686345
9.162                0.961998122     -121.930108
9.163                0.961893549     -122.174436
9.164                 0.96178858      -122.41933
9.165                0.961683217     -122.664788
9.166                0.961577463     -122.910811
9.167                0.961471319     -123.157397
9.168                 0.96136479     -123.404548
9.169                0.961257877     -123.652262
9.17                 0.961150584      -123.90054
9.171                0.961042913      -124.14938
9.172                0.960934866     -124.398782
9.173                0.960826448     -124.648746
9.174                0.960717661     -124.899272
9.175                0.960608507     -125.150358
9.176                0.960498991     -125.402005
9.177                0.960389115     -125.654212
9.178                0.960278882     -125.906978
9.179                0.960168296     -126.160302
9.18                  0.96005736     -126.414185
9.181                0.959946077     -126.668625
9.182                0.959834451     -126.923622
9.183                0.959722485     -127.179176
9.184                0.959610183     -127.435284
9.185                0.959497549     -127.691947
9.186                0.959384585     -127.949165
9.187                0.959271296     -128.206935
9.188                0.959157685     -128.465258
9.189                0.959043757     -128.724132
9.19                 0.958929514     -128.983557
9.191                0.958814962     -129.243532
9.192                0.958700104     -129.504056
9.193                0.958584943     -129.765128
9.194                0.958469485     -130.026746
9.195                0.958353733     -130.288911
9.196                0.958237692     -130.551621
9.197                0.958121365     -130.814875
9.198                0.958004758     -131.078671
9.199                0.957887873      -131.34301
9.2                  0.957770717     -131.607889
9.201                0.957653293     -131.873308
9.202                0.957535606     -132.139266
9.203                 0.95741766      -132.40576
9.204                 0.95729946     -132.672791
9.205                0.957181011     -132.940356
9.206                0.957062318     -133.208455
9.207                0.956943385     -133.477086
9.208                0.956824218     -133.746248
9.209                0.956704821     -134.015939
9.21                 0.956585198     -134.286159
9.211                0.956465356     -134.556905
9.212                  0.9563453     -134.828177
9.213                0.956225034     -135.099972
9.214                0.956104563     -135.372289
9.215                0.955983894     -135.645127
9.216                0.955863031     -135.918485
9.217                0.955741979      -136.19236
9.218                0.955620744      -136.46675
9.219                0.955499332     -136.741656
9.22                 0.955377748     -137.017073
9.221                0.955255998     -137.293002
9.222                0.955134087      -137.56944
9.223                 0.95501202     -137.846386
9.224                0.954889805     -138.123837
9.225                0.954767445     -138.401792
9.226                0.954644949     -138.680249
9.227                 0.95452232     -138.959206
9.228                0.954399565     -139.238661
9.229                0.954276691     -139.518612
9.23                 0.954153702     -139.799058
9.231                0.954030606     -140.079996
9.232                0.953907408     -140.361424
9.233                0.953784115      -140.64334
9.234                0.953660732     -140.925743
9.235                0.953537267     -141.208629
9.236                0.953413724     -141.491998
9.237                0.953290112     -141.775846
9.238                0.953166436     -142.060171
9.239                0.953042702     -142.344972
9.24                 0.952918917     -142.630245
9.241                0.952795088     -142.915989
9.242                0.952671222     -143.202201
9.243                0.952547324      -143.48888
9.244                0.952423402     -143.776022
9.245                0.952299462     -144.063625
9.246                0.952175511     -144.351686
9.247                0.952051556     -144.640204
9.248                0.951927604     -144.929175
9.249                0.951803661     -145.218598
9.25                 0.951679735     -145.508469
9.251                0.951555832     -145.798786
9.252                 0.95143196     -146.089546
9.253                0.951308125     -146.380747
9.254                0.951184335     -146.672386
9.255                0.951060597     -146.964461
9.256                0.950936917     -147.256967
9.257                0.950813303     -147.549904
9.258                0.950689762     -147.843267
9.259                0.950566302     -148.137054
9.26                  0.95044293     -148.431262
9.261                0.950319652     -148.725889
9.262                0.950196477     -149.020931
9.263                0.950073411     -149.316385
9.264                0.949950462     -149.612249
9.265                0.949827638     -149.908519
9.266                0.949704946     -150.205192
9.267                0.949582392     -150.502265
9.268                0.949459986     -150.799736
9.269                0.949337734       -151.0976
9.27                 0.949215644     -151.395856
9.271                0.949093723     -151.694499
9.272                0.948971979     -151.993526
9.273                0.948850419     -152.292934
9.274                0.948729052      -152.59272
9.275                0.948607884     -152.892881
9.276                0.948486924     -153.193413
9.277                0.948366178     -153.494312
9.278                0.948245656     -153.795577
9.279                0.948125364     -154.097202
9.28                 0.948005309     -154.399184
9.281                0.947885501     -154.701521
9.282                0.947765946     -155.004208
9.283                0.947646652     -155.307242
9.284                0.947527627      -155.61062
9.285                0.947408879     -155.914338
9.286                0.947290415     -156.218391
9.287                0.947172244     -156.522778
9.288                0.947054372     -156.827493
9.289                0.946936808     -157.132534
9.29                 0.946819559     -157.437896
9.291                0.946702634     -157.743576
9.292                0.946586039     -158.049571
9.293                0.946469783     -158.355875
9.294                0.946353874     -158.662486
9.295                0.946238318     -158.969399
9.296                0.946123125     -159.276611
9.297                0.946008301     -159.584118
9.298                0.945893854     -159.891916
9.299                0.945779793     -160.200001
9.3                  0.945666124     -160.508369
9.301                0.945552856     -160.817016
9.302                0.945439996     -161.125938
9.303                0.945327552     -161.435131
9.304                0.945215531     -161.744591
9.305                0.945103941     -162.054313
9.306                 0.94499279     -162.364295
9.307                0.944882085     -162.674531
9.308                0.944771835     -162.985018
9.309                0.944662045     -163.295751
9.31                 0.944552725     -163.606726
9.311                0.944443881     -163.917939
9.312                0.944335521     -164.229386
9.313                0.944227652     -164.541063
9.314                0.944120283     -164.852965
9.315                 0.94401342     -165.165087
9.316                 0.94390707     -165.477427
9.317                0.943801241     -165.789978
9.318                0.943695941     -166.102738
9.319                0.943591176     -166.415702
9.32                 0.943486955     -166.728864
9.321                0.943383283     -167.042222
9.322                0.943280168      -167.35577
9.323                0.943177618     -167.669504
9.324                 0.94307564      -167.98342
9.325                 0.94297424     -168.297513
9.326                0.942873425     -168.611779
9.327                0.942773204     -168.926213
9.328                0.942673581     -169.240811
9.329                0.942574565     -169.555568
9.33                 0.942476163      -169.87048
9.331                 0.94237838     -170.185542
9.332                0.942281224     -170.500749
9.333                0.942184702     -170.816098
9.334                 0.94208882     -171.131583
9.335                0.941993585       -171.4472
9.336                0.941899003     -171.762944
9.337                0.941805081     -172.078811
9.338                0.941711825     -172.394796
9.339                0.941619241     -172.710895
9.34                 0.941527337     -173.027102
9.341                0.941436118     -173.343414
9.342                0.941345591     -173.659825
9.343                0.941255761      -173.97633
9.344                0.941166634     -174.292926
9.345                0.941078218     -174.609608
9.346                0.940990517      -174.92637
9.347                0.940903538     -175.243208
9.348                0.940817287     -175.560118
9.349                0.940731769     -175.877094
9.35                  0.94064699     -176.194132
9.351                0.940562955     -176.511227
9.352                0.940479671     -176.828375
9.353                0.940397142      -177.14557
9.354                0.940315375     -177.462809
9.355                0.940234374     -177.780086
9.356                0.940154146     -178.097396
9.357                0.940074694     -178.414735
9.358                0.939996025     -178.732098
9.359                0.939918142      -179.04948
9.36                 0.939841053     -179.366877
9.361                 0.93976476     -179.684284
9.362                 0.93968927      179.998305
9.363                0.939614587      179.680893
9.364                0.939540715      179.363485
9.365                 0.93946766      179.046087
9.366                0.939395426      178.728703
9.367                0.939324017      178.411338
9.368                0.939253437      178.093996
9.369                0.939183692      177.776683
9.37                 0.939114785      177.459402
9.371                 0.93904672      177.142159
9.372                0.938979502      176.824959
9.373                0.938913134      176.507806
9.374                0.938847621      176.190705
9.375                0.938782965      175.873661
9.376                0.938719172      175.556678
9.377                0.938656245      175.239761
9.378                0.938594186      174.922915
9.379                   0.938533      174.606144
9.38                  0.93847269      174.289454
9.381                 0.93841326      173.972849
9.382                0.938354712      173.656333
9.383                 0.93829705      173.339911
9.384                0.938240276      173.023589
9.385                0.938184394       172.70737
9.386                0.938129407      172.391259
9.387                0.938075317      172.075261
9.388                0.938022128       171.75938
9.389                0.937969841      171.443622
9.39                 0.937918459       171.12799
9.391                0.937867985       170.81249
9.392                0.937818421      170.497125
9.393                0.937769769      170.181901
9.394                0.937722031      169.866822
9.395                 0.93767521      169.551893
9.396                0.937629308      169.237117
