! TOUCHSTONE file generated by CST DESIGN STUDIO
! Date and time: Tue Feb  4 15:43:14 2025
! Project name: C:\Work\MatlabApps\UnitCellOptimizationMatlab\CST\unitcell.cst
! Tree item: Tasks\Sweep1\SPara1\S-Parameters
! Header version: 2024
! Port assignment regex: !\s*Touchstone port\s*([0-9]+)\s*=\s*(CST MWS port|CST DES external port|CST DES block port)\s*(.+)\s* \(\"(.*)\"\)(\s*mode\s*([0-9]+))?.*
! Touchstone port assignment:
! Touchstone port 1 = CST DES external port 1 ("")
# GHz S MA R 50
9                    0.982689135     -64.6502057
9.001                0.982658221     -64.7464816
9.002                0.982627029      -64.842995
9.003                0.982595558     -64.9397467
9.004                0.982563808     -65.0367373
9.005                0.982531777     -65.1339676
9.006                0.982499465     -65.2314384
9.007                 0.98246687     -65.3291504
9.008                0.982433991     -65.4271044
9.009                0.982400828      -65.525301
9.01                  0.98236738     -65.6237411
9.011                0.982333645     -65.7224254
9.012                0.982299622     -65.8213547
9.013                0.982265311     -65.9205297
9.014                0.982230711     -66.0199512
9.015                0.982195819     -66.1196199
9.016                0.982160637     -66.2195367
9.017                0.982125161     -66.3197022
9.018                0.982089393     -66.4201173
9.019                0.982053329     -66.5207827
9.02                  0.98201697     -66.6216993
9.021                0.981980315     -66.7228677
9.022                0.981943361     -66.8242888
9.023                 0.98190611     -66.9259634
9.024                0.981868558     -67.0278922
9.025                0.981830707     -67.1300761
9.026                0.981792553     -67.2325158
9.027                0.981754097     -67.3352121
9.028                0.981715337     -67.4381659
9.029                0.981676273     -67.5413778
9.03                 0.981636903     -67.6448488
9.031                0.981597226     -67.7485797
9.032                0.981557241     -67.8525712
9.033                0.981516948     -67.9568241
9.034                0.981476345     -68.0613393
9.035                0.981435432     -68.1661176
9.036                0.981394207     -68.2711598
9.037                0.981352669     -68.3764667
9.038                0.981310817     -68.4820392
9.039                 0.98126865      -68.587878
9.04                 0.981226168     -68.6939841
9.041                0.981183369     -68.8003581
9.042                0.981140252     -68.9070011
9.043                0.981096816     -69.0139137
9.044                0.981053061     -69.1210969
9.045                0.981008984     -69.2285515
9.046                0.980964586     -69.3362783
9.047                0.980919865     -69.4442782
9.048                 0.98087482     -69.5525521
9.049                 0.98082945     -69.6611007
9.05                 0.980783754     -69.7699249
9.051                0.980737731     -69.8790257
9.052                 0.98069138     -69.9884038
9.053                0.980644701     -70.0980601
9.054                0.980597691     -70.2079955
9.055                 0.98055035     -70.3182108
9.056                0.980502677      -70.428707
9.057                0.980454672     -70.5394849
9.058                0.980406332     -70.6505453
9.059                0.980357657     -70.7618892
9.06                 0.980308646     -70.8735175
9.061                0.980259298     -70.9854309
9.062                0.980209612     -71.0976305
9.063                0.980159587      -71.210117
9.064                0.980109222     -71.3228915
9.065                0.980058515     -71.4359547
9.066                0.980007467     -71.5493076
9.067                0.979956075     -71.6629511
9.068                 0.97990434     -71.7768861
9.069                0.979852259     -71.8911134
9.07                 0.979799832      -72.005634
9.071                0.979747058     -72.1204489
9.072                0.979693936     -72.2355589
9.073                0.979640464     -72.3509648
9.074                0.979586643     -72.4666678
9.075                 0.97953247     -72.5826686
9.076                0.979477945     -72.6989682
9.077                0.979423067     -72.8155676
9.078                0.979367835     -72.9324676
9.079                0.979312248     -73.0496691
9.08                 0.979256305     -73.1671732
9.081                0.979200005     -73.2849808
9.082                0.979143346     -73.4030927
9.083                0.979086328     -73.5215099
9.084                0.979028951     -73.6402335
9.085                0.978971212     -73.7592643
9.086                0.978913111     -73.8786032
9.087                0.978854647     -73.9982513
9.088                 0.97879582     -74.1182094
9.089                0.978736627     -74.2384786
9.09                 0.978677068     -74.3590598
9.091                0.978617142     -74.4799539
9.092                0.978556849      -74.601162
9.093                0.978496186      -74.722685
9.094                0.978435154     -74.8445238
9.095                0.978373751     -74.9666795
9.096                0.978311976      -75.089153
9.097                0.978249828     -75.2119452
9.098                0.978187307     -75.3350573
9.099                 0.97812441     -75.4584901
9.1                  0.978061139     -75.5822446
9.101                0.977997491     -75.7063218
9.102                0.977933465     -75.8307228
9.103                0.977869061     -75.9554485
9.104                0.977804277     -76.0804999
9.105                0.977739113     -76.2058779
9.106                0.977673568     -76.3315837
9.107                 0.97760764     -76.4576182
9.108                 0.97754133     -76.5839824
9.109                0.977474635     -76.7106773
9.11                 0.977407555     -76.8377039
9.111                 0.97734009     -76.9650633
9.112                0.977272237     -77.0927564
9.113                0.977203997     -77.2207843
9.114                0.977135368      -77.349148
9.115                 0.97706635     -77.4778484
9.116                0.976996941     -77.6068868
9.117                0.976927141     -77.7362639
9.118                0.976856948      -77.865981
9.119                0.976786362      -77.996039
9.12                 0.976715383      -78.126439
9.121                0.976644008     -78.2571819
9.122                0.976572237     -78.3882689
9.123                 0.97650007     -78.5197009
9.124                0.976427505      -78.651479
9.125                0.976354542     -78.7836043
9.126                 0.97628118     -78.9160779
9.127                0.976207417     -79.0489006
9.128                0.976133254     -79.1820737
9.129                0.976058688     -79.3155981
9.13                  0.97598372     -79.4494749
9.131                0.975908348     -79.5837052
9.132                0.975832572     -79.7182901
9.133                0.975756391     -79.8532305
9.134                0.975679804     -79.9885276
9.135                 0.97560281     -80.1241824
9.136                0.975525408      -80.260196
9.137                0.975447598     -80.3965695
9.138                0.975369379     -80.5333039
9.139                 0.97529075     -80.6704003
9.14                  0.97521171     -80.8078598
9.141                0.975132258     -80.9456835
9.142                0.975052394     -81.0838724
9.143                0.974972117     -81.2224277
9.144                0.974891426     -81.3613504
9.145                 0.97481032     -81.5006415
9.146                0.974728799     -81.6403023
9.147                0.974646862     -81.7803337
9.148                0.974564508     -81.9207369
9.149                0.974481736      -82.061513
9.15                 0.974398547      -82.202663
9.151                0.974314938     -82.3441881
9.152                0.974230909     -82.4860893
9.153                 0.97414646     -82.6283678
9.154                 0.97406159     -82.7710247
9.155                0.973976298      -82.914061
9.156                0.973890584     -83.0574779
9.157                0.973804446     -83.2012764
9.158                0.973717885     -83.3454577
9.159                  0.9736309      -83.490023
9.16                 0.973543489     -83.6349732
9.161                0.973455653     -83.7803096
9.162                 0.97336739     -83.9260331
9.163                  0.9732787     -84.0721451
9.164                0.973189583     -84.2186465
9.165                0.973100038     -84.3655385
9.166                0.973010064     -84.5128222
9.167                0.972919661     -84.6604987
9.168                0.972828828     -84.8085691
9.169                0.972737564     -84.9570347
9.17                  0.97264587     -85.1058964
9.171                0.972553744     -85.2551555
9.172                0.972461187      -85.404813
9.173                0.972368196     -85.5548701
9.174                0.972274773     -85.7053279
9.175                0.972180916     -85.8561876
9.176                0.972086625     -86.0074502
9.177                  0.9719919     -86.1591169
9.178                 0.97189674     -86.3111889
9.179                0.971801144     -86.4636673
9.18                 0.971705113     -86.6165531
9.181                0.971608646     -86.7698476
9.182                0.971511741     -86.9235519
9.183                  0.9714144     -87.0776671
9.184                0.971316622     -87.2321944
9.185                0.971218405     -87.3871348
9.186                0.971119751     -87.5424896
9.187                0.971020658     -87.6982599
9.188                0.970921126     -87.8544468
9.189                0.970821155     -88.0110515
9.19                 0.970720744      -88.168075
9.191                0.970619894     -88.3255186
9.192                0.970518604     -88.4833834
9.193                0.970416873     -88.6416705
9.194                0.970314702     -88.8003811
9.195                 0.97021209     -88.9595163
9.196                0.970109037     -89.1190772
9.197                0.970005543     -89.2790651
9.198                0.969901608      -89.439481
9.199                0.969797231     -89.6003261
9.2                  0.969692412     -89.7616015
9.201                0.969587151     -89.9233083
9.202                0.969481448     -90.0854478
9.203                0.969375303     -90.2480211
9.204                0.969268715     -90.4110292
9.205                0.969161686     -90.5744734
9.206                0.969054214     -90.7383547
9.207                0.968946299     -90.9026744
9.208                0.968837942     -91.0674336
9.209                0.968729143     -91.2326333
9.21                 0.968619901     -91.3982748
9.211                0.968510216     -91.5643592
9.212                0.968400089     -91.7308876
9.213                 0.96828952     -91.8978611
9.214                0.968178508      -92.065281
9.215                0.968067054     -92.2331482
9.216                0.967955158     -92.4014641
9.217                 0.96784282     -92.5702296
9.218                 0.96773004     -92.7394459
9.219                0.967616819     -92.9091142
9.22                 0.967503156     -93.0792356
9.221                0.967389052     -93.2498113
9.222                0.967274507     -93.4208422
9.223                0.967159521     -93.5923296
9.224                0.967044094     -93.7642746
9.225                0.966928227     -93.9366784
9.226                0.966811921     -94.1095419
9.227                0.966695175     -94.2828664
9.228                0.966577989      -94.456653
9.229                0.966460365     -94.6309028
9.23                 0.966342303     -94.8056169
9.231                0.966223802     -94.9807963
9.232                0.966104864     -95.1564423
9.233                0.965985489      -95.332556
9.234                0.965865677     -95.5091383
9.235                0.965745429     -95.6861905
9.236                0.965624745     -95.8637136
9.237                0.965503627     -96.0417087
9.238                0.965382074      -96.220177
9.239                0.965260088     -96.3991195
9.24                 0.965137668     -96.5785372
9.241                0.965014816     -96.7584314
9.242                0.964891532      -96.938803
9.243                0.964767817     -97.1196532
9.244                0.964643672      -97.300983
9.245                0.964519097     -97.4827935
9.246                0.964394093     -97.6650858
9.247                0.964268661      -97.847861
9.248                0.964142803       -98.03112
9.249                0.964016518      -98.214864
9.25                 0.963889807      -98.399094
9.251                0.963762673      -98.583811
9.252                0.963635115     -98.7690162
9.253                0.963507134     -98.9547106
9.254                0.963378732     -99.1408952
9.255                 0.96324991      -99.327571
9.256                0.963120668      -99.514739
9.257                0.962991008     -99.7024004
9.258                0.962860931     -99.8905561
9.259                0.962730438     -100.079207
9.26                  0.96259953     -100.268354
9.261                0.962468209     -100.457999
9.262                0.962336475     -100.648142
9.263                 0.96220433     -100.838785
9.264                0.962071776     -101.029928
9.265                0.961938814     -101.221572
9.266                0.961805444     -101.413718
9.267                0.961671669     -101.606368
9.268                 0.96153749     -101.799522
9.269                0.961402908     -101.993182
9.27                 0.961267925     -102.187347
9.271                0.961132543      -102.38202
9.272                0.960996762     -102.577201
9.273                0.960860585     -102.772891
9.274                0.960724014     -102.969091
9.275                0.960587049     -103.165802
9.276                0.960449693     -103.363024
9.277                0.960311947      -103.56076
9.278                0.960173814     -103.759009
9.279                0.960035295     -103.957772
9.28                 0.959896391     -104.157052
9.281                0.959757105     -104.356847
9.282                0.959617439      -104.55716
9.283                0.959477395     -104.757991
9.284                0.959336974     -104.959341
9.285                0.959196179     -105.161211
9.286                0.959055012     -105.363601
9.287                0.958913475     -105.566513
9.288                 0.95877157     -105.769947
9.289                0.958629299     -105.973905
9.29                 0.958486664     -106.178387
9.291                0.958343668     -106.383393
9.292                0.958200314     -106.588925
9.293                0.958056602     -106.794984
9.294                0.957912537      -107.00157
9.295                 0.95776812     -107.208683
9.296                0.957623353     -107.416326
9.297                 0.95747824     -107.624498
9.298                0.957332783       -107.8332
9.299                0.957186984     -108.042434
9.3                  0.957040846     -108.252199
9.301                0.956894371     -108.462496
9.302                0.956747564     -108.673327
9.303                0.956600425     -108.884692
9.304                0.956452958     -109.096591
9.305                0.956305166     -109.309025
9.306                0.956157052     -109.521996
9.307                0.956008619     -109.735503
9.308                0.955859869     -109.949547
9.309                0.955710806     -110.164129
9.31                 0.955561432     -110.379249
9.311                0.955411752     -110.594909
9.312                0.955261767     -110.811108
9.313                0.955111482     -111.027848
9.314                0.954960899     -111.245128
9.315                0.954810022      -111.46295
9.316                0.954658854     -111.681314
9.317                0.954507398      -111.90022
9.318                0.954355659     -112.119669
9.319                0.954203638     -112.339662
9.32                 0.954051341     -112.560199
9.321                 0.95389877     -112.781281
9.322                0.953745929     -113.002907
9.323                0.953592822      -113.22508
9.324                0.953439453     -113.447798
9.325                0.953285824     -113.671062
9.326                0.953131941     -113.894873
9.327                0.952977807     -114.119232
9.328                0.952823425     -114.344138
9.329                  0.9526688     -114.569592
9.33                 0.952513936     -114.795595
9.331                0.952358836     -115.022146
9.332                0.952203506     -115.249247
9.333                0.952047948     -115.476897
9.334                0.951892168     -115.705096
9.335                0.951736169     -115.933846
9.336                0.951579956     -116.163146
9.337                0.951423533     -116.392996
9.338                0.951266905     -116.623397
9.339                0.951110075     -116.854349
9.34                 0.950953049     -117.085853
9.341                0.950795831     -117.317908
9.342                0.950638425     -117.550514
9.343                0.950480836     -117.783672
9.344                 0.95032307     -118.017382
9.345                 0.95016513     -118.251645
9.346                0.950007021     -118.486459
9.347                0.949848749     -118.721826
9.348                0.949690318     -118.957745
9.349                0.949531733     -119.194217
9.35                 0.949372999     -119.431241
9.351                0.949214121     -119.668817
9.352                0.949055104     -119.906946
9.353                0.948895954     -120.145627
9.354                0.948736675     -120.384861
9.355                0.948577273     -120.624648
9.356                0.948417753     -120.864986
9.357                0.948258121     -121.105877
9.358                0.948098382     -121.347321
9.359                 0.94793854     -121.589316
9.36                 0.947778603     -121.831863
9.361                0.947618575     -122.074962
9.362                0.947458462     -122.318612
9.363                 0.94729827     -122.562814
9.364                0.947138004     -122.807566
9.365                 0.94697767      -123.05287
9.366                0.946817274     -123.298724
9.367                0.946656821     -123.545129
9.368                0.946496319     -123.792084
9.369                0.946335772     -124.039588
9.37                 0.946175186     -124.287642
9.371                0.946014568     -124.536244
9.372                0.945853924     -124.785396
9.373                 0.94569326     -125.035095
9.374                0.945532582     -125.285342
9.375                0.945371897     -125.536137
9.376                 0.94521121     -125.787478
9.377                0.945050528     -126.039366
9.378                0.944889858     -126.291799
9.379                0.944729205     -126.544777
9.38                 0.944568577     -126.798301
9.381                 0.94440798     -127.052368
9.382                 0.94424742     -127.306978
9.383                0.944086905     -127.562132
9.384                 0.94392644     -127.817828
9.385                0.943766033     -128.074065
9.386                 0.94360569     -128.330842
9.387                0.943445419      -128.58816
9.388                0.943285225     -128.846017
9.389                0.943125117     -129.104412
9.39                   0.9429651     -129.363346
9.391                0.942805182     -129.622815
9.392                0.942645371     -129.882821
9.393                0.942485672     -130.143362
9.394                0.942326094     -130.404437
9.395                0.942166643     -130.666045
9.396                0.942007327     -130.928186
