! TOUCHSTONE file generated by CST DESIGN STUDIO
! Date and time: Tue Feb  4 18:07:14 2025
! Project name: C:\Work\MatlabApps\UnitCellOptimizationMatlab\CST\unitcell.cst
! Tree item: Tasks\Sweep1\SPara1\S-Parameters
! Header version: 2024
! Port assignment regex: !\s*Touchstone port\s*([0-9]+)\s*=\s*(CST MWS port|CST DES external port|CST DES block port)\s*(.+)\s* \(\"(.*)\"\)(\s*mode\s*([0-9]+))?.*
! Touchstone port assignment:
! Touchstone port 1 = CST DES external port 1 ("")
# GHz S MA R 50
9                    0.975727803     -72.7027772
9.001                0.975670081     -72.8111779
9.002                0.975612182     -72.9198446
9.003                0.975554108     -73.0287782
9.004                0.975495857     -73.1379795
9.005                0.975437429     -73.2474494
9.006                0.975378823     -73.3571885
9.007                 0.97532004     -73.4671978
9.008                0.975261078     -73.5774781
9.009                0.975201937     -73.6880302
9.01                 0.975142617     -73.7988549
9.011                0.975083117     -73.9099531
9.012                0.975023437     -74.0213256
9.013                0.974963576     -74.1329732
9.014                0.974903534     -74.2448968
9.015                0.974843311     -74.3570972
9.016                0.974782906     -74.4695753
9.017                0.974722318     -74.5823319
9.018                0.974661548     -74.6953678
9.019                0.974600594     -74.8086839
9.02                 0.974539456      -74.922281
9.021                0.974478135       -75.03616
9.022                0.974416629     -75.1503218
9.023                0.974354938     -75.2647672
9.024                0.974293062     -75.3794971
9.025                0.974230999     -75.4945123
9.026                0.974168751     -75.6098137
9.027                0.974106316     -75.7254022
9.028                0.974043693     -75.8412786
9.029                0.973980884     -75.9574438
9.03                 0.973917886     -76.0738986
9.031                  0.9738547     -76.1906441
9.032                0.973791325     -76.3076809
9.033                0.973727761       -76.42501
9.034                0.973664007     -76.5426323
9.035                0.973600064     -76.6605487
9.036                0.973535929     -76.7787601
9.037                0.973471605     -76.8972672
9.038                0.973407088     -77.0160711
9.039                 0.97334238     -77.1351726
9.04                 0.973277481     -77.2545727
9.041                0.973212388     -77.3742721
9.042                0.973147103     -77.4942718
9.043                0.973081624     -77.6145727
9.044                0.973015952     -77.7351758
9.045                0.972950086     -77.8560818
9.046                0.972884026     -77.9772918
9.047                 0.97281777     -78.0988066
9.048                0.972751319     -78.2206271
9.049                0.972684673     -78.3427542
9.05                 0.972617831     -78.4651889
9.051                0.972550793     -78.5879321
9.052                0.972483557     -78.7109847
9.053                0.972416125     -78.8343475
9.054                0.972348495     -78.9580216
9.055                0.972280667     -79.0820079
9.056                0.972212641     -79.2063072
9.057                0.972144417     -79.3309205
9.058                0.972075993     -79.4558488
9.059                0.972007371     -79.5810929
9.06                 0.971938548     -79.7066538
9.061                0.971869526     -79.8325324
9.062                0.971800303     -79.9587298
9.063                 0.97173088     -80.0852467
9.064                0.971661255     -80.2120841
9.065                0.971591429      -80.339243
9.066                0.971521402     -80.4667244
9.067                0.971451172     -80.5945292
9.068                 0.97138074     -80.7226582
9.069                0.971310105     -80.8511125
9.07                 0.971239268     -80.9798931
9.071                0.971168226     -81.1090008
9.072                0.971096982     -81.2384366
9.073                0.971025533     -81.3682016
9.074                 0.97095388     -81.4982965
9.075                0.970882022     -81.6287225
9.076                 0.97080996     -81.7594804
9.077                0.970737692     -81.8905713
9.078                0.970665219      -82.021996
9.079                 0.97059254     -82.1537556
9.08                 0.970519654     -82.2858509
9.081                0.970446563     -82.4182831
9.082                0.970373265      -82.551053
9.083                 0.97029976     -82.6841617
9.084                0.970226048     -82.8176101
9.085                0.970152129     -82.9513991
9.086                0.970078002     -83.0855298
9.087                0.970003666     -83.2200031
9.088                0.969929123       -83.35482
9.089                0.969854372     -83.4899815
9.09                 0.969779411     -83.6254885
9.091                0.969704242     -83.7613421
9.092                0.969628864     -83.8975433
9.093                0.969553276     -84.0340929
9.094                0.969477479     -84.1709921
9.095                0.969401472     -84.3082418
9.096                0.969325255     -84.4458429
9.097                0.969248828     -84.5837965
9.098                 0.96917219     -84.7221036
9.099                0.969095342     -84.8607652
9.1                  0.969018283     -84.9997822
9.101                0.968941013     -85.1391556
9.102                0.968863532     -85.2788865
9.103                 0.96878584     -85.4189758
9.104                0.968707936     -85.5594246
9.105                0.968629821     -85.7002338
9.106                0.968551494     -85.8414045
9.107                0.968472955     -85.9829375
9.108                0.968394204     -86.1248341
9.109                0.968315241     -86.2670951
9.11                 0.968236065     -86.4097215
9.111                0.968156677     -86.5527144
9.112                0.968077077     -86.6960747
9.113                0.967997264     -86.8398035
9.114                0.967917239     -86.9839018
9.115                   0.967837     -87.1283705
9.116                0.967756549     -87.2732108
9.117                0.967675885     -87.4184235
9.118                0.967595007     -87.5640098
9.119                0.967513917     -87.7099705
9.12                 0.967432613     -87.8563068
9.121                0.967351097     -88.0030197
9.122                0.967269367     -88.1501101
9.123                0.967187423      -88.297579
9.124                0.967105267     -88.4454276
9.125                0.967022897     -88.5936567
9.126                0.966940314     -88.7422674
9.127                0.966857518     -88.8912607
9.128                0.966774508     -89.0406377
9.129                0.966691286     -89.1903993
9.13                  0.96660785     -89.3405466
9.131                  0.9665242     -89.4910806
9.132                0.966440338     -89.6420022
9.133                0.966356263     -89.7933126
9.134                0.966271974     -89.9450126
9.135                0.966187473     -90.0971034
9.136                0.966102758      -90.249586
9.137                0.966017831     -90.4024613
9.138                0.965932692     -90.5557304
9.139                0.965847339     -90.7093942
9.14                 0.965761775     -90.8634539
9.141                0.965675998     -91.0179104
9.142                0.965590008     -91.1727647
9.143                0.965503807     -91.3280179
9.144                0.965417394      -91.483671
9.145                 0.96533077     -91.6397249
9.146                0.965243933     -91.7961807
9.147                0.965156886     -91.9530393
9.148                0.965069627     -92.1103019
9.149                0.964982158     -92.2679694
9.15                 0.964894478     -92.4260428
9.151                0.964806587     -92.5845232
9.152                0.964718486     -92.7434115
9.153                0.964630176     -92.9027087
9.154                0.964541655     -93.0624159
9.155                0.964452926      -93.222534
9.156                0.964363987     -93.3830642
9.157                0.964274839     -93.5440072
9.158                0.964185483     -93.7053642
9.159                0.964095919     -93.8671362
9.16                 0.964006147     -94.0293242
9.161                0.963916168     -94.1919291
9.162                0.963825982      -94.354952
9.163                0.963735589     -94.5183938
9.164                0.963644989     -94.6822556
9.165                0.963554184     -94.8465384
9.166                0.963463173      -95.011243
9.167                0.963371958     -95.1763706
9.168                0.963280537     -95.3419221
9.169                0.963188913     -95.5078984
9.17                 0.963097085     -95.6743007
9.171                0.963005054     -95.8411298
9.172                 0.96291282     -96.0083868
9.173                0.962820384     -96.1760725
9.174                0.962727746     -96.3441881
9.175                0.962634907     -96.5127344
9.176                0.962541868     -96.6817125
9.177                0.962448629     -96.8511232
9.178                 0.96235519     -97.0209677
9.179                0.962261553     -97.1912468
9.18                 0.962167717     -97.3619614
9.181                0.962073684     -97.5331127
9.182                0.961979454     -97.7047014
9.183                0.961885028     -97.8767286
9.184                0.961790406     -98.0491953
9.185                0.961695589     -98.2221023
9.186                0.961600579     -98.3954506
9.187                0.961505374     -98.5692412
9.188                0.961409978     -98.7434749
9.189                0.961314389     -98.9181528
9.19                 0.961218609     -99.0932758
9.191                0.961122639     -99.2688448
9.192                0.961026479     -99.4448607
9.193                 0.96093013     -99.6213244
9.194                0.960833594     -99.7982369
9.195                0.960736871      -99.975599
9.196                0.960639961     -100.153412
9.197                0.960542866     -100.331676
9.198                0.960445587     -100.510393
9.199                0.960348125     -100.689563
9.2                  0.960250479     -100.869187
9.201                0.960152653     -101.049266
9.202                0.960054646     -101.229801
9.203                0.959956459     -101.410793
9.204                0.959858094     -101.592243
9.205                0.959759552     -101.774152
9.206                0.959660833      -101.95652
9.207                0.959561939     -102.139348
9.208                0.959462871     -102.322637
9.209                0.959363629     -102.506389
9.21                 0.959264216     -102.690603
9.211                0.959164631     -102.875282
9.212                0.959064877     -103.060424
9.213                0.958964955     -103.246033
9.214                0.958864866     -103.432107
9.215                 0.95876461     -103.618649
9.216                 0.95866419     -103.805658
9.217                0.958563606     -103.993137
9.218                 0.95846286     -104.181085
9.219                0.958361954     -104.369503
9.22                 0.958260888     -104.558392
9.221                0.958159663     -104.747753
9.222                0.958058282     -104.937587
9.223                0.957956746     -105.127895
9.224                0.957855056     -105.318676
9.225                0.957753213     -105.509933
9.226                0.957651219     -105.701665
9.227                0.957549076     -105.893874
9.228                0.957446785     -106.086561
9.229                0.957344347     -106.279725
9.23                 0.957241764     -106.473368
9.231                0.957139038     -106.667491
9.232                0.957036171     -106.862094
9.233                0.956933163     -107.057177
9.234                0.956830017     -107.252742
9.235                0.956726734      -107.44879
9.236                0.956623316     -107.645321
9.237                0.956519765     -107.842335
9.238                0.956416082     -108.039833
9.239                0.956312269     -108.237817
9.24                 0.956208329     -108.436286
9.241                0.956104262     -108.635242
9.242                 0.95600007     -108.834684
9.243                0.955895756     -109.034614
9.244                0.955791322     -109.235033
9.245                0.955686769      -109.43594
9.246                0.955582099     -109.637336
9.247                0.955477314     -109.839223
9.248                0.955372416       -110.0416
9.249                0.955267408     -110.244468
9.25                 0.955162291     -110.447829
9.251                0.955057067     -110.651681
9.252                0.954951739     -110.856026
9.253                0.954846308     -111.060865
9.254                0.954740776     -111.266198
9.255                0.954635147     -111.472025
9.256                0.954529421     -111.678347
9.257                0.954423602     -111.885164
9.258                0.954317692     -112.092478
9.259                0.954211691     -112.300288
9.26                 0.954105605     -112.508595
9.261                0.953999433     -112.717399
9.262                0.953893179     -112.926701
9.263                0.953786845     -113.136502
9.264                0.953680434     -113.346801
9.265                0.953573948     -113.557599
9.266                0.953467389     -113.768896
9.267                 0.95336076     -113.980694
9.268                0.953254063     -114.192992
9.269                0.953147301      -114.40579
9.27                 0.953040477      -114.61909
9.271                0.952933593      -114.83289
9.272                0.952826651     -115.047193
9.273                0.952719655     -115.261998
9.274                0.952612607     -115.477304
9.275                 0.95250551     -115.693114
9.276                0.952398366     -115.909426
9.277                0.952291178     -116.126242
9.278                 0.95218395     -116.343561
9.279                0.952076683     -116.561383
9.28                 0.951969381      -116.77971
9.281                0.951862046     -116.998541
9.282                0.951754682     -117.217876
9.283                0.951647292     -117.437715
9.284                0.951539877     -117.658059
9.285                0.951432442     -117.878908
9.286                 0.95132499     -118.100262
9.287                0.951217522     -118.322122
9.288                0.951110043     -118.544486
9.289                0.951002556     -118.767356
9.29                 0.950895063     -118.990732
9.291                0.950787568     -119.214612
9.292                0.950680075     -119.438999
9.293                0.950572585     -119.663891
9.294                0.950465103     -119.889289
9.295                0.950357631     -120.115193
9.296                0.950250174     -120.341602
9.297                0.950142733     -120.568517
9.298                0.950035314     -120.795938
9.299                0.949927918     -121.023864
9.3                   0.94982055     -121.252296
9.301                0.949713213     -121.481234
9.302                 0.94960591     -121.710676
9.303                0.949498645     -121.940625
9.304                0.949391422     -122.171078
9.305                0.949284243     -122.402036
9.306                0.949177113     -122.633499
9.307                0.949070035     -122.865467
9.308                0.948963012      -123.09794
9.309                0.948856049     -123.330916
9.31                 0.948749149     -123.564397
9.311                0.948642316     -123.798382
9.312                0.948535553      -124.03287
9.313                0.948428865     -124.267861
9.314                0.948322255     -124.503355
9.315                0.948215726     -124.739352
9.316                0.948109283     -124.975852
9.317                 0.94800293     -125.212853
9.318                0.947896671     -125.450356
9.319                0.947790508      -125.68836
9.32                 0.947684448     -125.926865
9.321                0.947578492      -126.16587
9.322                0.947472646     -126.405375
9.323                0.947366913      -126.64538
9.324                0.947261298     -126.885883
9.325                0.947155805     -127.126886
9.326                0.947050437     -127.368386
9.327                0.946945199     -127.610383
9.328                0.946840094     -127.852877
9.329                0.946735128     -128.095868
9.33                 0.946630305     -128.339354
9.331                0.946525628     -128.583335
9.332                0.946421101     -128.827811
9.333                 0.94631673      -129.07278
9.334                0.946212519     -129.318242
9.335                0.946108471     -129.564197
9.336                0.946004591     -129.810643
9.337                0.945900884      -130.05758
9.338                0.945797353     -130.305007
9.339                0.945694004     -130.552924
9.34                 0.945590841     -130.801329
9.341                0.945487868     -131.050222
9.342                 0.94538509     -131.299601
9.343                0.945282511     -131.549466
9.344                0.945180135     -131.799817
9.345                0.945077968     -132.050651
9.346                0.944976014     -132.301969
9.347                0.944874278     -132.553769
9.348                0.944772763      -132.80605
9.349                0.944671475     -133.058811
9.35                 0.944570419     -133.312052
9.351                0.944469599     -133.565771
9.352                0.944369019     -133.819966
9.353                0.944268685     -134.074638
9.354                0.944168601     -134.329785
9.355                0.944068772     -134.585405
9.356                0.943969203     -134.841498
9.357                0.943869898     -135.098062
9.358                0.943770863     -135.355096
9.359                0.943672101     -135.612599
9.36                 0.943573619      -135.87057
9.361                 0.94347542     -136.129007
9.362                 0.94337751     -136.387909
9.363                0.943279893     -136.647275
9.364                0.943182575     -136.907104
9.365                 0.94308556     -137.167393
9.366                0.942988853     -137.428142
9.367                 0.94289246     -137.689349
9.368                0.942796384     -137.951013
9.369                0.942700631     -138.213132
9.37                 0.942605207     -138.475705
9.371                0.942510115      -138.73873
9.372                0.942415361     -139.002206
9.373                 0.94232095     -139.266131
9.374                0.942226887     -139.530504
9.375                0.942133177     -139.795322
9.376                0.942039825     -140.060585
9.377                0.941946836      -140.32629
9.378                0.941854215     -140.592437
9.379                0.941761967     -140.859022
9.38                 0.941670097     -141.126045
9.381                0.941578611     -141.393504
9.382                0.941487512     -141.661396
9.383                0.941396807     -141.929721
9.384                  0.9413065     -142.198476
9.385                0.941216597      -142.46766
9.386                0.941127102      -142.73727
9.387                 0.94103802     -143.007304
9.388                0.940949358     -143.277762
9.389                0.940861119      -143.54864
9.39                 0.940773309     -143.819936
9.391                0.940685932      -144.09165
9.392                0.940598995     -144.363778
9.393                0.940512502     -144.636319
9.394                0.940426458      -144.90927
9.395                0.940340868      -145.18263
9.396                0.940255737     -145.456396
