! TOUCHSTONE file generated by CST DESIGN STUDIO
! Date and time: Tue Feb  4 18:07:11 2025
! Project name: C:\Work\MatlabApps\UnitCellOptimizationMatlab\CST\unitcell.cst
! Tree item: Tasks\Sweep1\SPara1\S-Parameters
! Header version: 2024
! Port assignment regex: !\s*Touchstone port\s*([0-9]+)\s*=\s*(CST MWS port|CST DES external port|CST DES block port)\s*(.+)\s* \(\"(.*)\"\)(\s*mode\s*([0-9]+))?.*
! Touchstone port assignment:
! Touchstone port 1 = CST DES external port 1 ("")
# GHz S MA R 50
9                    0.975268207     -76.8890629
9.001                0.975206557     -77.0073075
9.002                0.975144724     -77.1258475
9.003                0.975082705     -77.2446839
9.004                0.975020501     -77.3638175
9.005                0.974958111     -77.4832492
9.006                0.974895535     -77.6029799
9.007                0.974832772     -77.7230105
9.008                0.974769823     -77.8433419
9.009                0.974706686      -77.963975
9.01                 0.974643362     -78.0849107
9.011                0.974579849     -78.2061498
9.012                0.974516148     -78.3276933
9.013                0.974452258     -78.4495421
9.014                0.974388178     -78.5716971
9.015                0.974323909     -78.6941592
9.016                 0.97425945     -78.8169294
9.017                  0.9741948     -78.9400084
9.018                0.974129959     -79.0633973
9.019                0.974064928     -79.1870969
9.02                 0.973999704     -79.3111082
9.021                0.973934289     -79.4354321
9.022                0.973868681     -79.5600695
9.023                 0.97380288     -79.6850213
9.024                0.973736887     -79.8102885
9.025                  0.9736707      -79.935872
9.026                0.973604319     -80.0617727
9.027                0.973537744     -80.1879915
9.028                0.973470974     -80.3145294
9.029                 0.97340401     -80.4413873
9.03                  0.97333685     -80.5685662
9.031                0.973269495      -80.696067
9.032                0.973201944     -80.8238905
9.033                0.973134197     -80.9520379
9.034                0.973066253     -81.0805099
9.035                0.972998112     -81.2093076
9.036                0.972929774     -81.3384319
9.037                0.972861238     -81.4678837
9.038                0.972792505      -81.597664
9.039                0.972723573     -81.7277738
9.04                 0.972654442     -81.8582139
9.041                0.972585113     -81.9889854
9.042                0.972515585     -82.1200892
9.043                0.972445857     -82.2515263
9.044                0.972375929     -82.3832976
9.045                0.972305802      -82.515404
9.046                0.972235474     -82.6478467
9.047                0.972164945     -82.7806264
9.048                0.972094216     -82.9137442
9.049                0.972023285      -83.047201
9.05                 0.971952153     -83.1809978
9.051                0.971880819     -83.3151356
9.052                0.971809283     -83.4496154
9.053                0.971737544      -83.584438
9.054                0.971665604     -83.7196046
9.055                 0.97159346      -83.855116
9.056                0.971521113     -83.9909733
9.057                0.971448563     -84.1271773
9.058                 0.97137581     -84.2637292
9.059                0.971302852     -84.4006298
9.06                 0.971229691     -84.5378802
9.061                0.971156326     -84.6754813
9.062                0.971082756     -84.8134342
9.063                0.971008981     -84.9517397
9.064                0.970935002     -85.0903989
9.065                0.970860817     -85.2294128
9.066                0.970786427     -85.3687824
9.067                0.970711832     -85.5085086
9.068                0.970637031     -85.6485925
9.069                0.970562024      -85.789035
9.07                 0.970486811     -85.9298371
9.071                0.970411392     -86.0709998
9.072                0.970335767     -86.2125242
9.073                0.970259935     -86.3544111
9.074                0.970183897     -86.4966616
9.075                0.970107651     -86.6392767
9.076                0.970031199     -86.7822575
9.077                 0.96995454     -86.9256048
9.078                0.969877673     -87.0693197
9.079                  0.9698006     -87.2134031
9.08                 0.969723318     -87.3578562
9.081                0.969645829     -87.5026798
9.082                0.969568133      -87.647875
9.083                0.969490229     -87.7934428
9.084                0.969412117     -87.9393842
9.085                0.969333797     -88.0857002
9.086                0.969255269     -88.2323918
9.087                0.969176533       -88.37946
9.088                0.969097589     -88.5269057
9.089                0.969018437     -88.6747301
9.09                 0.968939077     -88.8229341
9.091                0.968859508     -88.9715187
9.092                0.968779731     -89.1204849
9.093                0.968699746     -89.2698337
9.094                0.968619553     -89.4195662
9.095                0.968539151     -89.5696833
9.096                0.968458542      -89.720186
9.097                0.968377724     -89.8710754
9.098                0.968296697     -90.0223524
9.099                0.968215463     -90.1740181
9.1                   0.96813402     -90.3260735
9.101                0.968052369     -90.4785195
9.102                 0.96797051     -90.6313571
9.103                0.967888444     -90.7845875
9.104                0.967806169     -90.9382115
9.105                0.967723686     -91.0922302
9.106                0.967640996     -91.2466447
9.107                0.967558098     -91.4014558
9.108                0.967474993     -91.5566646
9.109                 0.96739168     -91.7122721
9.11                  0.96730816     -91.8682793
9.111                0.967224433     -92.0246872
9.112                0.967140499     -92.1814968
9.113                0.967056358     -92.3387091
9.114                0.966972011     -92.4963251
9.115                0.966887457     -92.6543459
9.116                0.966802697     -92.8127723
9.117                0.966717731     -92.9716054
9.118                0.966632559     -93.1308463
9.119                0.966547181     -93.2904958
9.12                 0.966461598      -93.450555
9.121                 0.96637581     -93.6110249
9.122                0.966289817     -93.7719065
9.123                 0.96620362     -93.9332007
9.124                0.966117218     -94.0949086
9.125                0.966030613     -94.2570312
9.126                0.965943803     -94.4195693
9.127                0.965856791     -94.5825241
9.128                0.965769575     -94.7458965
9.129                0.965682156     -94.9096875
9.13                 0.965594536     -95.0738981
9.131                0.965506713     -95.2385292
9.132                0.965418689     -95.4035818
9.133                0.965330463     -95.5690569
9.134                0.965242037     -95.7349555
9.135                 0.96515341     -95.9012786
9.136                0.965064584     -96.0680271
9.137                0.964975558     -96.2352019
9.138                0.964886333     -96.4028041
9.139                0.964796909     -96.5708347
9.14                 0.964707287     -96.7392945
9.141                0.964617468     -96.9081846
9.142                0.964527451     -97.0775059
9.143                0.964437239     -97.2472593
9.144                 0.96434683     -97.4174459
9.145                0.964256225     -97.5880665
9.146                0.964165426     -97.7591221
9.147                0.964074433     -97.9306136
9.148                0.963983245     -98.1025421
9.149                0.963891865     -98.2749084
9.15                 0.963800293     -98.4477135
9.151                0.963708528     -98.6209583
9.152                0.963616572     -98.7946437
9.153                0.963524426     -98.9687707
9.154                0.963432091     -99.1433402
9.155                0.963339566      -99.318353
9.156                0.963246852     -99.4938103
9.157                0.963153952     -99.6697127
9.158                0.963060864     -99.8460613
9.159                 0.96296759     -100.022857
9.16                 0.962874131     -100.200101
9.161                0.962780488     -100.377793
9.162                 0.96268666     -100.555935
9.163                 0.96259265     -100.734528
9.164                0.962498458     -100.913573
9.165                0.962404085      -101.09307
9.166                0.962309532      -101.27302
9.167                  0.9622148     -101.453424
9.168                0.962119889     -101.634284
9.169                  0.9620248     -101.815599
9.17                 0.961929535     -101.997371
9.171                0.961834095     -102.179601
9.172                 0.96173848     -102.362289
9.173                0.961642692     -102.545437
9.174                0.961546731     -102.729044
9.175                0.961450599     -102.913113
9.176                0.961354296     -103.097644
9.177                0.961257825     -103.282637
9.178                0.961161185     -103.468094
9.179                0.961064378     -103.654015
9.18                 0.960967405     -103.840402
9.181                0.960870268     -104.027254
9.182                0.960772967     -104.214573
9.183                0.960675504     -104.402359
9.184                 0.96057788     -104.590614
9.185                0.960480096     -104.779338
9.186                0.960382153     -104.968532
9.187                0.960284054     -105.158197
9.188                0.960185798     -105.348333
9.189                0.960087388     -105.538941
9.19                 0.959988824     -105.730022
9.191                0.959890109     -105.921577
9.192                0.959791243     -106.113606
9.193                0.959692228      -106.30611
9.194                0.959593065      -106.49909
9.195                0.959493756     -106.692547
9.196                0.959394303     -106.886481
9.197                0.959294706     -107.080894
9.198                0.959194967     -107.275784
9.199                0.959095089     -107.471155
9.2                  0.958995071     -107.667005
9.201                0.958894917     -107.863336
9.202                0.958794628     -108.060149
9.203                0.958694205     -108.257444
9.204                0.958593649     -108.455221
9.205                0.958492963     -108.653482
9.206                0.958392149     -108.852227
9.207                0.958291208     -109.051456
9.208                0.958190141     -109.251171
9.209                0.958088951     -109.451372
9.21                 0.957987639     -109.652059
9.211                0.957886208     -109.853233
9.212                0.957784658     -110.054895
9.213                0.957682993     -110.257045
9.214                0.957581213     -110.459684
9.215                0.957479321     -110.662812
9.216                0.957377318      -110.86643
9.217                0.957275207     -111.070538
9.218                 0.95717299     -111.275138
9.219                0.957070669     -111.480229
9.22                 0.956968245     -111.685812
9.221                 0.95686572     -111.891887
9.222                0.956763098     -112.098456
9.223                 0.95666038     -112.305518
9.224                0.956557567     -112.513074
9.225                0.956454663     -112.721124
9.226                0.956351669     -112.929669
9.227                0.956248588     -113.138709
9.228                0.956145422     -113.348245
9.229                0.956042173     -113.558277
9.23                 0.955938844     -113.768806
9.231                0.955835436     -113.979831
9.232                0.955731953     -114.191354
9.233                0.955628395     -114.403375
9.234                0.955524767     -114.615893
9.235                 0.95542107      -114.82891
9.236                0.955317307     -115.042425
9.237                 0.95521348      -115.25644
9.238                0.955109592     -115.470953
9.239                0.955005646     -115.685967
9.24                 0.954901643      -115.90148
9.241                0.954797586     -116.117494
9.242                0.954693479     -116.334008
9.243                0.954589323     -116.551022
9.244                0.954485122     -116.768538
9.245                0.954380877     -116.986554
9.246                0.954276593     -117.205072
9.247                 0.95417227     -117.424092
9.248                0.954067914     -117.643613
9.249                0.953963525     -117.863636
9.25                 0.953859107     -118.084161
9.251                0.953754663     -118.305188
9.252                0.953650195     -118.526718
9.253                0.953545707      -118.74875
9.254                0.953441202     -118.971284
9.255                0.953336682     -119.194321
9.256                 0.95323215     -119.417861
9.257                 0.95312761     -119.641903
9.258                0.953023065     -119.866448
9.259                0.952918517     -120.091496
9.26                 0.952813969     -120.317047
9.261                0.952709426       -120.5431
9.262                0.952604889     -120.769657
9.263                0.952500362     -120.996715
9.264                0.952395849     -121.224277
9.265                0.952291353     -121.452341
9.266                0.952186876     -121.680908
9.267                0.952082422     -121.909976
9.268                0.951977995     -122.139548
9.269                0.951873598     -122.369621
9.27                 0.951769233     -122.600196
9.271                0.951664906     -122.831274
9.272                0.951560618     -123.062852
9.273                0.951456374     -123.294933
9.274                0.951352176     -123.527514
9.275                0.951248029     -123.760596
9.276                0.951143936     -123.994179
9.277                0.951039901     -124.228263
9.278                0.950935926     -124.462847
9.279                0.950832016      -124.69793
9.28                 0.950728175     -124.933513
9.281                0.950624405     -125.169595
9.282                0.950520712     -125.406176
9.283                0.950417097     -125.643256
9.284                0.950313566     -125.880833
9.285                0.950210122     -126.118909
9.286                0.950106768     -126.357481
9.287                0.950003509      -126.59655
9.288                0.949900348     -126.836115
9.289                 0.94979729     -127.076176
9.29                 0.949694337     -127.316733
9.291                0.949591495     -127.557784
9.292                0.949488767     -127.799329
9.293                0.949386156     -128.041368
9.294                0.949283668       -128.2839
9.295                0.949181305     -128.526924
9.296                0.949079073      -128.77044
9.297                0.948976974     -129.014447
9.298                0.948875014     -129.258945
9.299                0.948773196     -129.503932
9.3                  0.948671524     -129.749409
9.301                0.948570003     -129.995374
9.302                0.948468637     -130.241826
9.303                0.948367429     -130.488765
9.304                0.948266385      -130.73619
9.305                0.948165508     -130.984101
9.306                0.948064803     -131.232495
9.307                0.947964274     -131.481374
9.308                0.947863925     -131.730735
9.309                 0.94776376     -131.980577
9.31                 0.947663785     -132.230901
9.311                0.947564003     -132.481704
9.312                0.947464418     -132.732986
9.313                0.947365036     -132.984746
9.314                 0.94726586     -133.236983
9.315                0.947166896     -133.489696
9.316                0.947068146     -133.742883
9.317                0.946969617     -133.996545
9.318                0.946871312     -134.250679
9.319                0.946773236     -134.505284
9.32                 0.946675394      -134.76036
9.321                 0.94657779     -135.015905
9.322                0.946480429     -135.271918
9.323                0.946383314     -135.528398
9.324                0.946286452     -135.785344
9.325                0.946189846     -136.042754
9.326                0.946093502     -136.300627
9.327                0.945997423     -136.558961
9.328                0.945901614     -136.817756
9.329                0.945806081      -137.07701
9.33                 0.945710828     -137.336722
9.331                0.945615859      -137.59689
9.332                0.945521179     -137.857513
9.333                0.945426794     -138.118589
9.334                0.945332707     -138.380117
9.335                0.945238924     -138.642096
9.336                0.945145449     -138.904524
9.337                0.945052287     -139.167399
9.338                0.944959443     -139.430719
9.339                0.944866921     -139.694484
9.34                 0.944774728     -139.958692
9.341                0.944682866     -140.223341
9.342                0.944591342     -140.488429
9.343                0.944500159     -140.753955
9.344                0.944409324     -141.019916
9.345                 0.94431884     -141.286312
9.346                0.944228712      -141.55314
9.347                0.944138946     -141.820399
9.348                0.944049546     -142.088087
9.349                0.943960518     -142.356202
9.35                 0.943871865     -142.624742
9.351                0.943783593     -142.893706
9.352                0.943695707      -143.16309
9.353                0.943608212     -143.432895
9.354                0.943521112     -143.703116
9.355                0.943434413     -143.973754
9.356                0.943348118     -144.244804
9.357                0.943262235     -144.516267
9.358                0.943176766     -144.788138
9.359                0.943091717     -145.060418
9.36                 0.943007093     -145.333102
9.361                0.942922899      -145.60619
9.362                0.942839139     -145.879678
9.363                0.942755819     -146.153566
9.364                0.942672943      -146.42785
9.365                0.942590517     -146.702528
9.366                0.942508545     -146.977599
9.367                0.942427032      -147.25306
9.368                0.942345982     -147.528908
9.369                0.942265401     -147.805141
9.37                 0.942185294     -148.081758
9.371                0.942105665     -148.358755
9.372                 0.94202652      -148.63613
9.373                0.941947862     -148.913881
9.374                0.941869697     -149.192005
9.375                 0.94179203       -149.4705
9.376                0.941714865     -149.749363
9.377                0.941638208     -150.028593
9.378                0.941562062     -150.308185
9.379                0.941486433     -150.588139
9.38                 0.941411325      -150.86845
9.381                0.941336743     -151.149117
9.382                0.941262692     -151.430137
9.383                0.941189177     -151.711508
9.384                0.941116202     -151.993225
9.385                0.941043771     -152.275288
9.386                 0.94097189     -152.557693
9.387                0.940900563     -152.840438
9.388                0.940829794     -153.123519
9.389                0.940759589     -153.406934
9.39                 0.940689951     -153.690679
9.391                0.940620886     -153.974754
9.392                0.940552397     -154.259153
9.393                 0.94048449     -154.543875
9.394                0.940417168     -154.828916
9.395                0.940350436     -155.114274
9.396                0.940284299     -155.399946
