! TOUCHSTONE file generated by CST DESIGN STUDIO
! Date and time: Tue Feb  4 18:07:07 2025
! Project name: C:\Work\MatlabApps\UnitCellOptimizationMatlab\CST\unitcell.cst
! Tree item: Tasks\Sweep1\SPara1\S-Parameters
! Header version: 2024
! Port assignment regex: !\s*Touchstone port\s*([0-9]+)\s*=\s*(CST MWS port|CST DES external port|CST DES block port)\s*(.+)\s* \(\"(.*)\"\)(\s*mode\s*([0-9]+))?.*
! Touchstone port assignment:
! Touchstone port 1 = CST DES external port 1 ("")
# GHz S MA R 50
9                    0.974886081      -80.658406
9.001                0.974821301     -80.7859139
9.002                0.974756331     -80.9137443
9.003                0.974691168     -81.0418983
9.004                0.974625813     -81.1703768
9.005                0.974560266     -81.2991806
9.006                0.974494526     -81.4283109
9.007                0.974428592     -81.5577684
9.008                0.974362465     -81.6875542
9.009                0.974296145     -81.8176692
9.01                  0.97422963     -81.9481143
9.011                 0.97416292     -82.0788906
9.012                0.974096016     -82.2099989
9.013                0.974028917     -82.3414402
9.014                0.973961622     -82.4732155
9.015                0.973894132     -82.6053257
9.016                0.973826446     -82.7377718
9.017                0.973758563     -82.8705547
9.018                0.973690483     -83.0036754
9.019                0.973622207      -83.137135
9.02                 0.973553734     -83.2709342
9.021                0.973485063     -83.4050742
9.022                0.973416194     -83.5395558
9.023                0.973347127     -83.6743801
9.024                0.973277862      -83.809548
9.025                0.973208398     -83.9450604
9.026                0.973138736     -84.0809185
9.027                0.973068874      -84.217123
9.028                0.972998813     -84.3536751
9.029                0.972928553     -84.4905756
9.03                 0.972858092     -84.6278257
9.031                0.972787432     -84.7654261
9.032                0.972716571      -84.903378
9.033                0.972645509     -85.0416823
9.034                0.972574247       -85.18034
9.035                0.972502784      -85.319352
9.036                 0.97243112     -85.4587194
9.037                0.972359254     -85.5984431
9.038                0.972287186     -85.7385242
9.039                0.972214917     -85.8789636
9.04                 0.972142446     -86.0197623
9.041                0.972069772     -86.1609213
9.042                0.971996897     -86.3024416
9.043                0.971923818     -86.4443241
9.044                0.971850537       -86.58657
9.045                0.971777053       -86.72918
9.046                0.971703366     -86.8721554
9.047                0.971629475      -87.015497
9.048                0.971555382     -87.1592058
9.049                0.971481085     -87.3032829
9.05                 0.971406584     -87.4477292
9.051                0.971331879     -87.5925458
9.052                0.971256971     -87.7377336
9.053                0.971181858     -87.8832936
9.054                0.971106542     -88.0292269
9.055                0.971031021     -88.1755344
9.056                0.970955296     -88.3222171
9.057                0.970879366     -88.4692761
9.058                0.970803232     -88.6167123
9.059                0.970726894     -88.7645267
9.06                 0.970650351     -88.9127204
9.061                0.970573603     -89.0612943
9.062                 0.97049665     -89.2102495
9.063                0.970419493     -89.3595868
9.064                0.970342131     -89.5093075
9.065                0.970264564     -89.6594123
9.066                0.970186793     -89.8099025
9.067                0.970108816     -89.9607788
9.068                0.970030634     -90.1120425
9.069                0.969952248     -90.2636943
9.07                 0.969873657     -90.4157355
9.071                0.969794861     -90.5681669
9.072                 0.96971586     -90.7209896
9.073                0.969636655     -90.8742045
9.074                0.969557244     -91.0278127
9.075                0.969477629     -91.1818151
9.076                 0.96939781     -91.3362129
9.077                0.969317786     -91.4910069
9.078                0.969237557     -91.6461981
9.079                0.969157124     -91.8017877
9.08                 0.969076487     -91.9577765
9.081                0.968995646     -92.1141656
9.082                  0.9689146     -92.2709559
9.083                0.968833351     -92.4281485
9.084                0.968751898     -92.5857444
9.085                0.968670242     -92.7437445
9.086                0.968588381     -92.9021499
9.087                0.968506318     -93.0609615
9.088                0.968424052     -93.2201803
9.089                0.968341582     -93.3798074
9.09                  0.96825891     -93.5398437
9.091                0.968176035     -93.7002902
9.092                0.968092959     -93.8611479
9.093                 0.96800968     -94.0224178
9.094                0.967926199     -94.1841009
9.095                0.967842516     -94.3461981
9.096                0.967758633     -94.5087105
9.097                0.967674548      -94.671639
9.098                0.967590263     -94.8349846
9.099                0.967505777     -94.9987483
9.1                  0.967421091     -95.1629311
9.101                0.967336205     -95.3275339
9.102                 0.96725112     -95.4925577
9.103                0.967165836     -95.6580035
9.104                0.967080352     -95.8238723
9.105                0.966994671      -95.990165
9.106                0.966908792     -96.1568826
9.107                0.966822714      -96.324026
9.108                 0.96673644     -96.4915963
9.109                0.966649969     -96.6595944
9.11                 0.966563302     -96.8280212
9.111                0.966476439     -96.9968777
9.112                 0.96638938     -97.1661649
9.113                0.966302126     -97.3358837
9.114                0.966214678      -97.506035
9.115                0.966127036     -97.6766198
9.116                0.966039201     -97.8476391
9.117                0.965951172     -98.0190938
9.118                0.965862952     -98.1909848
9.119                0.965774539     -98.3633131
9.12                 0.965685935     -98.5360796
9.121                0.965597141     -98.7092851
9.122                0.965508156     -98.8829308
9.123                0.965418982     -99.0570174
9.124                 0.96532962     -99.2315459
9.125                0.965240069     -99.4065172
9.126                0.965150331     -99.5819323
9.127                0.965060406      -99.757792
9.128                0.964970294     -99.9340972
9.129                0.964879998     -100.110849
9.13                 0.964789516     -100.288048
9.131                0.964698851     -100.465695
9.132                0.964608003     -100.643792
9.133                0.964516972     -100.822338
9.134                 0.96442576     -101.001335
9.135                0.964334366     -101.180785
9.136                0.964242793     -101.360686
9.137                0.964151041     -101.541042
9.138                 0.96405911     -101.721852
9.139                0.963967002     -101.903117
9.14                 0.963874718     -102.084838
9.141                0.963782258     -102.267016
9.142                0.963689623     -102.449652
9.143                0.963596814     -102.632746
9.144                0.963503833       -102.8163
9.145                 0.96341068     -103.000315
9.146                0.963317356     -103.184791
9.147                0.963223862     -103.369728
9.148                  0.9631302     -103.555129
9.149                0.963036369     -103.740993
9.15                 0.962942373     -103.927321
9.151                 0.96284821     -104.114115
9.152                0.962753883     -104.301375
9.153                0.962659393     -104.489102
9.154                0.962564741     -104.677296
9.155                0.962469928     -104.865958
9.156                0.962374955      -105.05509
9.157                0.962279823     -105.244692
9.158                0.962184534     -105.434764
9.159                0.962089089     -105.625308
9.16                 0.961993489     -105.816325
9.161                0.961897736     -106.007814
9.162                 0.96180183     -106.199776
9.163                0.961705773     -106.392213
9.164                0.961609567     -106.585126
9.165                0.961513213     -106.778514
9.166                0.961416711     -106.972378
9.167                0.961320065      -107.16672
9.168                0.961223274      -107.36154
9.169                0.961126341     -107.556839
9.17                 0.961029266     -107.752616
9.171                0.960932053     -107.948874
9.172                0.960834701     -108.145613
9.173                0.960737212     -108.342832
9.174                0.960639589     -108.540534
9.175                0.960541832     -108.738718
9.176                0.960443944     -108.937386
9.177                0.960345926     -109.136537
9.178                0.960247779     -109.336173
9.179                0.960149505     -109.536293
9.18                 0.960051106       -109.7369
9.181                0.959952584     -109.937993
9.182                 0.95985394     -110.139572
9.183                0.959755176     -110.341639
9.184                0.959656295     -110.544194
9.185                0.959557297     -110.747237
9.186                0.959458184      -110.95077
9.187                 0.95935896     -111.154792
9.188                0.959259624     -111.359304
9.189                 0.95916018     -111.564307
9.19                 0.959060629       -111.7698
9.191                0.958960972     -111.975786
9.192                0.958861214     -112.182263
9.193                0.958761354     -112.389234
9.194                0.958661395     -112.596697
9.195                 0.95856134     -112.804653
9.196                 0.95846119     -113.013104
9.197                0.958360947     -113.222049
9.198                0.958260614     -113.431489
9.199                0.958160192     -113.641424
9.2                  0.958059684     -113.851854
9.201                0.957959093     -114.062781
9.202                0.957858419     -114.274204
9.203                0.957757666     -114.486124
9.204                0.957656836      -114.69854
9.205                0.957555931     -114.911455
9.206                0.957454954     -115.124867
9.207                0.957353906     -115.338777
9.208                 0.95725279     -115.553185
9.209                 0.95715161     -115.768092
9.21                 0.957050366     -115.983498
9.211                0.956949061     -116.199403
9.212                0.956847699     -116.415808
9.213                0.956746281     -116.632712
9.214                 0.95664481     -116.850117
9.215                0.956543289     -117.068021
9.216                0.956441719     -117.286426
9.217                0.956340105     -117.505332
9.218                0.956238448     -117.724738
9.219                0.956136751     -117.944645
9.22                 0.956035017     -118.165053
9.221                0.955933249     -118.385962
9.222                0.955831448     -118.607373
9.223                0.955729619     -118.829285
9.224                0.955627764     -119.051698
9.225                0.955525885     -119.274614
9.226                0.955423986      -119.49803
9.227                0.955322069     -119.721949
9.228                0.955220137     -119.946369
9.229                0.955118194     -120.171291
9.23                 0.955016242     -120.396715
9.231                0.954914284      -120.62264
9.232                0.954812324     -120.849067
9.233                0.954710363     -121.075996
9.234                0.954608406     -121.303426
9.235                0.954506455     -121.531358
9.236                0.954404514     -121.759792
9.237                0.954302585     -121.988727
9.238                0.954200673     -122.218163
9.239                0.954098779       -122.4481
9.24                 0.953996908     -122.678538
9.241                0.953895062     -122.909477
9.242                0.953793245     -123.140916
9.243                0.953691459     -123.372856
9.244                 0.95358971     -123.605296
9.245                0.953487999     -123.838235
9.246                 0.95338633     -124.071675
9.247                0.953284707     -124.305614
9.248                0.953183133     -124.540051
9.249                0.953081611     -124.774988
9.25                 0.952980146     -125.010423
9.251                0.952878739     -125.246356
9.252                0.952777396     -125.482787
9.253                0.952676119     -125.719716
9.254                0.952574913     -125.957141
9.255                 0.95247378     -126.195063
9.256                0.952372724     -126.433481
9.257                 0.95227175     -126.672394
9.258                 0.95217086     -126.911803
9.259                0.952070059     -127.151706
9.26                  0.95196935     -127.392104
9.261                0.951868737     -127.632995
9.262                0.951768224     -127.874379
9.263                0.951667814     -128.116256
9.264                0.951567512     -128.358625
9.265                 0.95146732     -128.601485
9.266                0.951367244     -128.844835
9.267                0.951267287     -129.088676
9.268                0.951167453     -129.333006
9.269                0.951067746     -129.577825
9.27                  0.95096817     -129.823132
9.271                0.950868728     -130.068925
9.272                0.950769426     -130.315206
9.273                0.950670266     -130.561972
9.274                0.950571253     -130.809223
9.275                0.950472392     -131.056958
9.276                0.950373685     -131.305176
9.277                0.950275138     -131.553876
9.278                0.950176755     -131.803059
9.279                0.950078539     -132.052721
9.28                 0.949980494     -132.302864
9.281                0.949882626     -132.553485
9.282                0.949784938     -132.804584
9.283                0.949687435      -133.05616
9.284                 0.94959012     -133.308211
9.285                0.949492999     -133.560737
9.286                0.949396074     -133.813737
9.287                0.949299352      -134.06721
9.288                0.949202835     -134.321154
9.289                0.949106529     -134.575568
9.29                 0.949010438     -134.830452
9.291                0.948914566     -135.085804
9.292                0.948818917     -135.341623
9.293                0.948723496     -135.597907
9.294                0.948628308     -135.854656
9.295                0.948533357     -136.111868
9.296                0.948438647     -136.369542
9.297                0.948344183     -136.627677
9.298                 0.94824997      -136.88627
9.299                0.948156011     -137.145322
9.3                  0.948062312     -137.404831
9.301                0.947968877     -137.664794
9.302                0.947875711     -137.925212
9.303                0.947782817     -138.186081
9.304                0.947690201     -138.447402
9.305                0.947597868     -138.709171
9.306                0.947505822     -138.971389
9.307                0.947414067     -139.234053
9.308                0.947322608     -139.497162
9.309                 0.94723145     -139.760714
9.31                 0.947140598     -140.024707
9.311                0.947050056      -140.28914
9.312                0.946959829     -140.554012
9.313                0.946869921      -140.81932
9.314                0.946780337     -141.085063
9.315                0.946691083     -141.351239
9.316                0.946602161     -141.617846
9.317                0.946513578     -141.884884
9.318                0.946425339     -142.152348
9.319                0.946337446     -142.420239
9.32                 0.946249907     -142.688554
9.321                0.946162724     -142.957291
9.322                0.946075904     -143.226449
9.323                 0.94598945     -143.496025
9.324                0.945903367     -143.766017
9.325                0.945817661     -144.036424
9.326                0.945732335     -144.307243
9.327                0.945647395     -144.578473
9.328                0.945562846     -144.850112
9.329                0.945478691     -145.122156
9.33                 0.945394936     -145.394605
9.331                0.945311586     -145.667456
9.332                0.945228645     -145.940707
9.333                0.945146119     -146.214356
9.334                0.945064011       -146.4884
9.335                0.944982326     -146.762838
9.336                 0.94490107     -147.037667
9.337                0.944820247     -147.312885
9.338                0.944739861      -147.58849
9.339                0.944659918     -147.864479
9.34                 0.944580422     -148.140849
9.341                0.944501378       -148.4176
9.342                 0.94442279     -148.694727
9.343                0.944344664      -148.97223
9.344                0.944267003     -149.250105
9.345                0.944189813     -149.528349
9.346                0.944113098     -149.806961
9.347                0.944036863     -150.085938
9.348                0.943961112     -150.365278
9.349                 0.94388585     -150.644977
9.35                 0.943811082     -150.925034
9.351                0.943736813     -151.205445
9.352                0.943663046     -151.486208
9.353                0.943589786      -151.76732
9.354                0.943517039      -152.04878
9.355                0.943444807     -152.330583
9.356                0.943373097     -152.612727
9.357                0.943301913     -152.895211
9.358                0.943231258     -153.178029
9.359                0.943161138     -153.461181
9.36                 0.943091557     -153.744663
9.361                0.943022518     -154.028473
9.362                0.942954028     -154.312607
9.363                 0.94288609     -154.597062
9.364                0.942818708     -154.881837
9.365                0.942751887     -155.166927
9.366                0.942685631      -155.45233
9.367                0.942619945     -155.738042
9.368                0.942554832     -156.024062
9.369                0.942490297     -156.310386
9.37                 0.942426344      -156.59701
9.371                0.942362977     -156.883932
9.372                0.942300201     -157.171149
9.373                0.942238019     -157.458658
9.374                0.942176436     -157.746455
9.375                0.942115456     -158.034538
9.376                0.942055082     -158.322902
9.377                 0.94199532     -158.611546
9.378                0.941936172     -158.900466
9.379                0.941877643     -159.189658
9.38                 0.941819736      -159.47912
9.381                0.941762456     -159.768848
9.382                0.941705806     -160.058838
9.383                0.941649791     -160.349089
9.384                0.941594414     -160.639595
9.385                0.941539678     -160.930355
9.386                0.941485588     -161.221364
9.387                0.941432146     -161.512619
9.388                0.941379358     -161.804117
9.389                0.941327226     -162.095854
9.39                 0.941275753     -162.387827
9.391                0.941224945     -162.680033
9.392                0.941174803     -162.972468
9.393                0.941125331     -163.265128
9.394                0.941076533     -163.558011
9.395                0.941028412     -163.851112
9.396                0.940980972     -164.144428
