! TOUCHSTONE file generated by CST DESIGN STUDIO
! Date and time: Tue Feb  4 18:25:11 2025
! Project name: C:\Work\MatlabApps\UnitCellOptimizationMatlab\CST\unitcell.cst
! Tree item: Tasks\Sweep1\SPara1\S-Parameters
! Header version: 2024
! Port assignment regex: !\s*Touchstone port\s*([0-9]+)\s*=\s*(CST MWS port|CST DES external port|CST DES block port)\s*(.+)\s* \(\"(.*)\"\)(\s*mode\s*([0-9]+))?.*
! Touchstone port assignment:
! Touchstone port 1 = CST DES external port 1 ("")
# GHz S MA R 50
9                    0.909635979      -78.662595
9.001                0.909379952     -78.7952832
9.002                 0.90912309     -78.9283442
9.003                0.908865393      -79.061779
9.004                0.908606857     -79.1955891
9.005                0.908347481     -79.3297757
9.006                0.908087263     -79.4643401
9.007                0.907826201     -79.5992835
9.008                0.907564293     -79.7346072
9.009                0.907301538     -79.8703126
9.01                 0.907037934     -80.0064008
9.011                0.906773478     -80.1428733
9.012                0.906508169     -80.2797312
9.013                0.906242005      -80.416976
9.014                0.905974984     -80.5546088
9.015                0.905707105      -80.692631
9.016                0.905438366     -80.8310439
9.017                0.905168765     -80.9698489
9.018                  0.9048983     -81.1090472
9.019                 0.90462697     -81.2486401
9.02                 0.904354773      -81.388629
9.021                0.904081707     -81.5290152
9.022                 0.90380777        -81.6698
9.023                0.903532962     -81.8109847
9.024                 0.90325728     -81.9525708
9.025                0.902980722     -82.0945595
9.026                0.902703288     -82.2369521
9.027                0.902424975     -82.3797501
9.028                0.902145782     -82.5229547
9.029                0.901865708     -82.6665674
9.03                 0.901584751     -82.8105894
9.031                0.901302909     -82.9550221
9.032                0.901020181     -83.0998669
9.033                0.900736565     -83.2451252
9.034                0.900452061     -83.3907983
9.035                0.900166666     -83.5368875
9.036                0.899880379     -83.6833943
9.037                  0.8995932     -83.8303201
9.038                0.899305126     -83.9776661
9.039                0.899016156     -84.1254338
9.04                 0.898726289     -84.2736246
9.041                0.898435523     -84.4222398
9.042                0.898143858     -84.5712809
9.043                0.897851292     -84.7207492
9.044                0.897557825     -84.8706462
9.045                0.897263454     -85.0209731
9.046                0.896968178     -85.1717315
9.047                0.896671997     -85.3229228
9.048                 0.89637491     -85.4745482
9.049                0.896076914     -85.6266093
9.05                  0.89577801     -85.7791075
9.051                0.895478197     -85.9320441
9.052                0.895177472     -86.0854206
9.053                0.894875836     -86.2392384
9.054                0.894573288      -86.393499
9.055                0.894269825     -86.5482037
9.056                0.893965449     -86.7033539
9.057                0.893660157     -86.8589511
9.058                0.893353949     -87.0149968
9.059                0.893046825     -87.1714923
9.06                 0.892738783     -87.3284391
9.061                0.892429823     -87.4858387
9.062                0.892119943     -87.6436924
9.063                0.891809145     -87.8020017
9.064                0.891497426     -87.9607681
9.065                0.891184786      -88.119993
9.066                0.890871225     -88.2796778
9.067                0.890556743      -88.439824
9.068                0.890241338      -88.600433
9.069                0.889925011     -88.7615064
9.07                  0.88960776     -88.9230454
9.071                0.889289586     -89.0850517
9.072                0.888970489     -89.2475267
9.073                0.888650467     -89.4104717
9.074                0.888329522     -89.5738883
9.075                0.888007652      -89.737778
9.076                0.887684857     -89.9021422
9.077                0.887361138     -90.0669824
9.078                0.887036494     -90.2322999
9.079                0.886710926     -90.3980964
9.08                 0.886384433     -90.5643733
9.081                0.886057015      -90.731132
9.082                0.885728672      -90.898374
9.083                0.885399406     -91.0661008
9.084                0.885069215     -91.2343138
9.085                  0.8847381     -91.4030146
9.086                0.884406062     -91.5722046
9.087                  0.8840731     -91.7418852
9.088                0.883739216      -91.912058
9.089                0.883404409     -92.0827245
9.09                 0.883068681      -92.253886
9.091                 0.88273203     -92.4255442
9.092                 0.88239446     -92.5977004
9.093                0.882055969     -92.7703561
9.094                0.881716558     -92.9435129
9.095                0.881376229     -93.1171722
9.096                0.881034982     -93.2913354
9.097                0.880692818     -93.4660042
9.098                0.880349738     -93.6411798
9.099                0.880005743     -93.8168639
9.1                  0.879660833     -93.9930579
9.101                0.879315011     -94.1697633
9.102                0.878968277     -94.3469815
9.103                0.878620632     -94.5247141
9.104                0.878272077     -94.7029624
9.105                0.877922615     -94.8817281
9.106                0.877572246     -95.0610125
9.107                0.877220971     -95.2408172
9.108                0.876868793     -95.4211436
9.109                0.876515712     -95.6019932
9.11                 0.876161731     -95.7833675
9.111                0.875806852     -95.9652679
9.112                0.875451075     -96.1476959
9.113                0.875094402      -96.330653
9.114                0.874736837     -96.5141407
9.115                 0.87437838     -96.6981604
9.116                0.874019033     -96.8827135
9.117                0.873658799     -97.0678016
9.118                 0.87329768     -97.2534261
9.119                0.872935679     -97.4395885
9.12                 0.872572796     -97.6262902
9.121                0.872209035     -97.8135327
9.122                0.871844399     -98.0013174
9.123                0.871478889     -98.1896458
9.124                0.871112509     -98.3785193
9.125                0.870745261     -98.5679395
9.126                0.870377148     -98.7579076
9.127                0.870008172     -98.9484252
9.128                0.869638337     -99.1394937
9.129                0.869267645     -99.3311146
9.13                   0.8688961     -99.5232892
9.131                0.868523705     -99.7160191
9.132                0.868150462     -99.9093055
9.133                0.867776376      -100.10315
9.134                 0.86740145     -100.297554
9.135                0.867025686     -100.492519
9.136                0.866649089     -100.688046
9.137                0.866271663     -100.884137
9.138                0.865893411     -101.080793
9.139                0.865514336     -101.278015
9.14                 0.865134444     -101.475806
9.141                0.864753737     -101.674165
9.142                 0.86437222     -101.873096
9.143                0.863989896     -102.072598
9.144                0.863606771     -102.272674
9.145                0.863222849     -102.473324
9.146                0.862838134     -102.674551
9.147                 0.86245263     -102.876355
9.148                0.862066343     -103.078738
9.149                0.861679276     -103.281702
9.15                 0.861291435     -103.485247
9.151                0.860902825     -103.689374
9.152                 0.86051345     -103.894087
9.153                0.860123316     -104.099384
9.154                0.859732428     -104.305269
9.155                0.859340792     -104.511741
9.156                0.858948412     -104.718803
9.157                0.858555294     -104.926456
9.158                0.858161444     -105.134701
9.159                0.857766867      -105.34354
9.16                  0.85737157     -105.552972
9.161                0.856975558     -105.763001
9.162                0.856578837     -105.973627
9.163                0.856181414     -106.184852
9.164                0.855783294     -106.396676
9.165                0.855384484     -106.609101
9.166                0.854984991     -106.822128
9.167                 0.85458482     -107.035758
9.168                 0.85418398     -107.249993
9.169                0.853782475     -107.464834
9.17                 0.853380314     -107.680281
9.171                0.852977504     -107.896337
9.172                 0.85257405     -108.113002
9.173                0.852169962     -108.330278
9.174                0.851765245     -108.548165
9.175                0.851359908     -108.766664
9.176                0.850953958     -108.985778
9.177                0.850547403     -109.205507
9.178                0.850140251     -109.425851
9.179                0.849732509     -109.646813
9.18                 0.849324185     -109.868394
9.181                0.848915288     -110.090593
9.182                0.848505827     -110.313413
9.183                0.848095808     -110.536855
9.184                0.847685242     -110.760919
9.185                0.847274136     -110.985606
9.186                  0.8468625     -111.210918
9.187                0.846450342     -111.436856
9.188                0.846037671      -111.66342
9.189                0.845624497     -111.890612
9.19                 0.845210829     -112.118432
9.191                0.844796675     -112.346882
9.192                0.844382047     -112.575962
9.193                0.843966953     -112.805673
9.194                0.843551403     -113.036017
9.195                0.843135407     -113.266994
9.196                0.842718975     -113.498605
9.197                0.842302117      -113.73085
9.198                0.841884844     -113.963731
9.199                0.841467166     -114.197249
9.2                  0.841049094     -114.431404
9.201                0.840630638     -114.666197
9.202                0.840211809      -114.90163
9.203                0.839792618     -115.137701
9.204                0.839373076     -115.374414
9.205                0.838953195     -115.611767
9.206                0.838532985     -115.849763
9.207                0.838112459     -116.088401
9.208                0.837691628     -116.327682
9.209                0.837270503     -116.567607
9.21                 0.836849097     -116.808177
9.211                0.836427422     -117.049392
9.212                0.836005489     -117.291253
9.213                0.835583311      -117.53376
9.214                0.835160901     -117.776914
9.215                0.834738272     -118.020716
9.216                0.834315435     -118.265166
9.217                0.833892404     -118.510264
9.218                0.833469191     -118.756012
9.219                0.833045811     -119.002409
9.22                 0.832622276     -119.249456
9.221                0.832198599     -119.497153
9.222                0.831774794     -119.745501
9.223                0.831350876     -119.994501
9.224                0.830926857     -120.244152
9.225                0.830502751     -120.494454
9.226                0.830078574      -120.74541
9.227                0.829654338     -120.997017
9.228                0.829230059     -121.249278
9.229                0.828805751     -121.502191
9.23                 0.828381428     -121.755758
9.231                0.827957106     -122.009978
9.232                0.827532799     -122.264852
9.233                0.827108522     -122.520379
9.234                0.826684292     -122.776561
9.235                0.826260122     -123.033396
9.236                0.825836028     -123.290886
9.237                0.825412027     -123.549029
9.238                0.824988134     -123.807827
9.239                0.824564364     -124.067279
9.24                 0.824140735     -124.327386
9.241                0.823717261     -124.588146
9.242                 0.82329396      -124.84956
9.243                0.822870847     -125.111628
9.244                 0.82244794      -125.37435
9.245                0.822025255     -125.637726
9.246                0.821602809     -125.901755
9.247                0.821180618     -126.166437
9.248                0.820758701     -126.431772
9.249                0.820337074     -126.697759
9.25                 0.819915755     -126.964399
9.251                0.819494761     -127.231691
9.252                 0.81907411     -127.499635
9.253                0.818653819     -127.768229
9.254                0.818233907     -128.037475
9.255                0.817814392     -128.307371
9.256                0.817395291     -128.577917
9.257                0.816976623     -128.849112
9.258                0.816558407     -129.120955
9.259                 0.81614066     -129.393447
9.26                 0.815723402     -129.666587
9.261                0.815306651     -129.940373
9.262                0.814890427     -130.214806
9.263                0.814474747     -130.489884
9.264                0.814059632     -130.765607
9.265                0.813645101     -131.041974
9.266                0.813231173     -131.318984
9.267                0.812817867     -131.596636
9.268                0.812405203      -131.87493
9.269                0.811993201     -132.153864
9.27                  0.81158188     -132.433437
9.271                0.811171261      -132.71365
9.272                0.810761363     -132.994499
9.273                0.810352207     -133.275985
9.274                0.809943813     -133.558107
9.275                0.809536201     -133.840862
9.276                0.809129392     -134.124251
9.277                0.808723406     -134.408271
9.278                0.808318264     -134.692922
9.279                0.807913987     -134.978202
9.28                 0.807510595      -135.26411
9.281                 0.80710811     -135.550645
9.282                0.806706551     -135.837805
9.283                0.806305942     -136.125588
9.284                0.805906302     -136.413994
9.285                0.805507653     -136.703021
9.286                0.805110016     -136.992666
9.287                0.804713414      -137.28293
9.288                0.804317866     -137.573809
9.289                0.803923396     -137.865303
9.29                 0.803530024     -138.157409
9.291                0.803137772     -138.450126
9.292                0.802746662     -138.743452
9.293                0.802356717     -139.037385
9.294                0.801967958     -139.331924
9.295                0.801580406     -139.627065
9.296                0.801194085     -139.922809
9.297                0.800809015     -140.219152
9.298                 0.80042522     -140.516092
9.299                0.800042722     -140.813627
9.3                  0.799661543     -141.111756
9.301                0.799281705     -141.410475
9.302                 0.79890323     -141.709784
9.303                0.798526141     -142.009679
9.304                0.798150461     -142.310158
9.305                0.797776212      -142.61122
9.306                0.797403417      -142.91286
9.307                0.797032097     -143.215078
9.308                0.796662276     -143.517871
9.309                0.796293977     -143.821235
9.31                 0.795927221      -144.12517
9.311                0.795562032     -144.429671
9.312                0.795198432     -144.734737
9.313                0.794836444     -145.040364
9.314                0.794476091      -145.34655
9.315                0.794117395     -145.653293
9.316                0.793760379     -145.960589
9.317                0.793405065     -146.268435
9.318                0.793051477     -146.576829
9.319                0.792699638     -146.885768
9.32                 0.792349569     -147.195248
9.321                0.792001293     -147.505267
9.322                0.791654834     -147.815821
9.323                0.791310213     -148.126908
9.324                0.790967454     -148.438524
9.325                0.790626578     -148.750666
9.326                0.790287609     -149.063331
9.327                 0.78995057     -149.376516
9.328                0.789615481     -149.690216
9.329                0.789282367      -150.00443
9.33                 0.788951249     -150.319152
9.331                 0.78862215     -150.634381
9.332                0.788295091     -150.950112
9.333                0.787970096     -151.266341
9.334                0.787647187     -151.583066
9.335                0.787326385     -151.900282
9.336                0.787007712     -152.217986
9.337                0.786691191     -152.536174
9.338                0.786376844     -152.854842
9.339                0.786064692     -153.173987
9.34                 0.785754757     -153.493604
9.341                0.785447061      -153.81369
9.342                0.785141626      -154.13424
9.343                0.784838472     -154.455252
9.344                0.784537622     -154.776719
9.345                0.784239096      -155.09864
9.346                0.783942916     -155.421008
9.347                0.783649102     -155.743821
9.348                0.783357677     -156.067074
9.349                 0.78306866     -156.390763
9.35                 0.782782073     -156.714883
9.351                0.782497935      -157.03943
9.352                0.782216269       -157.3644
9.353                0.781937093     -157.689788
9.354                0.781660428      -158.01559
9.355                0.781386294     -158.341802
9.356                0.781114712     -158.668418
9.357                  0.7808457     -158.995434
9.358                0.780579279     -159.322846
9.359                0.780315468     -159.650648
9.36                 0.780054287     -159.978837
9.361                0.779795754     -160.307407
9.362                0.779539889     -160.636354
9.363                0.779286711     -160.965673
9.364                0.779036237     -161.295358
9.365                0.778788487     -161.625406
9.366                 0.77854348      -161.95581
9.367                0.778301232     -162.286567
9.368                0.778061762     -162.617671
9.369                0.777825089     -162.949117
9.37                 0.777591228       -163.2809
9.371                0.777360199     -163.613015
9.372                0.777132017     -163.945456
9.373                  0.7769067     -164.278219
9.374                0.776684266     -164.611298
9.375                0.776464729     -164.944688
9.376                0.776248107     -165.278384
9.377                0.776034415      -165.61238
9.378                 0.77582367     -165.946672
9.379                0.775615888     -166.281252
9.38                 0.775411083     -166.616118
9.381                0.775209271     -166.951261
9.382                0.775010467     -167.286679
9.383                0.774814685     -167.622363
9.384                0.774621941     -167.958311
9.385                0.774432248     -168.294514
9.386                 0.77424562     -168.630969
9.387                0.774062072     -168.967669
9.388                0.773881616     -169.304609
9.389                0.773704266     -169.641783
9.39                 0.773530035     -169.979185
9.391                0.773358935      -170.31681
9.392                 0.77319098     -170.654652
9.393                0.773026181     -170.992705
9.394                 0.77286455     -171.330963
9.395                0.772706099     -171.669421
9.396                0.772550839     -172.008072
