! TOUCHSTONE file generated by CST DESIGN STUDIO
! Date and time: Tue Feb  4 18:25:18 2025
! Project name: C:\Work\MatlabApps\UnitCellOptimizationMatlab\CST\unitcell.cst
! Tree item: Tasks\Sweep1\SPara1\S-Parameters
! Header version: 2024
! Port assignment regex: !\s*Touchstone port\s*([0-9]+)\s*=\s*(CST MWS port|CST DES external port|CST DES block port)\s*(.+)\s* \(\"(.*)\"\)(\s*mode\s*([0-9]+))?.*
! Touchstone port assignment:
! Touchstone port 1 = CST DES external port 1 ("")
# GHz S MA R 50
9                     0.94964549       -53.13183
9.001                0.949538186     -53.2008122
9.002                0.949430544     -53.2699474
9.003                0.949322564     -53.3392363
9.004                0.949214244     -53.4086793
9.005                0.949105583     -53.4782768
9.006                 0.94899658     -53.5480294
9.007                0.948887234     -53.6179376
9.008                0.948777543     -53.6880017
9.009                0.948667506     -53.7582224
9.01                 0.948557122     -53.8286002
9.011                0.948446389     -53.8991354
9.012                0.948335307     -53.9698287
9.013                0.948223874     -54.0406805
9.014                0.948112089     -54.1116913
9.015                0.947999951     -54.1828617
9.016                0.947887458     -54.2541921
9.017                0.947774609      -54.325683
9.018                0.947661403      -54.397335
9.019                0.947547838     -54.4691486
9.02                 0.947433913     -54.5411243
9.021                0.947319628     -54.6132626
9.022                 0.94720498      -54.685564
9.023                0.947089969      -54.758029
9.024                0.946974592     -54.8306582
9.025                0.946858849     -54.9034521
9.026                0.946742739     -54.9764112
9.027                 0.94662626      -55.049536
9.028                0.946509411     -55.1228272
9.029                 0.94639219     -55.1962851
9.03                 0.946274596     -55.2699104
9.031                0.946156629     -55.3437035
9.032                0.946038285     -55.4176651
9.033                0.945919565     -55.4917956
9.034                0.945800467     -55.5660956
9.035                0.945680989     -55.6405657
9.036                 0.94556113     -55.7152063
9.037                0.945440889     -55.7900181
9.038                0.945320265     -55.8650016
9.039                0.945199255     -55.9401573
9.04                 0.945077859     -56.0154858
9.041                0.944956075     -56.0909877
9.042                0.944833902     -56.1666635
9.043                0.944711339     -56.2425138
9.044                0.944588384      -56.318539
9.045                0.944465035     -56.3947399
9.046                0.944341292      -56.471117
9.047                0.944217153     -56.5476708
9.048                0.944092616     -56.6244019
9.049                 0.94396768     -56.7013109
9.05                 0.943842344     -56.7783984
9.051                0.943716606     -56.8556649
9.052                0.943590465      -56.933111
9.053                0.943463919     -57.0107373
9.054                0.943336967     -57.0885444
9.055                0.943209608     -57.1665329
9.056                0.943081839     -57.2447033
9.057                0.942953661     -57.3230563
9.058                 0.94282507     -57.4015925
9.059                0.942696066     -57.4803123
9.06                 0.942566648     -57.5592166
9.061                0.942436813     -57.6383057
9.062                 0.94230656     -57.7175804
9.063                0.942175888     -57.7970413
9.064                0.942044795     -57.8766889
9.065                0.941913281     -57.9565239
9.066                0.941781342     -58.0365469
9.067                0.941648979     -58.1167584
9.068                0.941516188     -58.1971592
9.069                 0.94138297     -58.2777498
9.07                 0.941249322     -58.3585308
9.071                0.941115242     -58.4395029
9.072                 0.94098073     -58.5206667
9.073                0.940845784     -58.6020228
9.074                0.940710402     -58.6835719
9.075                0.940574582     -58.7653146
9.076                0.940438324     -58.8472514
9.077                0.940301625     -58.9293832
9.078                0.940164485     -59.0117104
9.079                0.940026901     -59.0942338
9.08                 0.939888871      -59.176954
9.081                0.939750396     -59.2598716
9.082                0.939611472     -59.3429873
9.083                0.939472098     -59.4263017
9.084                0.939332273     -59.5098155
9.085                0.939191995     -59.5935294
9.086                0.939051262     -59.6774439
9.087                0.938910074     -59.7615599
9.088                0.938768428     -59.8458778
9.089                0.938626322     -59.9303985
9.09                 0.938483756     -60.0151225
9.091                0.938340727     -60.1000506
9.092                0.938197234     -60.1851834
9.093                0.938053276     -60.2705215
9.094                 0.93790885     -60.3560658
9.095                0.937763955     -60.4418167
9.096                 0.93761859     -60.5277752
9.097                0.937472752     -60.6139417
9.098                0.937326441     -60.7003171
9.099                0.937179654     -60.7869019
9.1                   0.93703239      -60.873697
9.101                0.936884647     -60.9607029
9.102                0.936736424     -61.0479205
9.103                0.936587718     -61.1353503
9.104                0.936438529     -61.2229931
9.105                0.936288855     -61.3108497
9.106                0.936138693     -61.3989207
9.107                0.935988043     -61.4872068
9.108                0.935836902     -61.5757087
9.109                0.935685269     -61.6644272
9.11                 0.935533142      -61.753363
9.111                 0.93538052     -61.8425168
9.112                  0.9352274     -61.9318894
9.113                0.935073782     -62.0214814
9.114                0.934919663     -62.1112936
9.115                0.934765041     -62.2013268
9.116                0.934609916     -62.2915816
9.117                0.934454285     -62.3820588
9.118                0.934298146     -62.4727592
9.119                0.934141499     -62.5636834
9.12                  0.93398434     -62.6548323
9.121                0.933826669     -62.7462066
9.122                0.933668483     -62.8378071
9.123                0.933509781     -62.9296344
9.124                0.933350561     -63.0216895
9.125                0.933190822     -63.1139729
9.126                0.933030561     -63.2064855
9.127                0.932869777     -63.2992281
9.128                0.932708468     -63.3922014
9.129                0.932546633     -63.4854062
9.13                 0.932384269     -63.5788433
9.131                0.932221375     -63.6725135
9.132                0.932057949     -63.7664175
9.133                0.931893989      -63.860556
9.134                0.931729493     -63.9549301
9.135                0.931564461     -64.0495403
9.136                0.931398889     -64.1443874
9.137                0.931232776     -64.2394724
9.138                0.931066121      -64.334796
9.139                0.930898921     -64.4303589
9.14                 0.930731175     -64.5261621
9.141                0.930562881     -64.6222062
9.142                0.930394037     -64.7184922
9.143                0.930224641     -64.8150207
9.144                0.930054691     -64.9117928
9.145                0.929884187      -65.008809
9.146                0.929713125     -65.1060704
9.147                0.929541504     -65.2035776
9.148                0.929369322     -65.3013316
9.149                0.929196578     -65.3993332
9.15                 0.929023269     -65.4975831
9.151                0.928849394     -65.5960823
9.152                0.928674951     -65.6948316
9.153                0.928499937     -65.7938318
9.154                0.928324352     -65.8930837
9.155                0.928148194     -65.9925883
9.156                0.927971459     -66.0923463
9.157                0.927794148     -66.1923587
9.158                0.927616257     -66.2926262
9.159                0.927437785     -66.3931498
9.16                  0.92725873     -66.4939303
9.161                 0.92707909     -66.5949686
9.162                0.926898863     -66.6962655
9.163                0.926718048     -66.7978219
9.164                0.926536643     -66.8996388
9.165                0.926354645     -67.0017169
9.166                0.926172053     -67.1040571
9.167                0.925988865     -67.2066604
9.168                 0.92580508     -67.3095277
9.169                0.925620694     -67.4126597
9.17                 0.925435707     -67.5160575
9.171                0.925250116      -67.619722
9.172                 0.92506392     -67.7236539
9.173                0.924877117     -67.8278543
9.174                0.924689704      -67.932324
9.175                 0.92450168     -68.0370639
9.176                0.924313044      -68.142075
9.177                0.924123792     -68.2473582
9.178                0.923933924     -68.3529144
9.179                0.923743437     -68.4587445
9.18                  0.92355233     -68.5648495
9.181                  0.9233606     -68.6712303
9.182                0.923168246     -68.7778877
9.183                0.922975265     -68.8848229
9.184                0.922781657     -68.9920366
9.185                0.922587419     -69.0995298
9.186                0.922392548     -69.2073036
9.187                0.922197044     -69.3153587
9.188                0.922000905     -69.4236963
9.189                0.921804127     -69.5323172
9.19                  0.92160671     -69.6412224
9.191                0.921408652     -69.7504129
9.192                0.921209951     -69.8598896
9.193                0.921010604     -69.9696535
9.194                0.920810611     -70.0797056
9.195                0.920609968     -70.1900468
9.196                0.920408675     -70.3006782
9.197                0.920206729     -70.4116006
9.198                0.920004128     -70.5228152
9.199                 0.91980087     -70.6343228
9.2                  0.919596955     -70.7461246
9.201                0.919392379     -70.8582214
9.202                 0.91918714     -70.9706142
9.203                0.918981238     -71.0833042
9.204                 0.91877467     -71.1962922
9.205                0.918567433     -71.3095794
9.206                0.918359527     -71.4231666
9.207                 0.91815095     -71.5370549
9.208                0.917941699     -71.6512454
9.209                0.917731772      -71.765739
9.21                 0.917521168     -71.8805369
9.211                0.917309885     -71.9956399
9.212                0.917097921     -72.1110492
9.213                0.916885275     -72.2267658
9.214                0.916671943     -72.3427906
9.215                0.916457925     -72.4591249
9.216                0.916243218     -72.5757696
9.217                0.916027821     -72.6927257
9.218                0.915811732     -72.8099943
9.219                0.915594949     -72.9275765
9.22                  0.91537747     -73.0454733
9.221                0.915159293     -73.1636858
9.222                0.914940417     -73.2822151
9.223                0.914720839     -73.4010621
9.224                0.914500558     -73.5202281
9.225                0.914279572     -73.6397141
9.226                0.914057879     -73.7595211
9.227                0.913835477     -73.8796502
9.228                0.913612365     -74.0001025
9.229                0.913388541     -74.1208792
9.23                 0.913164002     -74.2419812
9.231                0.912938748     -74.3634097
9.232                0.912712775     -74.4851659
9.233                0.912486083     -74.6072507
9.234                 0.91225867     -74.7296654
9.235                0.912030534     -74.8524109
9.236                0.911801673     -74.9754885
9.237                0.911572086     -75.0988992
9.238                 0.91134177     -75.2226442
9.239                0.911110724     -75.3467245
9.24                 0.910878946     -75.4711414
9.241                0.910646434     -75.5958959
9.242                0.910413187     -75.7209891
9.243                0.910179203     -75.8464223
9.244                0.909944481     -75.9721965
9.245                0.909709018      -76.098313
9.246                0.909472813     -76.2247727
9.247                0.909235864     -76.3515769
9.248                0.908998169     -76.4787268
9.249                0.908759727     -76.6062235
9.25                 0.908520537     -76.7340681
9.251                0.908280595     -76.8622618
9.252                0.908039902     -76.9908058
9.253                0.907798455     -77.1197012
9.254                0.907556252     -77.2489493
9.255                0.907313293     -77.3785511
9.256                0.907069575      -77.508508
9.257                0.906825096      -77.638821
9.258                0.906579856     -77.7694913
9.259                0.906333852     -77.9005201
9.26                 0.906087084     -78.0319087
9.261                0.905839549     -78.1636582
9.262                0.905591245     -78.2957698
9.263                0.905342173     -78.4282447
9.264                0.905092329     -78.5610841
9.265                0.904841713     -78.6942893
9.266                0.904590322     -78.8278614
9.267                0.904338156     -78.9618016
9.268                0.904085213     -79.0961113
9.269                0.903831492     -79.2307914
9.27                 0.903576991     -79.3658435
9.271                0.903321708     -79.5012685
9.272                0.903065643     -79.6370678
9.273                0.902808793     -79.7732426
9.274                0.902551158     -79.9097941
9.275                0.902292737     -80.0467236
9.276                0.902033527     -80.1840324
9.277                0.901773527     -80.3217215
9.278                0.901512737     -80.4597924
9.279                0.901251155     -80.5982463
9.28                 0.900988779     -80.7370843
9.281                0.900725608     -80.8763078
9.282                0.900461642      -81.015918
9.283                0.900196878     -81.1559162
9.284                0.899931317     -81.2963037
9.285                0.899664955     -81.4370817
9.286                0.899397793     -81.5782515
9.287                0.899129829     -81.7198143
9.288                0.898861062     -81.8617715
9.289                0.898591491     -82.0041243
9.29                 0.898321115      -82.146874
9.291                0.898049932     -82.2900219
9.292                0.897777942     -82.4335692
9.293                0.897505144     -82.5775173
9.294                0.897231536     -82.7218675
9.295                0.896957118      -82.866621
9.296                0.896681888     -83.0117792
9.297                0.896405847     -83.1573433
9.298                0.896128992     -83.3033147
9.299                0.895851323     -83.4496947
9.3                  0.895572839     -83.5964845
9.301                0.895293539     -83.7436855
9.302                0.895013422      -83.891299
9.303                0.894732488     -84.0393263
9.304                0.894450736     -84.1877687
9.305                0.894168165     -84.3366276
9.306                0.893884774     -84.4859042
9.307                0.893600563     -84.6355999
9.308                0.893315531     -84.7857161
9.309                0.893029677      -84.936254
9.31                    0.892743      -85.087215
9.311                0.892455501     -85.2386005
9.312                0.892167178     -85.3904116
9.313                0.891878031     -85.5426499
9.314                 0.89158806     -85.6953167
9.315                0.891297264     -85.8484132
9.316                0.891005642     -86.0019408
9.317                0.890713194     -86.1559009
9.318                 0.89041992     -86.3102948
9.319                 0.89012582     -86.4651239
9.32                 0.889830893     -86.6203896
9.321                0.889535138     -86.7760931
9.322                0.889238556     -86.9322358
9.323                0.888941147     -87.0888192
9.324                0.888642909     -87.2458445
9.325                0.888343844     -87.4033131
9.326                0.888043951     -87.5612264
9.327                0.887743229     -87.7195858
9.328                0.887441679     -87.8783926
9.329                0.887139301     -88.0376481
9.33                 0.886836095     -88.1973538
9.331                0.886532061      -88.357511
9.332                0.886227198     -88.5181212
9.333                0.885921508     -88.6791855
9.334                 0.88561499     -88.8407056
9.335                0.885307645     -89.0026826
9.336                0.884999472     -89.1651181
9.337                0.884690473     -89.3280133
9.338                0.884380647     -89.4913697
9.339                0.884069994     -89.6551886
9.34                 0.883758516     -89.8194714
9.341                0.883446213     -89.9842195
9.342                0.883133085     -90.1494343
9.343                0.882819132     -90.3151172
9.344                0.882504356     -90.4812695
9.345                0.882188757     -90.6478927
9.346                0.881872336     -90.8149881
9.347                0.881555093     -90.9825571
9.348                0.881237029      -91.150601
9.349                0.880918146     -91.3191214
9.35                 0.880598443     -91.4881196
9.351                0.880277922     -91.6575969
9.352                0.879956584     -91.8275547
9.353                 0.87963443     -91.9979945
9.354                 0.87931146     -92.1689176
9.355                0.878987677     -92.3403254
9.356                0.878663081     -92.5122193
9.357                0.878337673     -92.6846007
9.358                0.878011455      -92.857471
9.359                0.877684427     -93.0308316
9.36                 0.877356593     -93.2046838
9.361                0.877027952      -93.379029
9.362                0.876698506     -93.5538687
9.363                0.876368258     -93.7292042
9.364                0.876037207     -93.9050369
9.365                0.875705357     -94.0813682
9.366                0.875372709     -94.2581994
9.367                0.875039264      -94.435532
9.368                0.874705025     -94.6133674
9.369                0.874369993     -94.7917068
9.37                  0.87403417     -94.9705517
9.371                0.873697559     -95.1499036
9.372                0.873360161     -95.3297636
9.373                0.873021978     -95.5101333
9.374                0.872683013      -95.691014
9.375                0.872343269     -95.8724071
9.376                0.872002746     -96.0543139
9.377                0.871661448     -96.2367358
9.378                0.871319377     -96.4196742
9.379                0.870976536     -96.6031305
9.38                 0.870632927      -96.787106
9.381                0.870288553      -96.971602
9.382                0.869943416       -97.15662
9.383                 0.86959752     -97.3421613
9.384                0.869250866     -97.5282272
9.385                0.868903459     -97.7148191
9.386                0.868555302     -97.9019383
9.387                0.868206396     -98.0895863
9.388                0.867856746     -98.2777643
9.389                0.867506354     -98.4664736
9.39                 0.867155224     -98.6557157
9.391                0.866803359     -98.8454918
9.392                0.866450763     -99.0358033
9.393                0.866097439     -99.2266515
9.394                 0.86574339     -99.4180377
9.395                0.865388621     -99.6099633
9.396                0.865033135     -99.8024296
