! TOUCHSTONE file generated by CST DESIGN STUDIO
! Date and time: Tue Feb  4 18:25:08 2025
! Project name: C:\Work\MatlabApps\UnitCellOptimizationMatlab\CST\unitcell.cst
! Tree item: Tasks\Sweep1\SPara1\S-Parameters
! Header version: 2024
! Port assignment regex: !\s*Touchstone port\s*([0-9]+)\s*=\s*(CST MWS port|CST DES external port|CST DES block port)\s*(.+)\s* \(\"(.*)\"\)(\s*mode\s*([0-9]+))?.*
! Touchstone port assignment:
! Touchstone port 1 = CST DES external port 1 ("")
# GHz S MA R 50
9                    0.882900195      -95.439613
9.001                0.882549196     -95.6231227
9.002                0.882197253     -95.8071697
9.003                0.881844371     -95.9917557
9.004                0.881490548      -96.176882
9.005                0.881135789     -96.3625503
9.006                0.880780094      -96.548762
9.007                0.880423464     -96.7355187
9.008                0.880065903     -96.9228219
9.009                0.879707412      -97.110673
9.01                 0.879347992     -97.2990737
9.011                0.878987647     -97.4880254
9.012                0.878626378     -97.6775296
9.013                0.878264187     -97.8675878
9.014                0.877901077     -98.0582016
9.015                 0.87753705     -98.2493724
9.016                0.877172109     -98.4411018
9.017                0.876806256     -98.6333911
9.018                0.876439494      -98.826242
9.019                0.876071826      -99.019656
9.02                 0.875703253     -99.2136344
9.021                0.875333781     -99.4081788
9.022                 0.87496341     -99.6032907
9.023                0.874592144     -99.7989715
9.024                0.874219987     -99.9952227
9.025                0.873846941     -100.192046
9.026                 0.87347301     -100.389442
9.027                0.873098198     -100.587414
9.028                0.872722507     -100.785961
9.029                0.872345941     -100.985086
9.03                 0.871968504     -101.184791
9.031                  0.8715902     -101.385076
9.032                0.871211032     -101.585943
9.033                0.870831005     -101.787394
9.034                0.870450122     -101.989429
9.035                0.870068387     -102.192051
9.036                0.869685806     -102.395261
9.037                0.869302381      -102.59906
9.038                0.868918117      -102.80345
9.039                0.868533019     -103.008431
9.04                 0.868147092     -103.214006
9.041                 0.86776034     -103.420176
9.042                0.867372767     -103.626941
9.043                 0.86698438     -103.834305
9.044                0.866595182     -104.042267
9.045                0.866205179      -104.25083
9.046                0.865814376     -104.459994
9.047                0.865422778     -104.669761
9.048                0.865030392     -104.880133
9.049                0.864637221      -105.09111
9.05                 0.864243272     -105.302694
9.051                0.863848551     -105.514887
9.052                0.863453063     -105.727689
9.053                0.863056814     -105.941102
9.054                0.862659811     -106.155127
9.055                0.862262059     -106.369766
9.056                0.861863565      -106.58502
9.057                0.861464335      -106.80089
9.058                0.861064376     -107.017377
9.059                0.860663694     -107.234483
9.06                 0.860262297     -107.452208
9.061                 0.85986019     -107.670555
9.062                0.859457381     -107.889524
9.063                0.859053876     -108.109116
9.064                0.858649684     -108.329333
9.065                0.858244811     -108.550176
9.066                0.857839265     -108.771646
9.067                0.857433054     -108.993744
9.068                0.857026185     -109.216472
9.069                0.856618665      -109.43983
9.07                 0.856210503      -109.66382
9.071                0.855801707     -109.888443
9.072                0.855392286       -110.1137
9.073                0.854982246     -110.339591
9.074                0.854571597     -110.566119
9.075                0.854160348     -110.793284
9.076                0.853748507     -111.021087
9.077                0.853336082      -111.24953
9.078                0.852923083     -111.478613
9.079                 0.85250952     -111.708337
9.08                   0.8520954     -111.938704
9.081                0.851680733     -112.169714
9.082                 0.85126553     -112.401368
9.083                0.850849799     -112.633668
9.084                 0.85043355     -112.866613
9.085                0.850016793     -113.100207
9.086                0.849599538     -113.334448
9.087                0.849181796     -113.569338
9.088                0.848763576     -113.804878
9.089                0.848344889     -114.041069
9.09                 0.847925746     -114.277912
9.091                0.847506156     -114.515407
9.092                0.847086132     -114.753555
9.093                0.846665684     -114.992357
9.094                0.846244823     -115.231815
9.095                 0.84582356     -115.471928
9.096                0.845401907     -115.712697
9.097                0.844979875     -115.954124
9.098                0.844557476     -116.196208
9.099                0.844134722     -116.438951
9.1                  0.843711625     -116.682354
9.101                0.843288196     -116.926416
9.102                0.842864449     -117.171139
9.103                0.842440395     -117.416523
9.104                0.842016047     -117.662568
9.105                0.841591418     -117.909276
9.106                 0.84116652     -118.156647
9.107                0.840741367     -118.404682
9.108                0.840315972      -118.65338
9.109                0.839890347     -118.902743
9.11                 0.839464507     -119.152771
9.111                0.839038465     -119.403465
9.112                0.838612234     -119.654824
9.113                0.838185829     -119.906849
9.114                0.837759263     -120.159541
9.115                 0.83733255       -120.4129
9.116                0.836905706     -120.666927
9.117                0.836478744     -120.921621
9.118                0.836051678     -121.176983
9.119                0.835624524     -121.433013
9.12                 0.835197297     -121.689712
9.121                0.834770011     -121.947079
9.122                0.834342682     -122.205115
9.123                0.833915325      -122.46382
9.124                0.833487955     -122.723195
9.125                0.833060589     -122.983238
9.126                0.832633241     -123.243951
9.127                0.832205928     -123.505334
9.128                0.831778666     -123.767386
9.129                0.831351471     -124.030107
9.13                 0.830924359     -124.293498
9.131                0.830497347     -124.557558
9.132                0.830070452     -124.822288
9.133                0.829643689     -125.087687
9.134                0.829217077     -125.353755
9.135                0.828790632     -125.620492
9.136                0.828364372     -125.887897
9.137                0.827938313     -126.155971
9.138                0.827512474     -126.424714
9.139                0.827086872     -126.694124
9.14                 0.826661524     -126.964202
9.141                0.826236449     -127.234948
9.142                0.825811664      -127.50636
9.143                0.825387189     -127.778439
9.144                 0.82496304     -128.051184
9.145                0.824539237     -128.324594
9.146                0.824115799      -128.59867
9.147                0.823692743      -128.87341
9.148                0.823270089     -129.148814
9.149                0.822847857     -129.424882
9.15                 0.822426064     -129.701612
9.151                 0.82200473     -129.979005
9.152                0.821583875     -130.257059
9.153                0.821163518     -130.535773
9.154                0.820743679     -130.815148
9.155                0.820324378     -131.095181
9.156                0.819905634     -131.375873
9.157                0.819487468     -131.657222
9.158                  0.8190699     -131.939227
9.159                0.818652949     -132.221888
9.16                 0.818236637     -132.505204
9.161                0.817820984     -132.789173
9.162                 0.81740601     -133.073794
9.163                0.816991737     -133.359066
9.164                0.816578185     -133.644989
9.165                0.816165374     -133.931561
9.166                0.815753327      -134.21878
9.167                0.815342065     -134.506646
9.168                0.814931608     -134.795157
9.169                0.814521978     -135.084312
9.17                 0.814113197     -135.374109
9.171                0.813705285     -135.664548
9.172                0.813298266     -135.955626
9.173                0.812892161     -136.247342
9.174                0.812486991     -136.539695
9.175                0.812082778     -136.832682
9.176                0.811679545     -137.126304
9.177                0.811277314     -137.420556
9.178                0.810876108     -137.715439
9.179                0.810475947     -138.010951
9.18                 0.810076856     -138.307089
9.181                0.809678855     -138.603851
9.182                0.809281969     -138.901236
9.183                0.808886219     -139.199243
9.184                0.808491629     -139.497868
9.185                0.808098221      -139.79711
9.186                0.807706018     -140.096968
9.187                0.807315043     -140.397438
9.188                0.806925318     -140.698519
9.189                0.806536868     -141.000208
9.19                 0.806149715     -141.302504
9.191                0.805763882     -141.605404
9.192                0.805379393     -141.908905
9.193                 0.80499627     -142.213007
9.194                0.804614537     -142.517705
9.195                0.804234218     -142.822998
9.196                0.803855336     -143.128883
9.197                0.803477914     -143.435358
9.198                0.803101975      -143.74242
9.199                0.802727544     -144.050066
9.2                  0.802354644     -144.358294
9.201                0.801983298     -144.667102
9.202                 0.80161353     -144.976485
9.203                0.801245363     -145.286443
9.204                0.800878821      -145.59697
9.205                0.800513928     -145.908066
9.206                0.800150707     -146.219727
9.207                0.799789182      -146.53195
9.208                0.799429377     -146.844731
9.209                0.799071314     -147.158069
9.21                 0.798715019     -147.471959
9.211                0.798360514     -147.786398
9.212                0.798007823     -148.101384
9.213                0.797656969     -148.416914
9.214                0.797307977     -148.732982
9.215                0.796960869     -149.049588
9.216                0.796615669     -149.366726
9.217                0.796272401     -149.684394
9.218                0.795931088     -150.002588
9.219                0.795591753     -150.321305
9.22                 0.795254421     -150.640541
9.221                0.794919113     -150.960292
9.222                0.794585854     -151.280555
9.223                0.794254666     -151.601326
9.224                0.793925573     -151.922601
9.225                0.793598598     -152.244376
9.226                0.793273764     -152.566648
9.227                0.792951094     -152.889413
9.228                 0.79263061     -153.212666
9.229                0.792312336     -153.536404
9.23                 0.791996294     -153.860623
9.231                0.791682507     -154.185319
9.232                0.791370998     -154.510487
9.233                0.791061788     -154.836123
9.234                  0.7907549     -155.162223
9.235                0.790450357     -155.488783
9.236                0.790148181     -155.815799
9.237                0.789848393     -156.143265
9.238                0.789551016     -156.471179
9.239                0.789256071     -156.799535
9.24                  0.78896358     -157.128328
9.241                0.788673565     -157.457555
9.242                0.788386047     -157.787211
9.243                0.788101047     -158.117291
9.244                0.787818587      -158.44779
9.245                0.787538687     -158.778704
9.246                0.787261369     -159.110028
9.247                0.786986653     -159.441757
9.248                0.786714559     -159.773886
9.249                0.786445109     -160.106412
9.25                 0.786178322     -160.439327
9.251                0.785914218     -160.772629
9.252                0.785652818     -161.106311
9.253                0.785394141     -161.440369
9.254                0.785138206     -161.774797
9.255                0.784885033     -162.109591
9.256                0.784634642     -162.444745
9.257                0.784387051     -162.780255
9.258                0.784142278     -163.116114
9.259                0.783900344     -163.452318
9.26                 0.783661265     -163.788862
9.261                 0.78342506     -164.125739
9.262                0.783191748     -164.462945
9.263                0.782961346     -164.800474
9.264                0.782733871     -165.138322
9.265                0.782509341     -165.476481
9.266                0.782287773     -165.814948
9.267                0.782069184     -166.153715
9.268                0.781853591     -166.492778
9.269                0.781641009     -166.832132
9.27                 0.781431456      -167.17177
9.271                0.781224947     -167.511686
9.272                0.781021498     -167.851876
9.273                0.780821124     -168.192333
9.274                0.780623841     -168.533052
9.275                0.780429663     -168.874026
9.276                0.780238605      -169.21525
9.277                0.780050682     -169.556718
9.278                0.779865907     -169.898425
9.279                0.779684296     -170.240364
9.28                  0.77950586     -170.582529
9.281                0.779330615     -170.924914
9.282                0.779158572     -171.267514
9.283                0.778989744     -171.610322
9.284                0.778824145     -171.953332
9.285                0.778661786     -172.296539
9.286                 0.77850268     -172.639935
9.287                0.778346837     -172.983516
9.288                 0.77819427     -173.327275
9.289                0.778044989     -173.671205
9.29                 0.777899005     -174.015301
9.291                0.777756329     -174.359557
9.292                0.777616971     -174.703965
9.293                0.777480941     -175.048521
9.294                0.777348248     -175.393217
9.295                0.777218902     -175.738047
9.296                0.777092911     -176.083006
9.297                0.776970284     -176.428086
9.298                 0.77685103     -176.773282
9.299                0.776735157     -177.118588
9.3                  0.776622672     -177.463996
9.301                0.776513582       -177.8095
9.302                0.776407895     -178.155095
9.303                0.776305618     -178.500773
9.304                0.776206756     -178.846529
9.305                0.776111317     -179.192356
9.306                0.776019305     -179.538247
9.307                0.775930726     -179.884196
9.308                0.775845586      179.769803
9.309                0.775763889      179.423756
9.31                 0.775685639      179.077671
9.311                0.775610841      178.731553
9.312                0.775539499       178.38541
9.313                0.775471615      178.039247
9.314                0.775407194      177.693071
9.315                0.775346237      177.346888
9.316                0.775288748      177.000705
9.317                0.775234728      176.654528
9.318                0.775184179      176.308365
9.319                0.775137104       175.96222
9.32                 0.775093502      175.616101
9.321                0.775053374      175.270014
9.322                0.775016722      174.923966
9.323                0.774983545      174.577963
9.324                0.774953843      174.232011
9.325                0.774927615      173.886117
9.326                0.774904861      173.540288
9.327                 0.77488558      173.194529
9.328                0.774869769      172.848847
9.329                0.774857428      172.503249
9.33                 0.774848553      172.157741
9.331                0.774843142      171.812329
9.332                0.774841193       171.46702
9.333                0.774842702       171.12182
9.334                0.774847666      170.776736
9.335                 0.77485608      170.431773
9.336                0.774867941      170.086938
9.337                0.774883245      169.742238
9.338                0.774901985      169.397678
9.339                0.774924158      169.053265
9.34                 0.774949758      168.709006
9.341                0.774978779      168.364906
9.342                0.775011215      168.020972
9.343                0.775047059      167.677209
9.344                0.775086305      167.333625
9.345                0.775128946      166.990225
9.346                0.775174974      166.647015
9.347                0.775224382      166.304002
9.348                0.775277162      165.961192
9.349                0.775333305       165.61859
9.35                 0.775392803      165.276203
9.351                0.775455648      164.934037
9.352                 0.77552183      164.592097
9.353                0.775591339      164.250391
9.354                0.775664166      163.908923
9.355                0.775740301        163.5677
9.356                0.775819733      163.226727
9.357                0.775902452      162.886011
9.358                0.775988448      162.545558
9.359                0.776077708      162.205372
9.36                 0.776170221       161.86546
9.361                0.776265977      161.525828
9.362                0.776364962      161.186481
9.363                0.776467165      160.847426
9.364                0.776572573      160.508667
9.365                0.776681173       160.17021
9.366                0.776792952      159.832062
9.367                0.776907897      159.494227
9.368                0.777025995      159.156711
9.369                0.777147232       158.81952
9.37                 0.777271593      158.482658
9.371                0.777399064      158.146132
9.372                0.777529632      157.809947
9.373                 0.77766328      157.474109
9.374                0.777799995      157.138621
9.375                0.777939761      156.803491
9.376                0.778082562      156.468722
9.377                0.778228384      156.134321
9.378                0.778377209      155.800292
9.379                0.778529022       155.46664
9.38                 0.778683807      155.133372
9.381                0.778841548       154.80049
9.382                0.779002227      154.468002
9.383                0.779165827      154.135911
9.384                0.779332332      153.804222
9.385                0.779501724      153.472941
9.386                0.779673987      153.142073
9.387                0.779849101      152.811621
9.388                0.780027049      152.481591
9.389                0.780207814      152.151988
9.39                 0.780391377      151.822815
9.391                 0.78057772      151.494079
9.392                0.780766824      151.165783
9.393                0.780958671      150.837932
9.394                0.781153241       150.51053
9.395                0.781350516      150.183583
9.396                0.781550477      149.857093
