! TOUCHSTONE file generated by CST DESIGN STUDIO
! Date and time: Tue Feb  4 18:25:23 2025
! Project name: C:\Work\MatlabApps\UnitCellOptimizationMatlab\CST\unitcell.cst
! Tree item: Tasks\Sweep1\SPara1\S-Parameters
! Header version: 2024
! Port assignment regex: !\s*Touchstone port\s*([0-9]+)\s*=\s*(CST MWS port|CST DES external port|CST DES block port)\s*(.+)\s* \(\"(.*)\"\)(\s*mode\s*([0-9]+))?.*
! Touchstone port assignment:
! Touchstone port 1 = CST DES external port 1 ("")
# GHz S MA R 50
9                    0.966815816     -40.5358143
9.001                0.966762288     -40.5822228
9.002                0.966708607     -40.6287156
9.003                0.966654773      -40.675293
9.004                0.966600785     -40.7219552
9.005                0.966546644     -40.7687025
9.006                0.966492348      -40.815535
9.007                0.966437898     -40.8624531
9.008                0.966383292      -40.909457
9.009                 0.96632853     -40.9565469
9.01                 0.966273611      -41.003723
9.011                0.966218535     -41.0509856
9.012                0.966163302      -41.098335
9.013                0.966107911     -41.1457713
9.014                0.966052361     -41.1932949
9.015                0.965996652     -41.2409059
9.016                0.965940784     -41.2886047
9.017                0.965884755     -41.3363914
9.018                0.965828565     -41.3842664
9.019                0.965772214     -41.4322298
9.02                 0.965715702      -41.480282
9.021                0.965659027     -41.5284231
9.022                0.965602189     -41.5766535
9.023                0.965545187     -41.6249733
9.024                0.965488022     -41.6733828
9.025                0.965430692     -41.7218824
9.026                0.965373197     -41.7704722
9.027                0.965315536     -41.8191525
9.028                0.965257709     -41.8679235
9.029                0.965199715     -41.9167856
9.03                 0.965141554     -41.9657389
9.031                0.965083225     -42.0147838
9.032                0.965024727     -42.0639204
9.033                 0.96496606     -42.1131492
9.034                0.964907224     -42.1624702
9.035                0.964848217     -42.2118839
9.036                 0.96478904     -42.2613904
9.037                0.964729691       -42.31099
9.038                 0.96467017      -42.360683
9.039                0.964610477     -42.4104696
9.04                 0.964550611     -42.4603502
9.041                0.964490571      -42.510325
9.042                0.964430356     -42.5603942
9.043                0.964369967     -42.6105581
9.044                0.964309402     -42.6608171
9.045                0.964248661     -42.7111714
9.046                0.964187744     -42.7616212
9.047                0.964126649     -42.8121668
9.048                0.964065376     -42.8628086
9.049                0.964003925     -42.9135467
9.05                 0.963942294     -42.9643815
9.051                0.963880484     -43.0153132
9.052                0.963818494     -43.0663422
9.053                0.963756323     -43.1174687
9.054                 0.96369397     -43.1686929
9.055                0.963631434     -43.2200152
9.056                0.963568716     -43.2714359
9.057                0.963505815     -43.3229553
9.058                0.963442729     -43.3745735
9.059                0.963379459      -43.426291
9.06                 0.963316004      -43.478108
9.061                0.963252362     -43.5300247
9.062                0.963188534     -43.5820416
9.063                0.963124518     -43.6341588
9.064                0.963060315     -43.6863767
9.065                0.962995923     -43.7386956
9.066                0.962931342     -43.7911157
9.067                0.962866571     -43.8436374
9.068                 0.96280161     -43.8962609
9.069                0.962736457     -43.9489866
9.07                 0.962671113     -44.0018148
9.071                0.962605576     -44.0547456
9.072                0.962539846     -44.1077796
9.073                0.962473922     -44.1609169
9.074                0.962407804     -44.2141578
9.075                 0.96234149     -44.2675027
9.076                0.962274981     -44.3209519
9.077                0.962208275     -44.3745056
9.078                0.962141372     -44.4281643
9.079                0.962074271     -44.4819281
9.08                 0.962006972     -44.5357974
9.081                0.961939473     -44.5897725
9.082                0.961871775     -44.6438538
9.083                0.961803876     -44.6980415
9.084                0.961735775     -44.7523359
9.085                0.961667473     -44.8067374
9.086                0.961598967     -44.8612463
9.087                0.961530259     -44.9158629
9.088                0.961461346     -44.9705876
9.089                0.961392228     -45.0254205
9.09                 0.961322905     -45.0803622
9.091                0.961253376     -45.1354128
9.092                0.961183639     -45.1905727
9.093                0.961113695     -45.2458423
9.094                0.961043542     -45.3012218
9.095                0.960973181     -45.3567116
9.096                0.960902609     -45.4123121
9.097                0.960831827     -45.4680235
9.098                0.960760833     -45.5238461
9.099                0.960689628     -45.5797804
9.1                  0.960618209     -45.6358266
9.101                0.960546577     -45.6919851
9.102                0.960474731     -45.7482562
9.103                0.960402669     -45.8046403
9.104                0.960330392     -45.8611377
9.105                0.960257898     -45.9177486
9.106                0.960185187     -45.9744736
9.107                0.960112258     -46.0313129
9.108                 0.96003911     -46.0882668
9.109                0.959965742     -46.1453357
9.11                 0.959892154       -46.20252
9.111                0.959818345       -46.25982
9.112                0.959744313      -46.317236
9.113                0.959670059     -46.3747684
9.114                0.959595582     -46.4324175
9.115                 0.95952088     -46.4901838
9.116                0.959445953     -46.5480675
9.117                0.959370801      -46.606069
9.118                0.959295421     -46.6641886
9.119                0.959219814     -46.7224268
9.12                 0.959143979     -46.7807838
9.121                0.959067915     -46.8392601
9.122                0.958991621      -46.897856
9.123                0.958915097     -46.9565718
9.124                0.958838341      -47.015408
9.125                0.958761352     -47.0743648
9.126                0.958684131     -47.1334427
9.127                0.958606675      -47.192642
9.128                0.958528985     -47.2519632
9.129                0.958451059     -47.3114064
9.13                 0.958372897     -47.3709723
9.131                0.958294497      -47.430661
9.132                 0.95821586      -47.490473
9.133                0.958136983     -47.5504087
9.134                0.958057867     -47.6104684
9.135                 0.95797851     -47.6706525
9.136                0.957898911     -47.7309614
9.137                 0.95781907     -47.7913955
9.138                0.957738986     -47.8519552
9.139                0.957658658     -47.9126408
9.14                 0.957578085     -47.9734527
9.141                0.957497267     -48.0343914
9.142                0.957416201     -48.0954572
9.143                0.957334888     -48.1566504
9.144                0.957253327     -48.2179716
9.145                0.957171516     -48.2794211
9.146                0.957089456     -48.3409992
9.147                0.957007144     -48.4027064
9.148                 0.95692458     -48.4645431
9.149                0.956841763     -48.5265096
9.15                 0.956758693     -48.5886065
9.151                0.956675368      -48.650834
9.152                0.956591788     -48.7131926
9.153                0.956507951     -48.7756826
9.154                0.956423856     -48.8383046
9.155                0.956339504     -48.9010589
9.156                0.956254892     -48.9639459
9.157                 0.95617002      -49.026966
9.158                0.956084887     -49.0901196
9.159                0.955999492     -49.1534072
9.16                 0.955913835     -49.2168291
9.161                0.955827913     -49.2803858
9.162                0.955741727     -49.3440778
9.163                0.955655275     -49.4079053
9.164                0.955568556     -49.4718689
9.165                 0.95548157      -49.535969
9.166                0.955394315     -49.6002059
9.167                 0.95530679     -49.6645802
9.168                0.955218996     -49.7290922
9.169                0.955130929     -49.7937424
9.17                 0.955042591     -49.8585312
9.171                0.954953979      -49.923459
9.172                0.954865092     -49.9885264
9.173                 0.95477593     -50.0537336
9.174                0.954686492     -50.1190812
9.175                0.954596777     -50.1845696
9.176                0.954506784     -50.2501992
9.177                0.954416511     -50.3159705
9.178                0.954325958     -50.3818839
9.179                0.954235123     -50.4479399
9.18                 0.954144007     -50.5141389
9.181                0.954052607     -50.5804813
9.182                0.953960922     -50.6469677
9.183                0.953868953     -50.7135985
9.184                0.953776697     -50.7803741
9.185                0.953684154     -50.8472949
9.186                0.953591322     -50.9143615
9.187                0.953498201     -50.9815743
9.188                 0.95340479     -51.0489338
9.189                0.953311087     -51.1164404
9.19                 0.953217092     -51.1840946
9.191                0.953122803     -51.2518968
9.192                0.953028219     -51.3198476
9.193                 0.95293334     -51.3879473
9.194                0.952838164     -51.4561966
9.195                0.952742691     -51.5245958
9.196                0.952646918     -51.5931454
9.197                0.952550846     -51.6618459
9.198                0.952454472     -51.7306977
9.199                0.952357797     -51.7997015
9.2                  0.952260819     -51.8688575
9.201                0.952163536     -51.9381664
9.202                0.952065948     -52.0076287
9.203                0.951968053     -52.0772447
9.204                0.951869851      -52.147015
9.205                0.951771341     -52.2169401
9.206                0.951672521     -52.2870204
9.207                 0.95157339     -52.3572566
9.208                0.951473947      -52.427649
9.209                0.951374191     -52.4981982
9.21                 0.951274121     -52.5689047
9.211                0.951173736     -52.6397689
9.212                0.951073034     -52.7107914
9.213                0.950972015     -52.7819727
9.214                0.950870677     -52.8533133
9.215                0.950769019     -52.9248138
9.216                0.950667041     -52.9964745
9.217                 0.95056474     -53.0682961
9.218                0.950462116     -53.1402791
9.219                0.950359168     -53.2124239
9.22                 0.950255894     -53.2847311
9.221                0.950152294     -53.3572012
9.222                0.950048366     -53.4298348
9.223                0.949944108     -53.5026323
9.224                0.949839521     -53.5755944
9.225                0.949734602     -53.6487215
9.226                 0.94962935     -53.7220141
9.227                0.949523765     -53.7954728
9.228                0.949417844     -53.8690982
9.229                0.949311588     -53.9428908
9.23                 0.949204994      -54.016851
9.231                0.949098062     -54.0909795
9.232                 0.94899079     -54.1652769
9.233                0.948883177     -54.2397435
9.234                0.948775222     -54.3143801
9.235                0.948666923     -54.3891871
9.236                 0.94855828     -54.4641652
9.237                0.948449291     -54.5393147
9.238                0.948339954     -54.6146364
9.239                 0.94823027     -54.6901308
9.24                 0.948120236     -54.7657985
9.241                0.948009851     -54.8416399
9.242                0.947899114     -54.9176557
9.243                0.947788024     -54.9938464
9.244                0.947676579     -55.0702126
9.245                0.947564778      -55.146755
9.246                 0.94745262     -55.2234739
9.247                0.947340104     -55.3003701
9.248                0.947227228     -55.3774441
9.249                0.947113992     -55.4546966
9.25                 0.947000393     -55.5321279
9.251                 0.94688643     -55.6097389
9.252                0.946772103       -55.68753
9.253                 0.94665741     -55.7655018
9.254                 0.94654235      -55.843655
9.255                 0.94642692     -55.9219901
9.256                0.946311121     -56.0005077
9.257                0.946194951     -56.0792084
9.258                0.946078407     -56.1580929
9.259                 0.94596149     -56.2371617
9.26                 0.945844198     -56.3164154
9.261                0.945726529     -56.3958547
9.262                0.945608483     -56.4754801
9.263                0.945490057     -56.5552923
9.264                 0.94537125     -56.6352919
9.265                0.945252061     -56.7154794
9.266                 0.94513249     -56.7958556
9.267                0.945012533      -56.876421
9.268                0.944892191     -56.9571763
9.269                0.944771461     -57.0381221
9.27                 0.944650343      -57.119259
9.271                0.944528834     -57.2005876
9.272                0.944406934     -57.2821087
9.273                0.944284641     -57.3638228
9.274                0.944161954     -57.4457305
9.275                0.944038871     -57.5278325
9.276                0.943915392     -57.6101295
9.277                0.943791514     -57.6926221
9.278                0.943667236     -57.7753109
9.279                0.943542557     -57.8581966
9.28                 0.943417475     -57.9412798
9.281                0.943291989     -58.0245613
9.282                0.943166098     -58.1080416
9.283                  0.9430398     -58.1917215
9.284                0.942913094     -58.2756015
9.285                0.942785978     -58.3596824
9.286                0.942658451     -58.4439647
9.287                0.942530512     -58.5284493
9.288                0.942402158     -58.6131368
9.289                0.942273389     -58.6980278
9.29                 0.942144203      -58.783123
9.291                0.942014599     -58.8684231
9.292                0.941884575     -58.9539288
9.293                 0.94175413     -59.0396407
9.294                0.941623262     -59.1255597
9.295                0.941491969     -59.2116862
9.296                0.941360251     -59.2980211
9.297                0.941228106     -59.3845651
9.298                0.941095533     -59.4713188
9.299                0.940962529     -59.5582829
9.3                  0.940829093     -59.6454582
9.301                0.940695225     -59.7328453
9.302                0.940560922      -59.820445
9.303                0.940426183      -59.908258
9.304                0.940291006      -59.996285
9.305                 0.94015539     -60.0845266
9.306                0.940019333     -60.1729837
9.307                0.939882835      -60.261657
9.308                0.939745893     -60.3505471
9.309                0.939608505     -60.4396549
9.31                 0.939470671     -60.5289809
9.311                0.939332389     -60.6185261
9.312                0.939193657      -60.708291
9.313                0.939054473     -60.7982765
9.314                0.938914837     -60.8884833
9.315                0.938774747     -60.9789121
9.316                  0.9386342     -61.0695637
9.317                0.938493196     -61.1604389
9.318                0.938351733     -61.2515383
9.319                0.938209809     -61.3428628
9.32                 0.938067423     -61.4344131
9.321                0.937924574     -61.5261899
9.322                0.937781259     -61.6181941
9.323                0.937637477     -61.7104263
9.324                0.937493227     -61.8028874
9.325                0.937348507     -61.8955782
9.326                0.937203315     -61.9884994
9.327                 0.93705765     -62.0816518
9.328                 0.93691151     -62.1750361
9.329                0.936764894     -62.2686532
9.33                 0.936617799     -62.3625039
9.331                0.936470225     -62.4565889
9.332                 0.93632217      -62.550909
9.333                0.936173632      -62.645465
9.334                 0.93602461     -62.7402578
9.335                0.935875102     -62.8352881
9.336                0.935725105     -62.9305568
9.337                 0.93557462     -63.0260646
9.338                0.935423644     -63.1218123
9.339                0.935272175     -63.2178008
9.34                 0.935120212     -63.3140309
9.341                0.934967754     -63.4105034
9.342                0.934814797     -63.5072191
9.343                0.934661342     -63.6041789
9.344                0.934507386     -63.7013836
9.345                0.934352928     -63.7988339
9.346                0.934197966     -63.8965309
9.347                0.934042498     -63.9944752
9.348                0.933886522     -64.0926677
9.349                0.933730038     -64.1911093
9.35                 0.933573043     -64.2898009
9.351                0.933415536     -64.3887432
9.352                0.933257515     -64.4879371
9.353                0.933098979     -64.5873835
9.354                0.932939925     -64.6870832
9.355                0.932780352     -64.7870372
9.356                0.932620258     -64.8872462
9.357                0.932459642     -64.9877111
9.358                0.932298503     -65.0884329
9.359                0.932136837     -65.1894123
9.36                 0.931974644     -65.2906503
9.361                0.931811923     -65.3921477
9.362                 0.93164867     -65.4939055
9.363                0.931484885     -65.5959245
9.364                0.931320566     -65.6982056
9.365                0.931155712     -65.8007496
9.366                0.930990319     -65.9035576
9.367                0.930824388     -66.0066304
9.368                0.930657916     -66.1099689
9.369                0.930490901      -66.213574
9.37                 0.930323342     -66.3174466
9.371                0.930155237     -66.4215876
9.372                0.929986584      -66.525998
9.373                0.929817382     -66.6306786
9.374                0.929647629     -66.7356305
9.375                0.929477323     -66.8408544
9.376                0.929306462     -66.9463514
9.377                0.929135046     -67.0521224
9.378                0.928963071     -67.1581683
9.379                0.928790537       -67.26449
9.38                 0.928617442     -67.3710886
9.381                0.928443783     -67.4779648
9.382                 0.92826956     -67.5851198
9.383                 0.92809477     -67.6925544
9.384                0.927919412     -67.8002696
9.385                0.927743484     -67.9082664
9.386                0.927566985     -68.0165457
9.387                0.927389912     -68.1251084
9.388                0.927212264     -68.2339556
9.389                 0.92703404     -68.3430883
9.39                 0.926855237     -68.4525073
9.391                0.926675854     -68.5622138
9.392                0.926495888     -68.6722085
9.393                 0.92631534     -68.7824927
9.394                0.926134205     -68.8930671
9.395                0.925952484     -69.0039329
9.396                0.925770174     -69.1150911
