! TOUCHSTONE file generated by CST DESIGN STUDIO
! Date and time: Tue Feb  4 18:41:44 2025
! Project name: C:\Work\MatlabApps\UnitCellOptimizationMatlab\CST\unitcell.cst
! Tree item: Tasks\Sweep1\SPara1\S-Parameters
! Header version: 2024
! Port assignment regex: !\s*Touchstone port\s*([0-9]+)\s*=\s*(CST MWS port|CST DES external port|CST DES block port)\s*(.+)\s* \(\"(.*)\"\)(\s*mode\s*([0-9]+))?.*
! Touchstone port assignment:
! Touchstone port 1 = CST DES external port 1 ("")
# GHz S MA R 50
9                    0.933824344     -59.6116677
9.001                0.933627592     -59.7025343
9.002                0.933430083     -59.7936478
9.003                0.933231813     -59.8850094
9.004                0.933032779     -59.9766199
9.005                0.932832977     -60.0684803
9.006                0.932632404     -60.1605916
9.007                0.932431056     -60.2529547
9.008                0.932228931     -60.3455707
9.009                0.932026023     -60.4384404
9.01                 0.931822331     -60.5315649
9.011                 0.93161785     -60.6249452
9.012                0.931412576     -60.7185822
9.013                0.931206506      -60.812477
9.014                0.930999637     -60.9066306
9.015                0.930791965     -61.0010439
9.016                0.930583486      -61.095718
9.017                0.930374197     -61.1906539
9.018                0.930164093     -61.2858526
9.019                0.929953172     -61.3813152
9.02                  0.92974143     -61.4770426
9.021                0.929528862     -61.5730359
9.022                0.929315465     -61.6692962
9.023                0.929101236     -61.7658244
9.024                 0.92888617     -61.8626217
9.025                0.928670265     -61.9596891
9.026                0.928453515     -62.0570276
9.027                0.928235918     -62.1546383
9.028                0.928017469     -62.2525223
9.029                0.927798165     -62.3506806
9.03                 0.927578001     -62.4491144
9.031                0.927356975     -62.5478246
9.032                0.927135081     -62.6468125
9.033                0.926912317      -62.746079
9.034                0.926688678     -62.8456253
9.035                 0.92646416     -62.9454525
9.036                 0.92623876     -63.0455617
9.037                0.926012473      -63.145954
9.038                0.925785296     -63.2466305
9.039                0.925557224     -63.3475923
9.04                 0.925328253     -63.4488407
9.041                 0.92509838     -63.5503766
9.042                0.924867601     -63.6522012
9.043                0.924635911     -63.7543157
9.044                0.924403307     -63.8567212
9.045                0.924169783      -63.959419
9.046                0.923935337       -64.06241
9.047                0.923699964     -64.1656956
9.048                 0.92346366     -64.2692768
9.049                0.923226421     -64.3731548
9.05                 0.922988242     -64.4773309
9.051                 0.92274912     -64.5818061
9.052                0.922509051     -64.6865818
9.053                0.922268029      -64.791659
9.054                0.922026052     -64.8970391
9.055                0.921783114     -65.0027231
9.056                0.921539212     -65.1087123
9.057                0.921294341     -65.2150079
9.058                0.921048497     -65.3216112
9.059                0.920801675     -65.4285233
9.06                 0.920553872     -65.5357455
9.061                0.920305083     -65.6432791
9.062                0.920055304     -65.7511253
9.063                 0.91980453     -65.8592853
9.064                0.919552757     -65.9677603
9.065                0.919299981     -66.0765518
9.066                0.919046197     -66.1856608
9.067                0.918791401     -66.2950887
9.068                0.918535589     -66.4048368
9.069                0.918278755     -66.5149063
9.07                 0.918020896     -66.6252986
9.071                0.917762007     -66.7360149
9.072                0.917502084     -66.8470565
9.073                0.917241122     -66.9584247
9.074                0.916979117      -67.070121
9.075                0.916716064     -67.1821464
9.076                0.916451958     -67.2945025
9.077                0.916186796     -67.4071905
9.078                0.915920572     -67.5202118
9.079                0.915653282     -67.6335676
9.08                 0.915384922     -67.7472594
9.081                0.915115486     -67.8612885
9.082                0.914844971     -67.9756563
9.083                0.914573371     -68.0903641
9.084                0.914300681     -68.2054133
9.085                0.914026899     -68.3208053
9.086                0.913752018     -68.4365414
9.087                0.913476033     -68.5526231
9.088                0.913198941     -68.6690517
9.089                0.912920737     -68.7858287
9.09                 0.912641415     -68.9029555
9.091                0.912360972     -69.0204334
9.092                0.912079402     -69.1382639
9.093                  0.9117967     -69.2564485
9.094                0.911512863     -69.3749885
9.095                0.911227884     -69.4938854
9.096                 0.91094176     -69.6131406
9.097                0.910654486     -69.7327557
9.098                0.910366056      -69.852732
9.099                0.910076466      -69.973071
9.1                  0.909785711     -70.0937742
9.101                0.909493786     -70.2148431
9.102                0.909200687     -70.3362792
9.103                0.908906408     -70.4580839
9.104                0.908610945     -70.5802587
9.105                0.908314293     -70.7028052
9.106                0.908016447     -70.8257249
9.107                0.907717401     -70.9490192
9.108                0.907417152     -71.0726897
9.109                0.907115694      -71.196738
9.11                 0.906813022     -71.3211655
9.111                0.906509131     -71.4459739
9.112                0.906204017     -71.5711646
9.113                0.905897674     -71.6967392
9.114                0.905590097     -71.8226994
9.115                0.905281282     -71.9490465
9.116                0.904971223     -72.0757824
9.117                0.904659916     -72.2029084
9.118                0.904347355     -72.3304262
9.119                0.904033536     -72.4583375
9.12                 0.903718454     -72.5866437
9.121                0.903402102     -72.7153466
9.122                0.903084477     -72.8444477
9.123                0.902765574     -72.9739487
9.124                0.902445387     -73.1038512
9.125                0.902123911     -73.2341569
9.126                0.901801142     -73.3648673
9.127                0.901477073     -73.4959841
9.128                0.901151701      -73.627509
9.129                 0.90082502     -73.7594437
9.13                 0.900497025     -73.8917899
9.131                0.900167711     -74.0245491
9.132                0.899837073     -74.1577232
9.133                0.899505106     -74.2913137
9.134                0.899171805     -74.4253225
9.135                0.898837164     -74.5597512
9.136                0.898501179     -74.6946015
9.137                0.898163844     -74.8298751
9.138                0.897825155     -74.9655738
9.139                0.897485106     -75.1016994
9.14                 0.897143692     -75.2382535
9.141                0.896800908     -75.3752379
9.142                0.896456749     -75.5126544
9.143                0.896111211     -75.6505047
9.144                0.895764287     -75.7887906
9.145                0.895415973      -75.927514
9.146                0.895066264     -76.0666765
9.147                0.894715154       -76.20628
9.148                0.894362639     -76.3463262
9.149                0.894008713     -76.4868171
9.15                 0.893653371     -76.6277543
9.151                0.893296609     -76.7691398
9.152                0.892938421     -76.9109754
9.153                0.892578802     -77.0532628
9.154                0.892217748     -77.1960041
9.155                0.891855252     -77.3392009
9.156                 0.89149131     -77.4828551
9.157                0.891125918     -77.6269687
9.158                0.890759069     -77.7715435
9.159                0.890390759     -77.9165814
9.16                 0.890020983     -78.0620842
9.161                0.889649736      -78.208054
9.162                0.889277012     -78.3544925
9.163                0.888902808     -78.5014017
9.164                0.888527117     -78.6487836
9.165                0.888149935     -78.7966399
9.166                0.887771258     -78.9449728
9.167                0.887391079      -79.093784
9.168                0.887009394     -79.2430757
9.169                0.886626199     -79.3928496
9.17                 0.886241487     -79.5431079
9.171                0.885855255     -79.6938524
9.172                0.885467497     -79.8450852
9.173                0.885078209     -79.9968081
9.174                0.884687386     -80.1490233
9.175                0.884295023     -80.3017328
9.176                0.883901114     -80.4549384
9.177                0.883505656     -80.6086423
9.178                0.883108644     -80.7628465
9.179                0.882710072      -80.917553
9.18                 0.882309937     -81.0727639
9.181                0.881908232     -81.2284811
9.182                0.881504954     -81.3847067
9.183                0.881100099     -81.5414429
9.184                 0.88069366     -81.6986917
9.185                0.880285634     -81.8564551
9.186                0.879876016     -82.0147352
9.187                0.879464802     -82.1735341
9.188                0.879051987      -82.332854
9.189                0.878637566     -82.4926969
9.19                 0.878221535     -82.6530649
9.191                 0.87780389     -82.8139602
9.192                0.877384626     -82.9753849
9.193                0.876963738     -83.1373411
9.194                0.876541223     -83.2998309
9.195                0.876117075     -83.4628566
9.196                0.875691291     -83.6264202
9.197                0.875263867      -83.790524
9.198                0.874834798       -83.95517
9.199                 0.87440408     -84.1203606
9.2                  0.873971708     -84.2860978
9.201                0.873537679     -84.4523838
9.202                0.873101989     -84.6192209
9.203                0.872664634     -84.7866113
9.204                0.872225609     -84.9545571
9.205                 0.87178491     -85.1230606
9.206                0.871342535     -85.2921241
9.207                0.870898478     -85.4617497
9.208                0.870452736     -85.6319397
9.209                0.870005305     -85.8026963
9.21                 0.869556182     -85.9740219
9.211                0.869105363     -86.1459186
9.212                0.868652844     -86.3183887
9.213                0.868198621     -86.4914345
9.214                0.867742692     -86.6650584
9.215                0.867285052     -86.8392625
9.216                0.866825698     -87.0140491
9.217                0.866364627     -87.1894207
9.218                0.865901836     -87.3653794
9.219                0.865437321     -87.5419277
9.22                 0.864971079     -87.7190677
9.221                0.864503107     -87.8968019
9.222                0.864033402     -88.0751326
9.223                 0.86356196     -88.2540621
9.224                 0.86308878     -88.4335928
9.225                0.862613858      -88.613727
9.226                0.862137191     -88.7944671
9.227                0.861658776     -88.9758155
9.228                0.861178612     -89.1577744
9.229                0.860696694     -89.3403464
9.23                 0.860213022     -89.5235338
9.231                0.859727591     -89.7073389
9.232                0.859240401     -89.8917642
9.233                0.858751448     -90.0768121
9.234                0.858260731     -90.2624849
9.235                0.857768247     -90.4487852
9.236                0.857273994     -90.6357152
9.237                0.856777971     -90.8232775
9.238                0.856280174     -91.0114745
9.239                0.855780604     -91.2003085
9.24                 0.855279257     -91.3897821
9.241                0.854776133     -91.5798977
9.242                0.854271229     -91.7706577
9.243                0.853764545     -91.9620646
9.244                0.853256078     -92.1541208
9.245                0.852745828     -92.3468288
9.246                0.852233794     -92.5401912
9.247                0.851719974     -92.7342103
9.248                0.851204368     -92.9288886
9.249                0.850686974     -93.1242286
9.25                 0.850167793     -93.3202328
9.251                0.849646823     -93.5169037
9.252                0.849124063     -93.7142439
9.253                0.848599514     -93.9122557
9.254                0.848073175     -94.1109416
9.255                0.847545046     -94.3103043
9.256                0.847015127     -94.5103462
9.257                0.846483417     -94.7110699
9.258                0.845949918     -94.9124777
9.259                0.845414628     -95.1145724
9.26                  0.84487755     -95.3173563
9.261                0.844338683      -95.520832
9.262                0.843798027     -95.7250021
9.263                0.843255584     -95.9298691
9.264                0.842711355     -96.1354355
9.265                0.842165341     -96.3417038
9.266                0.841617542     -96.5486766
9.267                 0.84106796     -96.7563565
9.268                0.840516598     -96.9647459
9.269                0.839963455     -97.1738475
9.27                 0.839408534     -97.3836637
9.271                0.838851837     -97.5941972
9.272                0.838293366     -97.8054505
9.273                0.837733123      -98.017426
9.274                 0.83717111     -98.2301265
9.275                 0.83660733     -98.4435544
9.276                0.836041786     -98.6577123
9.277                 0.83547448     -98.8726027
9.278                0.834905415     -99.0882283
9.279                0.834334595     -99.3045915
9.28                 0.833762023      -99.521695
9.281                0.833187701     -99.7395412
9.282                0.832611635     -99.9581328
9.283                0.832033827     -100.177472
9.284                0.831454282     -100.397562
9.285                0.830873003     -100.618405
9.286                0.830289996     -100.840003
9.287                0.829705264      -101.06236
9.288                0.829118812     -101.285477
9.289                0.828530645     -101.509358
9.29                 0.827940769     -101.734004
9.291                0.827349188     -101.959418
9.292                0.826755908     -102.185604
9.293                0.826160935     -102.412562
9.294                0.825564274     -102.640297
9.295                0.824965932      -102.86881
9.296                0.824365914     -103.098104
9.297                0.823764227     -103.328181
9.298                0.823160878     -103.559045
9.299                0.822555874     -103.790697
9.3                  0.821949222      -104.02314
9.301                0.821340928     -104.256376
9.302                0.820731001     -104.490409
9.303                0.820119449      -104.72524
9.304                0.819506278     -104.960872
9.305                0.818891498     -105.197308
9.306                0.818275117      -105.43455
9.307                0.817657143       -105.6726
9.308                0.817037585     -105.911462
9.309                0.816416453     -106.151136
9.31                 0.815793756     -106.391627
9.311                0.815169502     -106.632935
9.312                0.814543703     -106.875065
9.313                0.813916368     -107.118018
9.314                0.813287507     -107.361796
9.315                0.812657132     -107.606402
9.316                0.812025252     -107.851839
9.317                0.811391879     -108.098108
9.318                0.810757024     -108.345213
9.319                0.810120699     -108.593155
9.32                 0.809482915     -108.841937
9.321                0.808843685     -109.091561
9.322                0.808203022      -109.34203
9.323                0.807560937     -109.593345
9.324                0.806917443      -109.84551
9.325                0.806272554     -110.098526
9.326                0.805626284     -110.352397
9.327                0.804978645     -110.607123
9.328                0.804329653     -110.862707
9.329                 0.80367932     -111.119152
9.33                 0.803027663      -111.37646
9.331                0.802374695     -111.634633
9.332                0.801720432     -111.893673
9.333                 0.80106489     -112.153582
9.334                0.800408083     -112.414363
9.335                0.799750029     -112.676018
9.336                0.799090744     -112.938548
9.337                0.798430243     -113.201957
9.338                0.797768545     -113.466245
9.339                0.797105666     -113.731415
9.34                 0.796441624      -113.99747
9.341                0.795776437     -114.264411
9.342                0.795110123      -114.53224
9.343                0.794442701     -114.800959
9.344                0.793774189      -115.07057
9.345                0.793104606     -115.341076
9.346                0.792433973     -115.612477
9.347                0.791762308     -115.884776
9.348                0.791089632     -116.157976
9.349                0.790415966     -116.432076
9.35                  0.78974133     -116.707081
9.351                0.789065745     -116.982991
9.352                0.788389233     -117.259807
9.353                0.787711815     -117.537533
9.354                0.787033513     -117.816169
9.355                0.786354351     -118.095718
9.356                0.785674351      -118.37618
9.357                0.784993535     -118.657558
9.358                0.784311928     -118.939854
9.359                0.783629553     -119.223068
9.36                 0.782946435     -119.507202
9.361                0.782262597     -119.792259
9.362                0.781578065     -120.078239
9.363                0.780892864     -120.365143
9.364                0.780207019     -120.652974
9.365                0.779520557     -120.941732
9.366                0.778833503      -121.23142
9.367                0.778145885     -121.522038
9.368                0.777457728     -121.813587
9.369                0.776769061      -122.10607
9.37                 0.776079912     -122.399486
9.371                0.775390307     -122.693838
9.372                0.774700276     -122.989126
9.373                0.774009847     -123.285352
9.374                 0.77331905     -123.582516
9.375                0.772627914      -123.88062
9.376                0.771936468     -124.179665
9.377                0.771244743     -124.479651
9.378                 0.77055277      -124.78058
9.379                0.769860579     -125.082451
9.38                 0.769168201     -125.385267
9.381                0.768475668     -125.689028
9.382                0.767783013     -125.993734
9.383                0.767090267     -126.299387
9.384                0.766397464     -126.605987
9.385                0.765704635     -126.913534
9.386                0.765011815     -127.222029
9.387                0.764319038     -127.531472
9.388                0.763626337     -127.841864
9.389                0.762933747     -128.153206
9.39                 0.762241303     -128.465497
9.391                0.761549039     -128.778739
9.392                0.760856993      -129.09293
9.393                0.760165199     -129.408072
9.394                0.759473693     -129.724164
9.395                0.758782513     -130.041206
9.396                0.758091695       -130.3592
