! TOUCHSTONE file generated by CST DESIGN STUDIO
! Date and time: Tue Feb  4 18:41:42 2025
! Project name: C:\Work\MatlabApps\UnitCellOptimizationMatlab\CST\unitcell.cst
! Tree item: Tasks\Sweep1\SPara1\S-Parameters
! Header version: 2024
! Port assignment regex: !\s*Touchstone port\s*([0-9]+)\s*=\s*(CST MWS port|CST DES external port|CST DES block port)\s*(.+)\s* \(\"(.*)\"\)(\s*mode\s*([0-9]+))?.*
! Touchstone port assignment:
! Touchstone port 1 = CST DES external port 1 ("")
# GHz S MA R 50
9                    0.909577657     -67.3935298
9.001                0.909288991     -67.5083601
9.002                0.908999126     -67.6235397
9.003                0.908708055     -67.7390701
9.004                0.908415774     -67.8549528
9.005                0.908122278     -67.9711891
9.006                 0.90782756     -68.0877806
9.007                0.907531617     -68.2047288
9.008                0.907234442     -68.3220351
9.009                 0.90693603     -68.4397011
9.01                 0.906636376     -68.5577282
9.011                0.906335475     -68.6761179
9.012                 0.90603332     -68.7948718
9.013                0.905729907     -68.9139914
9.014                 0.90542523     -69.0334782
9.015                0.905119284     -69.1533338
9.016                0.904812062     -69.2735597
9.017                0.904503561     -69.3941574
9.018                0.904193773     -69.5151286
9.019                0.903882695     -69.6364747
9.02                 0.903570319     -69.7581973
9.021                0.903256641     -69.8802981
9.022                0.902941655     -70.0027786
9.023                0.902625356     -70.1256404
9.024                0.902307738     -70.2488851
9.025                0.901988795     -70.3725143
9.026                0.901668521     -70.4965297
9.027                0.901346912     -70.6209328
9.028                0.901023961     -70.7457253
9.029                0.900699663     -70.8709088
9.03                 0.900374012      -70.996485
9.031                0.900047003     -71.1224555
9.032                0.899718629     -71.2488221
9.033                0.899388886     -71.3755862
9.034                0.899057767     -71.5027497
9.035                0.898725267     -71.6303142
9.036                 0.89839138     -71.7582815
9.037                  0.8980561     -71.8866531
9.038                0.897719421     -72.0154308
9.039                0.897381339     -72.1446164
9.04                 0.897041846     -72.2742115
9.041                0.896700937     -72.4042179
9.042                0.896358607     -72.5346373
9.043                 0.89601485     -72.6654715
9.044                0.895669659     -72.7967222
9.045                 0.89532303     -72.9283912
9.046                0.894974956     -73.0604802
9.047                0.894625431      -73.192991
9.048                 0.89427445     -73.3259255
9.049                0.893922006     -73.4592853
9.05                 0.893568094     -73.5930724
9.051                0.893212709     -73.7272885
9.052                0.892855843     -73.8619354
9.053                0.892497492     -73.9970149
9.054                 0.89213765     -74.1325289
9.055                 0.89177631     -74.2684793
9.056                0.891413466     -74.4048679
9.057                0.891049114     -74.5416964
9.058                0.890683246     -74.6789669
9.059                0.890315858     -74.8166812
9.06                 0.889946943     -74.9548411
9.061                0.889576495     -75.0934485
9.062                0.889204508     -75.2325055
9.063                0.888830977     -75.3720137
9.064                0.888455895     -75.5119752
9.065                0.888079258      -75.652392
9.066                0.887701058     -75.7932658
9.067                0.887321289     -75.9345987
9.068                0.886939947     -76.0763927
9.069                0.886557025     -76.2186495
9.07                 0.886172518     -76.3613714
9.071                0.885786418     -76.5045601
9.072                0.885398721     -76.6482178
9.073                0.885009421     -76.7923463
9.074                0.884618511     -76.9369477
9.075                0.884225987      -77.082024
9.076                0.883831841     -77.2275772
9.077                0.883436068     -77.3736093
9.078                0.883038662     -77.5201224
9.079                0.882639618     -77.6671185
9.08                  0.88223893     -77.8145996
9.081                0.881836591     -77.9625679
9.082                0.881432595     -78.1110254
9.083                0.881026938     -78.2599741
9.084                0.880619614     -78.4094162
9.085                0.880210615     -78.5593537
9.086                0.879799938     -78.7097887
9.087                0.879387575     -78.8607234
9.088                0.878973521     -79.0121599
9.089                0.878557771     -79.1641003
9.09                 0.878140319     -79.3165467
9.091                0.877721158     -79.4695013
9.092                0.877300284     -79.6229663
9.093                 0.87687769     -79.7769438
9.094                0.876453371     -79.9314359
9.095                0.876027321     -80.0864449
9.096                0.875599535     -80.2419729
9.097                0.875170007     -80.3980222
9.098                0.874738731     -80.5545949
9.099                0.874305702     -80.7116934
9.1                  0.873870914     -80.8693197
9.101                0.873434363     -81.0274761
9.102                0.872996041     -81.1861649
9.103                0.872555944     -81.3453883
9.104                0.872114066     -81.5051486
9.105                0.871670403     -81.6654481
9.106                0.871224948      -81.826289
9.107                0.870777695     -81.9876736
9.108                0.870328641     -82.1496042
9.109                0.869877779     -82.3120831
9.11                 0.869425105     -82.4751126
9.111                0.868970612     -82.6386951
9.112                0.868514296     -82.8028329
9.113                0.868056152     -82.9675283
9.114                0.867596173     -83.1327836
9.115                0.867134357     -83.2986013
9.116                0.866670696     -83.4649836
9.117                0.866205187      -83.631933
9.118                0.865737824     -83.7994519
9.119                0.865268602     -83.9675426
9.12                 0.864797516     -84.1362075
9.121                0.864324562     -84.3054491
9.122                0.863849735     -84.4752697
9.123                0.863373029     -84.6456718
9.124                0.862894441     -84.8166578
9.125                0.862413965     -84.9882302
9.126                0.861931597     -85.1603914
9.127                0.861447332     -85.3331438
9.128                0.860961166       -85.50649
9.129                0.860473094     -85.6804325
9.13                 0.859983112     -85.8549736
9.131                0.859491215     -86.0301159
9.132                0.858997399      -86.205862
9.133                0.858501661     -86.3822142
9.134                0.858003995     -86.5591752
9.135                0.857504397     -86.7367474
9.136                0.857002864     -86.9149334
9.137                0.856499392     -87.0937358
9.138                0.855993976      -87.273157
9.139                0.855486613     -87.4531997
9.14                 0.854977298     -87.6338665
9.141                0.854466029     -87.8151598
9.142                0.853952801     -87.9970823
9.143                0.853437612     -88.1796365
9.144                0.852920456     -88.3628252
9.145                0.852401332     -88.5466508
9.146                0.851880235      -88.731116
9.147                0.851357162     -88.9162235
9.148                0.850832111     -89.1019758
9.149                0.850305077     -89.2883756
9.15                 0.849776058     -89.4754255
9.151                0.849245052     -89.6631283
9.152                0.848712054     -89.8514864
9.153                0.848177063     -90.0405028
9.154                0.847640076     -90.2301799
9.155                 0.84710109     -90.4205205
9.156                0.846560103     -90.6115273
9.157                0.846017111      -90.803203
9.158                0.845472114     -90.9955502
9.159                0.844925109     -91.1885718
9.16                 0.844376093     -91.3822704
9.161                0.843825065     -91.5766487
9.162                0.843272023     -91.7717095
9.163                0.842716965     -91.9674555
9.164                 0.84215989     -92.1638895
9.165                0.841600795     -92.3610142
9.166                 0.84103968     -92.5588324
9.167                0.840476543     -92.7573469
9.168                0.839911383     -92.9565603
9.169                0.839344199     -93.1564756
9.17                  0.83877499     -93.3570954
9.171                0.838203755     -93.5584226
9.172                0.837630494       -93.76046
9.173                0.837055205     -93.9632103
9.174                0.836477889     -94.1666765
9.175                0.835898545     -94.3708612
9.176                0.835317173     -94.5757673
9.177                0.834733774     -94.7813977
9.178                0.834148346     -94.9877551
9.179                0.833560891     -95.1948424
9.18                 0.832971408     -95.4026624
9.181                0.832379899     -95.6112181
9.182                0.831786364     -95.8205121
9.183                0.831190804     -96.0305474
9.184                 0.83059322     -96.2413269
9.185                0.829993613     -96.4528534
9.186                0.829391984     -96.6651297
9.187                0.828788336     -96.8781587
9.188                0.828182669     -97.0919434
9.189                0.827574986     -97.3064865
9.19                 0.826965288      -97.521791
9.191                0.826353577     -97.7378597
9.192                0.825739857     -97.9546955
9.193                 0.82512413     -98.1723014
9.194                0.824506397     -98.3906801
9.195                0.823886663     -98.6098347
9.196                 0.82326493     -98.8297679
9.197                0.822641202     -99.0504827
9.198                0.822015481      -99.271982
9.199                0.821387772     -99.4942687
9.2                  0.820758079     -99.7173457
9.201                0.820126405     -99.9412159
9.202                0.819492756     -100.165882
9.203                0.818857134     -100.391347
9.204                0.818219545     -100.617615
9.205                0.817579995     -100.844687
9.206                0.816938487     -101.072566
9.207                0.816295027     -101.301257
9.208                0.815649622     -101.530761
9.209                0.815002275     -101.761081
9.21                 0.814352995     -101.992221
9.211                0.813701786     -102.224183
9.212                0.813048655      -102.45697
9.213                 0.81239361     -102.690585
9.214                0.811736656     -102.925031
9.215                0.811077801     -103.160311
9.216                0.810417052     -103.396428
9.217                0.809754418     -103.633384
9.218                0.809089906     -103.871183
9.219                0.808423523     -104.109828
9.22                 0.807755279      -104.34932
9.221                0.807085183     -104.589664
9.222                0.806413242     -104.830862
9.223                0.805739467     -105.072917
9.224                0.805063866     -105.315831
9.225                 0.80438645     -105.559608
9.226                0.803707229     -105.804251
9.227                0.803026212     -106.049762
9.228                0.802343411     -106.296144
9.229                0.801658836     -106.543401
9.23                 0.800972499     -106.791534
9.231                 0.80028441     -107.040547
9.232                0.799594582     -107.290442
9.233                0.798903026     -107.541222
9.234                0.798209755     -107.792891
9.235                0.797514782     -108.045451
9.236                0.796818119     -108.298904
9.237                 0.79611978     -108.553253
9.238                0.795419778     -108.808502
9.239                0.794718127     -109.064653
9.24                 0.794014842     -109.321708
9.241                0.793309936     -109.579671
9.242                0.792603424     -109.838544
9.243                0.791895323      -110.09833
9.244                0.791185647     -110.359031
9.245                0.790474411      -110.62065
9.246                0.789761633      -110.88319
9.247                0.789047329     -111.146654
9.248                0.788331515     -111.411044
9.249                0.787614209     -111.676362
9.25                 0.786895428     -111.942612
9.251                 0.78617519     -112.209796
9.252                0.785453514     -112.477916
9.253                0.784730417     -112.746976
9.254                 0.78400592     -113.016977
9.255                 0.78328004     -113.287922
9.256                0.782552799     -113.559813
9.257                0.781824215     -113.832654
9.258                 0.78109431     -114.106447
9.259                0.780363104     -114.381193
9.26                 0.779630619     -114.656896
9.261                0.778896875     -114.933557
9.262                0.778161895      -115.21118
9.263                0.777425701     -115.489766
9.264                0.776688316     -115.769318
9.265                0.775949763     -116.049838
9.266                0.775210065     -116.331329
9.267                0.774469247     -116.613792
9.268                0.773727332      -116.89723
9.269                0.772984345     -117.181646
9.27                 0.772240312      -117.46704
9.271                0.771495258     -117.753416
9.272                0.770749208     -118.040776
9.273                0.770002189     -118.329121
9.274                0.769254228     -118.618454
9.275                0.768505352     -118.908777
9.276                0.767755588     -119.200092
9.277                0.767004964       -119.4924
9.278                0.766253509     -119.785703
9.279                0.765501252     -120.080005
9.28                 0.764748221     -120.375305
9.281                0.763994446     -120.671607
9.282                0.763239958     -120.968912
9.283                0.762484787     -121.267222
9.284                0.761728963     -121.566538
9.285                0.760972518     -121.866862
9.286                0.760215484     -122.168196
9.287                0.759457894     -122.470542
9.288                0.758699778       -122.7739
9.289                0.757941172     -123.078273
9.29                 0.757182107     -123.383662
9.291                0.756422619     -123.690068
9.292                0.755662741     -123.997493
9.293                0.754902509     -124.305938
9.294                0.754141957     -124.615405
9.295                0.753381121     -124.925894
9.296                0.752620037     -125.237407
9.297                0.751858742     -125.549945
9.298                0.751097273      -125.86351
9.299                0.750335667     -126.178101
9.3                  0.749573962     -126.493721
9.301                0.748812197     -126.810369
9.302                 0.74805041     -127.128048
9.303                0.747288639     -127.446758
9.304                0.746526926     -127.766499
9.305                 0.74576531     -128.087273
9.306                 0.74500383      -128.40908
9.307                0.744242529     -128.731921
9.308                0.743481448     -129.055796
9.309                0.742720627     -129.380705
9.31                 0.741960111      -129.70665
9.311                 0.74119994     -130.033631
9.312                0.740440158     -130.361647
9.313                0.739680809     -130.690699
9.314                0.738921936     -131.020788
9.315                0.738163584     -131.351914
9.316                0.737405797     -131.684076
9.317                0.736648621     -132.017274
9.318                0.735892101     -132.351509
9.319                0.735136283      -132.68678
9.32                 0.734381213     -133.023088
9.321                0.733626938     -133.360431
9.322                0.732873505     -133.698809
9.323                0.732120962     -134.038223
9.324                0.731369357     -134.378671
9.325                0.730618737     -134.720152
9.326                0.729869153     -135.062668
9.327                0.729120652     -135.406215
9.328                0.728373284     -135.750794
9.329                  0.7276271     -136.096404
9.33                 0.726882148     -136.443044
9.331                 0.72613848     -136.790712
9.332                0.725396147     -137.139408
9.333                  0.7246552      -137.48913
9.334                0.723915691     -137.839877
9.335                0.723177671     -138.191648
9.336                0.722441192     -138.544441
9.337                0.721706308     -138.898254
9.338                0.720973072     -139.253086
9.339                0.720241536     -139.608935
9.34                 0.719511754       -139.9658
9.341                 0.71878378     -140.323677
9.342                0.718057668     -140.682566
9.343                0.717333472     -141.042464
9.344                0.716611248     -141.403369
9.345                 0.71589105     -141.765279
9.346                0.715172933      -142.12819
9.347                0.714456954     -142.492101
9.348                0.713743167     -142.857009
9.349                0.713031629     -143.222912
9.35                 0.712322396     -143.589806
9.351                0.711615525     -143.957688
9.352                0.710911072     -144.326556
9.353                0.710209094     -144.696406
9.354                0.709509648     -145.067235
9.355                0.708812791      -145.43904
9.356                0.708118581     -145.811818
9.357                0.707427076     -146.185564
9.358                0.706738334     -146.560275
9.359                0.706052411     -146.935948
9.36                 0.705369367     -147.312578
9.361                0.704689259     -147.690162
9.362                0.704012146     -148.068694
9.363                0.703338086     -148.448173
9.364                0.702667138     -148.828591
9.365                 0.70199936     -149.209947
9.366                0.701334812     -149.592234
9.367                0.700673551     -149.975448
9.368                0.700015637     -150.359585
9.369                0.699361128     -150.744639
9.37                 0.698710083     -151.130605
9.371                0.698062561     -151.517479
9.372                0.697418622     -151.905255
9.373                0.696778323     -152.293927
9.374                0.696141723     -152.683491
9.375                0.695508882      -153.07394
9.376                0.694879858     -153.465269
9.377                 0.69425471     -153.857472
9.378                0.693633497     -154.250543
9.379                0.693016276     -154.644476
9.38                 0.692403107     -155.039265
9.381                0.691794047     -155.434903
9.382                0.691189155     -155.831384
9.383                0.690588489     -156.228702
9.384                0.689992107     -156.626849
9.385                0.689400065     -157.025819
9.386                0.688812423     -157.425605
9.387                0.688229237     -157.826199
9.388                0.687650564     -158.227596
9.389                0.687076461     -158.629787
9.39                 0.686506985     -159.032764
9.391                0.685942191     -159.436521
9.392                0.685382137      -159.84105
9.393                0.684826878     -160.246343
9.394                0.684276469     -160.652391
9.395                0.683730965     -161.059188
9.396                0.683190422     -161.466725
