! TOUCHSTONE file generated by CST DESIGN STUDIO
! Date and time: Tue Feb  4 18:41:41 2025
! Project name: C:\Work\MatlabApps\UnitCellOptimizationMatlab\CST\unitcell.cst
! Tree item: Tasks\Sweep1\SPara1\S-Parameters
! Header version: 2024
! Port assignment regex: !\s*Touchstone port\s*([0-9]+)\s*=\s*(CST MWS port|CST DES external port|CST DES block port)\s*(.+)\s* \(\"(.*)\"\)(\s*mode\s*([0-9]+))?.*
! Touchstone port assignment:
! Touchstone port 1 = CST DES external port 1 ("")
# GHz S MA R 50
9                    0.872985976     -77.8790781
9.001                 0.87255089     -78.0300895
9.002                0.872113972     -78.1816184
9.003                0.871675216     -78.3336671
9.004                0.871234615     -78.4862379
9.005                0.870792162      -78.639333
9.006                0.870347851     -78.7929549
9.007                0.869901675     -78.9471057
9.008                0.869453629      -79.101788
9.009                0.869003704      -79.257004
9.01                 0.868551894      -79.412756
9.011                0.868098194     -79.5690465
9.012                0.867642596     -79.7258779
9.013                0.867185093     -79.8832525
9.014                0.866725681     -80.0411727
9.015                0.866264351     -80.1996409
9.016                0.865801098     -80.3586596
9.017                0.865335914     -80.5182312
9.018                0.864868795     -80.6783582
9.019                0.864399732      -80.839043
9.02                 0.863928721      -81.000288
9.021                0.863455754     -81.1620957
9.022                0.862980826     -81.3244687
9.023                0.862503929     -81.4874094
9.024                0.862025059     -81.6509203
9.025                0.861544208      -81.815004
9.026                 0.86106137     -81.9796629
9.027                 0.86057654     -82.1448997
9.028                0.860089711     -82.3107168
9.029                0.859600876     -82.4771168
9.03                 0.859110032     -82.6441023
9.031                 0.85861717     -82.8116759
9.032                0.858122285     -82.9798401
9.033                0.857625371     -83.1485976
9.034                0.857126423     -83.3179509
9.035                0.856625434     -83.4879028
9.036                0.856122399     -83.6584557
9.037                0.855617312     -83.8296124
9.038                0.855110168     -84.0013756
9.039                 0.85460096     -84.1737478
9.04                 0.854089683     -84.3467318
9.041                0.853576331     -84.5203303
9.042                  0.8530609     -84.6945459
9.043                0.852543383     -84.8693813
9.044                0.852023775     -85.0448393
9.045                0.851502071     -85.2209226
9.046                0.850978266     -85.3976339
9.047                0.850452354      -85.574976
9.048                0.849924331     -85.7529516
9.049                 0.84939419     -85.9315635
9.05                 0.848861928     -86.1108146
9.051                0.848327539     -86.2907074
9.052                0.847791019      -86.471245
9.053                0.847252362       -86.65243
9.054                0.846711564     -86.8342654
9.055                 0.84616862     -87.0167538
9.056                0.845623526     -87.1998983
9.057                0.845076277     -87.3837015
9.058                0.844526868     -87.5681665
9.059                0.843975296      -87.753296
9.06                 0.843421556     -87.9390929
9.061                0.842865643     -88.1255602
9.062                0.842307555     -88.3127007
9.063                0.841747286     -88.5005173
9.064                0.841184833      -88.689013
9.065                0.840620192     -88.8781907
9.066                0.840053359     -89.0680533
9.067                0.839484332     -89.2586038
9.068                0.838913105     -89.4498451
9.069                0.838339676     -89.6417802
9.07                 0.837764041     -89.8344122
9.071                0.837186197     -90.0277439
9.072                0.836606142     -90.2217784
9.073                0.836023871     -90.4165186
9.074                0.835439383     -90.6119677
9.075                0.834852674     -90.8081286
9.076                0.834263742     -91.0050043
9.077                0.833672583      -91.202598
9.078                0.833079197     -91.4009126
9.079                 0.83248358     -91.5999513
9.08                  0.83188573      -91.799717
9.081                0.831285645     -92.0002129
9.082                0.830683324      -92.201442
9.083                0.830078764     -92.4034076
9.084                0.829471963     -92.6061125
9.085                0.828862921     -92.8095601
9.086                0.828251636     -93.0137534
9.087                0.827638107     -93.2186955
9.088                0.827022332     -93.4243895
9.089                0.826404311     -93.6308387
9.09                 0.825784043     -93.8380461
9.091                0.825161526      -94.046015
9.092                0.824536762     -94.2547485
9.093                0.823909749     -94.4642498
9.094                0.823280487      -94.674522
9.095                0.822648977     -94.8855684
9.096                0.822015217     -95.0973922
9.097                 0.82137921     -95.3099965
9.098                0.820740955     -95.5233846
9.099                0.820100453     -95.7375596
9.1                  0.819457705      -95.952525
9.101                0.818812711     -96.1682837
9.102                0.818165474     -96.3848392
9.103                0.817515994     -96.6021946
9.104                0.816864273     -96.8203532
9.105                0.816210314     -97.0393183
9.106                0.815554117     -97.2590931
9.107                0.814895685     -97.4796808
9.108                0.814235021     -97.7010848
9.109                0.813572127     -97.9233084
9.11                 0.812907006     -98.1463547
9.111                0.812239662     -98.3702272
9.112                0.811570096     -98.5949291
9.113                0.810898313     -98.8204637
9.114                0.810224317     -99.0468343
9.115                0.809548111     -99.2740441
9.116                  0.8088697     -99.5020966
9.117                0.808189087      -99.730995
9.118                0.807506278     -99.9607427
9.119                0.806821278     -100.191343
9.12                  0.80613409     -100.422799
9.121                0.805444722     -100.655114
9.122                0.804753178     -100.888292
9.123                0.804059465     -101.122336
9.124                0.803363587     -101.357249
9.125                0.802665553     -101.593034
9.126                0.801965368     -101.829695
9.127                0.801263039     -102.067236
9.128                0.800558574     -102.305659
9.129                 0.79985198     -102.544968
9.13                 0.799143264     -102.785166
9.131                0.798432435     -103.026256
9.132                0.797719501     -103.268243
9.133                 0.79700447     -103.511128
9.134                0.796287352     -103.754916
9.135                0.795568155      -103.99961
9.136                 0.79484689     -104.245213
9.137                0.794123565     -104.491729
9.138                0.793398191     -104.739161
9.139                0.792670779     -104.987511
9.14                 0.791941338     -105.236784
9.141                0.791209881     -105.486983
9.142                0.790476418     -105.738111
9.143                0.789740962     -105.990171
9.144                0.789003524     -106.243167
9.145                0.788264116     -106.497103
9.146                0.787522751      -106.75198
9.147                0.786779443     -107.007803
9.148                0.786034204     -107.264575
9.149                0.785287049     -107.522298
9.15                 0.784537991     -107.780978
9.151                0.783787046     -108.040615
9.152                0.783034227     -108.301215
9.153                 0.78227955      -108.56278
9.154                 0.78152303     -108.825313
9.155                0.780764684     -109.088818
9.156                0.780004528     -109.353298
9.157                0.779242578     -109.618755
9.158                0.778478852     -109.885194
9.159                0.777713367     -110.152617
9.16                  0.77694614     -110.421027
9.161                0.776177191     -110.690428
9.162                0.775406537     -110.960823
9.163                0.774634199     -111.232215
9.164                0.773860194     -111.504607
9.165                0.773084544     -111.778002
9.166                0.772307268     -112.052403
9.167                0.771528387     -112.327814
9.168                0.770747923     -112.604237
9.169                0.769965896     -112.881675
9.17                  0.76918233     -113.160131
9.171                0.768397245     -113.439609
9.172                0.767610666     -113.720111
9.173                0.766822615      -114.00164
9.174                0.766033117       -114.2842
9.175                0.765242195     -114.567793
9.176                0.764449874     -114.852421
9.177                0.763656179     -115.138089
9.178                0.762861136     -115.424798
9.179                0.762064771     -115.712552
9.18                  0.76126711     -116.001353
9.181                 0.76046818     -116.291204
9.182                0.759668009     -116.582108
9.183                0.758866625     -116.874067
9.184                0.758064055     -117.167085
9.185                 0.75726033     -117.461163
9.186                0.756455477     -117.756305
9.187                0.755649528     -118.052514
9.188                0.754842511      -118.34979
9.189                0.754034459     -118.648138
9.19                 0.753225403      -118.94756
9.191                0.752415373     -119.248058
9.192                0.751604403     -119.549635
9.193                0.750792526     -119.852292
9.194                0.749979774     -120.156033
9.195                0.749166181     -120.460859
9.196                0.748351782     -120.766774
9.197                0.747536612     -121.073779
9.198                0.746720705     -121.381876
9.199                0.745904098     -121.691068
9.2                  0.745086828     -122.001356
9.201                 0.74426893     -122.312743
9.202                0.743450443     -122.625231
9.203                0.742631404     -122.938822
9.204                0.741811851     -123.253518
9.205                0.740991825      -123.56932
9.206                0.740171363     -123.886231
9.207                0.739350507     -124.204252
9.208                0.738529296     -124.523385
9.209                0.737707772     -124.843632
9.21                 0.736885976     -125.164995
9.211                0.736063951     -125.487474
9.212                0.735241739     -125.811072
9.213                0.734419383      -126.13579
9.214                0.733596926     -126.461629
9.215                0.732774414     -126.788591
9.216                0.731951891     -127.116677
9.217                0.731129402     -127.445889
9.218                0.730306992     -127.776227
9.219                0.729484709     -128.107693
9.22                 0.728662599     -128.440288
9.221                0.727840709     -128.774012
9.222                0.727019087     -129.108867
9.223                0.726197782     -129.444854
9.224                0.725376843     -129.781972
9.225                0.724556318     -130.120224
9.226                0.723736258      -130.45961
9.227                0.722916714     -130.800129
9.228                0.722097736     -131.141784
9.229                0.721279376     -131.484574
9.23                 0.720461685     -131.828499
9.231                0.719644717      -132.17356
9.232                0.718828524     -132.519757
9.233                0.718013159      -132.86709
9.234                0.717198677      -133.21556
9.235                0.716385132     -133.565165
9.236                0.715572579     -133.915907
9.237                0.714761074     -134.267784
9.238                0.713950671     -134.620797
9.239                0.713141428     -134.974944
9.24                 0.712333402     -135.330227
9.241                0.711526649     -135.686643
9.242                0.710721228     -136.044192
9.243                0.709917196     -136.402875
9.244                0.709114612     -136.762689
9.245                0.708313536     -137.123633
9.246                0.707514026     -137.485707
9.247                0.706716143      -137.84891
9.248                0.705919947      -138.21324
9.249                0.705125499     -138.578697
9.25                 0.704332859     -138.945277
9.251                 0.70354209     -139.312981
9.252                0.702753253     -139.681805
9.253                0.701966411      -140.05175
9.254                0.701181626     -140.422812
9.255                0.700398961     -140.794989
9.256                 0.69961848      -141.16828
9.257                0.698840247     -141.542682
9.258                0.698064325     -141.918193
9.259                0.697290779     -142.294811
9.26                 0.696519674     -142.672533
9.261                0.695751075     -143.051356
9.262                0.694985046     -143.431277
9.263                0.694221655     -143.812294
9.264                0.693460966     -144.194404
9.265                0.692703045     -144.577602
9.266                 0.69194796     -144.961887
9.267                0.691195777     -145.347255
9.268                0.690446562     -145.733701
9.269                0.689700384     -146.121223
9.27                 0.688957308     -146.509817
9.271                0.688217403     -146.899478
9.272                0.687480737     -147.290203
9.273                0.686747376     -147.681988
9.274                 0.68601739     -148.074828
9.275                0.685290847     -148.468718
9.276                0.684567814     -148.863654
9.277                 0.68384836     -149.259632
9.278                0.683132554     -149.656646
9.279                0.682420464     -150.054692
9.28                 0.681712159     -150.453764
9.281                0.681007708     -150.853857
9.282                0.680307179     -151.254966
9.283                0.679610641     -151.657085
9.284                0.678918163     -152.060208
9.285                0.678229814      -152.46433
9.286                0.677545663     -152.869444
9.287                0.676865778     -153.275544
9.288                0.676190227     -153.682625
9.289                0.675519081     -154.090679
9.29                 0.674852406     -154.499701
9.291                0.674190272     -154.909682
9.292                0.673532747     -155.320618
9.293                0.672879899     -155.732499
9.294                0.672231796      -156.14532
9.295                0.671588506     -156.559073
9.296                0.670950097     -156.973751
9.297                0.670316635     -157.389345
9.298                0.669688189     -157.805849
9.299                0.669064825     -158.223253
9.3                   0.66844661     -158.641551
9.301                0.667833611     -159.060734
9.302                0.667225892     -159.480793
9.303                0.666623522     -159.901721
9.304                0.666026564     -160.323508
9.305                0.665435084     -160.746145
9.306                0.664849147     -161.169624
9.307                0.664268817     -161.593936
9.308                0.663694159     -162.019071
9.309                0.663125235     -162.445019
9.31                 0.662562108     -162.871772
9.311                0.662004843      -163.29932
9.312                0.661453499     -163.727652
9.313                 0.66090814     -164.156759
9.314                0.660368827     -164.586631
9.315                0.659835619     -165.017257
9.316                0.659308577     -165.448627
9.317                 0.65878776     -165.880731
9.318                0.658273228     -166.313557
9.319                0.657765038     -166.747095
9.32                 0.657263248     -167.181333
9.321                0.656767916     -167.616261
9.322                0.656279096     -168.051868
9.323                0.655796845     -168.488142
9.324                0.655321218     -168.925071
9.325                0.654852269     -169.362644
9.326                0.654390052     -169.800849
9.327                0.653934618     -170.239674
9.328                 0.65348602     -170.679107
9.329                0.653044308     -171.119135
9.33                 0.652609534     -171.559748
9.331                0.652181747     -172.000931
9.332                0.651760995     -172.442673
9.333                0.651347325      -172.88496
9.334                0.650940785     -173.327781
9.335                0.650541421     -173.771121
9.336                0.650149278     -174.214969
9.337                0.649764399     -174.659311
9.338                0.649386828     -175.104133
9.339                0.649016607     -175.549423
9.34                 0.648653778     -175.995166
9.341                0.648298381      -176.44135
9.342                0.647950454     -176.887961
9.343                0.647610036     -177.334984
9.344                0.647277165     -177.782407
9.345                0.646951876     -178.230215
9.346                0.646634205     -178.678393
9.347                0.646324185     -179.126929
9.348                 0.64602185     -179.575808
9.349                0.645727231      179.974985
9.35                 0.645440359      179.525464
9.351                0.645161265      179.075644
9.352                0.644889976      178.625538
9.353                0.644626519      178.175161
9.354                0.644370922      177.724528
9.355                0.644123209      177.273655
9.356                0.643883403      176.822554
9.357                0.643651529      176.371242
9.358                0.643427608      175.919733
9.359                0.643211659      175.468042
9.36                 0.643003702      175.016185
9.361                0.642803756      174.564175
9.362                0.642611837      174.112028
9.363                 0.64242796       173.65976
9.364                0.642252141      173.207385
9.365                0.642084391      172.754918
9.366                0.641924724      172.302375
9.367                 0.64177315      171.849771
9.368                0.641629679      171.397121
9.369                0.641494318       170.94444
9.37                 0.641367075      170.491744
9.371                0.641247955      170.039047
9.372                0.641136964      169.586365
9.373                0.641034105      169.133714
9.374                0.640939379      168.681108
9.375                0.640852788      168.228563
9.376                0.640774331      167.776094
9.377                0.640704006      167.323716
9.378                0.640641811      166.871444
9.379                0.640587742      166.419294
9.38                 0.640541794      165.967281
9.381                0.640503959       165.51542
9.382                 0.64047423      165.063726
9.383                0.640452599      164.612214
9.384                0.640439054      164.160899
9.385                0.640433586      163.709796
9.386                 0.64043618       163.25892
9.387                0.640446824      162.808286
9.388                0.640465502      162.357909
9.389                0.640492198      161.907803
9.39                 0.640526896      161.457984
9.391                0.640569576      161.008466
9.392                0.640620218      160.559264
9.393                0.640678803      160.110391
9.394                0.640745309      159.661864
9.395                0.640819711      159.213695
9.396                0.640901986        158.7659
