! TOUCHSTONE file generated by CST DESIGN STUDIO
! Date and time: Tue Feb  4 18:41:32 2025
! Project name: C:\Work\MatlabApps\UnitCellOptimizationMatlab\CST\unitcell.cst
! Tree item: Tasks\Sweep1\SPara1\S-Parameters
! Header version: 2024
! Port assignment regex: !\s*Touchstone port\s*([0-9]+)\s*=\s*(CST MWS port|CST DES external port|CST DES block port)\s*(.+)\s* \(\"(.*)\"\)(\s*mode\s*([0-9]+))?.*
! Touchstone port assignment:
! Touchstone port 1 = CST DES external port 1 ("")
# GHz S MA R 50
9                    0.577350389      140.226747
9.001                0.578024711      139.726697
9.002                0.578708825      139.227941
9.003                0.579402615      138.730493
9.004                 0.58010596      138.234369
9.005                 0.58081874      137.739583
9.006                0.581540834      137.246148
9.007                 0.58227212      136.754079
9.008                0.583012475       136.26339
9.009                0.583761777      135.774091
9.01                 0.584519901      135.286198
9.011                0.585286723      134.799721
9.012                0.586062119      134.314673
9.013                0.586845962      133.831066
9.014                0.587638128       133.34891
9.015                 0.58843849      132.868216
9.016                0.589246922      132.388995
9.017                0.590063297      131.911257
9.018                0.590887488      131.435013
9.019                0.591719369       130.96027
9.02                 0.592558811       130.48704
9.021                0.593405689       130.01533
9.022                0.594259873      129.545149
9.023                0.595121237      129.076505
9.024                0.595989654      128.609406
9.025                0.596864996       128.14386
9.026                0.597747135      127.679873
9.027                0.598635945      127.217454
9.028                0.599531298      126.756608
9.029                0.600433069      126.297341
9.03                 0.601341129      125.839661
9.031                0.602255353      125.383571
9.032                0.603175615      124.929079
9.033                0.604101789      124.476189
9.034                0.605033749      124.024905
9.035                0.605971372      123.575233
9.036                0.606914532      123.127176
9.037                0.607863105       122.68074
9.038                0.608816968      122.235926
9.039                0.609775998       121.79274
9.04                 0.610740072      121.351184
9.041                0.611709068      120.911261
9.042                0.612682865      120.472973
9.043                0.613661342      120.036324
9.044                0.614644379      119.601316
9.045                0.615631857      119.167949
9.046                0.616623656      118.736228
9.047                 0.61761966      118.306151
9.048                 0.61861975      117.877722
9.049                 0.61962381      117.450941
9.05                 0.620631724      117.025809
9.051                0.621643377      116.602327
9.052                0.622658655      116.180494
9.053                0.623677445      115.760312
9.054                0.624699635       115.34178
9.055                0.625725111      114.924898
9.056                0.626753765      114.509666
9.057                0.627785485      114.096083
9.058                0.628820163      113.684148
9.059                0.629857691      113.273861
9.06                 0.630897962       112.86522
9.061                0.631940869      112.458224
9.062                0.632986307      112.052872
9.063                0.634034173      111.649162
9.064                0.635084362      111.247093
9.065                0.636136772      110.846662
9.066                0.637191303      110.447867
9.067                0.638247853      110.050706
9.068                0.639306324      109.655177
9.069                0.640366618      109.261277
9.07                 0.641428636      108.869004
9.071                0.642492283      108.478355
9.072                0.643557464      108.089327
9.073                0.644624085      107.701916
9.074                0.645692051      107.316121
9.075                0.646761273      106.931937
9.076                0.647831658      106.549361
9.077                0.648903117      106.168389
9.078                 0.64997556      105.789019
9.079                0.651048901      105.411245
9.08                 0.652123052      105.035066
9.081                0.653197927      104.660475
9.082                0.654273443       104.28747
9.083                0.655349516      103.916047
9.084                0.656426063      103.546201
9.085                0.657503003      103.177927
9.086                0.658580256      102.811222
9.087                0.659657743      102.446081
9.088                0.660735385        102.0825
9.089                0.661813106      101.720473
9.09                 0.662890829      101.359997
9.091                0.663968479      101.001066
9.092                0.665045984      100.643676
9.093                 0.66612327      100.287821
9.094                0.667200264      99.9334968
9.095                0.668276898      99.5806984
9.096                  0.6693531      99.2294206
9.097                0.670428803      98.8796582
9.098                0.671503939      98.5314061
9.099                0.672578442      98.1846589
9.1                  0.673652245      97.8394115
9.101                0.674725285      97.4956583
9.102                0.675797499      97.1533941
9.103                0.676868823      96.8126134
9.104                0.677939197      96.4733107
9.105                0.679008559      96.1354805
9.106                0.680076852      95.7991172
9.107                0.681144016      95.4642151
9.108                0.682209995      95.1307688
9.109                0.683274731      94.7987725
9.11                 0.684338169      94.4682205
9.111                0.685400255      94.1391071
9.112                0.686460936      93.8114265
9.113                0.687520159      93.4851729
9.114                0.688577872      93.1603406
9.115                0.689634024      92.8369237
9.116                0.690688567      92.5149163
9.117                0.691741452      92.1943127
9.118                0.692792629      91.8751068
9.119                0.693842054      91.5572928
9.12                 0.694889679      91.2408648
9.121                0.695935459      90.9258167
9.122                0.696979351      90.6121428
9.123                 0.69802131      90.2998369
9.124                0.699061295      89.9888932
9.125                0.700099264      89.6793056
9.126                0.701135176      89.3710682
9.127                0.702168991      89.0641749
9.128                 0.70320067      88.7586197
9.129                0.704230174      88.4543967
9.13                 0.705257467      88.1514998
9.131                0.706282512       87.849923
9.132                0.707305273      87.5496602
9.133                0.708325715      87.2507055
9.134                0.709343804      86.9530528
9.135                0.710359506      86.6566961
9.136                0.711372789      86.3616294
9.137                 0.71238362      86.0678467
9.138                 0.71339197      85.7753418
9.139                0.714397806       85.484109
9.14                   0.7154011       85.194142
9.141                0.716401823       84.905435
9.142                0.717399946      84.6179819
9.143                0.718395442      84.3317767
9.144                0.719388285      84.0468135
9.145                0.720378447      83.7630862
9.146                0.721365904       83.480589
9.147                0.722350631      83.1993159
9.148                0.723332604      82.9192608
9.149                0.724311799       82.640418
9.15                 0.725288193      82.3627814
9.151                0.726261766      82.0863452
9.152                0.727232494      81.8111034
9.153                0.728200358      81.5370502
9.154                0.729165336      81.2641797
9.155                 0.73012741       80.992486
9.156                 0.73108656      80.7219634
9.157                0.732042768      80.4526059
9.158                0.732996015      80.1844077
9.159                0.733946286      79.9173631
9.16                 0.734893562      79.6514663
9.161                0.735837829      79.3867115
9.162                0.736779069      79.1230929
9.163                0.737717269      78.8606049
9.164                0.738652413      78.5992417
9.165                0.739584489      78.3389976
9.166                0.740513481      78.0798669
9.167                0.741439377      77.8218441
9.168                0.742362166      77.5649233
9.169                0.743281834      77.3090991
9.17                 0.744198371      77.0543658
9.171                0.745111765      76.8007178
9.172                0.746022006      76.5481496
9.173                0.746929084      76.2966556
9.174                0.747832989      76.0462303
9.175                0.748733712      75.7968682
9.176                0.749631245      75.5485638
9.177                0.750525579      75.3013116
9.178                0.751416707      75.0551063
9.179                 0.75230462      74.8099423
9.18                 0.753189313      74.5658144
9.181                0.754070778       74.322717
9.182                 0.75494901      74.0806449
9.183                0.755824002      73.8395928
9.184                 0.75669575      73.5995553
9.185                0.757564248       73.360527
9.186                0.758429492      73.1225029
9.187                0.759291477      72.8854776
9.188                  0.7601502      72.6494459
9.189                0.761005657      72.4144025
9.19                 0.761857845      72.1803424
9.191                0.762706761      71.9472604
9.192                0.763552402      71.7151513
9.193                0.764394768        71.48401
9.194                0.765233854      71.2538314
9.195                0.766069662      71.0246106
9.196                0.766902188      70.7963424
9.197                0.767731432      70.5690218
9.198                0.768557394      70.3426438
9.199                0.769380074      70.1172035
9.2                   0.77019947      69.8926959
9.201                0.771015585      69.6691162
9.202                0.771828418      69.4464593
9.203                 0.77263797      69.2247204
9.204                0.773444242      69.0038947
9.205                0.774247236      68.7839773
9.206                0.775046953      68.5649634
9.207                0.775843396      68.3468483
9.208                0.776636566      68.1296272
9.209                0.777426466      67.9132953
9.21                 0.778213099       67.697848
9.211                0.778996467      67.4832805
9.212                0.779776574      67.2695882
9.213                0.780553423      67.0567664
9.214                0.781327017      66.8448105
9.215                 0.78209736       66.633716
9.216                0.782864457      66.4234782
9.217                0.783628311      66.2140926
9.218                0.784388928      66.0055546
9.219                 0.78514631      65.7978598
9.22                 0.785900464      65.5910038
9.221                0.786651394      65.3849819
9.222                0.787399106      65.1797898
9.223                0.788143605      64.9754231
9.224                0.788884895      64.7718774
9.225                0.789622984      64.5691484
9.226                0.790357877      64.3672316
9.227                 0.79108958      64.1661228
9.228                0.791818099      63.9658176
9.229                 0.79254344      63.7663118
9.23                 0.793265611      63.5676012
9.231                0.793984617      63.3696815
9.232                0.794700465      63.1725485
9.233                0.795413163       62.976198
9.234                0.796122718      62.7806258
9.235                0.796829136      62.5858279
9.236                0.797532426      62.3918001
9.237                0.798232593      62.1985382
9.238                0.798929648      62.0060383
9.239                0.799623596      61.8142963
9.24                 0.800314445      61.6233081
9.241                0.801002205      61.4330698
9.242                0.801686882      61.2435773
9.243                0.802368485      61.0548267
9.244                0.803047023       60.866814
9.245                0.803722503      60.6795354
9.246                0.804394935      60.4929869
9.247                0.805064326      60.3071646
9.248                0.805730686      60.1220647
9.249                0.806394023      59.9376834
9.25                 0.807054346      59.7540168
9.251                0.807711664      59.5710612
9.252                0.808365986      59.3888127
9.253                0.809017322      59.2072676
9.254                 0.80966568      59.0264223
9.255                 0.81031107      58.8462729
9.256                  0.8109535      58.6668158
9.257                0.811592982      58.4880473
9.258                0.812229523      58.3099638
9.259                0.812863134      58.1325616
9.26                 0.813493824      57.9558371
9.261                0.814121603      57.7797868
9.262                0.814746481      57.6044071
9.263                0.815368467      57.4296943
9.264                0.815987571      57.2556451
9.265                0.816603803      57.0822559
9.266                0.817217174      56.9095232
9.267                0.817827693      56.7374435
9.268                 0.81843537      56.5660133
9.269                0.819040215      56.3952294
9.27                 0.819642239      56.2250881
9.271                0.820241452      56.0555862
9.272                0.820837863      55.8867203
9.273                0.821431484       55.718487
9.274                0.822022324       55.550883
9.275                0.822610394      55.3839049
9.276                0.823195704      55.2175496
9.277                0.823778265      55.0518136
9.278                0.824358086      54.8866937
9.279                 0.82493518      54.7221868
9.28                 0.825509555      54.5582895
9.281                0.826081222      54.3949986
9.282                0.826650193      54.2323111
9.283                0.827216477      54.0702236
9.284                0.827780085      53.9087331
9.285                0.828341028      53.7478365
9.286                0.828899316      53.5875305
9.287                 0.82945496      53.4278121
9.288                 0.83000797      53.2686783
9.289                0.830558358      53.1101259
9.29                 0.831106133       52.952152
9.291                0.831651307      52.7947535
9.292                 0.83219389      52.6379273
9.293                0.832733893      52.4816706
9.294                0.833271327      52.3259802
9.295                0.833806202      52.1708533
9.296                0.834338528       52.016287
9.297                0.834868318      51.8622782
9.298                 0.83539558      51.7088241
9.299                0.835920327      51.5559218
9.3                  0.836442568      51.4035684
9.301                0.836962315       51.251761
9.302                0.837479578      51.1004969
9.303                0.837994368      50.9497731
9.304                0.838506695       50.799587
9.305                 0.83901657      50.6499356
9.306                0.839524005      50.5008162
9.307                0.840029008       50.352226
9.308                0.840531592      50.2041624
9.309                0.841031767      50.0566224
9.31                 0.841529543      49.9096036
9.311                0.842024932      49.7631031
9.312                0.842517943      49.6171182
9.313                0.843008587      49.4716463
9.314                0.843496875      49.3266848
9.315                0.843982818       49.182231
9.316                0.844466426      49.0382822
9.317                0.844947709      48.8948359
9.318                0.845426678      48.7518895
9.319                0.845903345      48.6094403
9.32                 0.846377718      48.4674859
9.321                0.846849808      48.3260237
9.322                0.847319627      48.1850511
9.323                0.847787185      48.0445656
9.324                0.848252491      47.9045647
9.325                0.848715556       47.765046
9.326                0.849176391      47.6260068
9.327                0.849635006      47.4874449
9.328                0.850091412      47.3493577
9.329                0.850545618      47.2117428
9.33                 0.850997635      47.0745977
9.331                0.851447473      46.9379202
9.332                0.851895143      46.8017076
9.333                0.852340654      46.6659578
9.334                0.852784017      46.5306683
9.335                0.853225242      46.3958367
9.336                0.853664339      46.2614608
9.337                0.854101319      46.1275382
9.338                 0.85453619      45.9940665
9.339                0.854968964      45.8610436
9.34                  0.85539965       45.728467
9.341                0.855828258      45.5963345
9.342                0.856254799      45.4646439
9.343                0.856679282      45.3333929
9.344                0.857101717      45.2025793
9.345                0.857522114      45.0722008
9.346                0.857940483      44.9422553
9.347                0.858356833      44.8127405
9.348                0.858771175      44.6836542
9.349                0.859183517      44.5549943
9.35                 0.859593871      44.4267587
9.351                0.860002245      44.2989451
9.352                 0.86040865      44.1715514
9.353                0.860813094      44.0445755
9.354                0.861215587      43.9180153
9.355                 0.86161614      43.7918688
9.356                0.862014761      43.6661337
9.357                 0.86241146       43.540808
9.358                0.862806246      43.4158897
9.359                0.863199129      43.2913767
9.36                 0.863590118       43.167267
9.361                0.863979223      43.0435584
9.362                0.864366452      42.9202491
9.363                0.864751816       42.797337
9.364                0.865135323      42.6748201
9.365                0.865516982      42.5526965
9.366                0.865896804       42.430964
9.367                0.866274796      42.3096209
9.368                0.866650968      42.1886651
9.369                0.867025329      42.0680946
9.37                 0.867397888      41.9479076
9.371                0.867768655      41.8281022
9.372                0.868137637      41.7086764
9.373                0.868504844      41.5896283
9.374                0.868870286       41.470956
9.375                0.869233969      41.3526578
9.376                0.869595905      41.2347316
9.377                  0.8699561      41.1171756
9.378                0.870314565      40.9999881
9.379                0.870671307      40.8831671
9.38                 0.871026336      40.7667108
9.381                 0.87137966      40.6506175
9.382                0.871731287      40.5348852
9.383                0.872081227      40.4195123
9.384                0.872429487      40.3044969
9.385                0.872776076      40.1898373
9.386                0.873121003      40.0755317
9.387                0.873464277      39.9615783
9.388                0.873805904      39.8479754
9.389                0.874145894      39.7347212
9.39                 0.874484256      39.6218141
9.391                0.874820996      39.5092523
9.392                0.875156124      39.3970341
9.393                0.875489648      39.2851578
9.394                0.875821576      39.1736217
9.395                0.876151915      39.0624241
9.396                0.876480675      38.9515634
