! TOUCHSTONE file generated by CST DESIGN STUDIO
! Date and time: Tue Feb  4 12:46:48 2025
! Project name: C:\Work\MatlabApps\UnitCellOptimizationMatlab\CST\unitcell.cst
! Tree item: Tasks\Sweep1\SPara1\S-Parameters
! Header version: 2024
! Port assignment regex: !\s*Touchstone port\s*([0-9]+)\s*=\s*(CST MWS port|CST DES external port|CST DES block port)\s*(.+)\s* \(\"(.*)\"\)(\s*mode\s*([0-9]+))?.*
! Touchstone port assignment:
! Touchstone port 1 = CST DES external port 1 ("")
# GHz S MA R 50
9                    0.971008088     -79.7427805
9.001                0.970930837     -79.8701237
9.002                0.970853356     -79.9977944
9.003                0.970775645     -80.1257935
9.004                0.970697703      -80.254122
9.005                 0.97061953      -80.382781
9.006                0.970541125     -80.5117714
9.007                0.970462489     -80.6410941
9.008                0.970383619     -80.7707503
9.009                0.970304518     -80.9007408
9.01                 0.970225182     -81.0310668
9.011                0.970145613     -81.1617291
9.012                0.970065811     -81.2927288
9.013                0.969985773     -81.4240669
9.014                0.969905501     -81.5557444
9.015                0.969824993     -81.6877623
9.016                 0.96974425     -81.8201216
9.017                0.969663271     -81.9528234
9.018                0.969582055     -82.0858685
9.019                0.969500603     -82.2192582
9.02                 0.969418913     -82.3529933
9.021                0.969336986     -82.4870748
9.022                0.969254821     -82.6215039
9.023                0.969172418     -82.7562815
9.024                0.969089776     -82.8914086
9.025                0.969006895     -83.0268864
9.026                0.968923775     -83.1627157
9.027                0.968840415     -83.2988976
9.028                0.968756815     -83.4354332
9.029                0.968672975     -83.5723234
9.03                 0.968588894     -83.7095694
9.031                0.968504573     -83.8471722
9.032                 0.96842001     -83.9851327
9.033                0.968335206      -84.123452
9.034                0.968250159     -84.2621312
9.035                0.968164871     -84.4011713
9.036                 0.96807934     -84.5405733
9.037                0.967993567     -84.6803383
9.038                 0.96790755     -84.8204673
9.039                 0.96782129     -84.9609614
9.04                 0.967734787     -85.1018216
9.041                 0.96764804      -85.243049
9.042                0.967561049     -85.3846446
9.043                0.967473814     -85.5266094
9.044                0.967386334     -85.6689446
9.045                0.967298609     -85.8116511
9.046                 0.96721064       -85.95473
9.047                0.967122425     -86.0981824
9.048                0.967033965     -86.2420093
9.049                0.966945259     -86.3862118
9.05                 0.966856308      -86.530791
9.051                 0.96676711     -86.6757478
9.052                0.966677666     -86.8210834
9.053                0.966587976     -86.9667988
9.054                 0.96649804     -87.1128951
9.055                0.966407857     -87.2593733
9.056                0.966317427     -87.4062345
9.057                 0.96622675     -87.5534798
9.058                0.966135826     -87.7011102
9.059                0.966044655     -87.8491268
9.06                 0.965953237     -87.9975307
9.061                0.965861571     -88.1463229
9.062                0.965769658     -88.2955045
9.063                0.965677497     -88.4450765
9.064                0.965585088     -88.5950401
9.065                0.965492432     -88.7453962
9.066                0.965399527     -88.8961461
9.067                0.965306375     -89.0472906
9.068                0.965212975      -89.198831
9.069                0.965119327     -89.3507682
9.07                 0.965025432     -89.5031034
9.071                0.964931288     -89.6558375
9.072                0.964836896     -89.8089718
9.073                0.964742256     -89.9625072
9.074                0.964647368     -90.1164448
9.075                0.964552232     -90.2707857
9.076                0.964456849      -90.425531
9.077                0.964361217     -90.5806817
9.078                0.964265338     -90.7362389
9.079                0.964169211     -90.8922037
9.08                 0.964072836     -91.0485772
9.081                0.963976214     -91.2053603
9.082                0.963879344     -91.3625542
9.083                0.963782227       -91.52016
9.084                0.963684863     -91.6781787
9.085                0.963587252     -91.8366114
9.086                0.963489393     -91.9954592
9.087                0.963391288     -92.1547231
9.088                0.963292937     -92.3144041
9.089                0.963194339     -92.4745035
9.09                 0.963095494     -92.6350221
9.091                0.962996404     -92.7959612
9.092                0.962897068     -92.9573217
9.093                0.962797486     -93.1191047
9.094                 0.96269766     -93.2813113
9.095                0.962597588     -93.4439426
9.096                0.962497271     -93.6069995
9.097                 0.96239671     -93.7704832
9.098                0.962295905     -93.9343948
9.099                0.962194855     -94.0987352
9.1                  0.962093563     -94.2635055
9.101                0.961992027     -94.4287068
9.102                0.961890249     -94.5943402
9.103                0.961788228     -94.7604067
9.104                0.961685964     -94.9269073
9.105                 0.96158346      -95.093843
9.106                0.961480714     -95.2612151
9.107                0.961377727     -95.4290244
9.108                  0.9612745      -95.597272
9.109                0.961171033      -95.765959
9.11                 0.961067327     -95.9350864
9.111                0.960963382     -96.1046553
9.112                0.960859198     -96.2746666
9.113                0.960754777     -96.4451215
9.114                0.960650118     -96.6160209
9.115                0.960545223     -96.7873658
9.116                0.960440091     -96.9591574
9.117                0.960334724     -97.1313966
9.118                0.960229122     -97.3040844
9.119                0.960123285     -97.4772219
9.12                 0.960017215     -97.6508101
9.121                0.959910912       -97.82485
9.122                0.959804376     -97.9993426
9.123                0.959697609      -98.174289
9.124                0.959590611       -98.34969
9.125                0.959483383     -98.5255468
9.126                0.959375925     -98.7018603
9.127                0.959268239     -98.8786315
9.128                0.959160324     -99.0558615
9.129                0.959052183     -99.2335511
9.13                 0.958943816     -99.4117014
9.131                0.958835223     -99.5903134
9.132                0.958726405     -99.7693881
9.133                0.958617364     -99.9489264
9.134                  0.9585081     -100.128929
9.135                0.958398615     -100.309398
9.136                0.958288908     -100.490333
9.137                0.958178982     -100.671735
9.138                0.958068837     -100.853606
9.139                0.957958474     -101.035946
9.14                 0.957847894     -101.218757
9.141                0.957737098     -101.402039
9.142                0.957626088     -101.585793
9.143                0.957514864     -101.770021
9.144                0.957403427     -101.954722
9.145                 0.95729178     -102.139899
9.146                0.957179922     -102.325551
9.147                0.957067854      -102.51168
9.148                 0.95695558     -102.698287
9.149                0.956843098     -102.885373
9.15                 0.956730411     -103.072938
9.151                 0.95661752     -103.260984
9.152                0.956504427     -103.449511
9.153                0.956391131      -103.63852
9.154                0.956277636     -103.828012
9.155                0.956163942     -104.017989
9.156                0.956050051      -104.20845
9.157                0.955935964     -104.399397
9.158                0.955821682      -104.59083
9.159                0.955707207     -104.782751
9.16                 0.955592541      -104.97516
9.161                0.955477685     -105.168058
9.162                 0.95536264     -105.361446
9.163                0.955247408     -105.555325
9.164                0.955131991     -105.749695
9.165                 0.95501639     -105.944558
9.166                0.954900608     -106.139914
9.167                0.954784644     -106.335763
9.168                0.954668502     -106.532108
9.169                0.954552184     -106.728948
9.17                 0.954435689     -106.926284
9.171                0.954319022     -107.124117
9.172                0.954202182     -107.322448
9.173                0.954085173     -107.521278
9.174                0.953967996     -107.720607
9.175                0.953850653     -107.920436
9.176                0.953733145     -108.120765
9.177                0.953615476     -108.321596
9.178                0.953497646     -108.522929
9.179                0.953379657     -108.724765
9.18                 0.953261513     -108.927105
9.181                0.953143214     -109.129949
9.182                0.953024763     -109.333298
9.183                0.952906162     -109.537152
9.184                0.952787413     -109.741512
9.185                0.952668518      -109.94638
9.186                0.952549479     -110.151755
9.187                  0.9524303     -110.357638
9.188                0.952310981     -110.564029
9.189                0.952191525      -110.77093
9.19                 0.952071935     -110.978341
9.191                0.951952213     -111.186263
9.192                0.951832361     -111.394695
9.193                0.951712382      -111.60364
9.194                0.951592277     -111.813096
9.195                 0.95147205     -112.023065
9.196                0.951351703     -112.233548
9.197                0.951231239     -112.444544
9.198                 0.95111066     -112.656055
9.199                0.950989968      -112.86808
9.2                  0.950869167     -113.080621
9.201                0.950748258     -113.293678
9.202                0.950627246     -113.507251
9.203                0.950506131      -113.72134
9.204                0.950384918     -113.935947
9.205                0.950263608     -114.151071
9.206                0.950142205     -114.366714
9.207                0.950020712     -114.582874
9.208                0.949899131     -114.799554
9.209                0.949777465     -115.016752
9.21                 0.949655717     -115.234471
9.211                0.949533891     -115.452709
9.212                0.949411988     -115.671467
9.213                0.949290013     -115.890746
9.214                0.949167968     -116.110546
9.215                0.949045857     -116.330867
9.216                0.948923682     -116.551709
9.217                0.948801446     -116.773073
9.218                0.948679154     -116.994959
9.219                0.948556807     -117.217368
9.22                  0.94843441     -117.440299
9.221                0.948311966     -117.663752
9.222                0.948189477     -117.887729
9.223                0.948066948     -118.112228
9.224                0.947944381     -118.337251
9.225                0.947821781     -118.562797
9.226                 0.94769915     -118.788867
9.227                0.947576493      -119.01546
9.228                0.947453812     -119.242577
9.229                0.947331111     -119.470218
9.23                 0.947208394     -119.698383
9.231                0.947085664     -119.927072
9.232                0.946962926     -120.156285
9.233                0.946840182     -120.386022
9.234                0.946717437     -120.616283
9.235                0.946594694     -120.847069
9.236                0.946471958     -121.078378
9.237                0.946349231     -121.310212
9.238                0.946226518     -121.542569
9.239                0.946103822     -121.775451
9.24                 0.945981148     -122.008856
9.241                  0.9458585     -122.242785
9.242                0.945735882     -122.477237
9.243                0.945613297     -122.712214
9.244                0.945490749     -122.947713
9.245                0.945368244     -123.183736
9.246                0.945245784     -123.420281
9.247                0.945123374     -123.657349
9.248                0.945001019      -123.89494
9.249                0.944878722     -124.133053
9.25                 0.944756488     -124.371688
9.251                 0.94463432     -124.610844
9.252                0.944512225     -124.850522
9.253                0.944390205     -125.090721
9.254                0.944268265     -125.331441
9.255                0.944146409     -125.572681
9.256                0.944024643     -125.814441
9.257                 0.94390297     -126.056721
9.258                0.943781395      -126.29952
9.259                0.943659923     -126.542837
9.26                 0.943538557     -126.786672
9.261                0.943417304     -127.031026
9.262                0.943296167     -127.275896
9.263                0.943175151     -127.521284
9.264                 0.94305426     -127.767187
9.265                0.942933501     -128.013606
9.266                0.942812876      -128.26054
9.267                0.942692392     -128.507988
9.268                0.942572052      -128.75595
9.269                0.942451862     -129.004425
9.27                 0.942331827     -129.253412
9.271                0.942211952     -129.502911
9.272                0.942092241     -129.752921
9.273                0.941972699     -130.003442
9.274                0.941853332     -130.254471
9.275                0.941734145      -130.50601
9.276                0.941615141     -130.758056
9.277                0.941496328     -131.010609
9.278                0.941377709     -131.263669
9.279                0.941259291     -131.517233
9.28                 0.941141077     -131.771303
9.281                0.941023073     -132.025875
9.282                0.940905285      -132.28095
9.283                0.940787718     -132.536527
9.284                0.940670377     -132.792604
9.285                0.940553267      -133.04918
9.286                0.940436393     -133.306255
9.287                0.940319762     -133.563828
9.288                0.940203377     -133.821897
9.289                0.940087246     -134.080461
9.29                 0.939971372     -134.339519
9.291                0.939855762     -134.599069
9.292                0.939740421     -134.859112
9.293                0.939625354     -135.119645
9.294                0.939510568     -135.380667
9.295                0.939396067     -135.642177
9.296                0.939281856     -135.904174
9.297                0.939167943     -136.166656
9.298                0.939054331     -136.429623
9.299                0.938941027     -136.693072
9.3                  0.938828037     -136.957002
9.301                0.938715365     -137.221412
9.302                0.938603018       -137.4863
9.303                0.938491002     -137.751666
9.304                0.938379321     -138.017507
9.305                0.938267982     -138.283821
9.306                 0.93815699     -138.550609
9.307                0.938046352     -138.817867
9.308                0.937936072     -139.085594
9.309                0.937826157     -139.353789
9.31                 0.937716613      -139.62245
9.311                0.937607444     -139.891575
9.312                0.937498658     -140.161163
9.313                0.937390259     -140.431211
9.314                0.937282254     -140.701719
9.315                0.937174648     -140.972684
9.316                0.937067447     -141.244105
9.317                0.936960658     -141.515979
9.318                0.936854285     -141.788305
9.319                0.936748336     -142.061081
9.32                 0.936642815     -142.334306
9.321                0.936537728     -142.607976
9.322                0.936433082      -142.88209
9.323                0.936328882     -143.156647
9.324                0.936225135     -143.431644
9.325                0.936121845     -143.707079
9.326                0.936019019      -143.98295
9.327                0.935916664     -144.259255
9.328                0.935814784     -144.535991
9.329                0.935713386     -144.813158
9.33                 0.935612475     -145.090752
9.331                0.935512057     -145.368771
9.332                 0.93541214     -145.647213
9.333                0.935312727     -145.926076
9.334                0.935213825     -146.205358
9.335                0.935115441     -146.485055
9.336                0.935017579     -146.765167
9.337                0.934920246      -147.04569
9.338                0.934823448     -147.326623
9.339                 0.93472719     -147.607962
9.34                 0.934631479     -147.889705
9.341                 0.93453632      -148.17185
9.342                0.934441718     -148.454395
9.343                0.934347681     -148.737336
9.344                0.934254214     -149.020671
9.345                0.934161322     -149.304398
9.346                0.934069011     -149.588514
9.347                0.933977287     -149.873017
9.348                0.933886156     -150.157903
9.349                0.933795624     -150.443171
9.35                 0.933705696     -150.728816
9.351                0.933616378     -151.014838
9.352                0.933527676     -151.301232
9.353                0.933439595     -151.587997
9.354                0.933352141     -151.875129
9.355                 0.93326532     -152.162625
9.356                0.933179138     -152.450483
9.357                0.933093599       -152.7387
9.358                 0.93300871     -153.027272
9.359                0.932924476     -153.316197
9.36                 0.932840903     -153.605473
9.361                0.932757995     -153.895095
9.362                 0.93267576     -154.185061
9.363                0.932594201     -154.475368
9.364                0.932513325     -154.766013
9.365                0.932433136     -155.056993
9.366                0.932353641     -155.348304
9.367                0.932274845     -155.639944
9.368                0.932196752     -155.931909
9.369                0.932119369     -156.224196
9.37                   0.9320427     -156.516802
9.371                 0.93196675     -156.809724
9.372                0.931891526     -157.102959
9.373                0.931817031     -157.396502
9.374                0.931743271     -157.690352
9.375                0.931670252     -157.984504
9.376                0.931597977     -158.278955
9.377                0.931526453     -158.573703
9.378                0.931455684     -158.868743
9.379                0.931385674     -159.164071
9.38                  0.93131643     -159.459686
9.381                0.931247955     -159.755582
9.382                0.931180255     -160.051758
9.383                0.931113333     -160.348208
9.384                0.931047196     -160.644931
9.385                0.930981847     -160.941921
9.386                0.930917292     -161.239176
9.387                0.930853533     -161.536692
9.388                0.930790578     -161.834465
9.389                0.930728428     -162.132493
9.39                  0.93066709      -162.43077
9.391                0.930606567     -162.729294
9.392                0.930546864      -163.02806
9.393                0.930487985     -163.327066
9.394                0.930429934     -163.626307
9.395                0.930372716      -163.92578
9.396                0.930316334      -164.22548
