! TOUCHSTONE file generated by CST DESIGN STUDIO
! Date and time: Tue Feb  4 12:46:53 2025
! Project name: C:\Work\MatlabApps\UnitCellOptimizationMatlab\CST\unitcell.cst
! Tree item: Tasks\Sweep1\SPara1\S-Parameters
! Header version: 2024
! Port assignment regex: !\s*Touchstone port\s*([0-9]+)\s*=\s*(CST MWS port|CST DES external port|CST DES block port)\s*(.+)\s* \(\"(.*)\"\)(\s*mode\s*([0-9]+))?.*
! Touchstone port assignment:
! Touchstone port 1 = CST DES external port 1 ("")
# GHz S MA R 50
9                    0.972674927     -72.3593984
9.001                 0.97260752     -72.4687324
9.002                0.972539908      -72.578339
9.003                0.972472091     -72.6882193
9.004                0.972404066     -72.7983739
9.005                0.972335835     -72.9088039
9.006                0.972267397       -73.01951
9.007                 0.97219875     -73.1304931
9.008                0.972129895     -73.2417542
9.009                0.972060831      -73.353294
9.01                 0.971991557     -73.4651134
9.011                0.971922073     -73.5772133
9.012                0.971852378     -73.6895945
9.013                0.971782472     -73.8022581
9.014                0.971712355     -73.9152047
9.015                0.971642025     -74.0284354
9.016                0.971571483      -74.141951
9.017                0.971500727     -74.2557523
9.018                0.971429758     -74.3698404
9.019                0.971358574      -74.484216
9.02                 0.971287176     -74.5988801
9.021                0.971215562     -74.7138335
9.022                0.971143732     -74.8290772
9.023                0.971071686     -74.9446121
9.024                0.970999423      -75.060439
9.025                0.970926943     -75.1765589
9.026                0.970854245     -75.2929727
9.027                0.970781328     -75.4096813
9.028                0.970708193     -75.5266856
9.029                0.970634838     -75.6439865
9.03                 0.970561263     -75.7615849
9.031                0.970487468     -75.8794818
9.032                0.970413452     -75.9976782
9.033                0.970339215     -76.1161748
9.034                0.970264755     -76.2349726
9.035                0.970190074     -76.3540726
9.036                0.970115169     -76.4734758
9.037                0.970040041     -76.5931829
9.038                0.969964689     -76.7131951
9.039                0.969889113     -76.8335131
9.04                 0.969813312      -76.954138
9.041                0.969737286     -77.0750707
9.042                0.969661033     -77.1963121
9.043                0.969584555     -77.3178633
9.044                 0.96950785     -77.4397251
9.045                0.969430918     -77.5618984
9.046                0.969353757     -77.6843843
9.047                0.969276369     -77.8071838
9.048                0.969198752     -77.9302977
9.049                0.969120906      -78.053727
9.05                 0.969042831     -78.1774727
9.051                0.968964526     -78.3015358
9.052                 0.96888599     -78.4259172
9.053                0.968807223     -78.5506178
9.054                0.968728225     -78.6756388
9.055                0.968648995      -78.800981
9.056                0.968569532     -78.9266454
9.057                0.968489838     -79.0526331
9.058                 0.96840991     -79.1789449
9.059                0.968329748     -79.3055818
9.06                 0.968249353     -79.4325449
9.061                0.968168723     -79.5598352
9.062                0.968087858     -79.6874536
9.063                0.968006758     -79.8154011
9.064                0.967925422     -79.9436787
9.065                0.967843851     -80.0722874
9.066                0.967762042     -80.2012282
9.067                0.967679997     -80.3305021
9.068                0.967597715     -80.4601101
9.069                0.967515195     -80.5900533
9.07                 0.967432437     -80.7203325
9.071                0.967349441     -80.8509489
9.072                0.967266205     -80.9819034
9.073                0.967182731      -81.113197
9.074                0.967099017     -81.2448308
9.075                0.967015062     -81.3768057
9.076                0.966930868     -81.5091228
9.077                0.966846433     -81.6417832
9.078                0.966761757     -81.7747878
9.079                0.966676839     -81.9081376
9.08                  0.96659168     -82.0418336
9.081                0.966506279      -82.175877
9.082                0.966420635     -82.3102687
9.083                0.966334749     -82.4450098
9.084                0.966248619     -82.5801012
9.085                0.966162246      -82.715544
9.086                 0.96607563     -82.8513393
9.087                0.965988769     -82.9874881
9.088                0.965901664     -83.1239914
9.089                0.965814314     -83.2608503
9.09                  0.96572672     -83.3980658
9.091                 0.96563888     -83.5356389
9.092                0.965550795     -83.6735707
9.093                0.965462464     -83.8118623
9.094                0.965373887     -83.9505146
9.095                0.965285064     -84.0895288
9.096                0.965195994     -84.2289058
9.097                0.965106678     -84.3686468
9.098                0.965017114     -84.5087527
9.099                0.964927304     -84.6492247
9.1                  0.964837245     -84.7900638
9.101                0.964746939      -84.931271
9.102                0.964656386     -85.0728474
9.103                0.964565584     -85.2147941
9.104                0.964474533     -85.3571122
9.105                0.964383234     -85.4998026
9.106                0.964291687     -85.6428665
9.107                 0.96419989     -85.7863048
9.108                0.964107845     -85.9301188
9.109                 0.96401555     -86.0743094
9.11                 0.963923006     -86.2188777
9.111                0.963830212     -86.3638248
9.112                0.963737168     -86.5091517
9.113                0.963643875     -86.6548596
9.114                0.963550332     -86.8009495
9.115                0.963456539     -86.9474224
9.116                0.963362496     -87.0942794
9.117                0.963268202     -87.2415217
9.118                0.963173658     -87.3891502
9.119                0.963078864     -87.5371661
9.12                 0.962983819     -87.6855704
9.121                0.962888524     -87.8343643
9.122                0.962792978     -87.9835487
9.123                0.962697182     -88.1331248
9.124                0.962601135     -88.2830936
9.125                0.962504837     -88.4334563
9.126                0.962408288     -88.5842138
9.127                0.962311489     -88.7353673
9.128                0.962214439     -88.8869179
9.129                0.962117138     -89.0388666
9.13                 0.962019587     -89.1912146
9.131                0.961921785     -89.3439628
9.132                0.961823733     -89.4971125
9.133                 0.96172543     -89.6506646
9.134                0.961626876     -89.8046202
9.135                0.961528073     -89.9589805
9.136                0.961429019     -90.1137465
9.137                0.961329714     -90.2689193
9.138                 0.96123016     -90.4244999
9.139                0.961130356     -90.5804895
9.14                 0.961030302     -90.7368892
9.141                0.960929998     -90.8936999
9.142                0.960829445     -91.0509229
9.143                0.960728643     -91.2085591
9.144                0.960627592     -91.3666098
9.145                0.960526291     -91.5250758
9.146                0.960424742     -91.6839584
9.147                0.960322945     -91.8432586
9.148                0.960220899     -92.0029774
9.149                0.960118606      -92.163116
9.15                 0.960016064     -92.3236755
9.151                0.959913275     -92.4846569
9.152                0.959810239     -92.6460612
9.153                0.959706957     -92.8078896
9.154                0.959603427     -92.9701432
9.155                0.959499652      -93.132823
9.156                 0.95939563       -93.29593
9.157                0.959291363     -93.4594655
9.158                0.959186851     -93.6234303
9.159                0.959082095     -93.7878257
9.16                 0.958977094     -93.9526526
9.161                0.958871849     -94.1179122
9.162                0.958766361     -94.2836054
9.163                0.958660629     -94.4497335
9.164                0.958554655     -94.6162973
9.165                 0.95844844     -94.7832981
9.166                0.958341982     -94.9507368
9.167                0.958235284     -95.1186145
9.168                0.958128345     -95.2869322
9.169                0.958021166     -95.4556911
9.17                 0.957913747     -95.6248922
9.171                 0.95780609     -95.7945365
9.172                0.957698195      -95.964625
9.173                0.957590062     -96.1351589
9.174                0.957481692     -96.3061392
9.175                0.957373085     -96.4775668
9.176                0.957264243     -96.6494429
9.177                0.957155166     -96.8217685
9.178                0.957045855     -96.9945446
9.179                 0.95693631     -97.1677723
9.18                 0.956826533     -97.3414525
9.181                0.956716523     -97.5155864
9.182                0.956606282     -97.6901748
9.183                0.956495811      -97.865219
9.184                0.956385109     -98.0407198
9.185                0.956274179     -98.2166784
9.186                0.956163021     -98.3930956
9.187                0.956051636     -98.5699726
9.188                0.955940025     -98.7473102
9.189                0.955828188     -98.9251097
9.19                 0.955716127     -99.1033718
9.191                0.955603843     -99.2820977
9.192                0.955491336     -99.4612883
9.193                0.955378607     -99.6409446
9.194                0.955265659     -99.8210676
9.195                 0.95515249     -100.001658
9.196                0.955039104     -100.182718
9.197                  0.9549255     -100.364247
9.198                 0.95481168     -100.546246
9.199                0.954697644     -100.728717
9.2                  0.954583395     -100.911661
9.201                0.954468933     -101.095078
9.202                 0.95435426      -101.27897
9.203                0.954239376     -101.463337
9.204                0.954124283      -101.64818
9.205                0.954008982     -101.833501
9.206                0.953893475       -102.0193
9.207                0.953777762     -102.205578
9.208                0.953661846     -102.392336
9.209                0.953545726     -102.579575
9.21                 0.953429406     -102.767295
9.211                0.953312885     -102.955499
9.212                0.953196167     -103.144187
9.213                0.953079251     -103.333359
9.214                 0.95296214     -103.523016
9.215                0.952844835      -103.71316
9.216                0.952727337     -103.903791
9.217                0.952609648      -104.09491
9.218                 0.95249177     -104.286519
9.219                0.952373705     -104.478617
9.22                 0.952255453     -104.671206
9.221                0.952137017     -104.864286
9.222                0.952018397     -105.057859
9.223                0.951899597     -105.251925
9.224                0.951780618     -105.446485
9.225                 0.95166146      -105.64154
9.226                0.951542127     -105.837091
9.227                 0.95142262     -106.033138
9.228                0.951302941     -106.229683
9.229                0.951183091     -106.426726
9.23                 0.951063073     -106.624268
9.231                0.950942889     -106.822309
9.232                 0.95082254     -107.020851
9.233                0.950702028     -107.219894
9.234                0.950581356     -107.419439
9.235                0.950460525     -107.619487
9.236                0.950339538     -107.820038
9.237                0.950218396     -108.021093
9.238                0.950097103     -108.222654
9.239                0.949975659     -108.424719
9.24                 0.949854067     -108.627292
9.241                0.949732329     -108.830371
9.242                0.949610448     -109.033958
9.243                0.949488425     -109.238054
9.244                0.949366264     -109.442658
9.245                0.949243966     -109.647772
9.246                0.949121534     -109.853397
9.247                 0.94899897     -110.059532
9.248                0.948876277      -110.26618
9.249                0.948753457     -110.473339
9.25                 0.948630512     -110.681012
9.251                0.948507445     -110.889198
9.252                0.948384259     -111.097897
9.253                0.948260956     -111.307112
9.254                0.948137539     -111.516842
9.255                 0.94801401     -111.727087
9.256                0.947890372     -111.937849
9.257                0.947766628     -112.149128
9.258                 0.94764278     -112.360924
9.259                0.947518832     -112.573238
9.26                 0.947394786     -112.786071
9.261                0.947270645     -112.999422
9.262                0.947146411     -113.213293
9.263                0.947022089     -113.427684
9.264                0.946897679     -113.642595
9.265                0.946773187     -113.858026
9.266                0.946648614     -114.073979
9.267                0.946523964     -114.290453
9.268                0.946399239      -114.50745
9.269                0.946274443     -114.724969
9.27                 0.946149579      -114.94301
9.271                 0.94602465     -115.161575
9.272                0.945899659     -115.380663
9.273                 0.94577461     -115.600275
9.274                0.945649506     -115.820412
9.275                 0.94552435     -116.041072
9.276                0.945399145     -116.262258
9.277                0.945273894     -116.483969
9.278                0.945148603     -116.706205
9.279                0.945023272     -116.928966
9.28                 0.944897907     -117.152253
9.281                 0.94477251     -117.376067
9.282                0.944647086     -117.600407
9.283                0.944521637     -117.825273
9.284                0.944396167     -118.050666
9.285                0.944270681     -118.276586
9.286                0.944145181     -118.503032
9.287                0.944019671     -118.730006
9.288                0.943894156     -118.957508
9.289                0.943768638     -119.185536
9.29                 0.943643122     -119.414092
9.291                0.943517612     -119.643176
9.292                0.943392111     -119.872787
9.293                0.943266623     -120.102926
9.294                0.943141153     -120.333592
9.295                0.943015703     -120.564786
9.296                 0.94289028     -120.796508
9.297                0.942764885     -121.028758
9.298                0.942639524     -121.261535
9.299                0.942514201     -121.494839
9.3                   0.94238892     -121.728671
9.301                0.942263684     -121.963031
9.302                0.942138498     -122.197917
9.303                0.942013367     -122.433331
9.304                0.941888295     -122.669272
9.305                0.941763286      -122.90574
9.306                0.941638344     -123.142734
9.307                0.941513474     -123.380255
9.308                 0.94138868     -123.618302
9.309                0.941263967     -123.856875
9.31                  0.94113934     -124.095973
9.311                0.941014802     -124.335597
9.312                0.940890358     -124.575746
9.313                0.940766013      -124.81642
9.314                0.940641772     -125.057619
9.315                0.940517639     -125.299341
9.316                0.940393619     -125.541588
9.317                0.940269717     -125.784357
9.318                0.940145937      -126.02765
9.319                0.940022284     -126.271465
9.32                 0.939898764     -126.515802
9.321                 0.93977538     -126.760661
9.322                0.939652138      -127.00604
9.323                0.939529043     -127.251941
9.324                0.939406099     -127.498361
9.325                0.939283312       -127.7453
9.326                0.939160687     -127.992759
9.327                0.939038229     -128.240736
9.328                0.938915942      -128.48923
9.329                0.938793832     -128.738241
9.33                 0.938671905     -128.987769
9.331                0.938550164     -129.237812
9.332                0.938428616      -129.48837
9.333                0.938307266     -129.739442
9.334                0.938186118     -129.991027
9.335                0.938065179     -130.243125
9.336                0.937944453     -130.495735
9.337                0.937823946     -130.748856
9.338                0.937703663     -131.002486
9.339                0.937583609     -131.256626
9.34                 0.937463791     -131.511275
9.341                0.937344213      -131.76643
9.342                0.937224881     -132.022093
9.343                  0.9371058      -132.27826
9.344                0.936986977     -132.534932
9.345                0.936868415     -132.792108
9.346                0.936750122     -133.049786
9.347                0.936632102     -133.307965
9.348                0.936514362     -133.566645
9.349                0.936396906     -133.825823
9.35                 0.936279741       -134.0855
9.351                0.936162873     -134.345673
9.352                0.936046306     -134.606342
9.353                0.935930047     -134.867506
9.354                0.935814101     -135.129163
9.355                0.935698474     -135.391311
9.356                0.935583173     -135.653951
9.357                0.935468202     -135.917079
9.358                0.935353568     -136.180696
9.359                0.935239276     -136.444799
9.36                 0.935125333     -136.709387
9.361                0.935011743     -136.974459
9.362                0.934898514     -137.240014
9.363                0.934785651     -137.506049
9.364                 0.93467316     -137.772564
9.365                0.934561047     -138.039557
9.366                0.934449318     -138.307025
9.367                0.934337978     -138.574969
9.368                0.934227034     -138.843386
9.369                0.934116493     -139.112274
9.37                 0.934006359     -139.381632
9.371                0.933896638     -139.651459
9.372                0.933787338     -139.921752
9.373                0.933678464     -140.192509
9.374                0.933570021      -140.46373
9.375                0.933462017     -140.735411
9.376                0.933354457     -141.007553
9.377                0.933247347     -141.280151
9.378                0.933140693     -141.553206
9.379                0.933034502     -141.826714
9.38                 0.932928779     -142.100674
9.381                0.932823531     -142.375084
9.382                0.932718763     -142.649942
9.383                0.932614483     -142.925246
9.384                0.932510695     -143.200994
9.385                0.932407406     -143.477183
9.386                0.932304623     -143.753813
9.387                 0.93220235      -144.03088
9.388                0.932100596     -144.308383
9.389                0.931999364     -144.586319
9.39                 0.931898662     -144.864686
9.391                0.931798496     -145.143482
9.392                0.931698872     -145.422705
9.393                0.931599796     -145.702353
9.394                0.931501274     -145.982422
9.395                0.931403312     -146.262912
9.396                0.931305916     -146.543819
