! TOUCHSTONE file generated by CST DESIGN STUDIO
! Date and time: Tue Feb  4 12:46:54 2025
! Project name: C:\Work\MatlabApps\UnitCellOptimizationMatlab\CST\unitcell.cst
! Tree item: Tasks\Sweep1\SPara1\S-Parameters
! Header version: 2024
! Port assignment regex: !\s*Touchstone port\s*([0-9]+)\s*=\s*(CST MWS port|CST DES external port|CST DES block port)\s*(.+)\s* \(\"(.*)\"\)(\s*mode\s*([0-9]+))?.*
! Touchstone port assignment:
! Touchstone port 1 = CST DES external port 1 ("")
# GHz S MA R 50
9                    0.973272454     -69.8314132
9.001                0.973208443     -69.9348826
9.002                0.973144239     -70.0386069
9.003                 0.97307984      -70.142587
9.004                0.973015247     -70.2468236
9.005                0.972950459     -70.3513176
9.006                0.972885475     -70.4560697
9.007                0.972820295     -70.5610809
9.008                0.972754919     -70.6663518
9.009                0.972689344     -70.7718833
9.01                 0.972623573     -70.8776763
9.011                0.972557602     -70.9837316
9.012                0.972491433     -71.0900499
9.013                0.972425064     -71.1966321
9.014                0.972358495     -71.3034791
9.015                0.972291726     -71.4105917
9.016                0.972224756     -71.5179707
9.017                0.972157584     -71.6256169
9.018                0.972090209     -71.7335313
9.019                0.972022632     -71.8417145
9.02                 0.971954852     -71.9501676
9.021                0.971886868     -72.0588913
9.022                0.971818679     -72.1678864
9.023                0.971750286     -72.2771539
9.024                0.971681687     -72.3866946
9.025                0.971612882     -72.4965093
9.026                 0.97154387     -72.6065989
9.027                0.971474652     -72.7169643
9.028                0.971405226     -72.8276064
9.029                0.971335591     -72.9385259
9.03                 0.971265748     -73.0497238
9.031                0.971195696     -73.1612009
9.032                0.971125434     -73.2729582
9.033                0.971054962     -73.3849964
9.034                0.970984279     -73.4973165
9.035                0.970913384     -73.6099194
9.036                0.970842278     -73.7228059
9.037                0.970770959      -73.835977
9.038                0.970699428     -73.9494335
9.039                0.970627682     -74.0631762
9.04                 0.970555723     -74.1772062
9.041                0.970483549     -74.2915243
9.042                0.970411161     -74.4061313
9.043                0.970338556     -74.5210283
9.044                0.970265736     -74.6362161
9.045                0.970192699     -74.7516955
9.046                0.970119445     -74.8674676
9.047                0.970045973     -74.9835332
9.048                0.969972283     -75.0998933
9.049                0.969898374     -75.2165487
9.05                 0.969824246     -75.3335004
9.051                0.969749898     -75.4507493
9.052                0.969675331     -75.5682963
9.053                0.969600542     -75.6861424
9.054                0.969525532     -75.8042884
9.055                0.969450301     -75.9227353
9.056                0.969374847     -76.0414841
9.057                 0.96929917     -76.1605356
9.058                 0.96922327     -76.2798908
9.059                0.969147147     -76.3995507
9.06                 0.969070799     -76.5195161
9.061                0.968994226     -76.6397881
9.062                0.968917429     -76.7603676
9.063                0.968840405     -76.8812555
9.064                0.968763156     -77.0024527
9.065                0.968685679     -77.1239603
9.066                0.968607976     -77.2457792
9.067                0.968530045     -77.3679103
9.068                0.968451885     -77.4903547
9.069                0.968373498     -77.6131131
9.07                 0.968294881     -77.7361867
9.071                0.968216034     -77.8595765
9.072                0.968136958     -77.9832832
9.073                0.968057651      -78.107308
9.074                0.967978113     -78.2316518
9.075                0.967898344     -78.3563156
9.076                0.967818343     -78.4813004
9.077                 0.96773811     -78.6066071
9.078                0.967657644     -78.7322367
9.079                0.967576945     -78.8581903
9.08                 0.967496012     -78.9844687
9.081                0.967414846      -79.111073
9.082                0.967333445     -79.2380042
9.083                0.967251809     -79.3652632
9.084                0.967169937     -79.4928512
9.085                 0.96708783     -79.6207689
9.086                0.967005487     -79.7490175
9.087                0.966922907      -79.877598
9.088                 0.96684009     -80.0065114
9.089                0.966757036     -80.1357586
9.09                 0.966673744     -80.2653407
9.091                0.966590213     -80.3952586
9.092                0.966506444     -80.5255135
9.093                0.966422437     -80.6561063
9.094                0.966338189      -80.787038
9.095                0.966253702     -80.9183096
9.096                0.966168975     -81.0499222
9.097                0.966084008     -81.1818767
9.098                0.965998799     -81.3141743
9.099                0.965913349     -81.4468159
9.1                  0.965827658     -81.5798025
9.101                0.965741725     -81.7131352
9.102                0.965655549     -81.8468151
9.103                0.965569131     -81.9808431
9.104                 0.96548247     -82.1152202
9.105                0.965395565     -82.2499476
9.106                0.965308417     -82.3850262
9.107                0.965221025     -82.5204571
9.108                0.965133389     -82.6562413
9.109                0.965045508     -82.7923799
9.11                 0.964957382     -82.9288739
9.111                0.964869011     -83.0657244
9.112                0.964780394     -83.2029324
9.113                0.964691532     -83.3404989
9.114                0.964602423      -83.478425
9.115                0.964513069     -83.6167118
9.116                0.964423468     -83.7553603
9.117                0.964333619     -83.8943716
9.118                0.964243524     -84.0337467
9.119                0.964153182     -84.1734867
9.12                 0.964062591     -84.3135926
9.121                0.963971753     -84.4540656
9.122                0.963880667     -84.5949065
9.123                0.963789333     -84.7361166
9.124                 0.96369775      -84.877697
9.125                0.963605918     -85.0196485
9.126                0.963513838     -85.1619724
9.127                0.963421508     -85.3046697
9.128                0.963328929     -85.4477414
9.129                0.963236101     -85.5911887
9.13                 0.963143023     -85.7350126
9.131                0.963049695     -85.8792141
9.132                0.962956117     -86.0237944
9.133                0.962862289     -86.1687546
9.134                0.962768211     -86.3140956
9.135                0.962673882     -86.4598186
9.136                0.962579303     -86.6059247
9.137                0.962484474     -86.7524149
9.138                0.962389394     -86.8992904
9.139                0.962294063     -87.0465521
9.14                 0.962198481     -87.1942013
9.141                0.962102648     -87.3422388
9.142                0.962006564      -87.490666
9.143                0.961910229     -87.6394838
9.144                0.961813643     -87.7886933
9.145                0.961716806     -87.9382955
9.146                0.961619718     -88.0882917
9.147                0.961522378     -88.2386829
9.148                0.961424787     -88.3894701
9.149                0.961326945     -88.5406545
9.15                 0.961228852     -88.6922371
9.151                0.961130508      -88.844219
9.152                0.961031913     -88.9966014
9.153                0.960933066     -89.1493852
9.154                0.960833968     -89.3025717
9.155                 0.96073462     -89.4561618
9.156                 0.96063502     -89.6101567
9.157                 0.96053517     -89.7645575
9.158                0.960435069     -89.9193652
9.159                0.960334718      -90.074581
9.16                 0.960234116     -90.2302058
9.161                0.960133263      -90.386241
9.162                0.960032161     -90.5426874
9.163                0.959930808     -90.6995462
9.164                0.959829206     -90.8568186
9.165                0.959727354     -91.0145055
9.166                0.959625252     -91.1726081
9.167                0.959522902     -91.3311274
9.168                0.959420302     -91.4900646
9.169                0.959317453     -91.6494208
9.17                 0.959214356     -91.8091969
9.171                 0.95911101     -91.9693942
9.172                0.959007417     -92.1300137
9.173                0.958903575     -92.2910565
9.174                0.958799487     -92.4525236
9.175                0.958695151     -92.6144162
9.176                0.958590568     -92.7767353
9.177                0.958485739     -92.9394821
9.178                0.958380664     -93.1026575
9.179                0.958275343     -93.2662628
9.18                 0.958169777     -93.4302989
9.181                0.958063966     -93.5947669
9.182                0.957957911      -93.759668
9.183                0.957851611     -93.9250031
9.184                0.957745068     -94.0907735
9.185                0.957638281       -94.25698
9.186                0.957531252     -94.4236239
9.187                0.957423981     -94.5907062
9.188                0.957316468      -94.758228
9.189                0.957208714     -94.9261902
9.19                  0.95710072     -95.0945941
9.191                0.956992485     -95.2634406
9.192                0.956884011     -95.4327308
9.193                0.956775299     -95.6024659
9.194                0.956666348     -95.7726467
9.195                0.956557159     -95.9432744
9.196                0.956447733     -96.1143501
9.197                0.956338072     -96.2858748
9.198                0.956228174     -96.4578496
9.199                0.956118042     -96.6302754
9.2                  0.956007676     -96.8031534
9.201                0.955897076     -96.9764845
9.202                0.955786243     -97.1502699
9.203                0.955675179     -97.3245106
9.204                0.955563883     -97.4992075
9.205                0.955452358     -97.6743618
9.206                0.955340602     -97.8499745
9.207                0.955228619     -98.0260465
9.208                0.955116407      -98.202579
9.209                0.955003969     -98.3795728
9.21                 0.954891305     -98.5570291
9.211                0.954778416     -98.7349489
9.212                0.954665302     -98.9133332
9.213                0.954551966     -99.0921829
9.214                0.954438408     -99.2714991
9.215                0.954324629     -99.4512828
9.216                0.954210629      -99.631535
9.217                0.954096411     -99.8122567
9.218                0.953981975     -99.9934488
9.219                0.953867323     -100.175112
9.22                 0.953752454     -100.357248
9.221                0.953637372     -100.539858
9.222                0.953522075     -100.722941
9.223                0.953406567     -100.906501
9.224                0.953290848     -101.090536
9.225                 0.95317492     -101.275049
9.226                0.953058783     -101.460039
9.227                0.952942439      -101.64551
9.228                0.952825889      -101.83146
9.229                0.952709134     -102.017891
9.23                 0.952592177     -102.204804
9.231                0.952475018       -102.3922
9.232                0.952357658      -102.58008
9.233                  0.9522401     -102.768445
9.234                0.952122345     -102.957295
9.235                0.952004393     -103.146632
9.236                0.951886247     -103.336457
9.237                0.951767908     -103.526769
9.238                0.951649378     -103.717571
9.239                0.951530658     -103.908864
9.24                  0.95141175     -104.100647
9.241                0.951292655     -104.292922
9.242                0.951173376      -104.48569
9.243                0.951053913     -104.678952
9.244                0.950934269     -104.872708
9.245                0.950814445     -105.066959
9.246                0.950694443     -105.261707
9.247                0.950574266     -105.456951
9.248                0.950453913     -105.652694
9.249                0.950333389     -105.848935
9.25                 0.950212694     -106.045675
9.251                 0.95009183     -106.242916
9.252                0.949970799     -106.440658
9.253                0.949849604     -106.638902
9.254                0.949728245     -106.837648
9.255                0.949606726     -107.036898
9.256                0.949485049     -107.236652
9.257                0.949363214      -107.43691
9.258                0.949241225     -107.637675
9.259                0.949119084     -107.838946
9.26                 0.948996792     -108.040724
9.261                0.948874353      -108.24301
9.262                0.948751767     -108.445805
9.263                0.948629038     -108.649108
9.264                0.948506168     -108.852922
9.265                0.948383159     -109.057247
9.266                0.948260013     -109.262083
9.267                0.948136733     -109.467431
9.268                0.948013321     -109.673291
9.269                 0.94788978     -109.879665
9.27                 0.947766112     -110.086553
9.271                 0.94764232     -110.293956
9.272                0.947518405     -110.501874
9.273                0.947394371     -110.710307
9.274                0.947270221     -110.919257
9.275                0.947145957     -111.128725
9.276                0.947021581     -111.338709
9.277                0.946897096     -111.549212
9.278                0.946772505     -111.760234
9.279                0.946647812     -111.971775
9.28                 0.946523017     -112.183836
9.281                0.946398125     -112.396417
9.282                0.946273139     -112.609519
9.283                 0.94614806     -112.823142
9.284                0.946022893     -113.037288
9.285                 0.94589764     -113.251955
9.286                0.945772303     -113.467146
9.287                0.945646887     -113.682859
9.288                0.945521394     -113.899097
9.289                0.945395826     -114.115858
9.29                 0.945270189     -114.333144
9.291                0.945144483     -114.550955
9.292                0.945018714     -114.769291
9.293                0.944892883     -114.988153
9.294                0.944766995     -115.207541
9.295                0.944641051     -115.427456
9.296                0.944515057     -115.647897
9.297                0.944389015     -115.868865
9.298                0.944262928     -116.090361
9.299                0.944136801     -116.312385
9.3                  0.944010636     -116.534936
9.301                0.943884436     -116.758016
9.302                0.943758207     -116.981624
9.303                 0.94363195      -117.20576
9.304                 0.94350567     -117.430426
9.305                0.943379371     -117.655621
9.306                0.943253055     -117.881345
9.307                0.943126727     -118.107599
9.308                0.943000391     -118.334383
9.309                 0.94287405     -118.561696
9.31                 0.942747708     -118.789539
9.311                0.942621369     -119.017913
9.312                0.942495037     -119.246816
9.313                0.942368715      -119.47625
9.314                0.942242408     -119.706214
9.315                 0.94211612     -119.936709
9.316                0.941989855     -120.167734
9.317                0.941863616     -120.399289
9.318                0.941737409     -120.631375
9.319                0.941611236     -120.863991
9.32                 0.941485103     -121.097138
9.321                0.941359013     -121.330815
9.322                 0.94123297     -121.565022
9.323                 0.94110698      -121.79976
9.324                0.940981046     -122.035027
9.325                0.940855172     -122.270824
9.326                0.940729363     -122.507152
9.327                0.940603624     -122.744009
9.328                0.940477959     -122.981395
9.329                0.940352371      -123.21931
9.33                 0.940226867     -123.457755
9.331                 0.94010145     -123.696728
9.332                0.939976125      -123.93623
9.333                0.939850896     -124.176261
9.334                0.939725769     -124.416819
9.335                0.939600748     -124.657905
9.336                0.939475837     -124.899518
9.337                0.939351042     -125.141658
9.338                0.939226367     -125.384325
9.339                0.939101817     -125.627518
9.34                 0.938977396     -125.871237
9.341                0.938853111     -126.115482
9.342                0.938728965     -126.360251
9.343                0.938604963     -126.605545
9.344                0.938481111     -126.851362
9.345                0.938357414     -127.097703
9.346                0.938233876     -127.344567
9.347                0.938110503     -127.591953
9.348                  0.9379873     -127.839861
9.349                0.937864272     -128.088291
9.35                 0.937741424      -128.33724
9.351                0.937618761      -128.58671
9.352                0.937496289     -128.836698
9.353                0.937374012     -129.087206
9.354                0.937251937     -129.338231
9.355                0.937130068     -129.589773
9.356                0.937008411     -129.841831
9.357                0.936886971     -130.094405
9.358                0.936765753     -130.347494
9.359                0.936644764     -130.601096
9.36                 0.936524007     -130.855211
9.361                 0.93640349     -131.109839
9.362                0.936283217     -131.364978
9.363                0.936163194     -131.620627
9.364                0.936043427     -131.876785
9.365                0.935923921     -132.133452
9.366                0.935804681     -132.390626
9.367                0.935685714     -132.648307
9.368                0.935567025     -132.906493
9.369                0.935448619     -133.165183
9.37                 0.935330503     -133.424377
9.371                0.935212682     -133.684072
9.372                0.935095162     -133.944269
9.373                0.934977949     -134.204965
9.374                0.934861049     -134.466159
9.375                0.934744466     -134.727851
9.376                0.934628208     -134.990039
9.377                 0.93451228     -135.252722
9.378                0.934396688     -135.515899
9.379                0.934281438     -135.779567
9.38                 0.934166535     -136.043727
9.381                0.934051987     -136.308376
9.382                0.933937798     -136.573513
9.383                0.933823974     -136.839137
9.384                0.933710523     -137.105246
9.385                0.933597449     -137.371838
9.386                0.933484759     -137.638913
9.387                0.933372458     -137.906469
9.388                0.933260553     -138.174504
9.389                0.933149051     -138.443016
9.39                 0.933037956     -138.712004
9.391                0.932927275     -138.981467
9.392                0.932817014     -139.251403
9.393                 0.93270718     -139.521809
9.394                0.932597778     -139.792685
9.395                0.932488815     -140.064028
9.396                0.932380297     -140.335837
