! TOUCHSTONE file generated by CST DESIGN STUDIO
! Date and time: Tue Feb  4 12:45:42 2025
! Project name: C:\Work\MatlabApps\UnitCellOptimizationMatlab\CST\unitcell.cst
! Tree item: Tasks\Sweep1\SPara1\S-Parameters
! Header version: 2024
! Port assignment regex: !\s*Touchstone port\s*([0-9]+)\s*=\s*(CST MWS port|CST DES external port|CST DES block port)\s*(.+)\s* \(\"(.*)\"\)(\s*mode\s*([0-9]+))?.*
! Touchstone port assignment:
! Touchstone port 1 = CST DES external port 1 ("")
# GHz S MA R 50
9                    0.971908778     -79.2994819
9.001                0.971835483     -79.4254627
9.002                0.971761963     -79.5517661
9.003                0.971688217     -79.6783931
9.004                0.971614244     -79.8053448
9.005                0.971540045     -79.9326219
9.006                0.971465618     -80.0602256
9.007                0.971390964     -80.1881568
9.008                0.971316082     -80.3164165
9.009                0.971240971     -80.4450057
9.01                 0.971165631     -80.5739253
9.011                0.971090062     -80.7031763
9.012                0.971014263     -80.8327598
9.013                0.970938234     -80.9626767
9.014                0.970861974     -81.0929279
9.015                0.970785483     -81.2235146
9.016                0.970708761     -81.3544376
9.017                0.970631806      -81.485698
9.018                 0.97055462     -81.6172967
9.019                0.970477201     -81.7492349
9.02                 0.970399548     -81.8815133
9.021                0.970321663     -82.0141332
9.022                0.970243543     -82.1470955
9.023                 0.97016519     -82.2804011
9.024                0.970086601     -82.4140511
9.025                0.970007778     -82.5480465
9.026                 0.96992872     -82.6823883
9.027                0.969849426     -82.8170775
9.028                0.969769896     -82.9521152
9.029                0.969690129     -83.0875023
9.03                 0.969610126     -83.2232399
9.031                0.969529886     -83.3593289
9.032                0.969449408     -83.4957705
9.033                0.969368693     -83.6325656
9.034                0.969287739     -83.7697152
9.035                0.969206548     -83.9072204
9.036                0.969125117     -84.0450822
9.037                0.969043448     -84.1833016
9.038                0.968961539     -84.3218797
9.039                0.968879391     -84.4608174
9.04                 0.968797002     -84.6001159
9.041                0.968714374     -84.7397761
9.042                0.968631505     -84.8797991
9.043                0.968548396     -85.0201859
9.044                0.968465045     -85.1609375
9.045                0.968381453     -85.3020551
9.046                 0.96829762     -85.4435395
9.047                0.968213545      -85.585392
9.048                0.968129228     -85.7276134
9.049                0.968044668     -85.8702049
9.05                 0.967959866     -86.0131675
9.051                0.967874822     -86.1565022
9.052                0.967789534     -86.3002101
9.053                0.967704004     -86.4442922
9.054                 0.96761823     -86.5887496
9.055                0.967532213     -86.7335834
9.056                0.967445951     -86.8787945
9.057                0.967359446      -87.024384
9.058                0.967272697      -87.170353
9.059                0.967185704     -87.3167025
9.06                 0.967098466     -87.4634337
9.061                0.967010984     -87.6105474
9.062                0.966923257     -87.7580448
9.063                0.966835285      -87.905927
9.064                0.966747069     -88.0541949
9.065                0.966658607     -88.2028497
9.066                  0.9665699     -88.3518924
9.067                0.966480948      -88.501324
9.068                 0.96639175     -88.6511457
9.069                0.966302307     -88.8013585
9.07                 0.966212619     -88.9519633
9.071                0.966122685     -89.1029614
9.072                0.966032505     -89.2543537
9.073                 0.96594208     -89.4061414
9.074                0.965851409     -89.5583253
9.075                0.965760492     -89.7109068
9.076                0.965669329     -89.8638867
9.077                0.965577921     -90.0172661
9.078                0.965486267     -90.1710461
9.079                0.965394367     -90.3252278
9.08                 0.965302222     -90.4798123
9.081                 0.96520983     -90.6348005
9.082                0.965117193     -90.7901935
9.083                0.965024311     -90.9459925
9.084                0.964931183     -91.1021984
9.085                0.964837809     -91.2588123
9.086                 0.96474419     -91.4158353
9.087                0.964650326     -91.5732684
9.088                0.964556217     -91.7311127
9.089                0.964461863     -91.8893692
9.09                 0.964367263     -92.0480391
9.091                0.964272419     -92.2071233
9.092                0.964177331     -92.3666229
9.093                0.964081997      -92.526539
9.094                 0.96398642     -92.6868726
9.095                0.963890599     -92.8476248
9.096                0.963794533     -93.0087966
9.097                0.963698224     -93.1703891
9.098                0.963601672     -93.3324033
9.099                0.963504876     -93.4948403
9.1                  0.963407838     -93.6577012
9.101                0.963310556     -93.8209868
9.102                0.963213033     -93.9846985
9.103                0.963115267      -94.148837
9.104                 0.96301726     -94.3134036
9.105                0.962919011     -94.4783993
9.106                0.962820521      -94.643825
9.107                 0.96272179     -94.8096818
9.108                0.962622819     -94.9759708
9.109                0.962523607     -95.1426931
9.11                 0.962424157     -95.3098495
9.111                0.962324466     -95.4774412
9.112                0.962224538     -95.6454693
9.113                 0.96212437     -95.8139346
9.114                0.962023965     -95.9828384
9.115                0.961923323     -96.1521815
9.116                0.961822443      -96.321965
9.117                0.961721327     -96.4921899
9.118                0.961619975     -96.6628573
9.119                0.961518388     -96.8339681
9.12                 0.961416565     -97.0055234
9.121                0.961314509     -97.1775242
9.122                0.961212219     -97.3499715
9.123                0.961109695     -97.5228663
9.124                 0.96100694     -97.6962096
9.125                0.960903952     -97.8700024
9.126                0.960800733     -98.0442458
9.127                0.960697283     -98.2189406
9.128                0.960593604     -98.3940879
9.129                0.960489696     -98.5696887
9.13                 0.960385559      -98.745744
9.131                0.960281194     -98.9222547
9.132                0.960176602     -99.0992219
9.133                0.960071784     -99.2766464
9.134                0.959966741     -99.4545294
9.135                0.959861473     -99.6328717
9.136                0.959755982     -99.8116743
9.137                0.959650267     -99.9909382
9.138                0.959544331     -100.170664
9.139                0.959438173     -100.350854
9.14                 0.959331796     -100.531507
9.141                0.959225198     -100.712626
9.142                0.959118383      -100.89421
9.143                 0.95901135     -101.076262
9.144                0.958904101     -101.258782
9.145                0.958796636      -101.44177
9.146                0.958688957     -101.625228
9.147                0.958581065     -101.809157
9.148                 0.95847296     -101.993557
9.149                0.958364644      -102.17843
9.15                 0.958256118     -102.363776
9.151                0.958147384     -102.549597
9.152                0.958038441     -102.735893
9.153                0.957929292     -102.922665
9.154                0.957819938     -103.109914
9.155                 0.95771038      -103.29764
9.156                0.957600618     -103.485846
9.157                0.957490655     -103.674531
9.158                0.957380492     -103.863697
9.159                 0.95727013     -104.053344
9.16                  0.95715957     -104.243473
9.161                0.957048814     -104.434085
9.162                0.956937862     -104.625181
9.163                0.956826718     -104.816762
9.164                0.956715381     -105.008828
9.165                0.956603854     -105.201381
9.166                0.956492137     -105.394421
9.167                0.956380233     -105.587949
9.168                0.956268143     -105.781965
9.169                0.956155868     -105.976471
9.17                  0.95604341     -106.171468
9.171                0.955930771     -106.366956
9.172                0.955817952     -106.562935
9.173                0.955704955     -106.759407
9.174                0.955591782     -106.956373
9.175                0.955478434     -107.153833
9.176                0.955364914     -107.351788
9.177                0.955251222     -107.550238
9.178                 0.95513736     -107.749185
9.179                0.955023331     -107.948629
9.18                 0.954909137     -108.148571
9.181                0.954794778     -108.349011
9.182                0.954680258     -108.549951
9.183                0.954565577      -108.75139
9.184                0.954450739      -108.95333
9.185                0.954335744     -109.155772
9.186                0.954220595     -109.358715
9.187                0.954105294     -109.562161
9.188                0.953989843      -109.76611
9.189                0.953874245     -109.970562
9.19                   0.9537585      -110.17552
9.191                0.953642612     -110.380982
9.192                0.953526582      -110.58695
9.193                0.953410413     -110.793424
9.194                0.953294107     -111.000405
9.195                0.953177666     -111.207894
9.196                0.953061093     -111.415891
9.197                 0.95294439     -111.624396
9.198                0.952827558      -111.83341
9.199                0.952710602     -112.042934
9.2                  0.952593522     -112.252967
9.201                0.952476322     -112.463512
9.202                0.952359003     -112.674568
9.203                0.952241569     -112.886135
9.204                0.952124022     -113.098215
9.205                0.952006365     -113.310807
9.206                0.951888599     -113.523912
9.207                0.951770729      -113.73753
9.208                0.951652755     -113.951663
9.209                0.951534682     -114.166309
9.21                 0.951416511     -114.381471
9.211                0.951298246     -114.597147
9.212                0.951179889      -114.81334
9.213                0.951061443     -115.030048
9.214                0.950942912     -115.247272
9.215                0.950824297     -115.465013
9.216                0.950705601      -115.68327
9.217                0.950586829     -115.902045
9.218                0.950467982     -116.121338
9.219                0.950349063     -116.341148
9.22                 0.950230076     -116.561476
9.221                0.950111024     -116.782323
9.222                 0.94999191     -117.003688
9.223                0.949872736     -117.225573
9.224                0.949753507     -117.447976
9.225                0.949634225     -117.670898
9.226                0.949514894      -117.89434
9.227                0.949395516     -118.118302
9.228                0.949276095     -118.342783
9.229                0.949156635     -118.567785
9.23                 0.949037138     -118.793306
9.231                0.948917609     -119.019348
9.232                 0.94879805      -119.24591
9.233                0.948678465     -119.472992
9.234                0.948558858     -119.700595
9.235                0.948439231     -119.928718
9.236                0.948319589     -120.157362
9.237                0.948199935     -120.386526
9.238                0.948080273     -120.616212
9.239                0.947960607     -120.846417
9.24                 0.947840939     -121.077143
9.241                0.947721274      -121.30839
9.242                0.947601616     -121.540157
9.243                0.947481968     -121.772445
9.244                0.947362334     -122.005253
9.245                0.947242718     -122.238581
9.246                0.947123124     -122.472429
9.247                0.947003556     -122.706796
9.248                0.946884017     -122.941684
9.249                0.946764513     -123.177091
9.25                 0.946645045     -123.413018
9.251                 0.94652562     -123.649464
9.252                 0.94640624     -123.886428
9.253                 0.94628691     -124.123911
9.254                0.946167634     -124.361913
9.255                0.946048417     -124.600433
9.256                0.945929261      -124.83947
9.257                0.945810173     -125.079025
9.258                0.945691155     -125.319097
9.259                0.945572213     -125.559685
9.26                 0.945453349      -125.80079
9.261                 0.94533457     -126.042411
9.262                0.945215879     -126.284548
9.263                0.945097281     -126.527199
9.264                 0.94497878     -126.770365
9.265                 0.94486038     -127.014045
9.266                0.944742086     -127.258239
9.267                0.944623903     -127.502945
9.268                0.944505835     -127.748165
9.269                0.944387887     -127.993896
9.27                 0.944270064     -128.240138
9.271                0.944152369     -128.486891
9.272                0.944034809     -128.734154
9.273                0.943917386     -128.981927
9.274                0.943800107     -129.230209
9.275                0.943682976     -129.478998
9.276                0.943565998     -129.728295
9.277                0.943449177     -129.978098
9.278                0.943332519     -130.228407
9.279                0.943216029     -130.479221
9.28                  0.94309971      -130.73054
9.281                0.942983569     -130.982362
9.282                 0.94286761     -131.234686
9.283                0.942751838     -131.487512
9.284                0.942636258     -131.740839
9.285                0.942520876     -131.994665
9.286                0.942405696     -132.248991
9.287                0.942290723     -132.503814
9.288                0.942175963     -132.759134
9.289                 0.94206142      -133.01495
9.29                   0.9419471     -133.271261
9.291                0.941833009     -133.528066
9.292                 0.94171915     -133.785364
9.293                 0.94160553     -134.043153
9.294                0.941492154     -134.301433
9.295                0.941379027     -134.560202
9.296                0.941266154     -134.819459
9.297                 0.94115354     -135.079203
9.298                0.941041192     -135.339433
9.299                0.940929114     -135.600147
9.3                  0.940817312     -135.861344
9.301                0.940705791     -136.123023
9.302                0.940594556     -136.385183
9.303                0.940483614     -136.647822
9.304                0.940372969     -136.910938
9.305                0.940262627     -137.174531
9.306                0.940152593     -137.438599
9.307                0.940042874     -137.703141
9.308                0.939933474     -137.968154
9.309                0.939824399     -138.233638
9.31                 0.939715654     -138.499591
9.311                0.939607246     -138.766012
9.312                 0.93949918     -139.032898
9.313                 0.93939146     -139.300248
9.314                0.939284094     -139.568061
9.315                0.939177087     -139.836335
9.316                0.939070444     -140.105068
9.317                0.938964171     -140.374259
9.318                0.938858273     -140.643906
9.319                0.938752756     -140.914006
9.32                 0.938647627     -141.184559
9.321                 0.93854289     -141.455563
9.322                0.938438552     -141.727015
9.323                0.938334617     -141.998913
9.324                0.938231093     -142.271257
9.325                0.938127983     -142.544043
9.326                0.938025296     -142.817271
9.327                0.937923035     -143.090937
9.328                0.937821206      -143.36504
9.329                0.937719816     -143.639579
9.33                 0.937618871      -143.91455
9.331                0.937518375     -144.189952
9.332                0.937418335     -144.465783
9.333                0.937318756     -144.742041
9.334                0.937219645     -145.018723
9.335                0.937121006     -145.295827
9.336                0.937022846     -145.573351
9.337                0.936925171     -145.851293
9.338                0.936827985     -146.129651
9.339                0.936731296     -146.408422
9.34                 0.936635108     -146.687604
9.341                0.936539428     -146.967195
9.342                0.936444261     -147.247192
9.343                0.936349612     -147.527593
9.344                0.936255489     -147.808395
9.345                0.936161895     -148.089597
9.346                0.936068838     -148.371195
9.347                0.935976322     -148.653187
9.348                0.935884353      -148.93557
9.349                0.935792938     -149.218343
9.35                 0.935702081     -149.501501
9.351                0.935611788     -149.785044
9.352                0.935522066     -150.068968
9.353                0.935432919      -150.35327
9.354                0.935344353     -150.637949
9.355                0.935256374        -150.923
9.356                0.935168988     -151.208422
9.357                0.935082199     -151.494211
9.358                0.934996014     -151.780366
9.359                0.934910437     -152.066882
9.36                 0.934825476     -152.353758
9.361                0.934741134      -152.64099
9.362                0.934657417     -152.928576
9.363                0.934574332     -153.216512
9.364                0.934491882     -153.504796
9.365                0.934410075     -153.793425
9.366                0.934328914     -154.082395
9.367                0.934248406     -154.371704
9.368                0.934168555     -154.661349
9.369                0.934089368     -154.951327
9.37                 0.934010848     -155.241634
9.371                0.933933002     -155.532267
9.372                0.933855835     -155.823224
9.373                0.933779352     -156.114502
9.374                0.933703557     -156.406096
9.375                0.933628457     -156.698004
9.376                0.933554056     -156.990223
9.377                0.933480359     -157.282749
9.378                0.933407371     -157.575579
9.379                0.933335098     -157.868711
9.38                 0.933263543     -158.162139
9.381                0.933192713     -158.455862
9.382                0.933122611     -158.749876
9.383                0.933053244     -159.044177
9.384                0.932984614     -159.338763
9.385                0.932916729     -159.633629
9.386                0.932849591     -159.928772
9.387                0.932783205     -160.224189
9.388                0.932717577     -160.519877
9.389                0.932652711     -160.815831
9.39                 0.932588611     -161.112049
9.391                0.932525281     -161.408526
9.392                0.932462728     -161.705259
9.393                0.932400953     -162.002245
9.394                0.932339963      -162.29948
9.395                0.932279761     -162.596961
9.396                0.932220352     -162.894683
