! TOUCHSTONE file generated by CST DESIGN STUDIO
! Date and time: Tue Feb  4 13:24:44 2025
! Project name: C:\Work\MatlabApps\UnitCellOptimizationMatlab\CST\unitcell.cst
! Tree item: Tasks\Sweep1\SPara1\S-Parameters
! Header version: 2024
! Port assignment regex: !\s*Touchstone port\s*([0-9]+)\s*=\s*(CST MWS port|CST DES external port|CST DES block port)\s*(.+)\s* \(\"(.*)\"\)(\s*mode\s*([0-9]+))?.*
! Touchstone port assignment:
! Touchstone port 1 = CST DES external port 1 ("")
# GHz S MA R 50
9                    0.936674996     -90.9776255
9.001                0.936450973      -91.141443
9.002                0.936226351     -91.3057097
9.003                 0.93600113      -91.470427
9.004                0.935775311     -91.6355962
9.005                0.935548894     -91.8012185
9.006                 0.93532188     -91.9672952
9.007                0.935094269     -92.1338276
9.008                0.934866062      -92.300817
9.009                0.934637259     -92.4682646
9.01                 0.934407862     -92.6361718
9.011                 0.93417787     -92.8045397
9.012                0.933947285     -92.9733697
9.013                0.933716107     -93.1426631
9.014                0.933484337     -93.3124212
9.015                0.933251976     -93.4826451
9.016                0.933019025     -93.6533362
9.017                0.932785485     -93.8244958
9.018                0.932551356     -93.9961251
9.019                0.932316639     -94.1682255
9.02                 0.932081336     -94.3407981
9.021                0.931845447     -94.5138444
9.022                0.931608974     -94.6873654
9.023                0.931371917     -94.8613625
9.024                0.931134279     -95.0358371
9.025                0.930896059     -95.2107902
9.026                0.930657259     -95.3862233
9.027                0.930417881     -95.5621376
9.028                0.930177925     -95.7385343
9.029                0.929937394     -95.9154147
9.03                 0.929696288     -96.0927801
9.031                0.929454608     -96.2706317
9.032                0.929212357     -96.4489709
9.033                0.928969536     -96.6277987
9.034                0.928726146     -96.8071166
9.035                0.928482188     -96.9869257
9.036                0.928237666     -97.1672273
9.037                0.927992579     -97.3480227
9.038                 0.92774693      -97.529313
9.039                0.927500721     -97.7110996
9.04                 0.927253953     -97.8933837
9.041                0.927006629     -98.0761665
9.042                0.926758749     -98.2594493
9.043                0.926510317     -98.4432333
9.044                0.926261333     -98.6275197
9.045                0.926011801     -98.8123098
9.046                0.925761722     -98.9976047
9.047                0.925511098     -99.1834057
9.048                0.925259931     -99.3697141
9.049                0.925008224      -99.556531
9.05                 0.924755979     -99.7438576
9.051                0.924503198     -99.9316952
9.052                0.924249884     -100.120045
9.053                0.923996038     -100.308908
9.054                0.923741664     -100.498286
9.055                0.923486764     -100.688179
9.056                0.923231341     -100.878589
9.057                0.922975397     -101.069518
9.058                0.922718934     -101.260966
9.059                0.922461956     -101.452934
9.06                 0.922204465     -101.645424
9.061                0.921946465     -101.838437
9.062                0.921687957     -102.031974
9.063                0.921428946     -102.226035
9.064                0.921169433     -102.420624
9.065                0.920909423     -102.615739
9.066                0.920648918     -102.811383
9.067                0.920387921     -103.007557
9.068                0.920126435     -103.204262
9.069                0.919864465     -103.401499
9.07                 0.919602012     -103.599269
9.071                0.919339082     -103.797573
9.072                0.919075676     -103.996412
9.073                0.918811799     -104.195788
9.074                0.918547454     -104.395702
9.075                0.918282645     -104.596154
9.076                0.918017375     -104.797145
9.077                0.917751648     -104.998678
9.078                0.917485469     -105.200752
9.079                0.917218841     -105.403369
9.08                 0.916951767      -105.60653
9.081                0.916684253     -105.810236
9.082                0.916416301     -106.014489
9.083                0.916147917     -106.219288
9.084                0.915879104     -106.424635
9.085                0.915609867     -106.630532
9.086                 0.91534021     -106.836978
9.087                0.915070137     -107.043976
9.088                0.914799653     -107.251526
9.089                0.914528763     -107.459629
9.09                  0.91425747     -107.668286
9.091                0.913985781     -107.877498
9.092                0.913713699     -108.087266
9.093                0.913441229     -108.297592
9.094                0.913168376     -108.508475
9.095                0.912895145     -108.719917
9.096                0.912621542     -108.931918
9.097                0.912347571      -109.14448
9.098                0.912073237     -109.357604
9.099                0.911798546     -109.571291
9.1                  0.911523503      -109.78554
9.101                0.911248113     -110.000354
9.102                0.910972382     -110.215733
9.103                0.910696315     -110.431678
9.104                0.910419918      -110.64819
9.105                0.910143197     -110.865269
9.106                0.909866157     -111.082917
9.107                0.909588804     -111.301134
9.108                0.909311144     -111.519921
9.109                0.909033184     -111.739279
9.11                 0.908754928     -111.959208
9.111                0.908476384      -112.17971
9.112                0.908197557     -112.400784
9.113                0.907918454     -112.622433
9.114                0.907639081     -112.844656
9.115                0.907359444     -113.067454
9.116                 0.90707955     -113.290829
9.117                0.906799406      -113.51478
9.118                0.906519018     -113.739308
9.119                0.906238393     -113.964414
9.12                 0.905957538     -114.190098
9.121                 0.90567646     -114.416362
9.122                0.905395165     -114.643206
9.123                0.905113661      -114.87063
9.124                0.904831955     -115.098635
9.125                0.904550054     -115.327222
9.126                0.904267966     -115.556391
9.127                0.903985697     -115.786142
9.128                0.903703256     -116.016477
9.129                0.903420649     -116.247395
9.13                 0.903137885     -116.478898
9.131                0.902854971     -116.710985
9.132                0.902571915     -116.943658
9.133                0.902288725     -117.176916
9.134                0.902005409      -117.41076
9.135                0.901721974      -117.64519
9.136                 0.90143843     -117.880207
9.137                0.901154783     -118.115812
9.138                0.900871043     -118.352004
9.139                0.900587217     -118.588784
9.14                 0.900303315     -118.826152
9.141                0.900019345     -119.064108
9.142                0.899735315     -119.302654
9.143                0.899451234     -119.541788
9.144                 0.89916711     -119.781512
9.145                0.898882954     -120.021825
9.146                0.898598773     -120.262729
9.147                0.898314577     -120.504222
9.148                0.898030374     -120.746305
9.149                0.897746175     -120.988979
9.15                 0.897461988     -121.232243
9.151                0.897177822     -121.476097
9.152                0.896893687     -121.720543
9.153                0.896609593     -121.965578
9.154                 0.89632555     -122.211205
9.155                0.896041566     -122.457423
9.156                0.895757651     -122.704231
9.157                0.895473816      -122.95163
9.158                0.895190071      -123.19962
9.159                0.894906425     -123.448201
9.16                 0.894622889     -123.697372
9.161                0.894339472     -123.947134
9.162                0.894056185     -124.197486
9.163                0.893773039     -124.448429
9.164                0.893490043     -124.699962
9.165                0.893207209     -124.952084
9.166                0.892924546     -125.204797
9.167                0.892642066     -125.458099
9.168                 0.89235978      -125.71199
9.169                0.892077697      -125.96647
9.17                 0.891795829     -126.221539
9.171                0.891514188     -126.477196
9.172                0.891232783     -126.733441
9.173                0.890951626     -126.990273
9.174                0.890670729     -127.247693
9.175                0.890390102     -127.505699
9.176                0.890109758     -127.764292
9.177                0.889829706      -128.02347
9.178                 0.88954996     -128.283234
9.179                0.889270531     -128.543582
9.18                 0.888991429     -128.804515
9.181                0.888712668     -129.066031
9.182                0.888434258     -129.328131
9.183                0.888156212     -129.590812
9.184                0.887878541     -129.854075
9.185                0.887601259      -130.11792
9.186                0.887324375     -130.382344
9.187                0.887047904     -130.647348
9.188                0.886771857     -130.912931
9.189                0.886496246     -131.179091
9.19                 0.886221084     -131.445829
9.191                0.885946383     -131.713143
9.192                0.885672156     -131.981032
9.193                0.885398415     -132.249496
9.194                0.885125174     -132.518533
9.195                0.884852443     -132.788142
9.196                0.884580237     -133.058323
9.197                0.884308568     -133.329075
9.198                 0.88403745     -133.600396
9.199                0.883766894     -133.872285
9.2                  0.883496914     -134.144741
9.201                0.883227523     -134.417763
9.202                0.882958734      -134.69135
9.203                0.882690561     -134.965501
9.204                0.882423015     -135.240214
9.205                0.882156112     -135.515487
9.206                0.881889864     -135.791321
9.207                0.881624284     -136.067713
9.208                0.881359386     -136.344662
9.209                0.881095183     -136.622166
9.21                 0.880831689     -136.900225
9.211                0.880568917     -137.178836
9.212                0.880306882     -137.457999
9.213                0.880045596     -137.737711
9.214                0.879785073     -138.017971
9.215                0.879525327     -138.298778
9.216                0.879266372      -138.58013
9.217                0.879008222     -138.862024
9.218                 0.87875089     -139.144461
9.219                 0.87849439     -139.427436
9.22                 0.878238737      -139.71095
9.221                0.877983944        -139.995
9.222                0.877730025     -140.279585
9.223                0.877476993     -140.564702
9.224                0.877224865     -140.850349
9.225                0.876973652     -141.136525
9.226                0.876723369     -141.423228
9.227                0.876474031     -141.710456
9.228                0.876225651     -141.998206
9.229                0.875978244     -142.286476
9.23                 0.875731824     -142.575266
9.231                0.875486404     -142.864571
9.232                   0.875242     -143.154391
9.233                0.874998625     -143.444722
9.234                0.874756293     -143.735564
9.235                0.874515019     -144.026912
9.236                0.874274817     -144.318766
9.237                0.874035701     -144.611123
9.238                0.873797686      -144.90398
9.239                0.873560785     -145.197335
9.24                 0.873325013     -145.491186
9.241                0.873090384     -145.785529
9.242                0.872856912     -146.080364
9.243                0.872624612     -146.375686
9.244                0.872393498     -146.671493
9.245                0.872163583     -146.967784
9.246                0.871934883     -147.264554
9.247                0.871707411     -147.561802
9.248                0.871481181     -147.859525
9.249                0.871256208     -148.157719
9.25                 0.871032505     -148.456383
9.251                0.870810087     -148.755513
9.252                0.870588968     -149.055107
9.253                0.870369162     -149.355161
9.254                0.870150683     -149.655672
9.255                0.869933545     -149.956638
9.256                0.869717761     -150.258056
9.257                0.869503347     -150.559923
9.258                0.869290314     -150.862235
9.259                0.869078679     -151.164989
9.26                 0.868868453     -151.468182
9.261                0.868659652     -151.771812
9.262                0.868452288     -152.075875
9.263                0.868246376     -152.380367
9.264                0.868041929     -152.685285
9.265                 0.86783896     -152.990627
9.266                0.867637484     -153.296388
9.267                0.867437513     -153.602565
9.268                 0.86723906     -153.909155
9.269                 0.86704214     -154.216155
9.27                 0.866846766     -154.523561
9.271                 0.86665295     -154.831369
9.272                0.866460706     -155.139576
9.273                0.866270047     -155.448178
9.274                0.866080986     -155.757172
9.275                0.865893536     -156.066553
9.276                0.865707709     -156.376319
9.277                0.865523518     -156.686466
9.278                0.865340977      -156.99699
9.279                0.865160097     -157.307886
9.28                 0.864980892     -157.619152
9.281                0.864803373     -157.930784
9.282                0.864627553     -158.242777
9.283                0.864453444     -158.555127
9.284                0.864281058     -158.867831
9.285                0.864110408     -159.180886
9.286                0.863941505     -159.494285
9.287                0.863774361     -159.808027
9.288                0.863608988     -160.122106
9.289                0.863445398     -160.436519
9.29                 0.863283601     -160.751261
9.291                 0.86312361     -161.066328
9.292                0.862965436     -161.381717
9.293                 0.86280909     -161.697423
9.294                0.862654582     -162.013441
9.295                0.862501925     -162.329768
9.296                0.862351129     -162.646398
9.297                0.862202204     -162.963329
9.298                0.862055161     -163.280555
9.299                 0.86191001     -163.598073
9.3                  0.861766763     -163.915877
9.301                0.861625429     -164.233963
9.302                0.861486017     -164.552327
9.303                0.861348539     -164.870964
9.304                0.861213004     -165.189871
9.305                0.861079421     -165.509041
9.306                0.860947801     -165.828472
9.307                0.860818152     -166.148158
9.308                0.860690483     -166.468094
9.309                0.860564804     -166.788276
9.31                 0.860441124       -167.1087
9.311                0.860319452      -167.42936
9.312                0.860199795     -167.750252
9.313                0.860082163     -168.071372
9.314                0.859966564     -168.392714
9.315                0.859853006     -168.714274
9.316                0.859741497     -169.036046
9.317                0.859632045     -169.358027
9.318                0.859524658     -169.680212
9.319                0.859419343     -170.002595
9.32                 0.859316107     -170.325171
9.321                0.859214958     -170.647937
9.322                0.859115902     -170.970886
9.323                0.859018947     -171.294014
9.324                0.858924099     -171.617317
9.325                0.858831365     -171.940788
9.326                0.858740751     -172.264424
9.327                0.858652264     -172.588219
9.328                0.858565908     -172.912168
9.329                0.858481691     -173.236266
9.33                 0.858399617     -173.560508
9.331                0.858319692     -173.884889
9.332                0.858241921     -174.209405
9.333                 0.85816631     -174.534049
9.334                0.858092863     -174.858818
9.335                0.858021585     -175.183705
9.336                0.857952481     -175.508706
9.337                0.857885554     -175.833815
9.338                 0.85782081     -176.159028
9.339                0.857758251      -176.48434
9.34                 0.857697882     -176.809744
9.341                0.857639707     -177.135236
9.342                0.857583728     -177.460812
9.343                 0.85752995     -177.786465
9.344                0.857478374      -178.11219
9.345                0.857429004     -178.437983
9.346                0.857381842     -178.763838
9.347                0.857336891      -179.08975
9.348                0.857294154     -179.415714
9.349                0.857253631     -179.741724
9.35                 0.857215325      179.932224
9.351                0.857179238      179.606137
9.352                0.857145371      179.280019
9.353                0.857113725      178.953875
9.354                0.857084302       178.62771
9.355                0.857057101      178.301531
9.356                0.857032125      177.975342
9.357                0.857009373      177.649147
9.358                0.856988845      177.322954
9.359                0.856970543      176.996766
9.36                 0.856954464       176.67059
9.361                 0.85694061      176.344429
9.362                 0.85692898      176.018291
9.363                0.856919573      175.692179
9.364                0.856912388      175.366099
9.365                0.856907423      175.040056
9.366                0.856904679      174.714055
9.367                0.856904153      174.388102
9.368                0.856905843      174.062203
9.369                0.856909747      173.736361
9.37                 0.856915865      173.410582
9.371                0.856924192      173.084872
9.372                0.856934727      172.759236
9.373                0.856947467      172.433678
9.374                 0.85696241      172.108205
9.375                0.856979551      171.782821
9.376                0.856998889      171.457531
9.377                0.857020419       171.13234
9.378                0.857044138      170.807255
9.379                0.857070042      170.482279
9.38                 0.857098126      170.157418
9.381                0.857128388      169.832677
9.382                0.857160822      169.508061
9.383                0.857195425      169.183576
9.384                 0.85723219      168.859226
9.385                0.857271113      168.535016
9.386                 0.85731219      168.210951
9.387                0.857355415      167.887037
9.388                0.857400781      167.563278
9.389                0.857448285       167.23968
9.39                 0.857497919      166.916248
9.391                0.857549679      166.592985
9.392                0.857603557      166.269898
9.393                0.857659547      165.946992
9.394                0.857717644       165.62427
9.395                0.857777839      165.301739
9.396                0.857840127      164.979403
