! TOUCHSTONE file generated by CST DESIGN STUDIO
! Date and time: Tue Feb  4 13:24:58 2025
! Project name: C:\Work\MatlabApps\UnitCellOptimizationMatlab\CST\unitcell.cst
! Tree item: Tasks\Sweep1\SPara1\S-Parameters
! Header version: 2024
! Port assignment regex: !\s*Touchstone port\s*([0-9]+)\s*=\s*(CST MWS port|CST DES external port|CST DES block port)\s*(.+)\s* \(\"(.*)\"\)(\s*mode\s*([0-9]+))?.*
! Touchstone port assignment:
! Touchstone port 1 = CST DES external port 1 ("")
# GHz S MA R 50
9                    0.963912814     -50.7729728
9.001                0.963839411     -50.8375389
9.002                0.963765835     -50.9022419
9.003                0.963692088     -50.9670825
9.004                0.963618168     -51.0320608
9.005                0.963544074     -51.0971776
9.006                0.963469806     -51.1624331
9.007                0.963395364     -51.2278278
9.008                0.963320747     -51.2933621
9.009                0.963245954     -51.3590366
9.01                 0.963170985     -51.4248516
9.011                0.963095839     -51.4908077
9.012                0.963020516     -51.5569052
9.013                0.962945014     -51.6231446
9.014                0.962869334     -51.6895264
9.015                0.962793475      -51.756051
9.016                0.962717436      -51.822719
9.017                0.962641216     -51.8895307
9.018                0.962564815     -51.9564866
9.019                0.962488233     -52.0235872
9.02                 0.962411468     -52.0908329
9.021                0.962334521     -52.1582243
9.022                0.962257389     -52.2257617
9.023                0.962180074     -52.2934457
9.024                0.962102574     -52.3612768
9.025                0.962024888     -52.4292554
9.026                0.961947017     -52.4973819
9.027                0.961868958     -52.5656569
9.028                0.961790713     -52.6340809
9.029                0.961712279     -52.7026543
9.03                 0.961633657     -52.7713776
9.031                0.961554845     -52.8402513
9.032                0.961475843      -52.909276
9.033                0.961396651     -52.9784519
9.034                0.961317268     -53.0477798
9.035                0.961237692       -53.11726
9.036                0.961157924     -53.1868931
9.037                0.961077963     -53.2566796
9.038                0.960997807     -53.3266199
9.039                0.960917458     -53.3967146
9.04                 0.960836912     -53.4669641
9.041                0.960756171      -53.537369
9.042                0.960675233     -53.6079297
9.043                0.960594098     -53.6786469
9.044                0.960512764     -53.7495209
9.045                0.960431232     -53.8205524
9.046                  0.9603495     -53.8917417
9.047                0.960267569     -53.9630895
9.048                0.960185436     -54.0345962
9.049                0.960103102     -54.1062624
9.05                 0.960020565     -54.1780886
9.051                0.959937825     -54.2500753
9.052                0.959854882     -54.3222231
9.053                0.959771734     -54.3945324
9.054                0.959688381     -54.4670038
9.055                0.959604822     -54.5396379
9.056                0.959521056     -54.6124351
9.057                0.959437083      -54.685396
9.058                0.959352902     -54.7585212
9.059                0.959268512     -54.8318111
9.06                 0.959183912     -54.9052663
9.061                0.959099102     -54.9788874
9.062                 0.95901408     -55.0526749
9.063                0.958928847     -55.1266294
9.064                0.958843401     -55.2007513
9.065                0.958757742     -55.2750413
9.066                0.958671868        -55.3495
9.067                 0.95858578     -55.4241277
9.068                0.958499476     -55.4989252
9.069                0.958412955      -55.573893
9.07                 0.958326217     -55.6490316
9.071                0.958239261     -55.7243417
9.072                0.958152086     -55.7998237
9.073                0.958064691     -55.8754782
9.074                0.957977076     -55.9513058
9.075                 0.95788924     -56.0273072
9.076                0.957801181     -56.1034828
9.077                  0.9577129     -56.1798332
9.078                0.957624395      -56.256359
9.079                0.957535666     -56.3330608
9.08                 0.957446711     -56.4099392
9.081                 0.95735753     -56.4869948
9.082                0.957268123     -56.5642281
9.083                0.957178487     -56.6416397
9.084                0.957088623     -56.7192303
9.085                 0.95699853     -56.7970004
9.086                0.956908206     -56.8749506
9.087                0.956817652     -56.9530815
9.088                0.956726865     -57.0313938
9.089                0.956635845     -57.1098879
9.09                 0.956544592     -57.1885646
9.091                0.956453105     -57.2674244
9.092                0.956361382      -57.346468
9.093                0.956269423     -57.4256959
9.094                0.956177227     -57.5051088
9.095                0.956084793     -57.5847073
9.096                 0.95599212      -57.664492
9.097                0.955899208     -57.7444635
9.098                0.955806055     -57.8246224
9.099                0.955712661     -57.9049694
9.1                  0.955619024     -57.9855051
9.101                0.955525145     -58.0662302
9.102                0.955431021     -58.1471452
9.103                0.955336652     -58.2282507
9.104                0.955242038     -58.3095476
9.105                0.955147176     -58.3910363
9.106                0.955052067     -58.4727175
9.107                 0.95495671     -58.5545919
9.108                0.954861103       -58.63666
9.109                0.954765246     -58.7189227
9.11                 0.954669137     -58.8013804
9.111                0.954572777     -58.8840339
9.112                0.954476163     -58.9668838
9.113                0.954379295     -59.0499308
9.114                0.954282172     -59.1331755
9.115                0.954184793     -59.2166186
9.116                0.954087158     -59.3002608
9.117                0.953989265     -59.3841027
9.118                0.953891113      -59.468145
9.119                0.953792701     -59.5523884
9.12                 0.953694029     -59.6368335
9.121                0.953595095      -59.721481
9.122                0.953495899     -59.8063317
9.123                0.953396439     -59.8913862
9.124                0.953296715     -59.9766451
9.125                0.953196725     -60.0621092
9.126                0.953096469     -60.1477791
9.127                0.952995946     -60.2336556
9.128                0.952895155     -60.3197394
9.129                0.952794094     -60.4060311
9.13                 0.952692763     -60.4925314
9.131                0.952591161     -60.5792411
9.132                0.952489287     -60.6661608
9.133                0.952387139     -60.7532913
9.134                0.952284717     -60.8406333
9.135                 0.95218202     -60.9281874
9.136                0.952079047     -61.0159545
9.137                0.951975797     -61.1039352
9.138                0.951872268     -61.1921302
9.139                0.951768461     -61.2805403
9.14                 0.951664373     -61.3691661
9.141                0.951560004     -61.4580085
9.142                0.951455352     -61.5470682
9.143                0.951350418     -61.6363458
9.144                0.951245199     -61.7258422
9.145                0.951139695     -61.8155581
9.146                0.951033904     -61.9054941
9.147                0.950927827     -61.9956511
9.148                 0.95082146     -62.0860298
9.149                0.950714805      -62.176631
9.15                 0.950607859     -62.2674553
9.151                0.950500621     -62.3585037
9.152                0.950393091     -62.4497767
9.153                0.950285267     -62.5412752
9.154                0.950177149         -62.633
9.155                0.950068735     -62.7249518
9.156                0.949960024     -62.8171314
9.157                0.949851015     -62.9095396
9.158                0.949741708      -63.002177
9.159                0.949632101     -63.0950446
9.16                 0.949522192     -63.1881431
9.161                0.949411982     -63.2814733
9.162                0.949301468     -63.3750359
9.163                 0.94919065     -63.4688318
9.164                0.949079527     -63.5628617
9.165                0.948968097     -63.6571265
9.166                 0.94885636     -63.7516269
9.167                0.948744315     -63.8463637
9.168                 0.94863196     -63.9413378
9.169                0.948519294       -64.03655
9.17                 0.948406316      -64.132001
9.171                0.948293025     -64.2276916
9.172                 0.94817942     -64.3236228
9.173                0.948065501     -64.4197953
9.174                0.947951265     -64.5162099
9.175                0.947836711     -64.6128674
9.176                 0.94772184     -64.7097687
9.177                0.947606648     -64.8069147
9.178                0.947491136      -64.904306
9.179                0.947375303     -65.0019437
9.18                 0.947259146     -65.0998284
9.181                0.947142666     -65.1979611
9.182                 0.94702586     -65.2963427
9.183                0.946908728     -65.3949738
9.184                0.946791269     -65.4938555
9.185                0.946673481     -65.5929885
9.186                0.946555364     -65.6923737
9.187                0.946436915      -65.792012
9.188                0.946318135     -65.8919042
9.189                0.946199022     -65.9920512
9.19                 0.946079575     -66.0924539
9.191                0.945959793     -66.1931131
9.192                0.945839674     -66.2940297
9.193                0.945719218     -66.3952046
9.194                0.945598422     -66.4966387
9.195                0.945477288     -66.5983328
9.196                0.945355812     -66.7002878
9.197                0.945233993     -66.8025047
9.198                0.945111832     -66.9049843
9.199                0.944989326     -67.0077275
9.2                  0.944866475     -67.1107352
9.201                0.944743277     -67.2140084
9.202                 0.94461973     -67.3175478
9.203                0.944495835     -67.4213545
9.204                 0.94437159     -67.5254294
9.205                0.944246993     -67.6297732
9.206                0.944122044     -67.7343871
9.207                0.943996741     -67.8392718
9.208                0.943871083     -67.9444284
9.209                0.943745069     -68.0498577
9.21                 0.943618698     -68.1555606
9.211                0.943491969     -68.2615382
9.212                 0.94336488     -68.3677913
9.213                 0.94323743     -68.4743209
9.214                0.943109619     -68.5811279
9.215                0.942981445     -68.6882133
9.216                0.942852906      -68.795578
9.217                0.942724002      -68.903223
9.218                0.942594732     -69.0111492
9.219                0.942465094     -69.1193575
9.22                 0.942335087      -69.227849
9.221                0.942204709     -69.3366246
9.222                0.942073961     -69.4456853
9.223                0.941942841     -69.5550321
9.224                0.941811347     -69.6646658
9.225                0.941679478     -69.7745876
9.226                0.941547233     -69.8847983
9.227                0.941414611      -69.995299
9.228                0.941281611     -70.1060906
9.229                0.941148232     -70.2171742
9.23                 0.941014472     -70.3285507
9.231                 0.94088033     -70.4402211
9.232                0.940745805     -70.5521865
9.233                0.940610897     -70.6644477
9.234                0.940475603     -70.7770059
9.235                0.940339922     -70.8898621
9.236                0.940203855     -71.0030172
9.237                0.940067398     -71.1164723
9.238                0.939930551     -71.2302284
9.239                0.939793314     -71.3442865
9.24                 0.939655684     -71.4586476
9.241                0.939517661     -71.5733128
9.242                0.939379243     -71.6882831
9.243                0.939240429     -71.8035595
9.244                0.939101219     -71.9191431
9.245                 0.93896161     -72.0350349
9.246                0.938821603      -72.151236
9.247                0.938681195     -72.2677474
9.248                0.938540385     -72.3845701
9.249                0.938399173     -72.5017053
9.25                 0.938257557     -72.6191539
9.251                0.938115536      -72.736917
9.252                0.937973109     -72.8549958
9.253                0.937830275     -72.9733912
9.254                0.937687032     -73.0921043
9.255                 0.93754338     -73.2111362
9.256                0.937399318     -73.3304881
9.257                0.937254843     -73.4501608
9.258                0.937109956     -73.5701557
9.259                0.936964654     -73.6904736
9.26                 0.936818938     -73.8111158
9.261                0.936672805     -73.9320833
9.262                0.936526255     -74.0533772
9.263                0.936379286     -74.1749987
9.264                0.936231897     -74.2969487
9.265                0.936084088     -74.4192285
9.266                0.935935857      -74.541839
9.267                0.935787203     -74.6647816
9.268                0.935638126     -74.7880571
9.269                0.935488623     -74.9116669
9.27                 0.935338693     -75.0356119
9.271                0.935188337     -75.1598934
9.272                0.935037552     -75.2845124
9.273                0.934886338     -75.4094701
9.274                0.934734693     -75.5347677
9.275                0.934582616     -75.6604061
9.276                0.934430107     -75.7863867
9.277                0.934277164     -75.9127105
9.278                0.934123787     -76.0393787
9.279                0.933969974     -76.1663924
9.28                 0.933815723     -76.2937528
9.281                0.933661035      -76.421461
9.282                0.933505908     -76.5495183
9.283                0.933350341     -76.6779257
9.284                0.933194334     -76.8066844
9.285                0.933037884     -76.9357956
9.286                0.932880991     -77.0652606
9.287                0.932723654     -77.1950803
9.288                0.932565872     -77.3252561
9.289                0.932407645     -77.4557891
9.29                  0.93224897     -77.5866804
9.291                0.932089848     -77.7179314
9.292                0.931930276     -77.8495431
9.293                0.931770255     -77.9815167
9.294                0.931609783     -78.1138535
9.295                 0.93144886     -78.2465547
9.296                0.931287483     -78.3796214
9.297                0.931125654     -78.5130548
9.298                0.930963369     -78.6468563
9.299                0.930800629     -78.7810269
9.3                  0.930637433     -78.9155679
9.301                 0.93047378     -79.0504805
9.302                0.930309669     -79.1857659
9.303                0.930145099     -79.3214253
9.304                0.929980068       -79.45746
9.305                0.929814578     -79.5938713
9.306                0.929648625     -79.7306602
9.307                0.929482211     -79.8678281
9.308                0.929315333     -80.0053762
9.309                0.929147991     -80.1433057
9.31                 0.928980184     -80.2816179
9.311                0.928811912     -80.4203141
9.312                0.928643173     -80.5593953
9.313                0.928473967      -80.698863
9.314                0.928304294     -80.8387184
9.315                0.928134151     -80.9789627
9.316                0.927963539     -81.1195971
9.317                0.927792457      -81.260623
9.318                0.927620904     -81.4020416
9.319                 0.92744888     -81.5438542
9.32                 0.927276383      -81.686062
9.321                0.927103413     -81.8286662
9.322                 0.92692997     -81.9716683
9.323                0.926756052     -82.1150694
9.324                 0.92658166     -82.2588708
9.325                0.926406792     -82.4030738
9.326                0.926231448     -82.5476797
9.327                0.926055627     -82.6926898
9.328                0.925879329     -82.8381054
9.329                0.925702553     -82.9839276
9.33                 0.925525298     -83.1301579
9.331                0.925347565     -83.2767976
9.332                0.925169352     -83.4238478
9.333                0.924990659       -83.57131
9.334                0.924811485     -83.7191854
9.335                0.924631831     -83.8674753
9.336                0.924451695      -84.016181
9.337                0.924271077     -84.1653039
9.338                0.924089977     -84.3148452
9.339                0.923908394     -84.4648063
9.34                 0.923726328     -84.6151884
9.341                0.923543778     -84.7659928
9.342                0.923360745      -84.917221
9.343                0.923177227     -85.0688742
9.344                0.922993225     -85.2209536
9.345                0.922808738     -85.3734608
9.346                0.922623766     -85.5263968
9.347                0.922438309     -85.6797632
9.348                0.922252366     -85.8335612
9.349                0.922065937     -85.9877921
9.35                 0.921879022     -86.1424573
9.351                0.921691621     -86.2975581
9.352                0.921503734     -86.4530959
9.353                 0.92131536     -86.6090718
9.354                0.921126499     -86.7654874
9.355                0.920937152     -86.9223439
9.356                0.920747318     -87.0796427
9.357                0.920556997     -87.2373851
9.358                0.920366189     -87.3955725
9.359                0.920174894     -87.5542061
9.36                 0.919983112     -87.7132873
9.361                0.919790843     -87.8728175
9.362                0.919598088     -88.0327981
9.363                0.919404845     -88.1932303
9.364                0.919211117     -88.3541154
9.365                0.919016901      -88.515455
9.366                  0.9188222     -88.6772502
9.367                0.918627012     -88.8395025
9.368                0.918431338     -89.0022131
9.369                0.918235179     -89.1653835
9.37                 0.918038534      -89.329015
9.371                0.917841404     -89.4931089
9.372                0.917643789     -89.6576666
9.373                 0.91744569     -89.8226895
9.374                0.917247106     -89.9881788
9.375                0.917048039     -90.1541359
9.376                0.916848489     -90.3205623
9.377                0.916648456     -90.4874592
9.378                 0.91644794     -90.6548279
9.379                0.916246943       -90.82267
9.38                 0.916045464     -90.9909866
9.381                0.915843505     -91.1597791
9.382                0.915641066     -91.3290489
9.383                0.915438147     -91.4987974
9.384                 0.91523475     -91.6690259
9.385                0.915030874     -91.8397357
9.386                0.914826522     -92.0109282
9.387                0.914621692     -92.1826047
9.388                0.914416387     -92.3547667
9.389                0.914210607     -92.5274153
9.39                 0.914004353      -92.700552
9.391                0.913797626     -92.8741782
9.392                0.913590427     -93.0482951
9.393                0.913382756     -93.2229041
9.394                0.913174615     -93.3980066
9.395                0.912966005     -93.5736039
9.396                0.912756927     -93.7496973
