! TOUCHSTONE file generated by CST DESIGN STUDIO
! Date and time: Tue Feb  4 13:24:55 2025
! Project name: C:\Work\MatlabApps\UnitCellOptimizationMatlab\CST\unitcell.cst
! Tree item: Tasks\Sweep1\SPara1\S-Parameters
! Header version: 2024
! Port assignment regex: !\s*Touchstone port\s*([0-9]+)\s*=\s*(CST MWS port|CST DES external port|CST DES block port)\s*(.+)\s* \(\"(.*)\"\)(\s*mode\s*([0-9]+))?.*
! Touchstone port assignment:
! Touchstone port 1 = CST DES external port 1 ("")
# GHz S MA R 50
9                    0.958405938     -58.4546206
9.001                0.958303891     -58.5342412
9.002                0.958201609     -58.6140457
9.003                0.958099093     -58.6940349
9.004                0.957996341     -58.7742093
9.005                0.957893353     -58.8545696
9.006                0.957790127     -58.9351163
9.007                0.957686662     -59.0158502
9.008                0.957582958     -59.0967717
9.009                0.957479013     -59.1778816
9.01                 0.957374826     -59.2591804
9.011                0.957270398     -59.3406689
9.012                0.957165725     -59.4223475
9.013                0.957060808      -59.504217
9.014                0.956955646      -59.586278
9.015                0.956850237     -59.6685312
9.016                0.956744581     -59.7509771
9.017                0.956638677     -59.8336164
9.018                0.956532523     -59.9164498
9.019                0.956426119     -59.9994778
9.02                 0.956319463     -60.0827013
9.021                0.956212555     -60.1661207
9.022                0.956105393     -60.2497368
9.023                0.955997977     -60.3335502
9.024                0.955890306     -60.4175616
9.025                0.955782378     -60.5017716
9.026                0.955674193     -60.5861809
9.027                 0.95556575     -60.6707902
9.028                0.955457046     -60.7556001
9.029                0.955348083     -60.8406113
9.03                 0.955238858     -60.9258245
9.031                 0.95512937     -61.0112403
9.032                0.955019619     -61.0968595
9.033                0.954909603     -61.1826827
9.034                0.954799321     -61.2687105
9.035                0.954688773     -61.3549438
9.036                0.954577957     -61.4413831
9.037                0.954466872     -61.5280291
9.038                0.954355517     -61.6148826
9.039                0.954243892     -61.7019443
9.04                 0.954131995     -61.7892147
9.041                0.954019824     -61.8766947
9.042                 0.95390738      -61.964385
9.043                0.953794661     -62.0522862
9.044                0.953681665      -62.140399
9.045                0.953568392     -62.2287242
9.046                0.953454841     -62.3172625
9.047                0.953341011     -62.4060145
9.048                  0.9532269     -62.4949811
9.049                0.953112508     -62.5841629
9.05                 0.952997833     -62.6735606
9.051                0.952882875      -62.763175
9.052                0.952767632     -62.8530068
9.053                0.952652103     -62.9430567
9.054                0.952536287     -63.0333255
9.055                0.952420183     -63.1238138
9.056                0.952303791     -63.2145225
9.057                0.952187108     -63.3054523
9.058                0.952070134     -63.3966039
9.059                0.951952867      -63.487978
9.06                 0.951835308     -63.5795755
9.061                0.951717453      -63.671397
9.062                0.951599304     -63.7634433
9.063                0.951480857     -63.8557152
9.064                0.951362113     -63.9482135
9.065                 0.95124307     -64.0409388
9.066                0.951123726      -64.133892
9.067                0.951004082     -64.2270738
9.068                0.950884136     -64.3204849
9.069                0.950763886     -64.4141263
9.07                 0.950643331     -64.5079986
9.071                0.950522472     -64.6021025
9.072                0.950401305      -64.696439
9.073                0.950279831     -64.7910088
9.074                0.950158047     -64.8858126
9.075                0.950035954     -64.9808513
9.076                0.949913549     -65.0761256
9.077                0.949790833     -65.1716363
9.078                0.949667802     -65.2673843
9.079                0.949544458     -65.3633703
9.08                 0.949420797     -65.4595952
9.081                 0.94929682     -65.5560597
9.082                0.949172525     -65.6527646
9.083                 0.94904791     -65.7497108
9.084                0.948922976      -65.846899
9.085                 0.94879772     -65.9443302
9.086                0.948672141      -66.042005
9.087                0.948546239     -66.1399244
9.088                0.948420012     -66.2380891
9.089                0.948293459        -66.3365
9.09                  0.94816658      -66.435158
9.091                0.948039371     -66.5340637
9.092                0.947911834     -66.6332181
9.093                0.947783966     -66.7326221
9.094                0.947655766     -66.8322764
9.095                0.947527234     -66.9321819
9.096                0.947398367     -67.0323395
9.097                0.947269166     -67.1327499
9.098                0.947139628     -67.2334141
9.099                0.947009753      -67.334333
9.1                  0.946879539     -67.4355072
9.101                0.946748985     -67.5369379
9.102                0.946618091     -67.6386257
9.103                0.946486854     -67.7405716
9.104                0.946355275     -67.8427764
9.105                0.946223351      -67.945241
9.106                0.946091081     -68.0479663
9.107                0.945958465     -68.1509531
9.108                0.945825501     -68.2542024
9.109                0.945692188     -68.3577151
9.11                 0.945558524     -68.4614919
9.111                 0.94542451     -68.5655339
9.112                0.945290143     -68.6698419
9.113                0.945155422     -68.7744167
9.114                0.945020346     -68.8792594
9.115                0.944884915     -68.9843708
9.116                0.944749126     -69.0897518
9.117                0.944612979     -69.1954033
9.118                0.944476473     -69.3013262
9.119                0.944339606     -69.4075215
9.12                 0.944202377       -69.51399
9.121                0.944064785     -69.6207327
9.122                0.943926829     -69.7277506
9.123                0.943788508     -69.8350444
9.124                0.943649821     -69.9426153
9.125                0.943510766      -70.050464
9.126                0.943371342     -70.1585916
9.127                0.943231548     -70.2669989
9.128                0.943091383      -70.375687
9.129                0.942950846     -70.4846567
9.13                 0.942809936     -70.5939091
9.131                0.942668651      -70.703445
9.132                0.942526991     -70.8132654
9.133                0.942384953     -70.9233713
9.134                0.942242538     -71.0337636
9.135                0.942099744     -71.1444433
9.136                0.941956569     -71.2554114
9.137                0.941813013     -71.3666688
9.138                0.941669074     -71.4782166
9.139                0.941524751     -71.5900556
9.14                 0.941380044     -71.7021869
9.141                0.941234951     -71.8146114
9.142                 0.94108947     -71.9273301
9.143                0.940943601     -72.0403441
9.144                0.940797343     -72.1536543
9.145                0.940650694     -72.2672616
9.146                0.940503654     -72.3811672
9.147                 0.94035622      -72.495372
9.148                0.940208393     -72.6098769
9.149                0.940060171     -72.7246831
9.15                 0.939911552     -72.8397915
9.151                0.939762536     -72.9552032
9.152                0.939613122     -73.0709191
9.153                0.939463308     -73.1869402
9.154                0.939313093     -73.3032676
9.155                0.939162477     -73.4199024
9.156                0.939011457     -73.5368455
9.157                0.938860034      -73.654098
9.158                0.938708206     -73.7716608
9.159                0.938555971     -73.8895352
9.16                 0.938403329      -74.007722
9.161                0.938250279     -74.1262223
9.162                0.938096819     -74.2450372
9.163                0.937942949     -74.3641677
9.164                0.937788666     -74.4836149
9.165                0.937633972     -74.6033799
9.166                0.937478863     -74.7234636
9.167                 0.93732334     -74.8438672
9.168                  0.9371674     -74.9645917
9.169                0.937011044     -75.0856382
9.17                 0.936854269     -75.2070077
9.171                0.936697076     -75.3287014
9.172                0.936539462     -75.4507203
9.173                0.936381427     -75.5730655
9.174                 0.93622297      -75.695738
9.175                0.936064089      -75.818739
9.176                0.935904784     -75.9420695
9.177                0.935745054     -76.0657307
9.178                0.935584898     -76.1897237
9.179                0.935424314     -76.3140494
9.18                 0.935263301     -76.4387091
9.181                 0.93510186     -76.5637038
9.182                0.934939988     -76.6890347
9.183                0.934777685     -76.8147028
9.184                0.934614949     -76.9407093
9.185                 0.93445178     -77.0670553
9.186                0.934288177     -77.1937419
9.187                0.934124138     -77.3207702
9.188                0.933959663     -77.4481414
9.189                0.933794752     -77.5758565
9.19                 0.933629402     -77.7039168
9.191                0.933463613     -77.8323233
9.192                0.933297384     -77.9610771
9.193                0.933130714     -78.0901795
9.194                0.932963602     -78.2196316
9.195                0.932796048     -78.3494344
9.196                0.932628049     -78.4795893
9.197                0.932459607     -78.6100972
9.198                0.932290719     -78.7409594
9.199                0.932121385      -78.872177
9.2                  0.931951604     -79.0037512
9.201                0.931781374     -79.1356831
9.202                0.931610696     -79.2679739
9.203                0.931439568     -79.4006248
9.204                 0.93126799     -79.5336369
9.205                 0.93109596     -79.6670115
9.206                0.930923479     -79.8007497
9.207                0.930750544     -79.9348526
9.208                0.930577156     -80.0693215
9.209                0.930403313     -80.2041575
9.21                 0.930229015     -80.3393618
9.211                 0.93005426     -80.4749357
9.212                0.929879049     -80.6108802
9.213                0.929703381     -80.7471967
9.214                0.929527254     -80.8838863
9.215                0.929350668     -81.0209501
9.216                0.929173623     -81.1583895
9.217                0.928996117     -81.2962056
9.218                 0.92881815     -81.4343996
9.219                0.928639722     -81.5729727
9.22                 0.928460831     -81.7119261
9.221                0.928281476     -81.8512612
9.222                0.928101659     -81.9909789
9.223                0.927921377     -82.1310807
9.224                 0.92774063     -82.2715677
9.225                0.927559418     -82.4124411
9.226                0.927377739     -82.5537023
9.227                0.927195594     -82.6953523
9.228                0.927012982     -82.8373924
9.229                0.926829902     -82.9798239
9.23                 0.926646353      -83.122648
9.231                0.926462336     -83.2658659
9.232                 0.92627785     -83.4094789
9.233                0.926092894     -83.5534883
9.234                0.925907468     -83.6978952
9.235                0.925721571     -83.8427009
9.236                0.925535203     -83.9879067
9.237                0.925348363     -84.1335139
9.238                0.925161052     -84.2795236
9.239                0.924973268     -84.4259371
9.24                 0.924785012     -84.5727557
9.241                0.924596282     -84.7199807
9.242                 0.92440708     -84.8676133
9.243                0.924217403     -85.0156547
9.244                0.924027253     -85.1641063
9.245                0.923836628     -85.3129693
9.246                0.923645529      -85.462245
9.247                0.923453955     -85.6119346
9.248                0.923261906     -85.7620394
9.249                0.923069382     -85.9125608
9.25                 0.922876382     -86.0634999
9.251                0.922682907      -86.214858
9.252                0.922488956     -86.3666365
9.253                0.922294529     -86.5188366
9.254                0.922099627     -86.6714596
9.255                0.921904248     -86.8245068
9.256                0.921708393     -86.9779794
9.257                0.921512062     -87.1318788
9.258                0.921315255     -87.2862062
9.259                0.921117972      -87.440963
9.26                 0.920920212     -87.5961503
9.261                0.920721977     -87.7517696
9.262                0.920523265     -87.9078221
9.263                0.920324078      -88.064309
9.264                0.920124414     -88.2212318
9.265                0.919924275     -88.3785916
9.266                 0.91972366     -88.5363899
9.267                 0.91952257     -88.6946278
9.268                0.919321005     -88.8533067
9.269                0.919118965     -89.0124279
9.27                  0.91891645     -89.1719927
9.271                0.918713461     -89.3320023
9.272                0.918509997     -89.4924582
9.273                 0.91830606     -89.6533615
9.274                 0.91810165     -89.8147137
9.275                0.917896766     -89.9765159
9.276                 0.91769141     -90.1387695
9.277                0.917485582     -90.3014759
9.278                0.917279282     -90.4646363
9.279                0.917072511      -90.628252
9.28                 0.916865269     -90.7923243
9.281                0.916657557     -90.9568545
9.282                0.916449376      -91.121844
9.283                0.916240725      -91.287294
9.284                0.916031607     -91.4532059
9.285                0.915822021      -91.619581
9.286                0.915611968     -91.7864205
9.287                0.915401449     -91.9537258
9.288                0.915190464     -92.1214981
9.289                0.914979015     -92.2897389
9.29                 0.914767102     -92.4584493
9.291                0.914554726     -92.6276307
9.292                0.914341889     -92.7972844
9.293                 0.91412859     -92.9674117
9.294                0.913914831     -93.1380139
9.295                0.913700613     -93.3090923
9.296                0.913485937     -93.4806483
9.297                0.913270804      -93.652683
9.298                0.913055215     -93.8251978
9.299                0.912839172     -93.9981941
9.3                  0.912622674      -94.171673
9.301                0.912405725      -94.345636
9.302                0.912188324     -94.5200842
9.303                0.911970473      -94.695019
9.304                0.911752174     -94.8704417
9.305                0.911533428     -95.0463535
9.306                0.911314236     -95.2227559
9.307                0.911094599     -95.3996499
9.308                 0.91087452      -95.577037
9.309                0.910653999     -95.7549184
9.31                 0.910433039     -95.9332954
9.311                 0.91021164     -96.1121693
9.312                0.909989804     -96.2915413
9.313                0.909767534     -96.4714128
9.314                0.909544831     -96.6517849
9.315                0.909321696      -96.832659
9.316                0.909098131     -97.0140364
9.317                0.908874139     -97.1959183
9.318                0.908649721     -97.3783059
9.319                0.908424879     -97.5612005
9.32                 0.908199614     -97.7446035
9.321                 0.90797393      -97.928516
9.322                0.907747828     -98.1129392
9.323                 0.90752131     -98.2978745
9.324                0.907294378     -98.4833231
9.325                0.907067035     -98.6692862
9.326                0.906839282     -98.8557651
9.327                0.906611123      -99.042761
9.328                0.906382559     -99.2302751
9.329                0.906153593     -99.4183086
9.33                 0.905924227     -99.6068628
9.331                0.905694463     -99.7959389
9.332                0.905464305     -99.9855381
9.333                0.905233755     -100.175662
9.334                0.905002815     -100.366311
9.335                0.904771489     -100.557486
9.336                0.904539778      -100.74919
9.337                0.904307686     -100.941423
9.338                0.904075215     -101.134186
9.339                0.903842369     -101.327481
9.34                 0.903609149     -101.521308
9.341                0.903375561     -101.715669
9.342                0.903141605     -101.910565
9.343                0.902907286     -102.105997
9.344                0.902672607     -102.301967
9.345                 0.90243757     -102.498475
9.346                 0.90220218     -102.695522
9.347                0.901966439      -102.89311
9.348                0.901730351     -103.091241
9.349                0.901493918     -103.289914
9.35                 0.901257146     -103.489131
9.351                0.901020037     -103.688894
9.352                0.900782594     -103.889202
9.353                0.900544823     -104.090059
9.354                0.900306725     -104.291463
9.355                0.900068305     -104.493418
9.356                0.899829567     -104.695923
9.357                0.899590515      -104.89898
9.358                0.899351153     -105.102589
9.359                0.899111484     -105.306753
9.36                 0.898871513     -105.511471
9.361                0.898631244     -105.716745
9.362                0.898390682     -105.922576
9.363                0.898149829     -106.128966
9.364                0.897908692     -106.335914
9.365                0.897667273     -106.543422
9.366                0.897425578     -106.751491
9.367                0.897183611     -106.960123
9.368                0.896941377     -107.169317
9.369                 0.89669888     -107.379075
9.37                 0.896456125     -107.589398
9.371                0.896213117     -107.800287
9.372                 0.89596986     -108.011743
9.373                0.895726361     -108.223766
9.374                0.895482622     -108.436358
9.375                0.895238651      -108.64952
9.376                 0.89499445     -108.863252
9.377                0.894750027     -109.077555
9.378                0.894505386     -109.292431
9.379                0.894260532     -109.507879
9.38                 0.894015472     -109.723902
9.381                0.893770209     -109.940499
9.382                 0.89352475     -110.157672
9.383                  0.8932791     -110.375421
9.384                0.893033266     -110.593748
9.385                0.892787252     -110.812652
9.386                0.892541065     -111.032136
9.387                 0.89229471     -111.252199
9.388                0.892048194     -111.472842
9.389                0.891801522     -111.694066
9.39                   0.8915547     -111.915872
9.391                0.891307735     -112.138261
9.392                0.891060633     -112.361233
9.393                  0.8908134     -112.584789
9.394                0.890566042     -112.808929
9.395                0.890318566     -113.033655
9.396                0.890070979     -113.258966
