! TOUCHSTONE file generated by CST DESIGN STUDIO
! Date and time: Tue Feb  4 13:24:52 2025
! Project name: C:\Work\MatlabApps\UnitCellOptimizationMatlab\CST\unitcell.cst
! Tree item: Tasks\Sweep1\SPara1\S-Parameters
! Header version: 2024
! Port assignment regex: !\s*Touchstone port\s*([0-9]+)\s*=\s*(CST MWS port|CST DES external port|CST DES block port)\s*(.+)\s* \(\"(.*)\"\)(\s*mode\s*([0-9]+))?.*
! Touchstone port assignment:
! Touchstone port 1 = CST DES external port 1 ("")
# GHz S MA R 50
9                    0.952309742     -67.0322072
9.001                0.952175253     -67.1313972
9.002                0.952040396     -67.2308319
9.003                0.951905172     -67.3305122
9.004                0.951769578      -67.430439
9.005                0.951633614     -67.5306131
9.006                 0.95149728     -67.6310352
9.007                0.951360574     -67.7317062
9.008                0.951223495     -67.8326271
9.009                0.951086043     -67.9337985
9.01                 0.950948217     -68.0352213
9.011                0.950810015     -68.1368965
9.012                0.950671437     -68.2388248
9.013                0.950532482      -68.341007
9.014                0.950393148     -68.4434441
9.015                0.950253436     -68.5461369
9.016                0.950113344     -68.6490862
9.017                0.949972871      -68.752293
9.018                0.949832017      -68.855758
9.019                 0.94969078     -68.9594822
9.02                 0.949549159     -69.0634664
9.021                0.949407155     -69.1677115
9.022                0.949264764     -69.2722184
9.023                0.949121988     -69.3769879
9.024                0.948978825      -69.482021
9.025                0.948835273     -69.5873184
9.026                0.948691332     -69.6928812
9.027                0.948547002     -69.7987102
9.028                0.948402281     -69.9048062
9.029                0.948257168     -70.0111703
9.03                 0.948111663     -70.1178033
9.031                0.947965764      -70.224706
9.032                 0.94781947     -70.3318795
9.033                0.947672782     -70.4393246
9.034                0.947525697     -70.5470422
9.035                0.947378215     -70.6550332
9.036                0.947230335     -70.7632986
9.037                0.947082055     -70.8718393
9.038                0.946933377     -70.9806562
9.039                0.946784297     -71.0897502
9.04                 0.946634815     -71.1991223
9.041                0.946484931     -71.3087734
9.042                0.946334644     -71.4187045
9.043                0.946183952     -71.5289164
9.044                0.946032854     -71.6394101
9.045                0.945881351     -71.7501866
9.046                 0.94572944     -71.8612469
9.047                0.945577122     -71.9725918
9.048                0.945424394     -72.0842223
9.049                0.945271257     -72.1961394
9.05                 0.945117709     -72.3083441
9.051                0.944963749     -72.4208373
9.052                0.944809377     -72.5336199
9.053                0.944654591      -72.646693
9.054                0.944499391     -72.7600575
9.055                0.944343776     -72.8737144
9.056                0.944187745     -72.9876647
9.057                0.944031297     -73.1019094
9.058                0.943874431     -73.2164494
9.059                0.943717147     -73.3312858
9.06                 0.943559443     -73.4464195
9.061                0.943401318     -73.5618515
9.062                0.943242772     -73.6775828
9.063                0.943083804     -73.7936145
9.064                0.942924413     -73.9099474
9.065                0.942764598     -74.0265828
9.066                0.942604358     -74.1435214
9.067                0.942443692     -74.2607645
9.068                  0.9422826     -74.3783129
9.069                0.942121081     -74.4961677
9.07                 0.941959133     -74.6143299
9.071                0.941796756     -74.7328006
9.072                 0.94163395     -74.8515808
9.073                0.941470712     -74.9706714
9.074                0.941307043     -75.0900736
9.075                0.941142942     -75.2097884
9.076                0.940978407     -75.3298168
9.077                0.940813438     -75.4501599
9.078                0.940648034     -75.5708187
9.079                0.940482195     -75.6917942
9.08                 0.940315919     -75.8130876
9.081                0.940149206     -75.9346998
9.082                0.939982054      -76.056632
9.083                0.939814464     -76.1788852
9.084                0.939646434     -76.3014604
9.085                0.939477963     -76.4243588
9.086                0.939309051     -76.5475813
9.087                0.939139697     -76.6711291
9.088                  0.9389699     -76.7950033
9.089                0.938799659     -76.9192049
9.09                 0.938628974     -77.0437351
9.091                0.938457843     -77.1685948
9.092                0.938286267     -77.2937852
9.093                0.938114244     -77.4193074
9.094                0.937941774     -77.5451625
9.095                0.937768855     -77.6713516
9.096                0.937595487     -77.7978758
9.097                 0.93742167     -77.9247361
9.098                0.937247403     -78.0519337
9.099                0.937072684     -78.1794697
9.1                  0.936897514     -78.3073452
9.101                0.936721891     -78.4355614
9.102                0.936545815     -78.5641193
9.103                0.936369285     -78.6930201
9.104                0.936192301     -78.8222648
9.105                0.936014861     -78.9518547
9.106                0.935836966     -79.0817908
9.107                0.935658614     -79.2120744
9.108                0.935479805     -79.3427064
9.109                0.935300538     -79.4736881
9.11                 0.935120812     -79.6050206
9.111                0.934940628      -79.736705
9.112                0.934759984     -79.8687425
9.113                0.934578879     -80.0011343
9.114                0.934397314     -80.1338814
9.115                0.934215288     -80.2669851
9.116                0.934032799     -80.4004465
9.117                0.933849847     -80.5342668
9.118                0.933666433     -80.6684471
9.119                0.933482555     -80.8029885
9.12                 0.933298212     -80.9378924
9.121                0.933113405     -81.0731598
9.122                0.932928132     -81.2087919
9.123                0.932742394     -81.3447898
9.124                0.932556189     -81.4811549
9.125                0.932369518     -81.6178882
9.126                0.932182379     -81.7549909
9.127                0.931994773     -81.8924642
9.128                0.931806698     -82.0303093
9.129                0.931618155     -82.1685275
9.13                 0.931429142     -82.3071198
9.131                 0.93123966     -82.4460875
9.132                0.931049708     -82.5854318
9.133                0.930859286     -82.7251539
9.134                0.930668393      -82.865255
9.135                 0.93047703     -83.0057363
9.136                0.930285194      -83.146599
9.137                0.930092887     -83.2878443
9.138                0.929900108     -83.4294735
9.139                0.929706857     -83.5714877
9.14                 0.929513133     -83.7138881
9.141                0.929318936     -83.8566761
9.142                0.929124265     -83.9998528
9.143                0.928929122     -84.1434194
9.144                0.928733504     -84.2873771
9.145                0.928537412     -84.4317273
9.146                0.928340847     -84.5764711
9.147                0.928143806     -84.7216097
9.148                0.927946292     -84.8671444
9.149                0.927748302     -85.0130765
9.15                 0.927549838     -85.1594071
9.151                0.927350898     -85.3061375
9.152                0.927151483      -85.453269
9.153                0.926951594     -85.6008028
9.154                0.926751228     -85.7487401
9.155                0.926550388     -85.8970823
9.156                0.926349072     -86.0458304
9.157                 0.92614728     -86.1949859
9.158                0.925945013     -86.3445499
9.159                 0.92574227     -86.4945237
9.16                 0.925539052     -86.6449086
9.161                0.925335359     -86.7957058
9.162                 0.92513119     -86.9469166
9.163                0.924926546     -87.0985422
9.164                0.924721427     -87.2505839
9.165                0.924515832      -87.403043
9.166                0.924309763     -87.5559208
9.167                0.924103219     -87.7092184
9.168                  0.9238962     -87.8629373
9.169                0.923688708     -88.0170786
9.17                  0.92348074     -88.1716436
9.171                0.923272299     -88.3266336
9.172                0.923063385     -88.4820499
9.173                0.922853997     -88.6378937
9.174                0.922644136     -88.7941663
9.175                0.922433802     -88.9508691
9.176                0.922222996     -89.1080032
9.177                0.922011718       -89.26557
9.178                0.921799969     -89.4235707
9.179                0.921587748     -89.5820066
9.18                 0.921375057     -89.7408791
9.181                0.921161896     -89.9001893
9.182                0.920948265     -90.0599386
9.183                0.920734164     -90.2201282
9.184                0.920519596     -90.3807595
9.185                0.920304559     -90.5418337
9.186                0.920089055     -90.7033522
9.187                0.919873084     -90.8653161
9.188                0.919656647     -91.0277268
9.189                0.919439745     -91.1905856
9.19                 0.919222378     -91.3538938
9.191                0.919004547     -91.5176526
9.192                0.918786253     -91.6818633
9.193                0.918567497     -91.8465273
9.194                0.918348279     -92.0116458
9.195                0.918128601       -92.17722
9.196                0.917908462     -92.3432514
9.197                0.917687865     -92.5097412
9.198                 0.91746681     -92.6766906
9.199                0.917245299      -92.844101
9.2                  0.917023331     -93.0119736
9.201                0.916800908     -93.1803097
9.202                0.916578032     -93.3491107
9.203                0.916354703     -93.5183778
9.204                0.916130923     -93.6881122
9.205                0.915906692     -93.8583153
9.206                0.915682012     -94.0289884
9.207                0.915456884     -94.2001327
9.208                0.915231309     -94.3717496
9.209                 0.91500529     -94.5438402
9.21                 0.914778826     -94.7164059
9.211                 0.91455192      -94.889448
9.212                0.914324572     -95.0629677
9.213                0.914096785     -95.2369664
9.214                 0.91386856     -95.4114452
9.215                0.913639898     -95.5864055
9.216                  0.9134108     -95.7618485
9.217                 0.91318127     -95.9377756
9.218                0.912951307     -96.1141879
9.219                0.912720914     -96.2910867
9.22                 0.912490093     -96.4684734
9.221                0.912258845     -96.6463491
9.222                0.912027172     -96.8247152
9.223                0.911795076     -97.0035729
9.224                0.911562558     -97.1829234
9.225                0.911329621     -97.3627681
9.226                0.911096267     -97.5431081
9.227                0.910862497     -97.7239447
9.228                0.910628315     -97.9052791
9.229                 0.91039372     -98.0871127
9.23                 0.910158717     -98.2694466
9.231                0.909923307     -98.4522821
9.232                0.909687491     -98.6356204
9.233                0.909451274     -98.8194627
9.234                0.909214656     -99.0038103
9.235                 0.90897764     -99.1886645
9.236                0.908740229     -99.3740264
9.237                0.908502424     -99.5598972
9.238                0.908264229     -99.7462782
9.239                0.908025646     -99.9331706
9.24                 0.907786678     -100.120576
9.241                0.907547327     -100.308494
9.242                0.907307595     -100.496928
9.243                0.907067486     -100.685878
9.244                0.906827002     -100.875345
9.245                0.906586146     -101.065331
9.246                0.906344922     -101.255837
9.247                0.906103331     -101.446864
9.248                0.905861377     -101.638412
9.249                0.905619062     -101.830484
9.25                 0.905376391     -102.023081
9.251                0.905133366     -102.216203
9.252                 0.90488999     -102.409852
9.253                0.904646266     -102.604028
9.254                0.904402198     -102.798734
9.255                0.904157789      -102.99397
9.256                0.903913042     -103.189737
9.257                0.903667961     -103.386037
9.258                0.903422549      -103.58287
9.259                 0.90317681     -103.780238
9.26                 0.902930748     -103.978142
9.261                0.902684365     -104.176583
9.262                0.902437667     -104.375561
9.263                0.902190656     -104.575079
9.264                0.901943336     -104.775137
9.265                0.901695711     -104.975736
9.266                0.901447786     -105.176878
9.267                0.901199564     -105.378562
9.268                0.900951049     -105.580792
9.269                0.900702246     -105.783566
9.27                 0.900453158     -105.986887
9.271                0.900203789     -106.190756
9.272                0.899954145     -106.395173
9.273                0.899704229      -106.60014
9.274                0.899454046     -106.805658
9.275                  0.8992036     -107.011727
9.276                0.898952896     -107.218348
9.277                0.898701938     -107.425524
9.278                0.898450731     -107.633253
9.279                 0.89819928     -107.841538
9.28                  0.89794759      -108.05038
9.281                0.897695665     -108.259779
9.282                 0.89744351     -108.469736
9.283                0.897191131     -108.680253
9.284                0.896938531      -108.89133
9.285                0.896685718     -109.102967
9.286                0.896432695     -109.315167
9.287                0.896179467      -109.52793
9.288                0.895926041     -109.741256
9.289                0.895672421     -109.955147
9.29                 0.895418614     -110.169603
9.291                0.895164623     -110.384626
9.292                0.894910456     -110.600216
9.293                0.894656117     -110.816373
9.294                0.894401613       -111.0331
9.295                0.894146948     -111.250396
9.296                 0.89389213     -111.468262
9.297                0.893637164       -111.6867
9.298                0.893382055     -111.905709
9.299                 0.89312681     -112.125291
9.3                  0.892871435     -112.345446
9.301                0.892615937     -112.566176
9.302                0.892360321      -112.78748
9.303                0.892104593     -113.009359
9.304                0.891848761     -113.231815
9.305                 0.89159283     -113.454848
9.306                0.891336808     -113.678458
9.307                  0.8910807     -113.902646
9.308                0.890824514     -114.127413
9.309                0.890568256      -114.35276
9.31                 0.890311933     -114.578686
9.311                0.890055552     -114.805193
9.312                 0.88979912     -115.032281
9.313                0.889542644     -115.259951
9.314                 0.88928613     -115.488203
9.315                0.889029588     -115.717038
9.316                0.888773022     -115.946456
9.317                0.888516442     -116.176458
9.318                0.888259854     -116.407044
9.319                0.888003265     -116.638214
9.32                 0.887746684      -116.86997
9.321                0.887490118     -117.102312
9.322                0.887233574     -117.335239
9.323                0.886977061     -117.568753
9.324                0.886720586     -117.802854
9.325                0.886464157     -118.037541
9.326                0.886207783     -118.272817
9.327                 0.88595147     -118.508679
9.328                0.885695228     -118.745131
9.329                0.885439065      -118.98217
9.33                 0.885182988     -119.219798
9.331                0.884927007     -119.458015
9.332                 0.88467113     -119.696821
9.333                0.884415364     -119.936216
9.334                 0.88415972     -120.176201
9.335                0.883904205     -120.416776
9.336                0.883648828      -120.65794
9.337                0.883393599     -120.899695
9.338                0.883138525     -121.142039
9.339                0.882883616     -121.384974
9.34                 0.882628881     -121.628499
9.341                0.882374329     -121.872615
9.342                0.882119969      -122.11732
9.343                 0.88186581     -122.362616
9.344                0.881611863     -122.608503
9.345                0.881358135     -122.854979
9.346                0.881104637     -123.102046
9.347                0.880851378     -123.349704
9.348                0.880598368     -123.597951
9.349                0.880345616     -123.846788
9.35                 0.880093133     -124.096215
9.351                0.879840928     -124.346231
9.352                 0.87958901     -124.596837
9.353                 0.87933739     -124.848033
9.354                0.879086078     -125.099817
9.355                0.878835085      -125.35219
9.356                0.878584419     -125.605151
9.357                0.878334092     -125.858701
9.358                0.878084113     -126.112838
9.359                0.877834494     -126.367563
9.36                 0.877585244     -126.622875
9.361                0.877336374     -126.878773
9.362                0.877087895     -127.135258
9.363                0.876839817     -127.392328
9.364                0.876592151     -127.649984
9.365                0.876344908     -127.908224
9.366                0.876098099     -128.167049
9.367                0.875851734     -128.426457
9.368                0.875605824     -128.686448
9.369                0.875360381     -128.947022
9.37                 0.875115415     -129.208177
9.371                0.874870938     -129.469913
9.372                0.874626961      -129.73223
9.373                0.874383496     -129.995127
9.374                0.874140553     -130.258602
9.375                0.873898143     -130.522656
9.376                0.873656279     -130.787287
9.377                0.873414972     -131.052494
9.378                0.873174234     -131.318277
9.379                0.872934075     -131.584635
9.38                 0.872694508     -131.851566
9.381                0.872455544      -132.11907
9.382                0.872217196     -132.387146
9.383                0.871979475     -132.655793
9.384                0.871742392      -132.92501
9.385                 0.87150596     -133.194795
9.386                0.871270191     -133.465148
9.387                0.871035097     -133.736068
9.388                 0.87080069     -134.007552
9.389                0.870566982     -134.279601
9.39                 0.870333984     -134.552213
9.391                 0.87010171     -134.825386
9.392                0.869870172      -135.09912
9.393                0.869639382     -135.373412
9.394                0.869409351     -135.648263
9.395                0.869180093     -135.923669
9.396                0.868951621     -136.199631
