! TOUCHSTONE file generated by CST DESIGN STUDIO
! Date and time: Tue Feb  4 13:24:47 2025
! Project name: C:\Work\MatlabApps\UnitCellOptimizationMatlab\CST\unitcell.cst
! Tree item: Tasks\Sweep1\SPara1\S-Parameters
! Header version: 2024
! Port assignment regex: !\s*Touchstone port\s*([0-9]+)\s*=\s*(CST MWS port|CST DES external port|CST DES block port)\s*(.+)\s* \(\"(.*)\"\)(\s*mode\s*([0-9]+))?.*
! Touchstone port assignment:
! Touchstone port 1 = CST DES external port 1 ("")
# GHz S MA R 50
9                    0.942659969     -81.2759523
9.001                0.942469603     -81.4118802
9.002                 0.94227872     -81.5481736
9.003                 0.94208732     -81.6848337
9.004                0.941895402     -81.8218617
9.005                0.941702965     -81.9592586
9.006                0.941510008     -82.0970258
9.007                0.941316531     -82.2351643
9.008                0.941122534     -82.3736754
9.009                0.940928015     -82.5125602
9.01                 0.940732974     -82.6518199
9.011                0.940537411     -82.7914557
9.012                0.940341324     -82.9314688
9.013                0.940144714     -83.0718604
9.014                0.939947579     -83.2126316
9.015                 0.93974992     -83.3537837
9.016                0.939551735     -83.4953179
9.017                0.939353024     -83.6372353
9.018                0.939153786     -83.7795372
9.019                0.938954022     -83.9222248
9.02                  0.93875373     -84.0652993
9.021                0.938552911     -84.2087618
9.022                0.938351563     -84.3526137
9.023                0.938149686      -84.496856
9.024                 0.93794728     -84.6414901
9.025                0.937744345     -84.7865171
9.026                0.937540879     -84.9319383
9.027                0.937336884     -85.0777549
9.028                0.937132357     -85.2239681
9.029                  0.9369273     -85.3705792
9.03                 0.936721711     -85.5175893
9.031                0.936515591     -85.6649997
9.032                0.936308938     -85.8128116
9.033                0.936101754     -85.9610263
9.034                0.935894037     -86.1096449
9.035                0.935685787     -86.2586689
9.036                0.935477005     -86.4080992
9.037                 0.93526769     -86.5579373
9.038                0.935057841     -86.7081844
9.039                0.934847459     -86.8588416
9.04                 0.934636543     -87.0099103
9.041                0.934425094     -87.1613916
9.042                0.934213111      -87.313287
9.043                0.934000594     -87.4655974
9.044                0.933787543     -87.6183244
9.045                0.933573959      -87.771469
9.046                 0.93335984     -87.9250326
9.047                0.933145188     -88.0790163
9.048                0.932930002     -88.2334216
9.049                0.932714282     -88.3882495
9.05                 0.932498028     -88.5435014
9.051                0.932281241     -88.6991786
9.052                 0.93206392     -88.8552823
9.053                0.931846066     -89.0118137
9.054                0.931627678     -89.1687741
9.055                0.931408758     -89.3261648
9.056                0.931189305     -89.4839871
9.057                0.930969319     -89.6422422
9.058                0.930748801     -89.8009314
9.059                0.930527751      -89.960056
9.06                  0.93030617     -90.1196172
9.061                0.930084057     -90.2796163
9.062                0.929861414     -90.4400545
9.063                0.929638239     -90.6009332
9.064                0.929414535     -90.7622536
9.065                0.929190301      -90.924017
9.066                0.928965538     -91.0862247
9.067                0.928740247     -91.2488778
9.068                0.928514427     -91.4119778
9.069                 0.92828808     -91.5755259
9.07                 0.928061206     -91.7395233
9.071                0.927833805     -91.9039713
9.072                0.927605879     -92.0688712
9.073                0.927377428     -92.2342243
9.074                0.927148453     -92.4000319
9.075                0.926918954     -92.5662952
9.076                0.926688933     -92.7330154
9.077                 0.92645839      -92.900194
9.078                0.926227325     -93.0678321
9.079                0.925995741      -93.235931
9.08                 0.925763637      -93.404492
9.081                0.925531015     -93.5735164
9.082                0.925297875     -93.7430054
9.083                0.925064219     -93.9129603
9.084                0.924830048     -94.0833824
9.085                0.924595362      -94.254273
9.086                0.924360164     -94.4256332
9.087                0.924124453     -94.5974645
9.088                0.923888232      -94.769768
9.089                0.923651501      -94.942545
9.09                 0.923414262     -95.1157968
9.091                0.923176516     -95.2895247
9.092                0.922938264     -95.4637299
9.093                0.922699508     -95.6384137
9.094                0.922460249     -95.8135773
9.095                0.922220488      -95.989222
9.096                0.921980228     -96.1653491
9.097                0.921739469     -96.3419598
9.098                0.921498213     -96.5190553
9.099                0.921256462      -96.696637
9.1                  0.921014217      -96.874706
9.101                 0.92077148     -97.0532636
9.102                0.920528253     -97.2323111
9.103                0.920284538     -97.4118497
9.104                0.920040336     -97.5918807
9.105                0.919795649     -97.7724053
9.106                 0.91955048     -97.9534246
9.107                0.919304829     -98.1349401
9.108                0.919058699     -98.3169528
9.109                0.918812093     -98.4994641
9.11                 0.918565012     -98.6824751
9.111                0.918317457     -98.8659871
9.112                0.918069433     -99.0500013
9.113                 0.91782094     -99.2345188
9.114                0.917571981     -99.4195411
9.115                0.917322558     -99.6050691
9.116                0.917072674     -99.7911042
9.117                 0.91682233     -99.9776476
9.118                 0.91657153       -100.1647
9.119                0.916320276     -100.352264
9.12                 0.916068571     -100.540339
9.121                0.915816416     -100.728927
9.122                0.915563816      -100.91803
9.123                0.915310771     -101.107648
9.124                0.915057286     -101.297782
9.125                0.914803363     -101.488435
9.126                0.914549005     -101.679606
9.127                0.914294214     -101.871297
9.128                0.914038994      -102.06351
9.129                0.913783348     -102.256245
9.13                 0.913527278     -102.449503
9.131                0.913270789     -102.643286
9.132                0.913013882     -102.837595
9.133                0.912756562     -103.032431
9.134                0.912498831     -103.227795
9.135                0.912240693     -103.423688
9.136                0.911982152     -103.620112
9.137                 0.91172321     -103.817066
9.138                0.911463872     -104.014554
9.139                 0.91120414     -104.212575
9.14                 0.910944019     -104.411131
9.141                0.910683512     -104.610223
9.142                0.910422623     -104.809851
9.143                0.910161356     -105.010018
9.144                0.909899714     -105.210723
9.145                0.909637702     -105.411969
9.146                0.909375323     -105.613756
9.147                0.909112582     -105.816085
9.148                0.908849482     -106.018957
9.149                0.908586028     -106.222373
9.15                 0.908322225     -106.426335
9.151                0.908058075     -106.630843
9.152                0.907793585     -106.835898
9.153                0.907528757     -107.041502
9.154                0.907263597     -107.247655
9.155                0.906998109     -107.454358
9.156                0.906732298     -107.661613
9.157                0.906466169      -107.86942
9.158                0.906199725     -108.077779
9.159                0.905932973     -108.286694
9.16                 0.905665917     -108.496163
9.161                0.905398561     -108.706188
9.162                0.905130911      -108.91677
9.163                0.904862973     -109.127909
9.164                 0.90459475     -109.339608
9.165                0.904326248     -109.551866
9.166                0.904057474     -109.764685
9.167                0.903788431     -109.978065
9.168                0.903519125     -110.192007
9.169                0.903249563     -110.406512
9.17                 0.902979749     -110.621581
9.171                0.902709689     -110.837215
9.172                0.902439388     -111.053415
9.173                0.902168854     -111.270181
9.174                0.901898091     -111.487513
9.175                0.901627105     -111.705414
9.176                0.901355902     -111.923884
9.177                0.901084489     -112.142923
9.178                0.900812871     -112.362532
9.179                0.900541056     -112.582713
9.18                 0.900269048     -112.803464
9.181                0.899996854     -113.024789
9.182                0.899724482     -113.246686
9.183                0.899451937     -113.469157
9.184                0.899179226     -113.692203
9.185                0.898906355     -113.915823
9.186                0.898633332     -114.140019
9.187                0.898360163     -114.364792
9.188                0.898086855     -114.590142
9.189                0.897813415     -114.816069
9.19                  0.89753985     -115.042574
9.191                0.897266167     -115.269658
9.192                0.896992374     -115.497321
9.193                0.896718477     -115.725564
9.194                0.896444484     -115.954388
9.195                0.896170402     -116.183792
9.196                 0.89589624     -116.413778
9.197                0.895622004     -116.644345
9.198                0.895347702     -116.875495
9.199                0.895073341     -117.107227
9.2                  0.894798931     -117.339543
9.201                0.894524478     -117.572442
9.202                0.894249991     -117.805925
9.203                0.893975477     -118.039993
9.204                0.893700945     -118.274645
9.205                0.893426402     -118.509882
9.206                0.893151858     -118.745705
9.207                0.892877321     -118.982113
9.208                0.892602798     -119.219108
9.209                0.892328299     -119.456688
9.21                 0.892053832     -119.694856
9.211                0.891779405      -119.93361
9.212                0.891505029     -120.172951
9.213                 0.89123071     -120.412879
9.214                0.890956459     -120.653394
9.215                0.890682284     -120.894497
9.216                0.890408194     -121.136188
9.217                0.890134199     -121.378466
9.218                0.889860307     -121.621333
9.219                0.889586528     -121.864787
9.22                 0.889312872     -122.108829
9.221                0.889039347      -122.35346
9.222                0.888765964     -122.598678
9.223                0.888492731     -122.844485
9.224                0.888219659     -123.090879
9.225                0.887946758     -123.337862
9.226                0.887674037     -123.585433
9.227                0.887401506     -123.833591
9.228                0.887129175     -124.082337
9.229                0.886857054     -124.331671
9.23                 0.886585153     -124.581592
9.231                0.886313483     -124.832101
9.232                0.886042054     -125.083196
9.233                0.885770877     -125.334879
9.234                0.885499961     -125.587148
9.235                0.885229317     -125.840003
9.236                0.884958956     -126.093444
9.237                0.884688888     -126.347472
9.238                0.884419125     -126.602084
9.239                0.884149676     -126.857281
9.24                 0.883880554     -127.113063
9.241                0.883611768     -127.369429
9.242                 0.88334333     -127.626379
9.243                0.883075251     -127.883912
9.244                0.882807543     -128.142028
9.245                0.882540216     -128.400726
9.246                0.882273281     -128.660006
9.247                0.882006751     -128.919867
9.248                0.881740636     -129.180308
9.249                0.881474948      -129.44133
9.25                 0.881209699      -129.70293
9.251                  0.8809449     -129.965109
9.252                0.880680563     -130.227866
9.253                0.880416699       -130.4912
9.254                0.880153322     -130.755111
9.255                0.879890441     -131.019596
9.256                0.879628071     -131.284657
9.257                0.879366221     -131.550292
9.258                0.879104905     -131.816499
9.259                0.878844135     -132.083279
9.26                 0.878583923      -132.35063
9.261                0.878324281     -132.618551
9.262                0.878065221     -132.887041
9.263                0.877806756     -133.156099
9.264                0.877548899     -133.425725
9.265                0.877291661     -133.695916
9.266                0.877035055     -133.966673
9.267                0.876779095     -134.237993
9.268                0.876523791     -134.509876
9.269                0.876269158     -134.782321
9.27                 0.876015208     -135.055325
9.271                0.875761954     -135.328889
9.272                0.875509408      -135.60301
9.273                0.875257584     -135.877688
9.274                0.875006494     -136.152921
9.275                0.874756151     -136.428707
9.276                0.874506568     -136.705045
9.277                0.874257759     -136.981935
9.278                0.874009737     -137.259373
9.279                0.873762513     -137.537359
9.28                 0.873516103     -137.815891
9.281                0.873270519     -138.094968
9.282                0.873025773     -138.374588
9.283                0.872781881      -138.65475
9.284                0.872538854     -138.935451
9.285                0.872296706      -139.21669
9.286                 0.87205545     -139.498465
9.287                  0.8718151     -139.780775
9.288                 0.87157567     -140.063618
9.289                0.871337172     -140.346991
9.29                  0.87109962     -140.630893
9.291                0.870863028     -140.915323
9.292                0.870627409     -141.200277
9.293                0.870392776     -141.485755
9.294                0.870159144     -141.771753
9.295                0.869926525     -142.058271
9.296                0.869694934     -142.345306
9.297                0.869464383     -142.632856
9.298                0.869234887     -142.920919
9.299                0.869006458     -143.209492
9.3                  0.868779112     -143.498574
9.301                 0.86855286     -143.788161
9.302                0.868327717     -144.078253
9.303                0.868103697     -144.368846
9.304                0.867880813     -144.659939
9.305                0.867659078     -144.951528
9.306                0.867438507     -145.243612
9.307                0.867219112     -145.536188
9.308                0.867000908     -145.829253
9.309                0.866783908     -146.122805
9.31                 0.866568125     -146.416842
9.311                0.866353573      -146.71136
9.312                0.866140266     -147.006358
9.313                0.865928217     -147.301832
9.314                 0.86571744      -147.59778
9.315                0.865507948       -147.8942
9.316                0.865299755     -148.191087
9.317                0.865092874      -148.48844
9.318                0.864887318     -148.786256
9.319                0.864683101     -149.084532
9.32                 0.864480236     -149.383265
9.321                0.864278736     -149.682452
9.322                0.864078616      -149.98209
9.323                0.863879887     -150.282176
9.324                0.863682563     -150.582708
9.325                0.863486658     -150.883681
9.326                0.863292185     -151.185093
9.327                0.863099155     -151.486941
9.328                0.862907584     -151.789221
9.329                0.862717483     -152.091931
9.33                 0.862528865     -152.395067
9.331                0.862341744     -152.698626
9.332                0.862156132     -153.002604
9.333                0.861972042     -153.306999
9.334                0.861789487     -153.611806
9.335                0.861608478     -153.917023
9.336                 0.86142903     -154.222646
9.337                0.861251154     -154.528671
9.338                0.861074862     -154.835096
9.339                0.860900168     -155.141916
9.34                 0.860727083     -155.449128
9.341                0.860555619     -155.756728
9.342                 0.86038579     -156.064712
9.343                0.860217606     -156.373078
9.344                 0.86005108     -156.681821
9.345                0.859886223     -156.990938
9.346                0.859723048     -157.300424
9.347                0.859561566     -157.610277
9.348                0.859401789     -157.920492
9.349                0.859243729     -158.231064
9.35                 0.859087396     -158.541992
9.351                0.858932802      -158.85327
9.352                0.858779958     -159.164894
9.353                0.858628876     -159.476861
9.354                0.858479567     -159.789167
9.355                0.858332041     -160.101807
9.356                0.858186309     -160.414778
9.357                0.858042383     -160.728075
9.358                0.857900272     -161.041695
9.359                0.857759987     -161.355632
9.36                 0.857621538     -161.669884
9.361                0.857484937     -161.984445
9.362                0.857350192     -162.299311
9.363                0.857217314     -162.614479
9.364                0.857086313     -162.929944
9.365                0.856957199     -163.245701
9.366                 0.85682998     -163.561747
9.367                0.856704668     -163.878076
9.368                 0.85658127     -164.194685
9.369                0.856459797      -164.51157
9.37                 0.856340258     -164.828724
9.371                0.856222661     -165.146145
9.372                0.856107015     -165.463828
9.373                 0.85599333     -165.781767
9.374                0.855881613     -166.099959
9.375                0.855771872       -166.4184
9.376                0.855664118     -166.737083
9.377                0.855558356     -167.056006
9.378                0.855454596     -167.375162
9.379                0.855352845     -167.694548
9.38                 0.855253111     -168.014159
9.381                0.855155401      -168.33399
9.382                0.855059723     -168.654037
9.383                0.854966084     -168.974294
9.384                0.854874491     -169.294757
9.385                0.854784951     -169.615421
9.386                 0.85469747     -169.936281
9.387                0.854612056     -170.257333
9.388                0.854528714     -170.578571
9.389                0.854447451     -170.899992
9.39                 0.854368272     -171.221589
9.391                0.854291185     -171.543358
9.392                0.854216194     -171.865294
9.393                0.854143304     -172.187393
9.394                0.854072523     -172.509648
9.395                0.854003853     -172.832056
9.396                0.853937302     -173.154612
