! TOUCHSTONE file generated by CST DESIGN STUDIO
! Date and time: Tue Feb  4 13:24:56 2025
! Project name: C:\Work\MatlabApps\UnitCellOptimizationMatlab\CST\unitcell.cst
! Tree item: Tasks\Sweep1\SPara1\S-Parameters
! Header version: 2024
! Port assignment regex: !\s*Touchstone port\s*([0-9]+)\s*=\s*(CST MWS port|CST DES external port|CST DES block port)\s*(.+)\s* \(\"(.*)\"\)(\s*mode\s*([0-9]+))?.*
! Touchstone port assignment:
! Touchstone port 1 = CST DES external port 1 ("")
# GHz S MA R 50
9                    0.961241687     -54.5005374
9.001                0.961155095     -54.5721118
9.002                0.961068296     -54.6438451
9.003                0.960981288     -54.7157377
9.004                0.960894072     -54.7877902
9.005                0.960806646      -54.860003
9.006                 0.96071901     -54.9323768
9.007                0.960631163     -55.0049121
9.008                0.960543104     -55.0776093
9.009                0.960454834      -55.150469
9.01                  0.96036635     -55.2234918
9.011                0.960277652     -55.2966781
9.012                 0.96018874     -55.3700285
9.013                0.960099612     -55.4435435
9.014                0.960010269     -55.5172237
9.015                0.959920709     -55.5910696
9.016                0.959830931     -55.6650817
9.017                0.959740935     -55.7392606
9.018                 0.95965072     -55.8136068
9.019                0.959560285     -55.8881209
9.02                  0.95946963     -55.9628035
9.021                0.959378753      -56.037655
9.022                0.959287655     -56.1126761
9.023                0.959196334     -56.1878672
9.024                0.959104789      -56.263229
9.025                0.959013019      -56.338762
9.026                0.958921025     -56.4144667
9.027                0.958828805     -56.4903438
9.028                0.958736358     -56.5663938
9.029                0.958643683     -56.6426172
9.03                  0.95855078     -56.7190147
9.031                0.958457649     -56.7955868
9.032                0.958364287      -56.872334
9.033                0.958270695      -56.949257
9.034                0.958176871     -57.0263563
9.035                0.958082815     -57.1036326
9.036                0.957988526     -57.1810863
9.037                0.957894003     -57.2587181
9.038                0.957799246     -57.3365286
9.039                0.957704253     -57.4145184
9.04                 0.957609024      -57.492688
9.041                0.957513557      -57.571038
9.042                0.957417853     -57.6495691
9.043                0.957321909     -57.7282818
9.044                0.957225727     -57.8071767
9.045                0.957129303     -57.8862545
9.046                0.957032639     -57.9655157
9.047                0.956935732     -58.0449609
9.048                0.956838582     -58.1245908
9.049                0.956741189      -58.204406
9.05                 0.956643551     -58.2844071
9.051                0.956545667     -58.3645947
9.052                0.956447537     -58.4449693
9.053                 0.95634916     -58.5255317
9.054                0.956250534     -58.6062825
9.055                 0.95615166     -58.6872223
9.056                0.956052536     -58.7683516
9.057                0.955953161     -58.8496713
9.058                0.955853534     -58.9311817
9.059                0.955753655     -59.0128837
9.06                 0.955653523     -59.0947778
9.061                0.955553136     -59.1768648
9.062                0.955452495     -59.2591451
9.063                0.955351597     -59.3416195
9.064                0.955250443     -59.4242886
9.065                 0.95514903     -59.5071531
9.066                0.955047359     -59.5902136
9.067                0.954945429     -59.6734707
9.068                0.954843238     -59.7569252
9.069                0.954740785     -59.8405776
9.07                 0.954638071     -59.9244287
9.071                0.954535093     -60.0084791
9.072                0.954431851     -60.0927295
9.073                0.954328344     -60.1771805
9.074                0.954224571     -60.2618328
9.075                0.954120531     -60.3466871
9.076                0.954016223      -60.431744
9.077                0.953911646     -60.5170042
9.078                  0.9538068     -60.6024685
9.079                0.953701683     -60.6881375
9.08                 0.953596295     -60.7740118
9.081                0.953490634     -60.8600922
9.082                  0.9533847     -60.9463794
9.083                0.953278491      -61.032874
9.084                0.953172007     -61.1195767
9.085                0.953065246     -61.2064883
9.086                0.952958209     -61.2936094
9.087                0.952850893     -61.3809408
9.088                0.952743298     -61.4684831
9.089                0.952635423     -61.5562371
9.09                 0.952527267     -61.6442034
9.091                0.952418828     -61.7323829
9.092                0.952310107     -61.8207761
9.093                0.952201101     -61.9093838
9.094                0.952091811     -61.9982068
9.095                0.951982234     -62.0872457
9.096                0.951872371     -62.1765013
9.097                 0.95176222     -62.2659743
9.098                0.951651779     -62.3556655
9.099                0.951541049     -62.4455755
9.1                  0.951430028     -62.5357051
9.101                0.951318715     -62.6260551
9.102                0.951207109     -62.7166262
9.103                0.951095209     -62.8074192
9.104                0.950983014     -62.8984347
9.105                0.950870523     -62.9896735
9.106                0.950757736     -63.0811365
9.107                 0.95064465     -63.1728243
9.108                0.950531265     -63.2647377
9.109                 0.95041758     -63.3568774
9.11                 0.950303595     -63.4492443
9.111                0.950189307     -63.5418391
9.112                0.950074716     -63.6346625
9.113                0.949959821     -63.7277154
9.114                0.949844621     -63.8209985
9.115                0.949729115     -63.9145126
9.116                0.949613302     -64.0082584
9.117                 0.94949718     -64.1022368
9.118                0.949380749     -64.1964485
9.119                0.949264008     -64.2908943
9.12                 0.949146955     -64.3855751
9.121                0.949029591     -64.4804915
9.122                0.948911912     -64.5756445
9.123                0.948793919     -64.6710348
9.124                0.948675611     -64.7666632
9.125                0.948556986     -64.8625305
9.126                0.948438043     -64.9586375
9.127                0.948318782      -65.054985
9.128                0.948199201     -65.1515739
9.129                0.948079299      -65.248405
9.13                 0.947959075      -65.345479
9.131                0.947838529     -65.4427968
9.132                0.947717658     -65.5403593
9.133                0.947596462     -65.6381672
9.134                 0.94747494     -65.7362215
9.135                0.947353091     -65.8345228
9.136                0.947230913     -65.9330721
9.137                0.947108406     -66.0318702
9.138                0.946985569      -66.130918
9.139                0.946862399     -66.2302162
9.14                 0.946738898     -66.3297658
9.141                0.946615062     -66.4295676
9.142                0.946490892     -66.5296224
9.143                0.946366386     -66.6299311
9.144                0.946241543     -66.7304946
9.145                0.946116362     -66.8313137
9.146                0.945990842     -66.9323893
9.147                0.945864981     -67.0337223
9.148                0.945738779     -67.1353135
9.149                0.945612235     -67.2371638
9.15                 0.945485347     -67.3392741
9.151                0.945358114     -67.4416453
9.152                0.945230536     -67.5442782
9.153                0.945102611     -67.6471738
9.154                0.944974338     -67.7503329
9.155                0.944845716     -67.8537564
9.156                0.944716744     -67.9574453
9.157                 0.94458742     -68.0614004
9.158                0.944457745     -68.1656226
9.159                0.944327715     -68.2701129
9.16                 0.944197331     -68.3748721
9.161                0.944066592     -68.4799011
9.162                0.943935496     -68.5852009
9.163                0.943804042     -68.6907724
9.164                0.943672228     -68.7966165
9.165                0.943540055     -68.9027342
9.166                0.943407521     -69.0091263
9.167                0.943274624     -69.1157938
9.168                0.943141364     -69.2227376
9.169                0.943007739     -69.3299587
9.17                 0.942873749      -69.437458
9.171                0.942739391     -69.5452364
9.172                0.942604666     -69.6532949
9.173                0.942469572     -69.7616345
9.174                0.942334108      -69.870256
9.175                0.942198273     -69.9791605
9.176                0.942062065     -70.0883489
9.177                0.941925484     -70.1978222
9.178                0.941788528     -70.3075813
9.179                0.941651197     -70.4176272
9.18                 0.941513489     -70.5279608
9.181                0.941375403     -70.6385832
9.182                0.941236938     -70.7494953
9.183                0.941098093     -70.8606982
9.184                0.940958866     -70.9721927
9.185                0.940819258     -71.0839799
9.186                0.940679266     -71.1960607
9.187                0.940538889     -71.3084362
9.188                0.940398127     -71.4211073
9.189                0.940256978     -71.5340751
9.19                 0.940115441     -71.6473406
9.191                0.939973515     -71.7609047
9.192                0.939831199     -71.8747684
9.193                0.939688493     -71.9889329
9.194                0.939545393      -72.103399
9.195                0.939401901     -72.2181679
9.196                0.939258014     -72.3332404
9.197                0.939113732     -72.4486178
9.198                0.938969052     -72.5643009
9.199                0.938823976     -72.6802908
9.2                    0.9386785     -72.7965886
9.201                0.938532625     -72.9131953
9.202                0.938386348     -73.0301119
9.203                 0.93823967     -73.1473394
9.204                0.938092588      -73.264879
9.205                0.937945103     -73.3827317
9.206                0.937797212     -73.5008984
9.207                0.937648914     -73.6193804
9.208                 0.93750021     -73.7381786
9.209                0.937351096      -73.857294
9.21                 0.937201574     -73.9767279
9.211                 0.93705164     -74.0964812
9.212                0.936901295     -74.2165549
9.213                0.936750538     -74.3369503
9.214                0.936599366     -74.4576683
9.215                 0.93644778       -74.57871
9.216                0.936295778     -74.7000766
9.217                0.936143359     -74.8217691
9.218                0.935990522     -74.9437886
9.219                0.935837266     -75.0661362
9.22                 0.935683591     -75.1888129
9.221                0.935529494       -75.31182
9.222                0.935374975     -75.4351585
9.223                0.935220033     -75.5588294
9.224                0.935064668      -75.682834
9.225                0.934908877     -75.8071733
9.226                 0.93475266     -75.9318484
9.227                0.934596016     -76.0568605
9.228                0.934438944     -76.1822106
9.229                0.934281443        -76.3079
9.23                 0.934123512     -76.4339297
9.231                 0.93396515     -76.5603009
9.232                0.933806356     -76.6870146
9.233                0.933647129     -76.8140721
9.234                0.933487469     -76.9414745
9.235                0.933327373     -77.0692228
9.236                0.933166842     -77.1973184
9.237                0.933005874     -77.3257622
9.238                0.932844468     -77.4545555
9.239                0.932682624     -77.5836994
9.24                 0.932520341     -77.7131951
9.241                0.932357617     -77.8430438
9.242                0.932194452     -77.9732465
9.243                0.932030844     -78.1038045
9.244                0.931866794     -78.2347189
9.245                0.931702299      -78.365991
9.246                 0.93153736     -78.4976218
9.247                0.931371975     -78.6296126
9.248                0.931206143     -78.7619645
9.249                0.931039864     -78.8946788
9.25                 0.930873137     -79.0277566
9.251                 0.93070596      -79.161199
9.252                0.930538334     -79.2950074
9.253                0.930370257     -79.4291829
9.254                0.930201728     -79.5637266
9.255                0.930032747     -79.6986399
9.256                0.929863313     -79.8339238
9.257                0.929693425     -79.9695797
9.258                0.929523082     -80.1056086
9.259                0.929352284     -80.2420119
9.26                 0.929181029     -80.3787907
9.261                0.929009318     -80.5159463
9.262                0.928837149     -80.6534798
9.263                0.928664521     -80.7913926
9.264                0.928491435     -80.9296857
9.265                0.928317888     -81.0683605
9.266                0.928143881     -81.2074182
9.267                0.927969413       -81.34686
9.268                0.927794483     -81.4866872
9.269                0.927619091     -81.6269009
9.27                 0.927443235     -81.7675025
9.271                0.927266916     -81.9084931
9.272                0.927090132     -82.0498741
9.273                0.926912883     -82.1916466
9.274                0.926735169     -82.3338119
9.275                0.926556989     -82.4763713
9.276                0.926378342      -82.619326
9.277                0.926199227     -82.7626773
9.278                0.926019645     -82.9064264
9.279                0.925839595     -83.0505747
9.28                 0.925659076     -83.1951232
9.281                0.925478087     -83.3400735
9.282                0.925296629     -83.4854266
9.283                  0.9251147     -83.6311838
9.284                0.924932301     -83.7773466
9.285                0.924749431      -83.923916
9.286                0.924566089     -84.0708934
9.287                0.924382275     -84.2182801
9.288                0.924197989     -84.3660773
9.289                 0.92401323     -84.5142864
9.29                 0.923827998     -84.6629086
9.291                0.923642293     -84.8119452
9.292                0.923456114     -84.9613974
9.293                0.923269461     -85.1112667
9.294                0.923082334     -85.2615542
9.295                0.922894732     -85.4122613
9.296                0.922706656     -85.5633893
9.297                0.922518105     -85.7149394
9.298                0.922329078      -85.866913
9.299                0.922139576     -86.0193114
9.3                  0.921949598     -86.1721358
9.301                0.921759145     -86.3253875
9.302                0.921568216      -86.479068
9.303                0.921376811     -86.6331784
9.304                 0.92118493     -86.7877201
9.305                0.920992573     -86.9426944
9.306                0.920799739     -87.0981025
9.307                 0.92060643     -87.2539459
9.308                0.920412644     -87.4102258
9.309                0.920218383     -87.5669436
9.31                 0.920023645     -87.7241005
9.311                0.919828431     -87.8816979
9.312                0.919632741      -88.039737
9.313                0.919436576     -88.1982193
9.314                0.919239935      -88.357146
9.315                0.919042818     -88.5165184
9.316                0.918845226     -88.6763379
9.317                0.918647158     -88.8366058
9.318                0.918448616     -88.9973234
9.319                  0.9182496      -89.158492
9.32                 0.918050109     -89.3201129
9.321                0.917850144     -89.4821875
9.322                0.917649705     -89.6447171
9.323                0.917448793     -89.8077031
9.324                0.917247408     -89.9711467
9.325                 0.91704555     -90.1350492
9.326                0.916843221      -90.299412
9.327                0.916640419     -90.4642365
9.328                0.916437147     -90.6295239
9.329                0.916233404     -90.7952756
9.33                 0.916029192     -90.9614928
9.331                0.915824509      -91.128177
9.332                0.915619359     -91.2953294
9.333                 0.91541374     -91.4629514
9.334                0.915207653     -91.6310443
9.335                  0.9150011     -91.7996094
9.336                0.914794081      -91.968648
9.337                0.914586597     -92.1381614
9.338                0.914378648     -92.3081511
9.339                0.914170236     -92.4786182
9.34                 0.913961361     -92.6495642
9.341                0.913752025     -92.8209903
9.342                0.913542227     -92.9928979
9.343                 0.91333197     -93.1652882
9.344                0.913121254     -93.3381626
9.345                0.912910081     -93.5115224
9.346                0.912698451     -93.6853689
9.347                0.912486365     -93.8597034
9.348                0.912273825     -94.0345273
9.349                0.912060831     -94.2098418
9.35                 0.911847386     -94.3856483
9.351                 0.91163349      -94.561948
9.352                0.911419145     -94.7387422
9.353                0.911204352     -94.9160323
9.354                0.910989112     -95.0938196
9.355                0.910773427     -95.2721052
9.356                0.910557298     -95.4508907
9.357                0.910340727     -95.6301771
9.358                0.910123716     -95.8099658
9.359                0.909906265     -95.9902582
9.36                 0.909688377     -96.1710554
9.361                0.909470053     -96.3523587
9.362                0.909251295     -96.5341695
9.363                0.909032105      -96.716489
9.364                0.908812485     -96.8993185
9.365                0.908592436     -97.0826591
9.366                 0.90837196     -97.2665123
9.367                0.908151059     -97.4508792
9.368                0.907929736      -97.635761
9.369                0.907707992     -97.8211592
9.37                  0.90748583     -98.0070748
9.371                0.907263251     -98.1935091
9.372                0.907040258     -98.3804633
9.373                0.906816853     -98.5679387
9.374                0.906593038     -98.7559365
9.375                0.906368815     -98.9444579
9.376                0.906144188     -99.1335042
9.377                0.905919158     -99.3230764
9.378                0.905693729     -99.5131758
9.379                0.905467902     -99.7038036
9.38                  0.90524168      -99.894961
9.381                0.905015065     -100.086649
9.382                0.904788062     -100.278869
9.383                0.904560672     -100.471622
9.384                0.904332898      -100.66491
9.385                0.904104743     -100.858732
9.386                0.903876211     -101.053091
9.387                0.903647303     -101.247988
9.388                0.903418024     -101.443424
9.389                0.903188377     -101.639399
9.39                 0.902958364     -101.835915
9.391                0.902727989     -102.032973
9.392                0.902497256     -102.230574
9.393                0.902266168     -102.428718
9.394                0.902034729     -102.627408
9.395                0.901802942     -102.826644
9.396                0.901570811     -103.026427
