! TOUCHSTONE file generated by CST DESIGN STUDIO
! Date and time: Tue Feb  4 12:34:31 2025
! Project name: C:\Work\MatlabApps\UnitCellOptimizationMatlab\CST\unitcell.cst
! Tree item: Tasks\Sweep1\SPara1\S-Parameters
! Header version: 2024
! Port assignment regex: !\s*Touchstone port\s*([0-9]+)\s*=\s*(CST MWS port|CST DES external port|CST DES block port)\s*(.+)\s* \(\"(.*)\"\)(\s*mode\s*([0-9]+))?.*
! Touchstone port assignment:
! Touchstone port 1 = CST DES external port 1 ("")
# GHz S MA R 50
9                    0.989060645     -71.3962179
9.001                0.989036201     -71.5006202
9.002                0.989011683      -71.605274
9.003                0.988987089     -71.7101799
9.004                 0.98896242     -71.8153388
9.005                0.988937676     -71.9207514
9.006                0.988912856     -72.0264185
9.007                 0.98888796     -72.1323408
9.008                0.988862988     -72.2385191
9.009                0.988837939     -72.3449542
9.01                 0.988812815     -72.4516469
9.011                0.988787613     -72.5585979
9.012                0.988762335      -72.665808
9.013                 0.98873698     -72.7732781
9.014                0.988711548     -72.8810088
9.015                0.988686038      -72.989001
9.016                0.988660451     -73.0972554
9.017                0.988634786     -73.2057729
9.018                0.988609043     -73.3145542
9.019                0.988583222     -73.4236002
9.02                 0.988557322     -73.5329116
9.021                0.988531344     -73.6424892
9.022                0.988505288     -73.7523338
9.023                0.988479152     -73.8624462
9.024                0.988452938     -73.9728273
9.025                0.988426644     -74.0834778
9.026                0.988400271     -74.1943986
9.027                0.988373818     -74.3055904
9.028                0.988347285     -74.4170541
9.029                0.988320672     -74.5287905
9.03                  0.98829398     -74.6408004
9.031                0.988267207     -74.7530846
9.032                0.988240353     -74.8656439
9.033                0.988213419     -74.9784792
9.034                0.988186403     -75.0915912
9.035                0.988159307     -75.2049809
9.036                 0.98813213     -75.3186491
9.037                0.988104871     -75.4325965
9.038                 0.98807753      -75.546824
9.039                0.988050108     -75.6613324
9.04                 0.988022603     -75.7761226
9.041                0.987995017     -75.8911954
9.042                0.987967348     -76.0065517
9.043                0.987939597     -76.1221923
9.044                0.987911763      -76.238118
9.045                0.987883847     -76.3543298
9.046                0.987855847     -76.4708283
9.047                0.987827764     -76.5876146
9.048                0.987799598     -76.7046894
9.049                0.987771348     -76.8220535
9.05                 0.987743015      -76.939708
9.051                0.987714598     -77.0576535
9.052                0.987686097     -77.1758911
9.053                0.987657511     -77.2944214
9.054                0.987628841     -77.4132455
9.055                0.987600087     -77.5323641
9.056                0.987571248     -77.6517782
9.057                0.987542324     -77.7714885
9.058                0.987513316      -77.891496
9.059                0.987484222     -78.0118016
9.06                 0.987455042     -78.1324061
9.061                0.987425778     -78.2533104
9.062                0.987396427     -78.3745154
9.063                0.987366991      -78.496022
9.064                0.987337469      -78.617831
9.065                 0.98730786     -78.7399433
9.066                0.987278166     -78.8623598
9.067                0.987248385     -78.9850815
9.068                0.987218518     -79.1081091
9.069                0.987188563     -79.2314437
9.07                 0.987158522      -79.355086
9.071                0.987128394      -79.479037
9.072                0.987098179     -79.6032975
9.073                0.987067876     -79.7278686
9.074                0.987037486      -79.852751
9.075                0.987007009     -79.9779457
9.076                0.986976444     -80.1034535
9.077                 0.98694579     -80.2292755
9.078                0.986915049     -80.3554124
9.079                 0.98688422     -80.4818653
9.08                 0.986853302     -80.6086349
9.081                0.986822296     -80.7357223
9.082                0.986791202     -80.8631283
9.083                0.986760019     -80.9908539
9.084                0.986728747        -81.1189
9.085                0.986697386     -81.2472674
9.086                0.986665936     -81.3759571
9.087                0.986634397     -81.5049701
9.088                0.986602768     -81.6343073
9.089                0.986571051     -81.7639695
9.09                 0.986539243     -81.8939577
9.091                0.986507346     -82.0242729
9.092                 0.98647536     -82.1549159
9.093                0.986443283     -82.2858878
9.094                0.986411116     -82.4171893
9.095                 0.98637886     -82.5488215
9.096                0.986346513     -82.6807853
9.097                0.986314076     -82.8130817
9.098                0.986281548     -82.9457115
9.099                 0.98624893     -83.0786757
9.1                  0.986216221     -83.2119753
9.101                0.986183422     -83.3456111
9.102                0.986150532     -83.4795842
9.103                 0.98611755     -83.6138955
9.104                0.986084478     -83.7485459
9.105                0.986051315     -83.8835363
9.106                0.986018061     -84.0188678
9.107                0.985984715     -84.1545413
9.108                0.985951278     -84.2905576
9.109                 0.98591775     -84.4269178
9.11                  0.98588413     -84.5636229
9.111                0.985850419     -84.7006737
9.112                0.985816616     -84.8380712
9.113                0.985782722     -84.9758165
9.114                0.985748735     -85.1139103
9.115                0.985714657     -85.2523538
9.116                0.985680487     -85.3911478
9.117                0.985646225     -85.5302933
9.118                0.985611872     -85.6697913
9.119                0.985577426     -85.8096427
9.12                 0.985542888     -85.9498486
9.121                0.985508257     -86.0904097
9.122                0.985473535     -86.2313272
9.123                 0.98543872      -86.372602
9.124                0.985403814     -86.5142351
9.125                0.985368815     -86.6562273
9.126                0.985333723     -86.7985797
9.127                0.985298539     -86.9412933
9.128                0.985263263      -87.084369
9.129                0.985227895     -87.2278078
9.13                 0.985192434     -87.3716106
9.131                 0.98515688     -87.5157785
9.132                0.985121234     -87.6603123
9.133                0.985085496     -87.8052132
9.134                0.985049665     -87.9504819
9.135                0.985013742     -88.0961195
9.136                0.984977726     -88.2421271
9.137                0.984941618     -88.3885054
9.138                0.984905418     -88.5352556
9.139                0.984869124     -88.6823786
9.14                 0.984832739     -88.8298753
9.141                0.984796261     -88.9777468
9.142                0.984759691     -89.1259939
9.143                0.984723028     -89.2746178
9.144                0.984686273     -89.4236193
9.145                0.984649426     -89.5729994
9.146                0.984612486     -89.7227592
9.147                0.984575455     -89.8728995
9.148                0.984538331     -90.0234213
9.149                0.984501115     -90.1743257
9.15                 0.984463807     -90.3256135
9.151                0.984426407     -90.4772858
9.152                0.984388915     -90.6293436
9.153                0.984351331     -90.7817877
9.154                0.984313655     -90.9346193
9.155                0.984275888     -91.0878391
9.156                0.984238029     -91.2414483
9.157                0.984200078     -91.3954478
9.158                0.984162036     -91.5498385
9.159                0.984123902     -91.7046215
9.16                 0.984085678     -91.8597976
9.161                0.984047362      -92.015368
9.162                0.984008955     -92.1713334
9.163                0.983970457     -92.3276949
9.164                0.983931868     -92.4844536
9.165                0.983893188     -92.6416102
9.166                0.983854418     -92.7991658
9.167                0.983815558     -92.9571214
9.168                0.983776607     -93.1154779
9.169                0.983737566     -93.2742362
9.17                 0.983698434     -93.4333974
9.171                0.983659213     -93.5929624
9.172                0.983619903     -93.7529322
9.173                0.983580503     -93.9133076
9.174                0.983541013     -94.0740897
9.175                0.983501434     -94.2352795
9.176                0.983461766     -94.3968778
9.177                0.983422009     -94.5588856
9.178                0.983382164     -94.7213039
9.179                 0.98334223     -94.8841336
9.18                 0.983302208     -95.0473757
9.181                0.983262098      -95.211031
9.182                  0.9832219     -95.3751007
9.183                0.983181614     -95.5395855
9.184                0.983141241     -95.7044864
9.185                0.983100781     -95.8698044
9.186                0.983060234     -96.0355404
9.187                  0.9830196     -96.2016954
9.188                 0.98297888     -96.3682702
9.189                0.982938074     -96.5352658
9.19                 0.982897182     -96.7026831
9.191                0.982856204     -96.8705231
9.192                0.982815141     -97.0387866
9.193                0.982773992     -97.2074747
9.194                0.982732759     -97.3765881
9.195                0.982691442     -97.5461278
9.196                 0.98265004     -97.7160948
9.197                0.982608554     -97.8864899
9.198                0.982566985      -98.057314
9.199                0.982525333     -98.2285681
9.2                  0.982483598     -98.4002531
9.201                 0.98244178     -98.5723697
9.202                 0.98239988     -98.7449191
9.203                0.982357898     -98.9179019
9.204                0.982315834     -99.0913192
9.205                 0.98227369     -99.2651717
9.206                0.982231464     -99.4394605
9.207                0.982189158     -99.6141863
9.208                0.982146773       -99.78935
9.209                0.982104307     -99.9649526
9.21                 0.982061763     -100.140995
9.211                0.982019139     -100.317478
9.212                0.981976438     -100.494402
9.213                0.981933658     -100.671768
9.214                0.981890801     -100.849578
9.215                0.981847867     -101.027831
9.216                0.981804856     -101.206529
9.217                0.981761769     -101.385673
9.218                0.981718606     -101.565264
9.219                0.981675368     -101.745301
9.22                 0.981632056     -101.925787
9.221                0.981588669     -102.106722
9.222                0.981545208     -102.288106
9.223                0.981501674     -102.469941
9.224                0.981458068     -102.652228
9.225                0.981414389     -102.834967
9.226                0.981370639     -103.018158
9.227                0.981326817     -103.201804
9.228                0.981282925     -103.385904
9.229                0.981238963     -103.570459
9.23                 0.981194932     -103.755471
9.231                0.981150832     -103.940939
9.232                0.981106663     -104.126865
9.233                0.981062427     -104.313249
9.234                0.981018124     -104.500093
9.235                0.980973754     -104.687397
9.236                0.980929318     -104.875161
9.237                0.980884818     -105.063386
9.238                0.980840253     -105.252074
9.239                0.980795623     -105.441225
9.24                 0.980750931     -105.630839
9.241                0.980706176     -105.820917
9.242                 0.98066136     -106.011461
9.243                0.980616482      -106.20247
9.244                0.980571543     -106.393946
9.245                0.980526545     -106.585888
9.246                0.980481488     -106.778299
9.247                0.980436373     -106.971178
9.248                  0.9803912     -107.164525
9.249                 0.98034597     -107.358343
9.25                 0.980300684     -107.552631
9.251                0.980255343      -107.74739
9.252                0.980209947     -107.942621
9.253                0.980164498     -108.138324
9.254                0.980118996       -108.3345
9.255                0.980073441     -108.531149
9.256                0.980027836     -108.728273
9.257                 0.97998218     -108.925871
9.258                0.979936474     -109.123945
9.259                 0.97989072     -109.322494
9.26                 0.979844918      -109.52152
9.261                0.979799068     -109.721023
9.262                0.979753173     -109.921004
9.263                0.979707233     -110.121463
9.264                0.979661248       -110.3224
9.265                 0.97961522     -110.523817
9.266                0.979569149     -110.725713
9.267                0.979523037     -110.928089
9.268                0.979476885     -111.130946
9.269                0.979430693     -111.334285
9.27                 0.979384462     -111.538105
9.271                0.979338194     -111.742407
9.272                0.979291889     -111.947192
9.273                0.979245548      -112.15246
9.274                0.979199173     -112.358211
9.275                0.979152765     -112.564446
9.276                0.979106324     -112.771166
9.277                0.979059851      -112.97837
9.278                0.979013348      -113.18606
9.279                0.978966816     -113.394235
9.28                 0.978920256     -113.602896
9.281                0.978873668     -113.812043
9.282                0.978827055     -114.021677
9.283                0.978780417     -114.231798
9.284                0.978733755     -114.442407
9.285                 0.97868707     -114.653503
9.286                0.978640364     -114.865087
9.287                0.978593638     -115.077159
9.288                0.978546893      -115.28972
9.289                 0.97850013     -115.502769
9.29                  0.97845335     -115.716308
9.291                0.978406555     -115.930336
9.292                0.978359746     -116.144853
9.293                0.978312924     -116.359861
9.294                 0.97826609     -116.575358
9.295                0.978219246     -116.791346
9.296                0.978172393     -117.007824
9.297                0.978125532     -117.224792
9.298                0.978078664     -117.442252
9.299                0.978031792     -117.660202
9.3                  0.977984915     -117.878643
9.301                0.977938036     -118.097576
9.302                0.977891156     -118.316999
9.303                0.977844276     -118.536915
9.304                0.977797397     -118.757321
9.305                0.977750522     -118.978219
9.306                0.977703651     -119.199609
9.307                0.977656785      -119.42149
9.308                0.977609927     -119.643863
9.309                0.977563078     -119.866727
9.31                 0.977516239     -120.090083
9.311                0.977469411     -120.313931
9.312                0.977422596     -120.538271
9.313                0.977375796     -120.763101
9.314                0.977329012     -120.988424
9.315                0.977282246     -121.214238
9.316                0.977235499     -121.440543
9.317                0.977188772     -121.667339
9.318                0.977142068     -121.894626
9.319                0.977095387     -122.122404
9.32                 0.977048731     -122.350673
9.321                0.977002103     -122.579433
9.322                0.976955503     -122.808683
9.323                0.976908933     -123.038423
9.324                0.976862395     -123.268654
9.325                 0.97681589     -123.499374
9.326                 0.97676942     -123.730583
9.327                0.976722987     -123.962282
9.328                0.976676593     -124.194469
9.329                0.976630238     -124.427146
9.33                 0.976583925      -124.66031
9.331                0.976537655     -124.893963
9.332                0.976491431     -125.128103
9.333                0.976445253      -125.36273
9.334                0.976399124     -125.597844
9.335                0.976353046     -125.833445
9.336                0.976307019     -126.069532
9.337                0.976261046     -126.306104
9.338                0.976215129     -126.543161
9.339                 0.97616927     -126.780703
9.34                 0.976123469     -127.018729
9.341                 0.97607773     -127.257238
9.342                0.976032054     -127.496231
9.343                0.975986442     -127.735706
9.344                0.975940897     -127.975663
9.345                0.975895421     -128.216101
9.346                0.975850014      -128.45702
9.347                 0.97580468      -128.69842
9.348                 0.97575942     -128.940298
9.349                0.975714236     -129.182655
9.35                  0.97566913     -129.425491
9.351                0.975624104     -129.668803
9.352                0.975579159     -129.912593
9.353                0.975534298     -130.156858
9.354                0.975489523     -130.401598
9.355                0.975444835     -130.646813
9.356                0.975400237     -130.892501
9.357                0.975355731     -131.138661
9.358                0.975311318     -131.385294
9.359                   0.975267     -131.632397
9.36                  0.97522278     -131.879971
9.361                0.975178659     -132.128013
9.362                 0.97513464     -132.376524
9.363                0.975090725     -132.625502
9.364                0.975046915     -132.874946
9.365                0.975003213     -133.124856
9.366                0.974959621     -133.375229
9.367                 0.97491614     -133.626066
9.368                0.974872773     -133.877365
9.369                0.974829522     -134.129125
9.37                  0.97478639     -134.381346
9.371                0.974743377     -134.634024
9.372                0.974700486     -134.887161
9.373                 0.97465772     -135.140754
9.374                 0.97461508     -135.394802
9.375                0.974572569     -135.649305
9.376                0.974530189      -135.90426
9.377                0.974487941     -136.159667
9.378                0.974445828     -136.415524
9.379                0.974403852     -136.671831
9.38                 0.974362016     -136.928585
9.381                0.974320321     -137.185785
9.382                0.974278769      -137.44343
9.383                0.974237363     -137.701519
9.384                0.974196105      -137.96005
9.385                0.974154997     -138.219022
9.386                0.974114042     -138.478433
9.387                0.974073241     -138.738282
9.388                0.974032596     -138.998567
9.389                 0.97399211     -139.259287
9.39                 0.973951786      -139.52044
9.391                0.973911624     -139.782025
9.392                0.973871628     -140.044039
9.393                0.973831799     -140.306482
9.394                0.973792141     -140.569352
9.395                0.973752654     -140.832647
9.396                0.973713342     -141.096366
