! TOUCHSTONE file generated by CST DESIGN STUDIO
! Date and time: Tue Feb  4 12:34:24 2025
! Project name: C:\Work\MatlabApps\UnitCellOptimizationMatlab\CST\unitcell.cst
! Tree item: Tasks\Sweep1\SPara1\S-Parameters
! Header version: 2024
! Port assignment regex: !\s*Touchstone port\s*([0-9]+)\s*=\s*(CST MWS port|CST DES external port|CST DES block port)\s*(.+)\s* \(\"(.*)\"\)(\s*mode\s*([0-9]+))?.*
! Touchstone port assignment:
! Touchstone port 1 = CST DES external port 1 ("")
# GHz S MA R 50
9                    0.987832381     -76.6814607
9.001                0.987803131     -76.7976633
9.002                0.987773791     -76.9141512
9.003                0.987744362     -77.0309252
9.004                0.987714844     -77.1479862
9.005                0.987685235      -77.265335
9.006                0.987655537     -77.3829724
9.007                0.987625748     -77.5008994
9.008                0.987595868     -77.6191167
9.009                0.987565898     -77.7376252
9.01                 0.987535837     -77.8564258
9.011                0.987505685     -77.9755193
9.012                0.987475441     -78.0949065
9.013                0.987445106     -78.2145883
9.014                 0.98741468     -78.3345657
9.015                0.987384162     -78.4548393
9.016                0.987353552     -78.5754102
9.017                0.987322849     -78.6962792
9.018                0.987292055      -78.817447
9.019                0.987261168     -78.9389147
9.02                 0.987230188      -79.060683
9.021                0.987199115     -79.1827529
9.022                0.987167949     -79.3051252
9.023                0.987136691     -79.4278008
9.024                0.987105338     -79.5507806
9.025                0.987073892     -79.6740654
9.026                0.987042353     -79.7976561
9.027                 0.98701072     -79.9215536
9.028                0.986978992     -80.0457589
9.029                0.986947171     -80.1702726
9.03                 0.986915255     -80.2950959
9.031                0.986883244     -80.4202295
9.032                0.986851139     -80.5456744
9.033                0.986818939     -80.6714313
9.034                0.986786644     -80.7975014
9.035                0.986754254     -80.9238853
9.036                0.986721768      -81.050584
9.037                0.986689187     -81.1775985
9.038                0.986656511     -81.3049295
9.039                0.986623739     -81.4325781
9.04                  0.98659087     -81.5605451
9.041                0.986557906     -81.6888314
9.042                0.986524845      -81.817438
9.043                0.986491689     -81.9463656
9.044                0.986458435     -82.0756153
9.045                0.986425085      -82.205188
9.046                0.986391639     -82.3350845
9.047                0.986358095     -82.4653058
9.048                0.986324454     -82.5958528
9.049                0.986290716     -82.7267264
9.05                 0.986256881     -82.8579275
9.051                0.986222949      -82.989457
9.052                0.986188918     -83.1213159
9.053                0.986154791     -83.2535051
9.054                0.986120565     -83.3860254
9.055                0.986086241     -83.5188779
9.056                 0.98605182     -83.6520634
9.057                  0.9860173     -83.7855829
9.058                0.985982682     -83.9194373
9.059                0.985947966     -84.0536276
9.06                 0.985913151     -84.1881545
9.061                0.985878237     -84.3230192
9.062                0.985843225     -84.4582225
9.063                0.985808114     -84.5937653
9.064                0.985772904     -84.7296486
9.065                0.985737595     -84.8658733
9.066                0.985702187     -85.0024403
9.067                 0.98566668     -85.1393507
9.068                0.985631073     -85.2766052
9.069                0.985595367     -85.4142049
9.07                 0.985559562     -85.5521508
9.071                0.985523657     -85.6904436
9.072                0.985487653     -85.8290845
9.073                0.985451548     -85.9680742
9.074                0.985415344     -86.1074139
9.075                0.985379041     -86.2471043
9.076                0.985342637     -86.3871465
9.077                0.985306133     -86.5275413
9.078                0.985269529     -86.6682899
9.079                0.985232826      -86.809393
9.08                 0.985196022     -86.9508516
9.081                0.985159117     -87.0926667
9.082                0.985122113     -87.2348393
9.083                0.985085008     -87.3773702
9.084                0.985047803     -87.5202605
9.085                0.985010497      -87.663511
9.086                0.984973091     -87.8071227
9.087                0.984935585     -87.9510967
9.088                0.984897978     -88.0954337
9.089                 0.98486027     -88.2401349
9.09                 0.984822462      -88.385201
9.091                0.984784554     -88.5306332
9.092                0.984746544     -88.6764323
9.093                0.984708435     -88.8225993
9.094                0.984670224     -88.9691351
9.095                0.984631913     -89.1160407
9.096                0.984593501      -89.263317
9.097                0.984554989     -89.4109651
9.098                0.984516376     -89.5589858
9.099                0.984477663     -89.7073801
9.1                  0.984438848     -89.8561489
9.101                0.984399934     -90.0052933
9.102                0.984360918     -90.1548141
9.103                0.984321803     -90.3047123
9.104                0.984282586      -90.454989
9.105                0.984243269     -90.6056449
9.106                0.984203852     -90.7566811
9.107                0.984164335     -90.9080985
9.108                0.984124717     -91.0598981
9.109                0.984084998     -91.2120809
9.11                  0.98404518     -91.3646477
9.111                0.984005261     -91.5175995
9.112                0.983965242     -91.6709373
9.113                0.983925123     -91.8246621
9.114                0.983884904     -91.9787747
9.115                0.983844585     -92.1332762
9.116                0.983804167     -92.2881674
9.117                0.983763648     -92.4434493
9.118                 0.98372303     -92.5991229
9.119                0.983682313     -92.7551891
9.12                 0.983641496     -92.9116489
9.121                 0.98360058     -93.0685032
9.122                0.983559564     -93.2257529
9.123                0.983518449      -93.383399
9.124                0.983477236     -93.5414424
9.125                0.983435923     -93.6998841
9.126                0.983394512     -93.8587249
9.127                0.983353002     -94.0179659
9.128                0.983311394      -94.177608
9.129                0.983269687     -94.3376521
9.13                 0.983227882     -94.4980991
9.131                 0.98318598       -94.65895
9.132                0.983143979     -94.8202057
9.133                0.983101881     -94.9818672
9.134                0.983059685     -95.1439353
9.135                0.983017392     -95.3064109
9.136                0.982975002     -95.4692951
9.137                0.982932515     -95.6325887
9.138                0.982889932     -95.7962926
9.139                0.982847252     -95.9604078
9.14                 0.982804475     -96.1249352
9.141                0.982761603     -96.2898757
9.142                0.982718634     -96.4552302
9.143                 0.98267557     -96.6209997
9.144                0.982632411     -96.7871849
9.145                0.982589157     -96.9537869
9.146                0.982545808     -97.1208065
9.147                0.982502364     -97.2882446
9.148                0.982458825     -97.4561022
9.149                0.982415193     -97.6243802
9.15                 0.982371467     -97.7930793
9.151                0.982327648     -97.9622006
9.152                0.982283735     -98.1317448
9.153                0.982239729      -98.301713
9.154                0.982195631     -98.4721059
9.155                 0.98215144     -98.6429245
9.156                0.982107158     -98.8141696
9.157                0.982062783     -98.9858422
9.158                0.982018318      -99.157943
9.159                0.981973761     -99.3304729
9.16                 0.981929114     -99.5034329
9.161                0.981884377     -99.6768237
9.162                 0.98183955     -99.8506462
9.163                0.981794633     -100.024901
9.164                0.981749627      -100.19959
9.165                0.981704532     -100.374713
9.166                0.981659349     -100.550271
9.167                0.981614078     -100.726265
9.168                 0.98156872     -100.902695
9.169                0.981523274     -101.079564
9.17                 0.981477742     -101.256871
9.171                0.981432123     -101.434617
9.172                0.981386419     -101.612803
9.173                0.981340629      -101.79143
9.174                0.981294754     -101.970499
9.175                0.981248795      -102.15001
9.176                0.981202752     -102.329965
9.177                0.981156626     -102.510364
9.178                0.981110416     -102.691207
9.179                0.981064124     -102.872497
9.18                  0.98101775     -103.054233
9.181                0.980971295     -103.236416
9.182                0.980924759     -103.419048
9.183                0.980878142     -103.602128
9.184                0.980831446     -103.785657
9.185                0.980784671     -103.969637
9.186                0.980737817     -104.154069
9.187                0.980690884     -104.338952
9.188                0.980643874     -104.524287
9.189                0.980596788     -104.710076
9.19                 0.980549625     -104.896319
9.191                0.980502386     -105.083017
9.192                0.980455072      -105.27017
9.193                0.980407684      -105.45778
9.194                0.980360222     -105.645846
9.195                0.980312687      -105.83437
9.196                 0.98026508     -106.023352
9.197                  0.9802174     -106.212794
9.198                 0.98016965     -106.402695
9.199                0.980121829     -106.593056
9.2                  0.980073939     -106.783878
9.201                0.980025979     -106.975162
9.202                0.979977951     -107.166909
9.203                0.979929856     -107.359118
9.204                0.979881694     -107.551791
9.205                0.979833466     -107.744928
9.206                0.979785172      -107.93853
9.207                0.979736814     -108.132598
9.208                0.979688393     -108.327132
9.209                0.979639908     -108.522132
9.21                 0.979591362       -108.7176
9.211                0.979542754     -108.913536
9.212                0.979494086      -109.10994
9.213                0.979445358     -109.306813
9.214                0.979396572     -109.504156
9.215                0.979347727     -109.701969
9.216                0.979298826     -109.900253
9.217                0.979249868     -110.099008
9.218                0.979200855     -110.298235
9.219                0.979151788     -110.497934
9.22                 0.979102668     -110.698107
9.221                0.979053495     -110.898752
9.222                0.979004271     -111.099871
9.223                0.978954996     -111.301465
9.224                0.978905672     -111.503533
9.225                0.978856299     -111.706077
9.226                0.978806878     -111.909096
9.227                0.978757411     -112.112591
9.228                0.978707898     -112.316564
9.229                0.978658341     -112.521013
9.23                  0.97860874     -112.725939
9.231                0.978559096     -112.931344
9.232                0.978509412     -113.137227
9.233                0.978459687     -113.343588
9.234                0.978409922     -113.550429
9.235                 0.97836012     -113.757749
9.236                 0.97831028     -113.965548
9.237                0.978260405     -114.173828
9.238                0.978210495     -114.382588
9.239                0.978160551     -114.591829
9.24                 0.978110574     -114.801551
9.241                0.978060567     -115.011755
9.242                0.978010529      -115.22244
9.243                0.977960462     -115.433607
9.244                0.977910368     -115.645256
9.245                0.977860247     -115.857388
9.246                0.977810101     -116.070003
9.247                0.977759931       -116.2831
9.248                0.977709738     -116.496681
9.249                0.977659524     -116.710745
9.25                 0.977609289     -116.925293
9.251                0.977559036     -117.140324
9.252                0.977508765      -117.35584
9.253                0.977458478     -117.571839
9.254                0.977408176     -117.788323
9.255                 0.97735786     -118.005291
9.256                0.977307532     -118.222744
9.257                0.977257193     -118.440681
9.258                0.977206845     -118.659103
9.259                0.977156489      -118.87801
9.26                 0.977106126     -119.097402
9.261                0.977055758     -119.317278
9.262                0.977005386      -119.53764
9.263                0.976955012     -119.758486
9.264                0.976904637     -119.979818
9.265                0.976854263     -120.201634
9.266                 0.97680389     -120.423935
9.267                0.976753522     -120.646722
9.268                0.976703158     -120.869993
9.269                0.976652801     -121.093749
9.27                 0.976602452      -121.31799
9.271                0.976552113     -121.542715
9.272                0.976501786     -121.767925
9.273                0.976451471     -121.993619
9.274                0.976401171     -122.219798
9.275                0.976350886     -122.446461
9.276                 0.97630062     -122.673607
9.277                0.976250373     -122.901238
9.278                0.976200146     -123.129352
9.279                0.976149943     -123.357949
9.28                 0.976099764      -123.58703
9.281                 0.97604961     -123.816594
9.282                0.975999485      -124.04664
9.283                0.975949388     -124.277168
9.284                0.975899323     -124.508179
9.285                0.975849291     -124.739671
9.286                0.975799293     -124.971645
9.287                0.975749331     -125.204099
9.288                0.975699408     -125.437035
9.289                0.975649524      -125.67045
9.29                 0.975599682     -125.904346
9.291                0.975549884     -126.138721
9.292                0.975500131     -126.373575
9.293                0.975450424     -126.608908
9.294                0.975400767     -126.844719
9.295                0.975351161     -127.081008
9.296                0.975301607     -127.317774
9.297                0.975252108     -127.555016
9.298                0.975202665     -127.792734
9.299                 0.97515328     -128.030928
9.3                  0.975103956     -128.269597
9.301                0.975054693     -128.508741
9.302                0.975005495     -128.748358
9.303                0.974956363     -128.988448
9.304                0.974907298      -129.22901
9.305                0.974858304     -129.470045
9.306                0.974809381      -129.71155
9.307                0.974760533     -129.953526
9.308                 0.97471176     -130.195971
9.309                0.974663065     -130.438886
9.31                  0.97461445     -130.682268
9.311                0.974565917     -130.926118
9.312                0.974517467     -131.170434
9.313                0.974469104     -131.415216
9.314                0.974420829     -131.660463
9.315                0.974372644     -131.906174
9.316                0.974324551     -132.152348
9.317                0.974276552     -132.398984
9.318                 0.97422865     -132.646082
9.319                0.974180846     -132.893639
9.32                 0.974133143     -133.141656
9.321                0.974085543     -133.390132
9.322                0.974038047     -133.639065
9.323                0.973990658     -133.888454
9.324                0.973943379     -134.138298
9.325                 0.97389621     -134.388597
9.326                0.973849156     -134.639348
9.327                0.973802217     -134.890552
9.328                0.973755395     -135.142206
9.329                0.973708694      -135.39431
9.33                 0.973662115     -135.646863
9.331                 0.97361566     -135.899863
9.332                0.973569332     -136.153309
9.333                0.973523132     -136.407199
9.334                0.973477064     -136.661534
9.335                0.973431129      -136.91631
9.336                 0.97338533     -137.171528
9.337                0.973339668     -137.427185
9.338                0.973294146      -137.68328
9.339                0.973248767     -137.939813
9.34                 0.973203532     -138.196781
9.341                0.973158444     -138.454183
9.342                0.973113505     -138.712017
9.343                0.973068717     -138.970283
9.344                0.973024083     -139.228979
9.345                0.972979605     -139.488102
9.346                0.972935285     -139.747653
9.347                0.972891126     -140.007628
9.348                0.972847129     -140.268027
9.349                0.972803298     -140.528848
9.35                 0.972759634      -140.79009
9.351                0.972716139      -141.05175
9.352                0.972672817     -141.313827
9.353                0.972629669     -141.576319
9.354                0.972586698     -141.839225
9.355                0.972543905     -142.102543
9.356                0.972501295      -142.36627
9.357                0.972458867     -142.630407
9.358                0.972416626     -142.894949
9.359                0.972374573     -143.159897
9.36                  0.97233271     -143.425247
9.361                0.972291041     -143.690999
9.362                0.972249567     -143.957149
9.363                 0.97220829     -144.223697
9.364                0.972167213      -144.49064
9.365                0.972126339     -144.757976
9.366                0.972085669     -145.025704
9.367                0.972045206     -145.293821
9.368                0.972004953     -145.562325
9.369                0.971964911     -145.831214
9.37                 0.971925082     -146.100487
9.371                 0.97188547     -146.370141
9.372                0.971846077     -146.640173
9.373                0.971806904     -146.910583
9.374                0.971767955     -147.181367
9.375                0.971729231     -147.452523
9.376                0.971690735      -147.72405
9.377                0.971652469     -147.995945
9.378                0.971614435     -148.268205
9.379                0.971576636     -148.540829
9.38                 0.971539074     -148.813815
9.381                0.971501751     -149.087159
9.382                 0.97146467     -149.360859
9.383                0.971427832     -149.634914
9.384                0.971391241      -149.90932
9.385                0.971354898     -150.184076
9.386                0.971318805     -150.459179
9.387                0.971282966     -150.734626
9.388                0.971247381     -151.010415
9.389                0.971212054     -151.286544
9.39                 0.971176986      -151.56301
9.391                 0.97114218      -151.83981
9.392                0.971107638     -152.116942
9.393                0.971073362     -152.394403
9.394                0.971039354     -152.672191
9.395                0.971005617     -152.950303
9.396                0.970972153     -153.228737
