! TOUCHSTONE file generated by CST DESIGN STUDIO
! Date and time: Tue Feb  4 12:34:21 2025
! Project name: C:\Work\MatlabApps\UnitCellOptimizationMatlab\CST\unitcell.cst
! Tree item: Tasks\Sweep1\SPara1\S-Parameters
! Header version: 2024
! Port assignment regex: !\s*Touchstone port\s*([0-9]+)\s*=\s*(CST MWS port|CST DES external port|CST DES block port)\s*(.+)\s* \(\"(.*)\"\)(\s*mode\s*([0-9]+))?.*
! Touchstone port assignment:
! Touchstone port 1 = CST DES external port 1 ("")
# GHz S MA R 50
9                    0.987333609     -78.7313336
9.001                0.987302306     -78.8523506
9.002                0.987270908     -78.9736667
9.003                0.987239417     -79.0952828
9.004                 0.98720783     -79.2171997
9.005                0.987176149     -79.3394183
9.006                0.987144373     -79.4619395
9.007                0.987112502     -79.5847642
9.008                0.987080535     -79.7078931
9.009                0.987048473     -79.8313273
9.01                 0.987016315     -79.9550675
9.011                0.986984062     -80.0791147
9.012                0.986951712     -80.2034698
9.013                0.986919266     -80.3281335
9.014                0.986886724     -80.4531069
9.015                0.986854085     -80.5783907
9.016                0.986821349      -80.703986
9.017                0.986788517     -80.8298935
9.018                0.986755587     -80.9561142
9.019                 0.98672256     -81.0826489
9.02                 0.986689436     -81.2094986
9.021                0.986656214     -81.3366642
9.022                0.986622894     -81.4641465
9.023                0.986589477     -81.5919464
9.024                0.986555961     -81.7200648
9.025                0.986522347     -81.8485028
9.026                0.986488635      -81.977261
9.027                0.986454824     -82.1063405
9.028                0.986420915     -82.2357422
9.029                0.986386907      -82.365467
9.03                   0.9863528     -82.4955157
9.031                0.986318593     -82.6258893
9.032                0.986284288     -82.7565887
9.033                0.986249883     -82.8876148
9.034                0.986215378     -83.0189686
9.035                0.986180774     -83.1506508
9.036                 0.98614607     -83.2826626
9.037                0.986111266     -83.4150047
9.038                0.986076362     -83.5476781
9.039                0.986041358     -83.6806837
9.04                 0.986006253     -83.8140225
9.041                0.985971048     -83.9476953
9.042                0.985935743     -84.0817031
9.043                0.985900336     -84.2160468
9.044                0.985864829     -84.3507274
9.045                0.985829221     -84.4857457
9.046                0.985793512     -84.6211027
9.047                0.985757701     -84.7567993
9.048                 0.98572179     -84.8928365
9.049                0.985685776     -85.0292152
9.05                 0.985649662     -85.1659362
9.051                0.985613446     -85.3030007
9.052                0.985577128     -85.4404094
9.053                0.985540708     -85.5781633
9.054                0.985504186     -85.7162634
9.055                0.985467562     -85.8547105
9.056                0.985430837     -85.9935057
9.057                0.985394009     -86.1326499
9.058                0.985357079      -86.272144
9.059                0.985320046     -86.4119889
9.06                 0.985282911     -86.5521856
9.061                0.985245674     -86.6927351
9.062                0.985208334     -86.8336382
9.063                0.985170891     -86.9748959
9.064                0.985133346     -87.1165092
9.065                0.985095698      -87.258479
9.066                0.985057947     -87.4008063
9.067                0.985020093     -87.5434919
9.068                0.984982136     -87.6865369
9.069                0.984944076     -87.8299422
9.07                 0.984905914     -87.9737087
9.071                0.984867648     -88.1178374
9.072                0.984829279     -88.2623292
9.073                0.984790807     -88.4071851
9.074                0.984752231      -88.552406
9.075                0.984713553     -88.6979929
9.076                0.984674771     -88.8439467
9.077                0.984635886     -88.9902684
9.078                0.984596897     -89.1369589
9.079                0.984557806     -89.2840191
9.08                  0.98451861     -89.4314501
9.081                0.984479312     -89.5792527
9.082                 0.98443991      -89.727428
9.083                0.984400405     -89.8759768
9.084                0.984360797     -90.0249001
9.085                0.984321085     -90.1741989
9.086                 0.98428127     -90.3238741
9.087                0.984241352     -90.4739267
9.088                 0.98420133     -90.6243576
9.089                0.984161205     -90.7751677
9.09                 0.984120977     -90.9263581
9.091                0.984080646     -91.0779295
9.092                0.984040212     -91.2298831
9.093                0.983999674     -91.3822198
9.094                0.983959033     -91.5349404
9.095                 0.98391829      -91.688046
9.096                0.983877443     -91.8415375
9.097                0.983836493     -91.9954158
9.098                0.983795441     -92.1496819
9.099                0.983754286     -92.3043366
9.1                  0.983713028     -92.4593811
9.101                0.983671668     -92.6148162
9.102                0.983630204     -92.7706428
9.103                0.983588639     -92.9268619
9.104                0.983546971     -93.0834744
9.105                0.983505201     -93.2404813
9.106                0.983463329     -93.3978835
9.107                0.983421354     -93.5556819
9.108                0.983379278     -93.7138775
9.109                  0.9833371     -93.8724713
9.11                  0.98329482      -94.031464
9.111                0.983252439     -94.1908568
9.112                0.983209956     -94.3506504
9.113                0.983167372     -94.5108459
9.114                0.983124687     -94.6714441
9.115                0.983081901     -94.8324461
9.116                0.983039014     -94.9938526
9.117                0.982996027     -95.1556647
9.118                0.982952938     -95.3178833
9.119                 0.98290975     -95.4805092
9.12                 0.982866461     -95.6435435
9.121                0.982823073     -95.8069869
9.122                0.982779585     -95.9708405
9.123                0.982735997     -96.1351051
9.124                 0.98269231     -96.2997817
9.125                0.982648524     -96.4648711
9.126                0.982604638     -96.6303743
9.127                0.982560655     -96.7962922
9.128                0.982516572     -96.9626257
9.129                0.982472392     -97.1293756
9.13                 0.982428113      -97.296543
9.131                0.982383737     -97.4641286
9.132                0.982339263     -97.6321333
9.133                0.982294693     -97.8005581
9.134                0.982250025     -97.9694039
9.135                 0.98220526     -98.1386714
9.136                  0.9821604     -98.3083617
9.137                0.982115443     -98.4784756
9.138                 0.98207039     -98.6490139
9.139                0.982025242     -98.8199776
9.14                 0.981979999     -98.9913675
9.141                0.981934661     -99.1631845
9.142                0.981889229     -99.3354294
9.143                0.981843702     -99.5081031
9.144                0.981798082     -99.6812064
9.145                0.981752368     -99.8547403
9.146                0.981706561     -100.028706
9.147                0.981660662     -100.203103
9.148                 0.98161467     -100.377934
9.149                0.981568586     -100.553198
9.15                  0.98152241     -100.728897
9.151                0.981476144     -100.905032
9.152                0.981429786     -101.081603
9.153                0.981383339     -101.258611
9.154                0.981336801     -101.436058
9.155                0.981290174     -101.613943
9.156                0.981243458     -101.792268
9.157                0.981196653     -101.971034
9.158                 0.98114976      -102.15024
9.159                 0.98110278     -102.329889
9.16                 0.981055712     -102.509981
9.161                0.981008558     -102.690516
9.162                0.980961317     -102.871496
9.163                0.980913991     -103.052921
9.164                0.980866579     -103.234792
9.165                0.980819083      -103.41711
9.166                0.980771503     -103.599875
9.167                0.980723839     -103.783089
9.168                0.980676092     -103.966752
9.169                0.980628262     -104.150865
9.17                 0.980580351     -104.335428
9.171                0.980532358     -104.520442
9.172                0.980484285     -104.705909
9.173                0.980436131     -104.891828
9.174                0.980387898     -105.078201
9.175                0.980339586     -105.265028
9.176                0.980291195      -105.45231
9.177                0.980242727     -105.640048
9.178                0.980194182     -105.828242
9.179                 0.98014556     -106.016893
9.18                 0.980096863     -106.206001
9.181                0.980048091     -106.395568
9.182                0.979999244     -106.585594
9.183                0.979950323      -106.77608
9.184                 0.97990133     -106.967027
9.185                0.979852264     -107.158434
9.186                0.979803127     -107.350303
9.187                0.979753919     -107.542634
9.188                0.979704641     -107.735428
9.189                0.979655294     -107.928686
9.19                 0.979605878     -108.122408
9.191                0.979556395     -108.316595
9.192                0.979506844     -108.511247
9.193                0.979457228     -108.706365
9.194                0.979407546      -108.90195
9.195                0.979357799     -109.098002
9.196                0.979307989     -109.294522
9.197                0.979258116      -109.49151
9.198                0.979208181     -109.688967
9.199                0.979158185     -109.886893
9.2                  0.979108129     -110.085289
9.201                0.979058014     -110.284156
9.202                 0.97900784     -110.483494
9.203                0.978957609     -110.683303
9.204                0.978907321     -110.883584
9.205                0.978856977     -111.084338
9.206                0.978806579     -111.285565
9.207                0.978756127     -111.487265
9.208                0.978705622      -111.68944
9.209                0.978655065     -111.892088
9.21                 0.978604458     -112.095212
9.211                0.978553801     -112.298811
9.212                0.978503095     -112.502885
9.213                0.978452342     -112.707436
9.214                0.978401542     -112.912463
9.215                0.978350696     -113.117967
9.216                0.978299806     -113.323949
9.217                0.978248872     -113.530408
9.218                0.978197896     -113.737345
9.219                0.978146879     -113.944761
9.22                 0.978095821     -114.152656
9.221                0.978044725      -114.36103
9.222                 0.97799359     -114.569883
9.223                 0.97794242     -114.779216
9.224                0.977891213     -114.989029
9.225                0.977839972     -115.199322
9.226                0.977788698     -115.410096
9.227                0.977737392     -115.621351
9.228                0.977686056     -115.833088
9.229                0.977634689     -116.045305
9.23                 0.977583295     -116.258005
9.231                0.977531874     -116.471186
9.232                0.977480427     -116.684849
9.233                0.977428955     -116.898995
9.234                0.977377461     -117.113623
9.235                0.977325944     -117.328733
9.236                0.977274407     -117.544327
9.237                0.977222851     -117.760404
9.238                0.977171277     -117.976963
9.239                0.977119687     -118.194006
9.24                 0.977068081     -118.411532
9.241                0.977016462     -118.629542
9.242                0.976964831     -118.848035
9.243                0.976913189     -119.067012
9.244                0.976861537     -119.286472
9.245                0.976809877     -119.506416
9.246                0.976758211     -119.726844
9.247                 0.97670654     -119.947755
9.248                0.976654865      -120.16915
9.249                0.976603188     -120.391029
9.25                  0.97655151     -120.613392
9.251                0.976499833     -120.836238
9.252                0.976448159     -121.059568
9.253                0.976396489     -121.283381
9.254                0.976344824     -121.507678
9.255                0.976293166     -121.732458
9.256                0.976241517     -121.957721
9.257                0.976189879     -122.183468
9.258                0.976138252     -122.409697
9.259                0.976086639     -122.636409
9.26                 0.976035041     -122.863603
9.261                0.975983459      -123.09128
9.262                0.975931897      -123.31944
9.263                0.975880354     -123.548081
9.264                0.975828833     -123.777203
9.265                0.975777336     -124.006808
9.266                0.975725864     -124.236893
9.267                0.975674419      -124.46746
9.268                0.975623003     -124.698506
9.269                0.975571617     -124.930034
9.27                 0.975520264     -125.162041
9.271                0.975468944     -125.394527
9.272                0.975417661     -125.627493
9.273                0.975366414     -125.860938
9.274                0.975315208     -126.094861
9.275                0.975264042     -126.329262
9.276                 0.97521292      -126.56414
9.277                0.975161842     -126.799495
9.278                0.975110812     -127.035327
9.279                 0.97505983     -127.271636
9.28                 0.975008898     -127.508419
9.281                0.974958019     -127.745678
9.282                0.974907195     -127.983411
9.283                0.974856426     -128.221618
9.284                0.974805716     -128.460298
9.285                0.974755066     -128.699451
9.286                0.974704478     -128.939076
9.287                0.974653955     -129.179173
9.288                0.974603497      -129.41974
9.289                0.974553107     -129.660777
9.29                 0.974502788     -129.902284
9.291                 0.97445254     -130.144259
9.292                0.974402367     -130.386703
9.293                 0.97435227     -130.629613
9.294                0.974302251      -130.87299
9.295                0.974252312     -131.116832
9.296                0.974202455      -131.36114
9.297                0.974152683     -131.605911
9.298                0.974102998     -131.851145
9.299                  0.9740534     -132.096841
9.3                  0.974003894     -132.342999
9.301                 0.97395448     -132.589617
9.302                0.973905162     -132.836694
9.303                 0.97385594      -133.08423
9.304                0.973806818     -133.332223
9.305                0.973757796     -133.580673
9.306                0.973708879     -133.829578
9.307                0.973660067     -134.078938
9.308                0.973611363     -134.328751
9.309                0.973562769     -134.579016
9.31                 0.973514287     -134.829733
9.311                 0.97346592     -135.080899
9.312                 0.97341767     -135.332515
9.313                0.973369538     -135.584578
9.314                0.973321528     -135.837088
9.315                0.973273641     -136.090043
9.316                0.973225879     -136.343442
9.317                0.973178246     -136.597284
9.318                0.973130742     -136.851568
9.319                0.973083371     -137.106292
9.32                 0.973036135     -137.361455
9.321                0.972989036     -137.617055
9.322                0.972942076     -137.873092
9.323                0.972895257     -138.129563
9.324                0.972848583     -138.386468
9.325                0.972802054     -138.643806
9.326                0.972755674     -138.901573
9.327                0.972709445      -139.15977
9.328                0.972663369     -139.418394
9.329                0.972617448     -139.677445
9.33                 0.972571685      -139.93692
9.331                0.972526082     -140.196818
9.332                0.972480642     -140.457138
9.333                0.972435366     -140.717877
9.334                0.972390258     -140.979035
9.335                0.972345319     -141.240609
9.336                0.972300552     -141.502598
9.337                0.972255959        -141.765
9.338                0.972211543     -142.027813
9.339                0.972167305     -142.291037
9.34                 0.972123249     -142.554668
9.341                0.972079376     -142.818705
9.342                 0.97203569     -143.083147
9.343                0.971992192     -143.347991
9.344                0.971948884     -143.613236
9.345                 0.97190577      -143.87888
9.346                0.971862851     -144.144921
9.347                 0.97182013     -144.411356
9.348                0.971777609     -144.678185
9.349                0.971735291     -144.945405
9.35                 0.971693178     -145.213014
9.351                0.971651272      -145.48101
9.352                0.971609576     -145.749391
9.353                0.971568092     -146.018154
9.354                0.971526823     -146.287299
9.355                 0.97148577     -146.556823
9.356                0.971444937     -146.826723
9.357                0.971404325     -147.096998
9.358                0.971363937     -147.367645
9.359                0.971323775     -147.638663
9.36                 0.971283842     -147.910048
9.361                 0.97124414     -148.181799
9.362                0.971204671     -148.453913
9.363                0.971165438     -148.726389
9.364                0.971126442     -148.999223
9.365                0.971087688     -149.272414
9.366                0.971049175      -149.54596
9.367                0.971010908     -149.819857
9.368                0.970972888     -150.094103
9.369                0.970935117     -150.368697
9.37                 0.970897599     -150.643635
9.371                0.970860335     -150.918915
9.372                0.970823327     -151.194535
9.373                0.970786577     -151.470492
9.374                0.970750089     -151.746784
9.375                0.970713864     -152.023407
9.376                0.970677905     -152.300361
9.377                0.970642214     -152.577641
9.378                0.970606792     -152.855245
9.379                0.970571643     -153.133172
9.38                 0.970536768     -153.411417
9.381                 0.97050217     -153.689978
9.382                0.970467851     -153.968854
9.383                0.970433813      -154.24804
9.384                0.970400058     -154.527534
9.385                0.970366588     -154.807334
9.386                0.970333406     -155.087437
9.387                0.970300514     -155.367839
9.388                0.970267914     -155.648539
9.389                0.970235608     -155.929533
9.39                 0.970203597     -156.210818
9.391                0.970171885     -156.492392
9.392                0.970140474     -156.774251
9.393                0.970109364     -157.056394
9.394                0.970078559     -157.338815
9.395                 0.97004806     -157.621514
9.396                 0.97001787     -157.904487
