! TOUCHSTONE file generated by CST DESIGN STUDIO
! Date and time: Tue Feb  4 12:34:27 2025
! Project name: C:\Work\MatlabApps\UnitCellOptimizationMatlab\CST\unitcell.cst
! Tree item: Tasks\Sweep1\SPara1\S-Parameters
! Header version: 2024
! Port assignment regex: !\s*Touchstone port\s*([0-9]+)\s*=\s*(CST MWS port|CST DES external port|CST DES block port)\s*(.+)\s* \(\"(.*)\"\)(\s*mode\s*([0-9]+))?.*
! Touchstone port assignment:
! Touchstone port 1 = CST DES external port 1 ("")
# GHz S MA R 50
9                    0.988332824     -74.5724507
9.001                0.988305586     -74.6838319
9.002                0.988278263     -74.7954845
9.003                0.988250857     -74.9074095
9.004                0.988223366     -75.0196076
9.005                0.988195791     -75.1320795
9.006                0.988168131     -75.2448262
9.007                0.988140386     -75.3578484
9.008                0.988112556      -75.471147
9.009                 0.98808464     -75.5847228
9.01                 0.988056639     -75.6985766
9.011                0.988028553     -75.8127092
9.012                0.988000381     -75.9271214
9.013                0.987972122     -76.0418141
9.014                0.987943778     -76.1567882
9.015                0.987915347     -76.2720444
9.016                0.987886829     -76.3875835
9.017                0.987858225     -76.5034065
9.018                0.987829534     -76.6195142
9.019                0.987800756     -76.7359073
9.02                  0.98777189     -76.8525867
9.021                0.987742937     -76.9695534
9.022                0.987713896      -77.086808
9.023                0.987684767     -77.2043515
9.024                 0.98765555     -77.3221848
9.025                0.987626245     -77.4403086
9.026                0.987596852     -77.5587238
9.027                 0.98756737     -77.6774313
9.028                0.987537799      -77.796432
9.029                0.987508139     -77.9157266
9.03                  0.98747839     -78.0353161
9.031                0.987448552     -78.1552014
9.032                0.987418625     -78.2753832
9.033                0.987388608     -78.3958624
9.034                0.987358501       -78.51664
9.035                0.987328304     -78.6377167
9.036                0.987298017     -78.7590935
9.037                 0.98726764     -78.8807712
9.038                0.987237172     -79.0027508
9.039                0.987206614      -79.125033
9.04                 0.987175964     -79.2476188
9.041                0.987145224      -79.370509
9.042                0.987114393     -79.4937045
9.043                0.987083471     -79.6172063
9.044                0.987052457     -79.7410151
9.045                0.987021351     -79.8651319
9.046                0.986990154     -79.9895576
9.047                0.986958865     -80.1142931
9.048                0.986927484     -80.2393392
9.049                 0.98689601     -80.3646968
9.05                 0.986864445     -80.4903669
9.051                0.986832787     -80.6163503
9.052                0.986801036     -80.7426479
9.053                0.986769192     -80.8692607
9.054                0.986737256     -80.9961895
9.055                0.986705226     -81.1234353
9.056                0.986673103     -81.2509989
9.057                0.986640887     -81.3788812
9.058                0.986608577     -81.5070832
9.059                0.986576174     -81.6356058
9.06                 0.986543677     -81.7644499
9.061                0.986511086     -81.8936163
9.062                0.986478401     -82.0231061
9.063                0.986445622     -82.1529201
9.064                0.986412748     -82.2830592
9.065                0.986379781     -82.4135244
9.066                0.986346718     -82.5443165
9.067                0.986313561     -82.6754366
9.068                0.986280309     -82.8068854
9.069                0.986246963      -82.938664
9.07                 0.986213521     -83.0707733
9.071                0.986179984     -83.2032142
9.072                0.986146352     -83.3359876
9.073                0.986112625     -83.4690944
9.074                0.986078802     -83.6025356
9.075                0.986044883     -83.7363122
9.076                0.986010869     -83.8704249
9.077                0.985976759     -84.0048749
9.078                0.985942554     -84.1396629
9.079                0.985908252       -84.27479
9.08                 0.985873854     -84.4102571
9.081                0.985839361     -84.5460651
9.082                0.985804771      -84.682215
9.083                0.985770084     -84.8187077
9.084                0.985735301     -84.9555441
9.085                0.985700422     -85.0927252
9.086                0.985665446     -85.2302519
9.087                0.985630374     -85.3681252
9.088                0.985595205     -85.5063461
9.089                0.985559939     -85.6449153
9.09                 0.985524576      -85.783834
9.091                0.985489116     -85.9231031
9.092                0.985453559     -86.0627234
9.093                0.985417906      -86.202696
9.094                0.985382155     -86.3430218
9.095                0.985346307     -86.4837018
9.096                0.985310362     -86.6247369
9.097                0.985274319      -86.766128
9.098                0.985238179     -86.9078762
9.099                0.985201942     -87.0499823
9.1                  0.985165608     -87.1924473
9.101                0.985129176     -87.3352722
9.102                0.985092646     -87.4784579
9.103                 0.98505602     -87.6220055
9.104                0.985019295     -87.7659157
9.105                0.984982473     -87.9101897
9.106                0.984945554     -88.0548283
9.107                0.984908537     -88.1998325
9.108                0.984871422     -88.3452033
9.109                 0.98483421     -88.4909416
9.11                 0.984796901     -88.6370484
9.111                0.984759493     -88.7835247
9.112                0.984721988     -88.9303713
9.113                0.984684386     -89.0775894
9.114                0.984646686     -89.2251797
9.115                0.984608888     -89.3731433
9.116                0.984570993     -89.5214812
9.117                   0.984533     -89.6701942
9.118                 0.98449491     -89.8192834
9.119                0.984456722     -89.9687497
9.12                 0.984418437     -90.1185941
9.121                0.984380054     -90.2688176
9.122                0.984341574      -90.419421
9.123                0.984302997     -90.5704054
9.124                0.984264322     -90.7217717
9.125                 0.98422555     -90.8735208
9.126                0.984186681     -91.0256538
9.127                0.984147715     -91.1781716
9.128                0.984108652     -91.3310751
9.129                0.984069492     -91.4843653
9.13                 0.984030235     -91.6380431
9.131                0.983990881     -91.7921096
9.132                0.983951431     -91.9465656
9.133                0.983911884     -92.1014122
9.134                 0.98387224     -92.2566502
9.135                  0.9838325     -92.4122806
9.136                0.983792663     -92.5683045
9.137                0.983752731     -92.7247226
9.138                0.983712702      -92.881536
9.139                0.983672577     -93.0387457
9.14                 0.983632356     -93.1963525
9.141                 0.98359204     -93.3543574
9.142                0.983551628     -93.5127614
9.143                 0.98351112     -93.6715655
9.144                0.983470517     -93.8307704
9.145                0.983429819     -93.9903773
9.146                0.983389026     -94.1503871
9.147                0.983348138     -94.3108006
9.148                0.983307156     -94.4716188
9.149                0.983266078     -94.6328427
9.15                 0.983224907     -94.7944732
9.151                0.983183641     -94.9565112
9.152                0.983142282     -95.1189577
9.153                0.983100828     -95.2818136
9.154                0.983059281     -95.4450798
9.155                0.983017641     -95.6087572
9.156                0.982975907     -95.7728468
9.157                0.982934081     -95.9373496
9.158                0.982892161     -96.1022663
9.159                 0.98285015      -96.267598
9.16                 0.982808046     -96.4333456
9.161                 0.98276585     -96.5995099
9.162                0.982723562     -96.7660919
9.163                0.982681183     -96.9330926
9.164                0.982638712     -97.1005127
9.165                0.982596151     -97.2683533
9.166                0.982553499     -97.4366151
9.167                0.982510756     -97.6052992
9.168                0.982467924     -97.7744065
9.169                0.982425001     -97.9439377
9.17                 0.982381989     -98.1138939
9.171                0.982338888     -98.2842758
9.172                0.982295698     -98.4550845
9.173                 0.98225242     -98.6263207
9.174                0.982209053     -98.7979854
9.175                0.982165598     -98.9700795
9.176                0.982122056     -99.1426037
9.177                0.982078427     -99.3155591
9.178                 0.98203471     -99.4889464
9.179                0.981990908     -99.6627665
9.18                 0.981947019     -99.8370203
9.181                0.981903044     -100.011709
9.182                0.981858984     -100.186832
9.183                 0.98181484     -100.362392
9.184                0.981770611      -100.53839
9.185                0.981726297     -100.714825
9.186                  0.9816819     -100.891699
9.187                 0.98163742     -101.069012
9.188                0.981592857     -101.246766
9.189                0.981548212     -101.424961
9.19                 0.981503485     -101.603598
9.191                0.981458676     -101.782679
9.192                0.981413786     -101.962203
9.193                0.981368816     -102.142171
9.194                0.981323766     -102.322585
9.195                0.981278637     -102.503445
9.196                0.981233428     -102.684752
9.197                0.981188141     -102.866507
9.198                0.981142777     -103.048711
9.199                0.981097334     -103.231363
9.2                  0.981051815     -103.414466
9.201                 0.98100622      -103.59802
9.202                0.980960548     -103.782025
9.203                0.980914802     -103.966483
9.204                0.980868981     -104.151394
9.205                0.980823086     -104.336759
9.206                0.980777117     -104.522578
9.207                0.980731076     -104.708853
9.208                0.980684963     -104.895584
9.209                0.980638778     -105.082772
9.21                 0.980592522     -105.270418
9.211                0.980546195     -105.458521
9.212                0.980499799     -105.647084
9.213                0.980453335     -105.836107
9.214                0.980406801      -106.02559
9.215                  0.9803602     -106.215534
9.216                0.980313533     -106.405939
9.217                0.980266799     -106.596808
9.218                0.980219999     -106.788139
9.219                0.980173135     -106.979934
9.22                 0.980126206     -107.172194
9.221                0.980079215     -107.364919
9.222                 0.98003216      -107.55811
9.223                0.979985044     -107.751767
9.224                0.979937867     -107.945891
9.225                 0.97989063     -108.140482
9.226                0.979843333     -108.335542
9.227                0.979795978     -108.531071
9.228                0.979748565     -108.727069
9.229                0.979701094     -108.923537
9.23                 0.979653568     -109.120476
9.231                0.979605986     -109.317886
9.232                 0.97955835     -109.515768
9.233                0.979510661     -109.714123
9.234                0.979462918      -109.91295
9.235                0.979415124      -110.11225
9.236                0.979367279     -110.312025
9.237                0.979319384     -110.512274
9.238                 0.97927144     -110.712998
9.239                0.979223448     -110.914197
9.24                 0.979175409     -111.115872
9.241                0.979127323     -111.318024
9.242                0.979079193     -111.520653
9.243                0.979031018      -111.72376
9.244                0.978982799     -111.927344
9.245                0.978934539     -112.131406
9.246                0.978886237     -112.335948
9.247                0.978837896     -112.540968
9.248                0.978789515     -112.746468
9.249                0.978741096     -112.952449
9.25                  0.97869264     -113.158909
9.251                0.978644148     -113.365851
9.252                0.978595621     -113.573273
9.253                 0.97854706     -113.781177
9.254                0.978498467     -113.989564
9.255                0.978449842     -114.198432
9.256                0.978401187     -114.407783
9.257                0.978352503     -114.617617
9.258                0.978303791     -114.827934
9.259                0.978255051     -115.038735
9.26                 0.978206287     -115.250019
9.261                0.978157497     -115.461788
9.262                0.978108684     -115.674041
9.263                 0.97805985     -115.886779
9.264                0.978010994     -116.100001
9.265                0.977962119     -116.313709
9.266                0.977913225     -116.527902
9.267                0.977864315     -116.742581
9.268                0.977815389     -116.957745
9.269                0.977766448     -117.173395
9.27                 0.977717494     -117.389531
9.271                0.977668528     -117.606154
9.272                0.977619552     -117.823263
9.273                0.977570567     -118.040858
9.274                0.977521574      -118.25894
9.275                0.977472574     -118.477509
9.276                 0.97742357     -118.696564
9.277                0.977374562     -118.916107
9.278                0.977325551     -119.136136
9.279                 0.97727654     -119.356652
9.28                  0.97722753     -119.577656
9.281                0.977178521     -119.799146
9.282                0.977129516     -120.021124
9.283                0.977080516     -120.243588
9.284                0.977031523      -120.46654
9.285                0.976982538     -120.689978
9.286                0.976933562     -120.913904
9.287                0.976884597     -121.138316
9.288                0.976835645     -121.363216
9.289                0.976786707     -121.588601
9.29                 0.976737785     -121.814474
9.291                 0.97668888     -122.040833
9.292                0.976639993     -122.267678
9.293                0.976591127     -122.495009
9.294                0.976542284     -122.722827
9.295                0.976493464      -122.95113
9.296                0.976444669     -123.179919
9.297                0.976395901     -123.409193
9.298                0.976347162     -123.638952
9.299                0.976298453     -123.869196
9.3                  0.976249776     -124.099924
9.301                0.976201133     -124.331137
9.302                0.976152525     -124.562834
9.303                0.976103954     -124.795015
9.304                0.976055422     -125.027679
9.305                0.976006931     -125.260826
9.306                0.975958482     -125.494455
9.307                0.975910077     -125.728567
9.308                0.975861718     -125.963161
9.309                0.975813406     -126.198236
9.31                 0.975765144     -126.433792
9.311                0.975716934     -126.669828
9.312                0.975668776     -126.906344
9.313                0.975620673      -127.14334
9.314                0.975572628     -127.380815
9.315                 0.97552464     -127.618768
9.316                0.975476714     -127.857199
9.317                0.975428849     -128.096108
9.318                0.975381049     -128.335493
9.319                0.975333316     -128.575354
9.32                  0.97528565     -128.815691
9.321                0.975238055     -129.056503
9.322                0.975190531     -129.297789
9.323                0.975143081     -129.539548
9.324                0.975095707      -129.78178
9.325                0.975048412     -130.024485
9.326                0.975001195      -130.26766
9.327                0.974954061     -130.511306
9.328                0.974907011     -130.755422
9.329                0.974860046     -131.000007
9.33                 0.974813169      -131.24506
9.331                0.974766382     -131.490581
9.332                0.974719687     -131.736568
9.333                0.974673086      -131.98302
9.334                0.974626581     -132.229937
9.335                0.974580174     -132.477318
9.336                0.974533867     -132.725162
9.337                0.974487662     -132.973467
9.338                0.974441562     -133.222234
9.339                0.974395568      -133.47146
9.34                 0.974349682     -133.721145
9.341                0.974303908     -133.971287
9.342                0.974258246     -134.221887
9.343                0.974212698     -134.472942
9.344                0.974167268     -134.724452
9.345                0.974121957     -134.976415
9.346                0.974076768      -135.22883
9.347                0.974031702     -135.481696
9.348                0.973986761     -135.735012
9.349                0.973941949     -135.988777
9.35                 0.973897266     -136.242989
9.351                0.973852716     -136.497647
9.352                  0.9738083      -136.75275
9.353                 0.97376402     -137.008296
9.354                 0.97371988     -137.264285
9.355                 0.97367588     -137.520714
9.356                0.973632024     -137.777583
9.357                0.973588313      -138.03489
9.358                 0.97354475     -138.292634
9.359                0.973501337     -138.550813
9.36                 0.973458076     -138.809426
9.361                 0.97341497     -139.068471
9.362                 0.97337202     -139.327946
9.363                0.973329229     -139.587851
9.364                0.973286599     -139.848184
9.365                0.973244133     -140.108943
9.366                0.973201832     -140.370126
9.367                  0.9731597     -140.631732
9.368                0.973117737     -140.893759
9.369                0.973075947     -141.156206
9.37                 0.973034332     -141.419071
9.371                0.972992894     -141.682352
9.372                0.972951636     -141.946048
9.373                0.972910559     -142.210156
9.374                0.972869666     -142.474675
9.375                0.972828959     -142.739604
9.376                 0.97278844     -143.004939
9.377                0.972748112      -143.27068
9.378                0.972707978     -143.536825
9.379                0.972668038     -143.803371
9.38                 0.972628297     -144.070317
9.381                0.972588755     -144.337661
9.382                0.972549415       -144.6054
9.383                 0.97251028     -144.873534
9.384                0.972471352     -145.142059
9.385                0.972432632     -145.410975
9.386                0.972394124     -145.680278
9.387                 0.97235583     -145.949966
9.388                0.972317751     -146.220039
9.389                0.972279891     -146.490492
9.39                 0.972242251     -146.761326
9.391                0.972204834     -147.032536
9.392                0.972167641     -147.304121
9.393                0.972130676     -147.576079
9.394                 0.97209394     -147.848408
9.395                0.972057436     -148.121105
9.396                0.972021166     -148.394168
