! TOUCHSTONE file generated by CST DESIGN STUDIO
! Date and time: Tue Feb  4 14:30:10 2025
! Project name: C:\Work\MatlabApps\UnitCellOptimizationMatlab\CST\unitcell.cst
! Tree item: Tasks\Sweep1\SPara1\S-Parameters
! Header version: 2024
! Port assignment regex: !\s*Touchstone port\s*([0-9]+)\s*=\s*(CST MWS port|CST DES external port|CST DES block port)\s*(.+)\s* \(\"(.*)\"\)(\s*mode\s*([0-9]+))?.*
! Touchstone port assignment:
! Touchstone port 1 = CST DES external port 1 ("")
# GHz S MA R 50
9                    0.945065452     -52.0277105
9.001                0.944924371     -52.0975434
9.002                 0.94478278      -52.167541
9.003                0.944640675     -52.2377042
9.004                0.944498054     -52.3080333
9.005                0.944354916     -52.3785289
9.006                0.944211258     -52.4491917
9.007                0.944067078     -52.5200222
9.008                0.943922373      -52.591021
9.009                0.943777142     -52.6621887
9.01                 0.943631382     -52.7335258
9.011                 0.94348509     -52.8050329
9.012                0.943338266     -52.8767106
9.013                0.943190906     -52.9485596
9.014                0.943043009     -53.0205803
9.015                0.942894571     -53.0927734
9.016                0.942745592     -53.1651395
9.017                0.942596067     -53.2376792
9.018                0.942445996      -53.310393
9.019                0.942295376     -53.3832817
9.02                 0.942144204     -53.4563457
9.021                0.941992478     -53.5295857
9.022                0.941840196     -53.6030024
9.023                0.941687355     -53.6765962
9.024                0.941533954      -53.750368
9.025                0.941379989     -53.8243181
9.026                0.941225459     -53.8984474
9.027                 0.94107036     -53.9727564
9.028                0.940914692     -54.0472457
9.029                 0.94075845      -54.121916
9.03                 0.940601633     -54.1967678
9.031                0.940444238     -54.2718019
9.032                0.940286264     -54.3470189
9.033                0.940127706     -54.4224194
9.034                0.939968564      -54.498004
9.035                0.939808834     -54.5737735
9.036                0.939648513     -54.6497283
9.037                0.939487601     -54.7258693
9.038                0.939326093     -54.8021971
9.039                0.939163988     -54.8787122
9.04                 0.939001282     -54.9554154
9.041                0.938837974     -55.0323074
9.042                0.938674061     -55.1093887
9.043                 0.93850954     -55.1866601
9.044                0.938344409     -55.2641223
9.045                0.938178664     -55.3417758
9.046                0.938012305     -55.4196215
9.047                0.937845327     -55.4976599
9.048                0.937677728     -55.5758917
9.049                0.937509506     -55.6543177
9.05                 0.937340658     -55.7329385
9.051                0.937171181     -55.8117549
9.052                0.937001073     -55.8907674
9.053                0.936830331     -55.9699768
9.054                0.936658952     -56.0493839
9.055                0.936486934     -56.1289892
9.056                0.936314274     -56.2087936
9.057                0.936140968     -56.2887977
9.058                0.935967016     -56.3690022
9.059                0.935792413     -56.4494079
9.06                 0.935617156     -56.5300154
9.061                0.935441245     -56.6108255
9.062                0.935264674     -56.6918389
9.063                0.935087442     -56.7730564
9.064                0.934909546     -56.8544787
9.065                0.934730983     -56.9361064
9.066                 0.93455175     -57.0179404
9.067                0.934371844     -57.0999814
9.068                0.934191263     -57.1822301
9.069                0.934010003     -57.2646872
9.07                 0.933828062     -57.3473536
9.071                0.933645437       -57.43023
9.072                0.933462125      -57.513317
9.073                0.933278122     -57.5966156
9.074                0.933093427     -57.6801264
9.075                0.932908037     -57.7638502
9.076                0.932721947     -57.8477878
9.077                0.932535156       -57.93194
9.078                 0.93234766     -58.0163075
9.079                0.932159456     -58.1008911
9.08                 0.931970542     -58.1856916
9.081                0.931780914     -58.2707097
9.082                0.931590569     -58.3559464
9.083                0.931399505     -58.4414023
9.084                0.931207718     -58.5270782
9.085                0.931015205      -58.612975
9.086                0.930821963     -58.6990934
9.087                0.930627989     -58.7854343
9.088                 0.93043328     -58.8719985
9.089                0.930237833     -58.9587868
9.09                 0.930041645     -59.0457999
9.091                0.929844712     -59.1330388
9.092                0.929647032     -59.2205042
9.093                0.929448601      -59.308197
9.094                0.929249416     -59.3961179
9.095                0.929049475     -59.4842679
9.096                0.928848773     -59.5726478
9.097                0.928647307     -59.6612584
9.098                0.928445075     -59.7501005
9.099                0.928242073      -59.839175
9.1                  0.928038298     -59.9284828
9.101                0.927833747     -60.0180247
9.102                0.927628416     -60.1078016
9.103                0.927422302     -60.1978143
9.104                0.927215402     -60.2880637
9.105                0.927007713     -60.3785506
9.106                 0.92679923      -60.469276
9.107                0.926589952     -60.5602408
9.108                0.926379874     -60.6514457
9.109                0.926168993     -60.7428917
9.11                 0.925957306     -60.8345797
9.111                0.925744809     -60.9265106
9.112                  0.9255315     -61.0186852
9.113                0.925317374     -61.1111045
9.114                0.925102428     -61.2037694
9.115                 0.92488666     -61.2966807
9.116                0.924670064     -61.3898394
9.117                0.924452638     -61.4832465
9.118                0.924234379     -61.5769027
9.119                0.924015283     -61.6708092
9.12                 0.923795346     -61.7649667
9.121                0.923574566     -61.8593762
9.122                0.923352937     -61.9540387
9.123                0.923130458      -62.048955
9.124                0.922907124     -62.1441262
9.125                0.922682932     -62.2395532
9.126                0.922457878     -62.3352368
9.127                0.922231958     -62.4311782
9.128                 0.92200517     -62.5273783
9.129                 0.92177751     -62.6238379
9.13                 0.921548973     -62.7205581
9.131                0.921319556     -62.8175399
9.132                0.921089256     -62.9147842
9.133                0.920858069     -63.0122921
9.134                0.920625991     -63.1100644
9.135                0.920393019     -63.2081022
9.136                0.920159149     -63.3064065
9.137                0.919924377     -63.4049782
9.138                0.919688699     -63.5038185
9.139                0.919452112     -63.6029282
9.14                 0.919214612     -63.7023085
9.141                0.918976196     -63.8019602
9.142                0.918736858     -63.9018845
9.143                0.918496597     -64.0020823
9.144                0.918255408     -64.1025548
9.145                0.918013286     -64.2033028
9.146                0.917770229     -64.3043275
9.147                0.917526233     -64.4056299
9.148                0.917281293      -64.507211
9.149                0.917035406     -64.6090719
9.15                 0.916788567     -64.7112137
9.151                0.916540774     -64.8136374
9.152                0.916292022      -64.916344
9.153                0.916042308     -65.0193347
9.154                0.915791627     -65.1226105
9.155                0.915539975     -65.2261725
9.156                0.915287348     -65.3300217
9.157                0.915033744     -65.4341593
9.158                0.914779156     -65.5385864
9.159                0.914523583     -65.6433039
9.16                 0.914267019     -65.7483132
9.161                0.914009461     -65.8536152
9.162                0.913750905      -65.959211
9.163                0.913491346     -66.0651018
9.164                0.913230781     -66.1712887
9.165                0.912969205     -66.2777728
9.166                0.912706615     -66.3845553
9.167                0.912443007     -66.4916373
9.168                0.912178375     -66.5990198
9.169                0.911912718     -66.7067041
9.17                 0.911646029     -66.8146914
9.171                0.911378306     -66.9229826
9.172                0.911109544     -67.0315791
9.173                0.910839738      -67.140482
9.174                0.910568886     -67.2496925
9.175                0.910296982     -67.3592116
9.176                0.910024022     -67.4690406
9.177                0.909750003     -67.5791808
9.178                0.909474921     -67.6896331
9.179                 0.90919877      -67.800399
9.18                 0.908921547     -67.9114795
9.181                0.908643247     -68.0228758
9.182                0.908363867     -68.1345892
9.183                0.908083402     -68.2466209
9.184                0.907801848     -68.3589721
9.185                  0.9075192      -68.471644
9.186                0.907235455     -68.5846379
9.187                0.906950608     -68.6979549
9.188                0.906664656     -68.8115963
9.189                0.906377592     -68.9255634
9.19                 0.906089414     -69.0398574
9.191                0.905800117     -69.1544795
9.192                0.905509697      -69.269431
9.193                 0.90521815     -69.3847133
9.194                 0.90492547     -69.5003274
9.195                0.904631654     -69.6162748
9.196                0.904336698     -69.7325567
9.197                0.904040597     -69.8491744
9.198                0.903743346     -69.9661292
9.199                0.903444942     -70.0834223
9.2                   0.90314538     -70.2010551
9.201                0.902844656     -70.3190288
9.202                0.902542765     -70.4373449
9.203                0.902239703     -70.5560045
9.204                0.901935465     -70.6750091
9.205                0.901630048     -70.7943599
9.206                0.901323446     -70.9140583
9.207                0.901015655     -71.0341056
9.208                0.900706672     -71.1545032
9.209                0.900396491     -71.2752525
9.21                 0.900085108     -71.3963546
9.211                0.899772519     -71.5178111
9.212                0.899458718     -71.6396233
9.213                0.899143703     -71.7617926
9.214                0.898827468     -71.8843203
9.215                0.898510009     -72.0072079
9.216                0.898191321     -72.1304566
9.217                  0.8978714      -72.254068
9.218                0.897550241     -72.3780433
9.219                0.897227841     -72.5023841
9.22                 0.896904194     -72.6270917
9.221                0.896579296     -72.7521675
9.222                0.896253143      -72.877613
9.223                 0.89592573     -73.0034295
9.224                0.895597053     -73.1296186
9.225                0.895267106     -73.2561816
9.226                0.894935887     -73.3831201
9.227                0.894603389     -73.5104353
9.228                 0.89426961     -73.6381289
9.229                0.893934544     -73.7662023
9.23                 0.893598186     -73.8946569
9.231                0.893260533     -74.0234942
9.232                0.892921579     -74.1527156
9.233                0.892581321     -74.2823228
9.234                0.892239753     -74.4123171
9.235                0.891896872     -74.5427001
9.236                0.891552673     -74.6734732
9.237                0.891207151      -74.804638
9.238                0.890860303     -74.9361959
9.239                0.890512122     -75.0681486
9.24                 0.890162606     -75.2004975
9.241                0.889811749     -75.3332442
9.242                0.889459547     -75.4663901
9.243                0.889105995     -75.5999369
9.244                 0.88875109      -75.733886
9.245                0.888394826     -75.8682391
9.246                  0.8880372     -76.0029977
9.247                0.887678206     -76.1381634
9.248                0.887317841     -76.2737377
9.249                  0.8869561     -76.4097223
9.25                 0.886592978     -76.5461186
9.251                0.886228471     -76.6829283
9.252                0.885862574      -76.820153
9.253                0.885495284     -76.9577943
9.254                0.885126596     -77.0958539
9.255                0.884756506     -77.2343332
9.256                0.884385008      -77.373234
9.257                0.884012099     -77.5125578
9.258                0.883637775     -77.6523063
9.259                 0.88326203     -77.7924812
9.26                 0.882884862      -77.933084
9.261                0.882506264     -78.0741165
9.262                0.882126234     -78.2155802
9.263                0.881744766     -78.3574769
9.264                0.881361857     -78.4998082
9.265                0.880977502     -78.6425758
9.266                0.880591697     -78.7857814
9.267                0.880204438     -78.9294266
9.268                 0.87981572     -79.0735132
9.269                0.879425539     -79.2180428
9.27                 0.879033892     -79.3630172
9.271                0.878640773     -79.5084381
9.272                0.878246179     -79.6543071
9.273                0.877850106     -79.8006261
9.274                0.877452549     -79.9473966
9.275                0.877053504     -80.0946206
9.276                0.876652968     -80.2422996
9.277                0.876250935     -80.3904355
9.278                0.875847403     -80.5390301
9.279                0.875442367      -80.688085
9.28                 0.875035823      -80.837602
9.281                0.874627767     -80.9875829
9.282                0.874218195     -81.1380295
9.283                0.873807103     -81.2889436
9.284                0.873394488     -81.4403269
9.285                0.872980345     -81.5921813
9.286                0.872564671     -81.7445085
9.287                0.872147461     -81.8973104
9.288                0.871728712     -82.0505887
9.289                 0.87130842     -82.2043453
9.29                 0.870886582     -82.3585821
9.291                0.870463193     -82.5133008
9.292                0.870038251     -82.6685032
9.293                 0.86961175     -82.8241913
9.294                0.869183688     -82.9803669
9.295                0.868754062     -83.1370318
9.296                0.868322866     -83.2941878
9.297                0.867890099     -83.4518369
9.298                0.867455757      -83.609981
9.299                0.867019835     -83.7686218
9.3                  0.866582331     -83.9277613
9.301                0.866143241     -84.0874014
9.302                0.865702562      -84.247544
9.303                0.865260291     -84.4081909
9.304                0.864816424     -84.5693441
9.305                0.864370958     -84.7310055
9.306                 0.86392389     -84.8931769
9.307                0.863475217     -85.0558604
9.308                0.863024936     -85.2190579
9.309                0.862573043     -85.3827712
9.31                 0.862119536     -85.5470024
9.311                0.861664411     -85.7117533
9.312                0.861207667      -85.877026
9.313                0.860749299     -86.0428223
9.314                0.860289305     -86.2091443
9.315                0.859827683     -86.3759939
9.316                0.859364429     -86.5433731
9.317                0.858899541     -86.7112838
9.318                0.858433016     -86.8797281
9.319                0.857964852     -87.0487079
9.32                 0.857495047     -87.2182253
9.321                0.857023597     -87.3882821
9.322                0.856550501     -87.5588805
9.323                0.856075756     -87.7300224
9.324                 0.85559936     -87.9017099
9.325                 0.85512131      -88.073945
9.326                0.854641605     -88.2467296
9.327                0.854160242     -88.4200659
9.328                 0.85367722     -88.5939558
9.329                0.853192536     -88.7684014
9.33                 0.852706189     -88.9434048
9.331                0.852218177      -89.118968
9.332                0.851728497      -89.295093
9.333                0.851237149     -89.4717819
9.334                0.850744131     -89.6490368
9.335                 0.85024944     -89.8268597
9.336                0.849753077     -90.0052527
9.337                0.849255039     -90.1842179
9.338                0.848755325     -90.3637574
9.339                0.848253933     -90.5438732
9.34                 0.847750864     -90.7245674
9.341                0.847246114     -90.9058422
9.342                0.846739685     -91.0876996
9.343                0.846231574     -91.2701417
9.344                0.845721781     -91.4531707
9.345                0.845210305     -91.6367886
9.346                0.844697145     -91.8209976
9.347                0.844182301     -92.0057998
9.348                0.843665773     -92.1911972
9.349                 0.84314756     -92.3771921
9.35                 0.842627661     -92.5637865
9.351                0.842106077     -92.7509826
9.352                0.841582807     -92.9387825
9.353                0.841057852     -93.1271884
9.354                0.840531211     -93.3162024
9.355                0.840002885     -93.5058266
9.356                0.839472874     -93.6960632
9.357                0.838941178     -93.8869144
9.358                0.838407798     -94.0783823
9.359                0.837872735      -94.270469
9.36                 0.837335988     -94.4631767
9.361                 0.83679756     -94.6565076
9.362                0.836257451     -94.8504638
9.363                0.835715661     -95.0450476
9.364                0.835172193      -95.240261
9.365                0.834627047     -95.4361063
9.366                0.834080225     -95.6325856
9.367                0.833531728      -95.829701
9.368                0.832981558     -96.0274549
9.369                0.832429716     -96.2258493
9.37                 0.831876205     -96.4248865
9.371                0.831321027     -96.6245685
9.372                0.830764183     -96.8248977
9.373                0.830205676     -97.0258762
9.374                0.829645509     -97.2275061
9.375                0.829083683     -97.4297897
9.376                0.828520201     -97.6327291
9.377                0.827955067     -97.8363266
9.378                0.827388283     -98.0405843
9.379                0.826819852     -98.2455044
9.38                 0.826249777     -98.4510892
9.381                0.825678062     -98.6573407
9.382                 0.82510471     -98.8642612
9.383                0.824529725     -99.0718529
9.384                 0.82395311      -99.280118
9.385                 0.82337487     -99.4890586
9.386                0.822795008      -99.698677
9.387                 0.82221353     -99.9089753
9.388                0.821630438     -100.119956
9.389                0.821045738      -100.33162
9.39                 0.820459435     -100.543972
9.391                0.819871532     -100.757012
9.392                0.819282036     -100.970742
9.393                0.818690952     -101.185166
9.394                0.818098284     -101.400285
9.395                0.817504039     -101.616102
9.396                0.816908221     -101.832618
