! TOUCHSTONE file generated by CST DESIGN STUDIO
! Date and time: Tue Feb  4 14:30:07 2025
! Project name: C:\Work\MatlabApps\UnitCellOptimizationMatlab\CST\unitcell.cst
! Tree item: Tasks\Sweep1\SPara1\S-Parameters
! Header version: 2024
! Port assignment regex: !\s*Touchstone port\s*([0-9]+)\s*=\s*(CST MWS port|CST DES external port|CST DES block port)\s*(.+)\s* \(\"(.*)\"\)(\s*mode\s*([0-9]+))?.*
! Touchstone port assignment:
! Touchstone port 1 = CST DES external port 1 ("")
# GHz S MA R 50
9                    0.894253937     -67.1723297
9.001                0.893916785     -67.2856253
9.002                0.893578242     -67.3992607
9.003                0.893238305     -67.5132372
9.004                0.892896966     -67.6275564
9.005                 0.89255422     -67.7422195
9.006                 0.89221006     -67.8572281
9.007                0.891864482     -67.9725834
9.008                0.891517479      -68.088287
9.009                0.891169045     -68.2043403
9.01                 0.890819174     -68.3207447
9.011                0.890467859     -68.4375017
9.012                0.890115097     -68.5546127
9.013                0.889760879     -68.6720791
9.014                  0.8894052     -68.7899025
9.015                0.889048054     -68.9080843
9.016                0.888689435      -69.026626
9.017                0.888329337     -69.1455291
9.018                0.887967753     -69.2647951
9.019                0.887604678     -69.3844254
9.02                 0.887240106     -69.5044216
9.021                 0.88687403     -69.6247852
9.022                0.886506444     -69.7455177
9.023                0.886137342     -69.8666206
9.024                0.885766718     -69.9880955
9.025                0.885394566      -70.109944
9.026                 0.88502088     -70.2321675
9.027                0.884645652     -70.3547676
9.028                0.884268878     -70.4777459
9.029                 0.88389055     -70.6011039
9.03                 0.883510664     -70.7248433
9.031                0.883129211     -70.8489656
9.032                0.882746187     -70.9734724
9.033                0.882361584     -71.0983654
9.034                0.881975397      -71.223646
9.035                 0.88158762      -71.349316
9.036                0.881198245     -71.4753769
9.037                0.880807267     -71.6018304
9.038                0.880414679     -71.7286781
9.039                0.880020475     -71.8559216
9.04                 0.879624649     -71.9835627
9.041                0.879227194     -72.1116029
9.042                0.878828104      -72.240044
9.043                0.878427373     -72.3688876
9.044                0.878024994     -72.4981353
9.045                 0.87762096      -72.627789
9.046                0.877215267     -72.7578502
9.047                0.876807906     -72.8883206
9.048                0.876398872     -73.0192021
9.049                0.875988159     -73.1504963
9.05                 0.875575759     -73.2822049
9.051                0.875161667     -73.4143297
9.052                0.874745876     -73.5468724
9.053                 0.87432838     -73.6798348
9.054                0.873909172     -73.8132186
9.055                0.873488247     -73.9470256
9.056                0.873065596     -74.0812575
9.057                0.872641215     -74.2159162
9.058                0.872215096     -74.3510035
9.059                0.871787234     -74.4865211
9.06                 0.871357621     -74.6224708
9.061                0.870926252     -74.7588545
9.062                 0.87049312     -74.8956739
9.063                0.870058218      -75.032931
9.064                0.869621541     -75.1706275
9.065                0.869183081     -75.3087653
9.066                0.868742833     -75.4473463
9.067                 0.86830079     -75.5863723
9.068                0.867856945     -75.7258451
9.069                0.867411293     -75.8657668
9.07                 0.866963826      -76.006139
9.071                0.866514539     -76.1469639
9.072                0.866063424     -76.2882432
9.073                0.865610477     -76.4299788
9.074                0.865155689     -76.5721728
9.075                0.864699056      -76.714827
9.076                 0.86424057     -76.8579433
9.077                0.863780225     -77.0015237
9.078                0.863318016     -77.1455702
9.079                0.862853935     -77.2900848
9.08                 0.862387976     -77.4350693
9.081                0.861920133     -77.5805258
9.082                  0.8614504     -77.7264562
9.083                0.860978771     -77.8728627
9.084                0.860505239     -78.0197471
9.085                0.860029798     -78.1671114
9.086                0.859552441     -78.3149578
9.087                0.859073164     -78.4632883
9.088                0.858591958     -78.6121048
9.089                0.858108819     -78.7614094
9.09                  0.85762374     -78.9112043
9.091                0.857136715     -79.0614914
9.092                0.856647738     -79.2122728
9.093                0.856156803     -79.3635506
9.094                0.855663903      -79.515327
9.095                0.855169033      -79.667604
9.096                0.854672187     -79.8203837
9.097                0.854173358     -79.9736682
9.098                0.853672541     -80.1274597
9.099                 0.85316973     -80.2817603
9.1                  0.852664919     -80.4365722
9.101                0.852158101     -80.5918975
9.102                0.851649272     -80.7477384
9.103                0.851138425      -80.904097
9.104                0.850625555     -81.0609755
9.105                0.850110656     -81.2183762
9.106                0.849593721     -81.3763012
9.107                0.849074746     -81.5347527
9.108                0.848553725      -81.693733
9.109                0.848030651     -81.8532442
9.11                 0.847505521     -82.0132887
9.111                0.846978327     -82.1738686
9.112                0.846449064     -82.3349862
9.113                0.845917728     -82.4966438
9.114                0.845384312     -82.6588437
9.115                0.844848812      -82.821588
9.116                0.844311221     -82.9848792
9.117                0.843771535     -83.1487195
9.118                0.843229749     -83.3131112
9.119                0.842685856     -83.4780566
9.12                 0.842139853     -83.6435582
9.121                0.841591734     -83.8096181
9.122                0.841041493     -83.9762387
9.123                0.840489127     -84.1434225
9.124                 0.83993463     -84.3111717
9.125                0.839377997     -84.4794887
9.126                0.838819223      -84.648376
9.127                0.838258304     -84.8178358
9.128                0.837695234     -84.9878706
9.129                 0.83713001     -85.1584829
9.13                 0.836562627      -85.329675
9.131                 0.83599308     -85.5014493
9.132                0.835421365     -85.6738082
9.133                0.834847477     -85.8467544
9.134                0.834271412       -86.02029
9.135                0.833693166     -86.1944178
9.136                0.833112735       -86.36914
9.137                0.832530114     -86.5444592
9.138                  0.8319453     -86.7203779
9.139                0.831358289     -86.8968985
9.14                 0.830769076     -87.0740236
9.141                0.830177659     -87.2517557
9.142                0.829584032     -87.4300973
9.143                0.828988194      -87.609051
9.144                 0.82839014     -87.7886192
9.145                0.827789866     -87.9688046
9.146                 0.82718737     -88.1496097
9.147                0.826582648      -88.331037
9.148                0.825975697     -88.5130892
9.149                0.825366514     -88.6957688
9.15                 0.824755096     -88.8790784
9.151                 0.82414144     -89.0630206
9.152                0.823525543      -89.247598
9.153                0.822907403     -89.4328133
9.154                0.822287017     -89.6186691
9.155                0.821664382     -89.8051679
9.156                0.821039496     -89.9923126
9.157                0.820412358     -90.1801056
9.158                0.819782964     -90.3685497
9.159                0.819151312     -90.5576475
9.16                 0.818517402     -90.7474017
9.161                 0.81788123      -90.937815
9.162                0.817242796     -91.1288901
9.163                0.816602097     -91.3206297
9.164                0.815959133     -91.5130365
9.165                0.815313902     -91.7061133
9.166                0.814666402     -91.8998626
9.167                0.814016633     -92.0942874
9.168                0.813364594     -92.2893903
9.169                0.812710284      -92.485174
9.17                 0.812053702     -92.6816414
9.171                0.811394849     -92.8787951
9.172                0.810733722      -93.076638
9.173                0.810070323     -93.2751729
9.174                0.809404651     -93.4744025
9.175                0.808736706     -93.6743296
9.176                0.808066488      -93.874957
9.177                0.807393998     -94.0762876
9.178                0.806719237     -94.2783241
9.179                0.806042204     -94.4810694
9.18                 0.805362902     -94.6845263
9.181                 0.80468133     -94.8886976
9.182                 0.80399749     -95.0935862
9.183                0.803311383     -95.2991949
9.184                0.802623011     -95.5055266
9.185                0.801932376     -95.7125841
9.186                0.801239478     -95.9203703
9.187                0.800544322     -96.1288882
9.188                0.799846907     -96.3381405
9.189                0.799147238     -96.5481301
9.19                 0.798445316       -96.75886
9.191                0.797741145     -96.9703331
9.192                0.797034727     -97.1825521
9.193                0.796326065     -97.3955202
9.194                0.795615163     -97.6092401
9.195                0.794902024     -97.8237148
9.196                0.794186653     -98.0389472
9.197                0.793469052     -98.2549402
9.198                0.792749227     -98.4716968
9.199                0.792027181       -98.68922
9.2                  0.791302919     -98.9075126
9.201                0.790576447     -99.1265776
9.202                0.789847768     -99.3464179
9.203                0.789116889     -99.5670366
9.204                0.788383814     -99.7884365
9.205                 0.78764855     -100.010621
9.206                0.786911102     -100.233592
9.207                0.786171477     -100.457354
9.208                0.785429681     -100.681908
9.209                 0.78468572     -100.907259
9.21                 0.783939603     -101.133409
9.211                0.783191334     -101.360361
9.212                0.782440923     -101.588118
9.213                0.781688376     -101.816683
9.214                0.780933703     -102.046059
9.215                0.780176909     -102.276249
9.216                0.779418006     -102.507256
9.217                   0.778657     -102.739083
9.218                0.777893901     -102.971733
9.219                0.777128718     -103.205209
9.22                  0.77636146     -103.439514
9.221                0.775592138     -103.674651
9.222                0.774820762     -103.910623
9.223                0.774047341     -104.147433
9.224                0.773271887     -104.385084
9.225                0.772494411     -104.623579
9.226                0.771714923      -104.86292
9.227                0.770933435     -105.103112
9.228                0.770149959     -105.344156
9.229                0.769364507     -105.586057
9.23                 0.768577092     -105.828816
9.231                0.767787726     -106.072437
9.232                0.766996423     -106.316923
9.233                0.766203195     -106.562277
9.234                0.765408057     -106.808501
9.235                0.764611022       -107.0556
9.236                0.763812105     -107.303575
9.237                0.763011321     -107.552429
9.238                0.762208684     -107.802167
9.239                 0.76140421     -108.052789
9.24                 0.760597915     -108.304301
9.241                0.759789814     -108.556704
9.242                0.758979925     -108.810001
9.243                0.758168263     -109.064195
9.244                0.757354846      -109.31929
9.245                0.756539692     -109.575288
9.246                0.755722817     -109.832191
9.247                0.754904241     -110.090004
9.248                0.754083982     -110.348729
9.249                0.753262058     -110.608368
9.25                  0.75243849     -110.868925
9.251                0.751613296     -111.130402
9.252                0.750786497     -111.392802
9.253                0.749958113     -111.656129
9.254                0.749128164     -111.920384
9.255                0.748296673     -112.185572
9.256                0.747463661     -112.451693
9.257                0.746629149     -112.718752
9.258                 0.74579316     -112.986751
9.259                0.744955717     -113.255693
9.26                 0.744116843     -113.525581
9.261                0.743276562     -113.796416
9.262                0.742434896     -114.068203
9.263                0.741591872     -114.340944
9.264                0.740747514     -114.614641
9.265                0.739901846     -114.889297
9.266                0.739054895     -115.164914
9.267                0.738206686     -115.441496
9.268                0.737357247     -115.719045
9.269                0.736506603     -115.997564
9.27                 0.735654783     -116.277054
9.271                0.734801814     -116.557519
9.272                0.733947724     -116.838962
9.273                0.733092542     -117.121384
9.274                0.732236298     -117.404788
9.275                0.731379019     -117.689177
9.276                0.730520738     -117.974553
9.277                0.729661483     -118.260918
9.278                0.728801286     -118.548275
9.279                0.727940178     -118.836627
9.28                 0.727078191     -119.125975
9.281                0.726215357     -119.416322
9.282                0.725351709      -119.70767
9.283                 0.72448728     -120.000021
9.284                0.723622103     -120.293378
9.285                0.722756213     -120.587742
9.286                0.721889643     -120.883117
9.287                 0.72102243     -121.179503
9.288                0.720154608     -121.476904
9.289                0.719286213     -121.775321
9.29                 0.718417282     -122.074756
9.291                0.717547851     -122.375212
9.292                0.716677958     -122.676689
9.293                0.715807641      -122.97919
9.294                0.714936937     -123.282718
9.295                0.714065886     -123.587273
9.296                0.713194526     -123.892858
9.297                0.712322898     -124.199474
9.298                0.711451041     -124.507123
9.299                0.710578995     -124.815807
9.3                  0.709706803     -125.125527
9.301                0.708834506     -125.436285
9.302                0.707962145     -125.748082
9.303                0.707089762     -126.060921
9.304                0.706217402     -126.374801
9.305                0.705345107     -126.689726
9.306                0.704472922     -127.005695
9.307                 0.70360089     -127.322711
9.308                0.702729056     -127.640775
9.309                0.701857466     -127.959888
9.31                 0.700986166      -128.28005
9.311                0.700115201     -128.601264
9.312                0.699244618     -128.923529
9.313                0.698374465     -129.246848
9.314                0.697504789     -129.571221
9.315                0.696635638     -129.896648
9.316                 0.69576706     -130.223131
9.317                0.694899106     -130.550671
9.318                0.694031823     -130.879267
9.319                0.693165262     -131.208921
9.32                 0.692299473     -131.539634
9.321                0.691434507     -131.871405
9.322                0.690570415     -132.204235
9.323                0.689707249     -132.538124
9.324                 0.68884506     -132.873074
9.325                0.687983902     -133.209083
9.326                0.687123827     -133.546152
9.327                0.686264888     -133.884281
9.328                 0.68540714     -134.223471
9.329                0.684550636      -134.56372
9.33                 0.683695431     -134.905029
9.331                 0.68284158     -135.247398
9.332                0.681989138     -135.590826
9.333                0.681138161     -135.935313
9.334                0.680288706     -136.280858
9.335                0.679440828     -136.627461
9.336                0.678594585     -136.975122
9.337                0.677750034     -137.323839
9.338                0.676907232     -137.673611
9.339                0.676066238     -138.024438
9.34                  0.67522711     -138.376319
9.341                0.674389907     -138.729253
9.342                0.673554687     -139.083238
9.343                 0.67272151     -139.438274
9.344                0.671890436     -139.794358
9.345                0.671061525     -140.151489
9.346                0.670234837     -140.509667
9.347                0.669410433     -140.868889
9.348                0.668588373     -141.229153
9.349                 0.66776872     -141.590458
9.35                 0.666951533     -141.952802
9.351                0.666136876     -142.316182
9.352                 0.66532481     -142.680597
9.353                0.664515397     -143.046044
9.354                0.663708699     -143.412521
9.355                0.662904781     -143.780026
9.356                0.662103704     -144.148555
9.357                0.661305531     -144.518107
9.358                0.660510326     -144.888678
9.359                0.659718153     -145.260265
9.36                 0.658929075     -145.632866
9.361                0.658143155     -146.006478
9.362                0.657360459     -146.381096
9.363                 0.65658105     -146.756719
9.364                0.655804992     -147.133341
9.365                0.655032351     -147.510961
9.366                0.654263189     -147.889573
9.367                0.653497573     -148.269174
9.368                0.652735566     -148.649761
9.369                0.651977234     -149.031329
9.37                  0.65122264     -149.413873
9.371                0.650471851     -149.797391
9.372                0.649724931     -150.181876
9.373                0.648981944     -150.567325
9.374                0.648242956     -150.953733
9.375                0.647508032     -151.341096
9.376                0.646777236     -151.729407
9.377                0.646050633     -152.118662
9.378                0.645328288     -152.508856
9.379                0.644610265     -152.899984
9.38                 0.643896629      -153.29204
9.381                0.643187445     -153.685018
9.382                0.642482776     -154.078913
9.383                0.641782687     -154.473718
9.384                0.641087243     -154.869429
9.385                0.640396506     -155.266038
9.386                 0.63971054     -155.663539
9.387                0.639029409     -156.061927
9.388                0.638353176     -156.461194
9.389                0.637681904     -156.861333
9.39                 0.637015656     -157.262339
9.391                0.636354494     -157.664204
9.392                 0.63569848     -158.066921
9.393                0.635047675     -158.470482
9.394                0.634402143     -158.874881
9.395                0.633761942     -159.280109
9.396                0.633127135      -159.68616
