! TOUCHSTONE file generated by CST DESIGN STUDIO
! Date and time: Tue Feb  4 14:30:00 2025
! Project name: C:\Work\MatlabApps\UnitCellOptimizationMatlab\CST\unitcell.cst
! Tree item: Tasks\Sweep1\SPara1\S-Parameters
! Header version: 2024
! Port assignment regex: !\s*Touchstone port\s*([0-9]+)\s*=\s*(CST MWS port|CST DES external port|CST DES block port)\s*(.+)\s* \(\"(.*)\"\)(\s*mode\s*([0-9]+))?.*
! Touchstone port assignment:
! Touchstone port 1 = CST DES external port 1 ("")
# GHz S MA R 50
9                    0.560987397     -162.685212
9.001                0.560249969     -163.180064
9.002                0.559522211     -163.676166
9.003                0.558804235     -164.173502
9.004                 0.55809615     -164.672056
9.005                0.557398066     -165.171813
9.006                0.556710092     -165.672754
9.007                0.556032334     -166.174865
9.008                  0.5553649     -166.678127
9.009                0.554707893     -167.182522
9.01                 0.554061417     -167.688034
9.011                0.553425575     -168.194643
9.012                0.552800467     -168.702331
9.013                0.552186192     -169.211079
9.014                0.551582849     -169.720868
9.015                0.550990533     -170.231677
9.016                0.550409341     -170.743488
9.017                0.549839363      -171.25628
9.018                0.549280694     -171.770032
9.019                0.548733421     -172.284724
9.02                 0.548197634     -172.800333
9.021                0.547673418      -173.31684
9.022                0.547160859     -173.834221
9.023                0.546660038     -174.352455
9.024                0.546171038     -174.871519
9.025                0.545693935     -175.391391
9.026                0.545228808     -175.912047
9.027                0.544775732     -176.433465
9.028                0.544334778      -176.95562
9.029                0.543906018      -177.47849
9.03                  0.54348952     -178.002049
9.031                 0.54308535     -178.526274
9.032                0.542693574      -179.05114
9.033                0.542314252     -179.576623
9.034                0.541947445      179.897304
9.035                0.541593209      179.370664
9.036                0.541251601      178.843484
9.037                0.540922672      178.315788
9.038                0.540606473      177.787604
9.039                0.540303053      177.258956
9.04                 0.540012455      176.729872
9.041                0.539734725      176.200377
9.042                0.539469901      175.670498
9.043                0.539218023      175.140262
9.044                0.538979126      174.609695
9.045                0.538753242      174.078825
9.046                0.538540403      173.547678
9.047                0.538340636      173.016283
9.048                0.538153967      172.484665
9.049                0.537980418      171.952853
9.05                  0.53782001      171.420874
9.051                 0.53767276      170.888755
9.052                0.537538682      170.356524
9.053                 0.53741779       169.82421
9.054                0.537310092      169.291838
9.055                0.537215596      168.759438
9.056                0.537134307      168.227037
9.057                0.537066224      167.694663
9.058                0.537011349      167.162343
9.059                0.536969677      166.630105
9.06                 0.536941201      166.097978
9.061                0.536925914      165.565988
9.062                0.536923803      165.034163
9.063                0.536934854      164.502532
9.064                0.536959051       163.97112
9.065                0.536996373      163.439957
9.066                0.537046801      162.909069
9.067                0.537110307      162.378484
9.068                0.537186866      161.848228
9.069                0.537276449      161.318329
9.07                 0.537379022      160.788814
9.071                0.537494551       160.25971
9.072                0.537622999      159.731042
9.073                0.537764326      159.202839
9.074                0.537918491      158.675126
9.075                0.538085448      158.147928
9.076                0.538265151      157.621273
9.077                0.538457551      157.095187
9.078                0.538662596      156.569693
9.079                0.538880232      156.044819
9.08                 0.539110403      155.520589
9.081                0.539353051      154.997029
9.082                0.539608114      154.474162
9.083                0.539875531      153.952013
9.084                0.540155236      153.430607
9.085                0.540447163      152.909968
9.086                0.540751241      152.390119
9.087                0.541067401      151.871084
9.088                0.541395568      151.352886
9.089                0.541735667      150.835548
9.09                 0.542087623      150.319092
9.091                0.542451354      149.803541
9.092                0.542826782      149.288917
9.093                0.543213823      148.775242
9.094                0.543612393      148.262537
9.095                0.544022406      147.750822
9.096                0.544443775       147.24012
9.097                0.544876409       146.73045
9.098                0.545320218      146.221832
9.099                 0.54577511      145.714287
9.1                  0.546240991      145.207834
9.101                0.546717765      144.702491
9.102                0.547205335      144.198278
9.103                0.547703604      143.695214
9.104                0.548212471      143.193315
9.105                0.548731837      142.692601
9.106                0.549261598      142.193088
9.107                0.549801653      141.694794
9.108                0.550351897      141.197735
9.109                0.550912224      140.701927
9.11                 0.551482528      140.207387
9.111                0.552062701      139.714131
9.112                0.552652637      139.222173
9.113                0.553252224      138.731528
9.114                0.553861353      138.242212
9.115                0.554479914      137.754237
9.116                0.555107794      137.267619
9.117                0.555744881      136.782371
9.118                0.556391062      136.298506
9.119                0.557046224      135.816036
9.12                 0.557710252      135.334974
9.121                0.558383032      134.855333
9.122                0.559064447      134.377123
9.123                0.559754383      133.900357
9.124                0.560452722      133.425045
9.125                 0.56115935      132.951198
9.126                0.561874148      132.478827
9.127                0.562596999      132.007941
9.128                0.563327786       131.53855
9.129                0.564066391      131.070664
9.13                 0.564812697      130.604291
9.131                0.565566585      130.139441
9.132                0.566327938      129.676121
9.133                0.567096636      129.214339
9.134                0.567872563      128.754104
9.135                0.568655599      128.295423
9.136                0.569445627      127.838302
9.137                0.570242529      127.382749
9.138                0.571046186      126.928769
9.139                0.571856481       126.47637
9.14                 0.572673296      126.025556
9.141                0.573496514      125.576334
9.142                0.574326018      125.128709
9.143                 0.57516169      124.682685
9.144                0.576003414      124.238268
9.145                0.576851074      123.795461
9.146                0.577704554       123.35427
9.147                0.578563738      122.914697
9.148                0.579428512      122.476746
9.149                0.580298759      122.040421
9.15                 0.581174368      121.605724
9.151                0.582055222      121.172659
9.152                 0.58294121      120.741227
9.153                0.583832219      120.311432
9.154                0.584728136      119.883275
9.155                 0.58562885      119.456758
9.156                 0.58653425      119.031883
9.157                0.587444225       118.60865
9.158                0.588358667      118.187062
9.159                0.589277465      117.767118
9.16                 0.590200512      117.348821
9.161                  0.5911277      116.932169
9.162                0.592058922      116.517163
9.163                0.592994071      116.103804
9.164                0.593933043       115.69209
9.165                0.594875733      115.282023
9.166                0.595822036      114.873601
9.167                 0.59677185      114.466823
9.168                0.597725072      114.061688
9.169                  0.5986816      113.658196
9.17                 0.599641335      113.256345
9.171                0.600604176      112.856134
9.172                0.601570024       112.45756
9.173                0.602538781      112.060623
9.174                0.603510349       111.66532
9.175                0.604484634      111.271649
9.176                0.605461538      110.879608
9.177                0.606440967      110.489194
9.178                0.607422828      110.100405
9.179                0.608407028      109.713239
9.18                 0.609393475      109.327691
9.181                0.610382078       108.94376
9.182                0.611372747      108.561442
9.183                0.612365394      108.180734
9.184                0.613359929      107.801632
9.185                0.614356265      107.424134
9.186                0.615354318      107.048235
9.187                   0.616354      106.673932
9.188                0.617355228      106.301221
9.189                0.618357919      105.930098
9.19                  0.61936199      105.560559
9.191                 0.62036736      105.192599
9.192                0.621373947      104.826216
9.193                0.622381674      104.461404
9.194                 0.62339046      104.098158
9.195                0.624400229      103.736475
9.196                0.625410904       103.37635
9.197                0.626422409      103.017778
9.198                 0.62743467      102.660755
9.199                0.628447612      102.305275
9.2                  0.629461163      101.951333
9.201                0.630475252      101.598926
9.202                0.631489807      101.248047
9.203                0.632504758      100.898691
9.204                0.633520036      100.550854
9.205                0.634535575      100.204531
9.206                0.635551305      99.8597145
9.207                0.636567162      99.5164011
9.208                 0.63758308      99.1745847
9.209                0.638598995        98.83426
9.21                 0.639614843      98.4954214
9.211                0.640630562      98.1580635
9.212                0.641646092      97.8221806
9.213                 0.64266137      97.4877671
9.214                0.643676338      97.1548172
9.215                0.644690937      96.8233254
9.216                0.645705108      96.4932858
9.217                0.646718796      96.1646926
9.218                0.647731944      95.8375401
9.219                0.648744497      95.5118223
9.22                 0.649756401      95.1875333
9.221                0.650767602      94.8646674
9.222                0.651778048      94.5432184
9.223                0.652787687      94.2231806
9.224                0.653796469      93.9045478
9.225                0.654804343       93.587314
9.226                 0.65581126      93.2714733
9.227                0.656817173      92.9570196
9.228                0.657822033      92.6439467
9.229                0.658825795      92.3322488
9.23                 0.659828412      92.0219196
9.231                0.660829839       91.712953
9.232                0.661830033      91.4053429
9.233                0.662828949      91.0990832
9.234                0.663826546      90.7941678
9.235                0.664822782      90.4905905
9.236                0.665817615      90.1883451
9.237                0.666811005      89.8874255
9.238                0.667802914      89.5878256
9.239                0.668793301      89.2895391
9.24                 0.669782129      88.9925599
9.241                0.670769362      88.6968819
9.242                0.671754962      88.4024988
9.243                0.672738893      88.1094045
9.244                0.673721121      87.8175929
9.245                0.674701611      87.5270576
9.246                 0.67568033      87.2377927
9.247                0.676657244       86.949792
9.248                0.677632322      86.6630492
9.249                0.678605531      86.3775583
9.25                 0.679576841       86.093313
9.251                0.680546221      85.8103074
9.252                0.681513643      85.5285352
9.253                0.682479076      85.2479903
9.254                0.683442493      84.9686667
9.255                0.684403865      84.6905583
9.256                0.685363167      84.4136589
9.257                0.686320371      84.1379624
9.258                0.687275451       83.863463
9.259                0.688228383      83.5901544
9.26                 0.689179141      83.3180306
9.261                0.690127702      83.0470858
9.262                0.691074042      82.7773137
9.263                0.692018139      82.5087085
9.264                0.692959969      82.2412642
9.265                0.693899512      81.9749748
9.266                0.694836745      81.7098343
9.267                0.695771649      81.4458369
9.268                0.696704203      81.1829767
9.269                0.697634388      80.9212478
9.27                 0.698562184      80.6606442
9.271                0.699487572      80.4011602
9.272                0.700410536      80.1427899
9.273                0.701331057      79.8855274
9.274                0.702249118      79.6293671
9.275                0.703164703      79.3743032
9.276                0.704077795      79.1203298
9.277                0.704988379      78.8674412
9.278                 0.70589644      78.6156318
9.279                0.706801963      78.3648958
9.28                 0.707704933      78.1152276
9.281                0.708605338      77.8666215
9.282                0.709503163      77.6190719
9.283                0.710398396      77.3725733
9.284                0.711291024      77.1271199
9.285                0.712181036      76.8827063
9.286                0.713068419      76.6393269
9.287                0.713953162      76.3969763
9.288                0.714835255      76.1556488
9.289                0.715714686      75.9153391
9.29                 0.716591447      75.6760418
9.291                0.717465527      75.4377513
9.292                0.718336916      75.2004623
9.293                0.719205607      74.9641694
9.294                 0.72007159      74.7288673
9.295                0.720934858      74.4945507
9.296                0.721795402      74.2612142
9.297                0.722653215      74.0288526
9.298                0.723508289      73.7974606
9.299                0.724360619       73.567033
9.3                  0.725210197      73.3375646
9.301                0.726057018      73.1090502
9.302                0.726901075      72.8814847
9.303                0.727742363       72.654863
9.304                0.728580877      72.4291798
9.305                0.729416611      72.2044303
9.306                0.730249562      71.9806092
9.307                0.731079725      71.7577116
9.308                0.731907096      71.5357325
9.309                0.732731672      71.3146669
9.31                 0.733553448      71.0945098
9.311                0.734372422      70.8752563
9.312                 0.73518859      70.6569015
9.313                0.736001951      70.4394406
9.314                0.736812501      70.2228686
9.315                0.737620239      70.0071808
9.316                0.738425163      69.7923723
9.317                0.739227271      69.5784384
9.318                0.740026562      69.3653743
9.319                0.740823034      69.1531753
9.32                 0.741616687      68.9418367
9.321                0.742407521      68.7313538
9.322                0.743195533      68.5217219
9.323                0.743980726      68.3129365
9.324                0.744763097      68.1049928
9.325                0.745542649      67.8978864
9.326                 0.74631938      67.6916127
9.327                0.747093292      67.4861672
9.328                0.747864385      67.2815453
9.329                0.748632661      67.0777425
9.33                 0.749398121      66.8747545
9.331                0.750160765      66.6725768
9.332                0.750920597      66.4712049
9.333                0.751677617      66.2706345
9.334                0.752431827      66.0708613
9.335                 0.75318323      65.8718809
9.336                0.753931828      65.6736889
9.337                0.754677623      65.4762812
9.338                0.755420618      65.2796534
9.339                0.756160816      65.0838013
9.34                 0.756898219      64.8887207
9.341                0.757632831      64.6944074
9.342                0.758364656      64.5008573
9.343                0.759093696      64.3080661
9.344                0.759819954      64.1160298
9.345                0.760543436      63.9247443
9.346                0.761264144      63.7342055
9.347                0.761982083      63.5444094
9.348                0.762697256      63.3553519
9.349                0.763409669       63.167029
9.35                 0.764119324      62.9794368
9.351                0.764826227      62.7925712
9.352                0.765530383      62.6064284
9.353                0.766231795      62.4210045
9.354                 0.76693047      62.2362955
9.355                0.767626411      62.0522976
9.356                0.768319625       61.869007
9.357                0.769010115      61.6864198
9.358                0.769697888      61.5045322
9.359                0.770382949      61.3233405
9.36                 0.771065303      61.1428408
9.361                0.771744956      60.9630295
9.362                0.772421914      60.7839029
9.363                0.773096182      60.6054573
9.364                0.773767766      60.4276889
9.365                0.774436672      60.2505942
9.366                0.775102907      60.0741695
9.367                0.775766476      59.8984112
9.368                0.776427386      59.7233157
9.369                0.777085642      59.5488796
9.37                 0.777741252      59.3750991
9.371                0.778394222      59.2019709
9.372                0.779044558      59.0294914
9.373                0.779692267      58.8576571
9.374                0.780337355      58.6864646
9.375                 0.78097983      58.5159105
9.376                0.781619698      58.3459913
9.377                0.782256966      58.1767036
9.378                0.782891641       58.008044
9.379                 0.78352373      57.8400093
9.38                  0.78415324       57.672596
9.381                0.784780178      57.5058009
9.382                0.785404551      57.3396206
9.383                0.786026367      57.1740518
9.384                0.786645632      57.0090914
9.385                0.787262355       56.844736
9.386                0.787876542      56.6809825
9.387                0.788488202      56.5178277
9.388                 0.78909734      56.3552683
9.389                0.789703966      56.1933012
9.39                 0.790308086      56.0319233
9.391                0.790909708      55.8711314
9.392                 0.79150884      55.7109224
9.393                 0.79210549      55.5512933
9.394                0.792699665       55.392241
9.395                0.793291373      55.2337624
9.396                0.793880621      55.0758544
