! TOUCHSTONE file generated by CST DESIGN STUDIO
! Date and time: Tue Feb  4 14:30:02 2025
! Project name: C:\Work\MatlabApps\UnitCellOptimizationMatlab\CST\unitcell.cst
! Tree item: Tasks\Sweep1\SPara1\S-Parameters
! Header version: 2024
! Port assignment regex: !\s*Touchstone port\s*([0-9]+)\s*=\s*(CST MWS port|CST DES external port|CST DES block port)\s*(.+)\s* \(\"(.*)\"\)(\s*mode\s*([0-9]+))?.*
! Touchstone port assignment:
! Touchstone port 1 = CST DES external port 1 ("")
# GHz S MA R 50
9                    0.665103092     -123.792836
9.001                0.664012873     -124.135648
9.002                 0.66292247     -124.479851
9.003                0.661831948     -124.825448
9.004                0.660741373     -125.172442
9.005                0.659650812     -125.520839
9.006                0.658560331      -125.87064
9.007                0.657469998      -126.22185
9.008                0.656379883     -126.574473
9.009                0.655290056     -126.928512
9.01                 0.654200587     -127.283969
9.011                0.653111547     -127.640849
9.012                 0.65202301     -127.999155
9.013                0.650935048     -128.358889
9.014                0.649847736     -128.720055
9.015                0.648761149     -129.082657
9.016                0.647675362     -129.446695
9.017                0.646590452     -129.812175
9.018                0.645506498     -130.179097
9.019                0.644423576     -130.547466
9.02                 0.643341768     -130.917283
9.021                0.642261152      -131.28855
9.022                 0.64118181     -131.661271
9.023                0.640103824     -132.035447
9.024                0.639027276      -132.41108
9.025                 0.63795225     -132.788173
9.026                 0.63687883     -133.166728
9.027                0.635807101     -133.546745
9.028                0.634737149     -133.928227
9.029                0.633669061     -134.311176
9.03                 0.632602925     -134.695592
9.031                0.631538828     -135.081477
9.032                0.630476859     -135.468833
9.033                 0.62941711      -135.85766
9.034                 0.62835967     -136.247959
9.035                 0.62730463     -136.639731
9.036                0.626252083     -137.032976
9.037                0.625202121     -137.427696
9.038                0.624154838     -137.823889
9.039                0.623110329     -138.221558
9.04                 0.622068688     -138.620701
9.041                0.621030011     -139.021318
9.042                0.619994394      -139.42341
9.043                0.618961934     -139.826975
9.044                 0.61793273     -140.232013
9.045                0.616906878     -140.638524
9.046                0.615884478     -141.046506
9.047                 0.61486563     -141.455958
9.048                0.613850433     -141.866879
9.049                0.612838988     -142.279268
9.05                 0.611831396     -142.693123
9.051                 0.61082776     -143.108441
9.052                 0.60982818     -143.525221
9.053                 0.60883276     -143.943461
9.054                0.607841604     -144.363158
9.055                0.606854814      -144.78431
9.056                0.605872495     -145.206913
9.057                0.604894752     -145.630965
9.058                0.603921688     -146.056463
9.059                 0.60295341     -146.483402
9.06                 0.601990024      -146.91178
9.061                0.601031635     -147.341591
9.062                0.600078349     -147.772833
9.063                0.599130273     -148.205501
9.064                0.598187514      -148.63959
9.065                0.597250178     -149.075096
9.066                0.596318374     -149.512012
9.067                0.595392209     -149.950335
9.068                0.594471789     -150.390058
9.069                0.593557224     -150.831176
9.07                 0.592648621     -151.273683
9.071                0.591746087     -151.717572
9.072                0.590849731     -152.162837
9.073                 0.58995966     -152.609471
9.074                0.589075983     -153.057467
9.075                0.588198807     -153.506817
9.076                0.587328241     -153.957515
9.077                0.586464392     -154.409553
9.078                0.585607367     -154.862921
9.079                0.584757275     -155.317613
9.08                 0.583914222     -155.773619
9.081                0.583078315      -156.23093
9.082                0.582249662     -156.689537
9.083                0.581428368     -157.149431
9.084                0.580614539     -157.610603
9.085                0.579808282     -158.073041
9.086                0.579009702     -158.536736
9.087                0.578218903     -159.001677
9.088                 0.57743599     -159.467853
9.089                0.576661068     -159.935253
9.09                 0.575894238     -160.403867
9.091                0.575135605     -160.873681
9.092                0.574385271     -161.344684
9.093                0.573643336     -161.816864
9.094                0.572909902     -162.290208
9.095                0.572185069     -162.764704
9.096                0.571468936     -163.240337
9.097                0.570761603     -163.717095
9.098                0.570063166     -164.194965
9.099                0.569373723     -164.673931
9.1                  0.568693369      -165.15398
9.101                  0.5680222     -165.635097
9.102                 0.56736031     -166.117267
9.103                0.566707791     -166.600476
9.104                0.566064737     -167.084707
9.105                0.565431237     -167.569945
9.106                0.564807381     -168.056174
9.107                0.564193258     -168.543377
9.108                0.563588956     -169.031539
9.109                0.562994561     -169.520642
9.11                 0.562410157     -170.010669
9.111                0.561835828     -170.501603
9.112                0.561271657     -170.993426
9.113                0.560717723     -171.486121
9.114                0.560174108     -171.979669
9.115                0.559640888     -172.474051
9.116                 0.55911814      -172.96925
9.117                 0.55860594     -173.465246
9.118                 0.55810436     -173.962019
9.119                0.557613473     -174.459552
9.12                 0.557133349     -174.957823
9.121                0.556664057     -175.456814
9.122                0.556205662     -175.956503
9.123                0.555758231     -176.456872
9.124                0.555321828     -176.957898
9.125                0.554896513     -177.459562
9.126                0.554482347     -177.961842
9.127                0.554079388     -178.464717
9.128                0.553687693     -178.968167
9.129                0.553307314     -179.472168
9.13                 0.552938306       -179.9767
9.131                0.552580719      179.518259
9.132                0.552234601      179.012732
9.133                0.551899998       178.50674
9.134                0.551576957      178.000307
9.135                0.551265518      177.493455
9.136                0.550965723      176.986206
9.137                0.550677611      176.478583
9.138                0.550401217       175.97061
9.139                0.550136576      175.462309
9.14                 0.549883721      174.953704
9.141                0.549642682      174.444818
9.142                0.549413486      173.935675
9.143                 0.54919616      173.426298
9.144                0.548990727      172.916711
9.145                0.548797209      172.406937
9.146                0.548615625      171.897001
9.147                0.548445992      171.386926
9.148                0.548288325      170.876736
9.149                0.548142638      170.366455
9.15                  0.54800894      169.856107
9.151                 0.54788724      169.345717
9.152                0.547777544      168.835308
9.153                0.547679856      168.324904
9.154                0.547594178      167.814529
9.155                0.547520509      167.304208
9.156                0.547458847      166.793965
9.157                0.547409186      166.283824
9.158                0.547371519      165.773808
9.159                0.547345838      165.263942
9.16                 0.547332129      164.754249
9.161                0.547330381      164.244755
9.162                0.547340576      163.735481
9.163                0.547362697      163.226453
9.164                0.547396723      162.717694
9.165                0.547442632      162.209228
9.166                0.547500399      161.701078
9.167                0.547569998      161.193268
9.168                  0.5476514       160.68582
9.169                0.547744574      160.178759
9.17                 0.547849486      159.672107
9.171                0.547966103      159.165888
9.172                0.548094387      158.660123
9.173                0.548234298      158.154837
9.174                0.548385796      157.650051
9.175                0.548548838      157.145788
9.176                0.548723379       156.64207
9.177                0.548909371      156.138919
9.178                0.549106766      155.636357
9.179                0.549315513      155.134406
9.18                  0.54953556      154.633087
9.181                0.549766851      154.132421
9.182                0.550009332      153.632431
9.183                0.550262944      153.133136
9.184                0.550527627      152.634557
9.185                0.550803319      152.136715
9.186                0.551089958       151.63963
9.187                0.551387479      151.143323
9.188                0.551695815      150.647812
9.189                0.552014899      150.153117
9.19                  0.55234466      149.659259
9.191                0.552685029      149.166255
9.192                0.553035931      148.674125
9.193                0.553397294      148.182887
9.194                0.553769041       147.69256
9.195                0.554151096      147.203161
9.196                0.554543381      146.714709
9.197                0.554945816       146.22722
9.198                0.555358321      145.740713
9.199                0.555780813      145.255204
9.2                  0.556213209      144.770709
9.201                0.556655424      144.287246
9.202                0.557107374       143.80483
9.203                0.557568972      143.323477
9.204                0.558040129      142.843204
9.205                0.558520757      142.364024
9.206                0.559010767      141.885953
9.207                0.559510067      141.409005
9.208                0.560018566      140.933196
9.209                0.560536171      140.458539
9.21                  0.56106279      139.985048
9.211                0.561598328      139.512737
9.212                 0.56214269      139.041618
9.213                 0.56269578      138.571705
9.214                0.563257503      138.103011
9.215                0.563827761      137.635547
9.216                0.564406456      137.169326
9.217                0.564993491      136.704359
9.218                0.565588766      136.240658
9.219                0.566192182      135.778235
9.22                  0.56680364      135.317099
9.221                0.567423038      134.857262
9.222                0.568050278      134.398734
9.223                0.568685257      133.941525
9.224                0.569327874      133.485644
9.225                0.569978028      133.031102
9.226                0.570635616      132.577907
9.227                0.571300537      132.126067
9.228                0.571972687      131.675593
9.229                0.572651965      131.226491
9.23                 0.573338267      130.778771
9.231                0.574031491      130.332439
9.232                0.574731533      129.887503
9.233                0.575438291      129.443971
9.234                0.576151662      129.001849
9.235                0.576871542      128.561144
9.236                0.577597828      128.121863
9.237                0.578330417      127.684011
9.238                0.579069207      127.247595
9.239                0.579814094       126.81262
9.24                 0.580564976      126.379091
9.241                 0.58132175      125.947014
9.242                0.582084315      125.516394
9.243                0.582852567      125.087235
9.244                0.583626405      124.659541
9.245                0.584405727      124.233317
9.246                0.585190432      123.808567
9.247                0.585980419      123.385294
9.248                0.586775586      122.963502
9.249                0.587575835      122.543193
9.25                 0.588381064      122.124372
9.251                0.589191174      121.707041
9.252                0.590006065      121.291203
9.253                 0.59082564      120.876859
9.254                0.591649799      120.464012
9.255                0.592478444      120.052664
9.256                0.593311479      119.642817
9.257                0.594148806      119.234472
9.258                0.594990329       118.82763
9.259                0.595835952      118.422294
9.26                 0.596685579      118.018463
9.261                0.597539117      117.616139
9.262                 0.59839647      117.215322
9.263                0.599257545      116.816012
9.264                 0.60012225      116.418211
9.265                0.600990491      116.021917
9.266                0.601862177      115.627131
9.267                0.602737218      115.233853
9.268                0.603615521      114.842082
9.269                0.604496999      114.451818
9.27                 0.605381561      114.063059
9.271                 0.60626912      113.675806
9.272                0.607159586      113.290056
9.273                0.608052875       112.90581
9.274                0.608948899      112.523064
9.275                0.609847572      112.141819
9.276                 0.61074881      111.762073
9.277                0.611652529      111.383823
9.278                0.612558645      111.007068
9.279                0.613467076      110.631806
9.28                  0.61437774      110.258034
9.281                0.615290556      109.885751
9.282                0.616205443      109.514955
9.283                0.617122323      109.145642
9.284                0.618041115       108.77781
9.285                0.618961743      108.411457
9.286                0.619884129       108.04658
9.287                0.620808197      107.683175
9.288                0.621733871       107.32124
9.289                0.622661076      106.960772
9.29                 0.623589738      106.601768
9.291                0.624519785      106.244224
9.292                0.625451143      105.888136
9.293                0.626383741      105.533502
9.294                0.627317509      105.180318
9.295                0.628252376       104.82858
9.296                0.629188274      104.478285
9.297                0.630125133      104.129429
9.298                0.631062886      103.782007
9.299                0.632001468      103.436016
9.3                   0.63294081      103.091453
9.301                 0.63388085      102.748312
9.302                0.634821522       102.40659
9.303                0.635762762      102.066283
9.304                0.636704509      101.727385
9.305                0.637646699      101.389894
9.306                0.638589273      101.053804
9.307                0.639532169      100.719112
9.308                0.640475329      100.385812
9.309                0.641418694        100.0539
9.31                 0.642362205      99.7233714
9.311                0.643305806      99.3942218
9.312                 0.64424944      99.0664464
9.313                0.645193052      98.7400404
9.314                0.646136587       98.414999
9.315                 0.64707999      98.0913174
9.316                 0.64802321      97.7689908
9.317                0.648966193      97.4480142
9.318                0.649908888      97.1283827
9.319                0.650851243      96.8100914
9.32                 0.651793209      96.4931353
9.321                0.652734737      96.1775093
9.322                0.653675777      95.8632084
9.323                0.654616282      95.5502274
9.324                0.655556204      95.2385614
9.325                0.656495497       94.928205
9.326                0.657434116      94.6191533
9.327                0.658372016      94.3114009
9.328                0.659309151      94.0049427
9.329                 0.66024548      93.6997734
9.33                 0.661180958      93.3958879
9.331                0.662115544      93.0932808
9.332                0.663049197      92.7919468
9.333                0.663981875      92.4918807
9.334                0.664913539      92.1930772
9.335                0.665844149      91.8955309
9.336                0.666773666      91.5992366
9.337                0.667702054      91.3041888
9.338                0.668629274      91.0103822
9.339                0.669555289      90.7178114
9.34                 0.670480064      90.4264712
9.341                0.671403564       90.136356
9.342                0.672325753      89.8474606
9.343                0.673246597      89.5597795
9.344                0.674166064      89.2733074
9.345                 0.67508412      88.9880388
9.346                0.676000733      88.7039684
9.347                0.676915872      88.4210907
9.348                0.677829505      88.1394004
9.349                0.678741602      87.8588921
9.35                 0.679652133      87.5795604
9.351                 0.68056107      87.3013998
9.352                0.681468383       87.024405
9.353                0.682374045      86.7485707
9.354                0.683278028      86.4738913
9.355                0.684180304      86.2003616
9.356                0.685080849      85.9279761
9.357                0.685979636      85.6567295
9.358                 0.68687664      85.3866165
9.359                0.687771835      85.1176316
9.36                 0.688665199      84.8497696
9.361                0.689556707       84.583025
9.362                0.690446336      84.3173926
9.363                0.691334064       84.052867
9.364                0.692219868      83.7894429
9.365                0.693103728      83.5271151
9.366                0.693985621      83.2658781
9.367                0.694865527      83.0057268
9.368                0.695743427      82.7466558
9.369                  0.6966193        82.48866
9.37                 0.697493127       82.231734
9.371                0.698364891      81.9758726
9.372                0.699234571      81.7210707
9.373                0.700102152      81.4673229
9.374                0.700967615      81.2146242
9.375                0.701830943      80.9629692
9.376                 0.70269212       80.712353
9.377                0.703551131      80.4627702
9.378                0.704407959      80.2142158
9.379                 0.70526259      79.9666847
9.38                 0.706115008      79.7201717
9.381                0.706965199      79.4746718
9.382                 0.70781315      79.2301798
9.383                0.708658847      78.9866908
9.384                0.709502277      78.7441998
9.385                0.710343427      78.5027015
9.386                0.711182284      78.2621912
9.387                0.712018837      78.0226637
9.388                0.712853075      77.7841142
9.389                0.713684985      77.5465376
9.39                 0.714514557       77.309929
9.391                0.715341781      77.0742836
9.392                0.716166646      76.8395964
9.393                0.716989143      76.6058625
9.394                0.717809262      76.3730771
9.395                0.718626994      76.1412354
9.396                 0.71944233      75.9103324
