! TOUCHSTONE file generated by CST DESIGN STUDIO
! Date and time: Tue Feb  4 14:30:13 2025
! Project name: C:\Work\MatlabApps\UnitCellOptimizationMatlab\CST\unitcell.cst
! Tree item: Tasks\Sweep1\SPara1\S-Parameters
! Header version: 2024
! Port assignment regex: !\s*Touchstone port\s*([0-9]+)\s*=\s*(CST MWS port|CST DES external port|CST DES block port)\s*(.+)\s* \(\"(.*)\"\)(\s*mode\s*([0-9]+))?.*
! Touchstone port assignment:
! Touchstone port 1 = CST DES external port 1 ("")
# GHz S MA R 50
9                    0.967734606     -43.3041204
9.001                0.967663132     -43.3549398
9.002                 0.96759144     -43.4058566
9.003                0.967519529     -43.4568713
9.004                0.967447399     -43.5079841
9.005                0.967375049     -43.5591953
9.006                0.967302478     -43.6105053
9.007                0.967229685     -43.6619142
9.008                 0.96715667     -43.7134225
9.009                0.967083433     -43.7650303
9.01                 0.967009972     -43.8167381
9.011                0.966936287     -43.8685461
9.012                0.966862378     -43.9204546
9.013                0.966788242      -43.972464
9.014                0.966713881     -44.0245745
9.015                0.966639292     -44.0767864
9.016                0.966564476     -44.1291001
9.017                0.966489432     -44.1815159
9.018                0.966414158      -44.234034
9.019                0.966338655     -44.2866549
9.02                 0.966262921     -44.3393787
9.021                0.966186956     -44.3922058
9.022                0.966110759     -44.4451366
9.023                0.966034329     -44.4981714
9.024                0.965957666     -44.5513104
9.025                0.965880768      -44.604554
9.026                0.965803636     -44.6579026
9.027                0.965726268     -44.7113564
9.028                0.965648663     -44.7649157
9.029                0.965570822      -44.818581
9.03                 0.965492742     -44.8723524
9.031                0.965414424     -44.9262304
9.032                0.965335866     -44.9802153
9.033                0.965257067     -45.0343074
9.034                0.965178028      -45.088507
9.035                0.965098747     -45.1428145
9.036                0.965019223     -45.1972302
9.037                0.964939456     -45.2517544
9.038                0.964859444     -45.3063876
9.039                0.964779187     -45.3611299
9.04                 0.964698685     -45.4159818
9.041                0.964617936     -45.4709436
9.042                0.964536939     -45.5260156
9.043                0.964455694     -45.5811982
9.044                  0.9643742     -45.6364918
9.045                0.964292456     -45.6918966
9.046                0.964210462     -45.7474131
9.047                0.964128215     -45.8030415
9.048                0.964045716     -45.8587822
9.049                0.963962964     -45.9146356
9.05                 0.963879958     -45.9706021
9.051                0.963796696     -46.0266819
9.052                0.963713179     -46.0828754
9.053                0.963629405     -46.1391831
9.054                0.963545373     -46.1956052
9.055                0.963461083     -46.2521421
9.056                0.963376533     -46.3087942
9.057                0.963291724     -46.3655619
9.058                0.963206653     -46.4224454
9.059                0.963121319     -46.4794452
9.06                 0.963035723     -46.5365617
9.061                0.962949864     -46.5937951
9.062                0.962863739     -46.6511459
9.063                0.962777348     -46.7086145
9.064                0.962690691     -46.7662012
9.065                0.962603767     -46.8239064
9.066                0.962516574     -46.8817304
9.067                0.962429112     -46.9396737
9.068                0.962341379     -46.9977366
9.069                0.962253375     -47.0559195
9.07                 0.962165099     -47.1142228
9.071                0.962076549     -47.1726469
9.072                0.961987726     -47.2311922
9.073                0.961898627     -47.2898589
9.074                0.961809253     -47.3486476
9.075                0.961719601     -47.4075587
9.076                0.961629671     -47.4665924
9.077                0.961539462     -47.5257492
9.078                0.961448974     -47.5850296
9.079                0.961358204     -47.6444338
9.08                 0.961267152     -47.7039623
9.081                0.961175817     -47.7636155
9.082                0.961084198     -47.8233937
9.083                0.960992294     -47.8832975
9.084                0.960900104     -47.9433272
9.085                0.960807627     -48.0034831
9.086                0.960714862     -48.0637658
9.087                0.960621808     -48.1241755
9.088                0.960528463     -48.1847128
9.089                0.960434827      -48.245378
9.09                 0.960340899     -48.3061716
9.091                0.960246678     -48.3670939
9.092                0.960152162     -48.4281454
9.093                 0.96005735     -48.4893264
9.094                0.959962242     -48.5506375
9.095                0.959866836      -48.612079
9.096                0.959771132     -48.6736514
9.097                0.959675127     -48.7353551
9.098                0.959578822     -48.7971904
9.099                0.959482215     -48.8591579
9.1                  0.959385304     -48.9212579
9.101                0.959288089      -48.983491
9.102                0.959190569     -49.0458574
9.103                0.959092742     -49.1083578
9.104                0.958994607     -49.1709924
9.105                0.958896164     -49.2337617
9.106                 0.95879741     -49.2966662
9.107                0.958698346     -49.3597064
9.108                0.958598969     -49.4228825
9.109                0.958499278     -49.4861952
9.11                 0.958399273     -49.5496449
9.111                0.958298953     -49.6132319
9.112                0.958198315     -49.6769568
9.113                0.958097359       -49.74082
9.114                0.957996084     -49.8048219
9.115                0.957894488      -49.868963
9.116                 0.95779257     -49.9332438
9.117                0.957690329     -49.9976647
9.118                0.957587764     -50.0622262
9.119                0.957484874     -50.1269288
9.12                 0.957381656     -50.1917728
9.121                0.957278111     -50.2567589
9.122                0.957174237     -50.3218873
9.123                0.957070032     -50.3871587
9.124                0.956965496     -50.4525735
9.125                0.956860627     -50.5181321
9.126                0.956755423     -50.5838351
9.127                0.956649884     -50.6496829
9.128                0.956544008     -50.7156759
9.129                0.956437794     -50.7818148
9.13                 0.956331241     -50.8480999
9.131                0.956224347     -50.9145317
9.132                0.956117111     -50.9811108
9.133                0.956009532     -51.0478376
9.134                0.955901608     -51.1147126
9.135                0.955793338     -51.1817363
9.136                0.955684721     -51.2489092
9.137                0.955575755     -51.3162317
9.138                0.955466439     -51.3837045
9.139                0.955356772      -51.451328
9.14                 0.955246752     -51.5191026
9.141                0.955136378     -51.5870289
9.142                0.955025649     -51.6551075
9.143                0.954914562     -51.7233388
9.144                0.954803118     -51.7917232
9.145                0.954691314     -51.8602615
9.146                0.954579149     -51.9289539
9.147                0.954466621     -51.9978012
9.148                0.954353729     -52.0668037
9.149                0.954240473      -52.135962
9.15                 0.954126849     -52.2052767
9.151                0.954012857     -52.2747482
9.152                0.953898496     -52.3443771
9.153                0.953783764     -52.4141639
9.154                0.953668659     -52.4841091
9.155                 0.95355318     -52.5542133
9.156                0.953437326     -52.6244771
9.157                0.953321094     -52.6949008
9.158                0.953204484     -52.7654852
9.159                0.953087495     -52.8362307
9.16                 0.952970124     -52.9071378
9.161                0.952852369     -52.9782072
9.162                0.952734231     -53.0494394
9.163                0.952615706     -53.1208348
9.164                0.952496794     -53.1923942
9.165                0.952377493     -53.2641179
9.166                0.952257801     -53.3360067
9.167                0.952137717     -53.4080609
9.168                0.952017239     -53.4802813
9.169                0.951896366     -53.5526684
9.17                 0.951775096     -53.6252227
9.171                0.951653428     -53.6979447
9.172                 0.95153136     -53.7708352
9.173                 0.95140889     -53.8438946
9.174                0.951286016     -53.9171235
9.175                0.951162738     -53.9905226
9.176                0.951039053     -54.0640923
9.177                 0.95091496     -54.1378332
9.178                0.950790458      -54.211746
9.179                0.950665544     -54.2858312
9.18                 0.950540217     -54.3600895
9.181                0.950414475     -54.4345213
9.182                0.950288316     -54.5091274
9.183                 0.95016174     -54.5839083
9.184                0.950034744     -54.6588645
9.185                0.949907326     -54.7339968
9.186                0.949779486     -54.8093056
9.187                 0.94965122     -54.8847917
9.188                0.949522528     -54.9604556
9.189                0.949393408     -55.0362979
9.19                 0.949263857     -55.1123193
9.191                0.949133875     -55.1885203
9.192                0.949003459     -55.2649016
9.193                0.948872609     -55.3414637
9.194                0.948741321     -55.4182074
9.195                0.948609594     -55.4951333
9.196                0.948477426     -55.5722419
9.197                0.948344817     -55.6495339
9.198                0.948211763     -55.7270099
9.199                0.948078263     -55.8046706
9.2                  0.947944316     -55.8825166
9.201                0.947809918     -55.9605486
9.202                 0.94767507     -56.0387671
9.203                0.947539768     -56.1171729
9.204                0.947404011     -56.1957665
9.205                0.947267797     -56.2745487
9.206                0.947131125     -56.3535201
9.207                0.946993992     -56.4326813
9.208                0.946856396     -56.5120331
9.209                0.946718336     -56.5915759
9.21                 0.946579809     -56.6713107
9.211                0.946440814     -56.7512379
9.212                0.946301349     -56.8313582
9.213                0.946161413     -56.9116724
9.214                0.946021002     -56.9921811
9.215                0.945880115      -57.072885
9.216                 0.94573875     -57.1537848
9.217                0.945596906     -57.2348811
9.218                 0.94545458     -57.3161747
9.219                 0.94531177     -57.3976661
9.22                 0.945168474     -57.4793562
9.221                0.945024691     -57.5612456
9.222                0.944880418      -57.643335
9.223                0.944735654     -57.7256251
9.224                0.944590396     -57.8081166
9.225                0.944444642     -57.8908102
9.226                 0.94429839     -57.9737066
9.227                0.944151639     -58.0568066
9.228                0.944004386     -58.1401107
9.229                0.943856629     -58.2236199
9.23                 0.943708366     -58.3073347
9.231                0.943559595     -58.3912559
9.232                0.943410314     -58.4753843
9.233                0.943260521     -58.5597205
9.234                0.943110214     -58.6442652
9.235                0.942959391     -58.7290193
9.236                0.942808049     -58.8139835
9.237                0.942656186     -58.8991584
9.238                0.942503801     -58.9845449
9.239                0.942350891     -59.0701436
9.24                 0.942197454     -59.1559554
9.241                0.942043488     -59.2419809
9.242                 0.94188899      -59.328221
9.243                 0.94173396     -59.4146763
9.244                0.941578393     -59.5013478
9.245                0.941422289      -59.588236
9.246                0.941265644     -59.6753418
9.247                0.941108458     -59.7626659
9.248                0.940950727     -59.8502092
9.249                0.940792449     -59.9379724
9.25                 0.940633623     -60.0259562
9.251                0.940474245     -60.1141615
9.252                0.940314314     -60.2025891
9.253                0.940153828     -60.2912397
9.254                0.939992783     -60.3801141
9.255                0.939831178     -60.4692131
9.256                0.939669011     -60.5585375
9.257                0.939506279     -60.6480881
9.258                 0.93934298     -60.7378658
9.259                0.939179112     -60.8278713
9.26                 0.939014672     -60.9181054
9.261                0.938849658      -61.008569
9.262                0.938684068     -61.0992628
9.263                0.938517899     -61.1901877
9.264                0.938351149     -61.2813445
9.265                0.938183815     -61.3727341
9.266                0.938015896     -61.4643572
9.267                0.937847389     -61.5562148
9.268                0.937678291     -61.6483075
9.269                  0.9375086     -61.7406364
9.27                 0.937338314     -61.8332021
9.271                 0.93716743     -61.9260056
9.272                0.936995946     -62.0190478
9.273                0.936823859     -62.1123294
9.274                0.936651167     -62.2058513
9.275                0.936477868     -62.2996144
9.276                0.936303959     -62.3936196
9.277                0.936129437     -62.4878676
9.278                0.935954301     -62.5823595
9.279                0.935778547      -62.677096
9.28                 0.935602174      -62.772078
9.281                0.935425178     -62.8673065
9.282                0.935247557     -62.9627822
9.283                0.935069309     -63.0585062
9.284                0.934890431     -63.1544792
9.285                 0.93471092     -63.2507022
9.286                0.934530775     -63.3471761
9.287                0.934349992     -63.4439017
9.288                0.934168569       -63.54088
9.289                0.933986503     -63.6381119
9.29                 0.933803793     -63.7355983
9.291                0.933620434     -63.8333401
9.292                0.933436425     -63.9313383
9.293                0.933251763     -64.0295937
9.294                0.933066446     -64.1281072
9.295                 0.93288047     -64.2268799
9.296                0.932693833     -64.3259127
9.297                0.932506533     -64.4252064
9.298                0.932318567      -64.524762
9.299                0.932129932     -64.6245806
9.3                  0.931940626     -64.7246629
9.301                0.931750646       -64.82501
9.302                0.931559989     -64.9256229
9.303                0.931368653     -65.0265024
9.304                0.931176634     -65.1276496
9.305                0.930983931     -65.2290654
9.306                 0.93079054     -65.3307508
9.307                 0.93059646     -65.4327067
9.308                0.930401686     -65.5349342
9.309                0.930206216     -65.6374343
9.31                 0.930010049     -65.7402078
9.311                 0.92981318     -65.8432558
9.312                0.929615607     -65.9465794
9.313                0.929417328     -66.0501794
9.314                0.929218339     -66.1540569
9.315                0.929018638      -66.258213
9.316                0.928818222     -66.3626485
9.317                0.928617089     -66.4673646
9.318                0.928415235     -66.5723622
9.319                0.928212658     -66.6776423
9.32                 0.928009354     -66.7832061
9.321                0.927805322     -66.8890544
9.322                0.927600558     -66.9951885
9.323                 0.92739506     -67.1016092
9.324                0.927188824     -67.2083176
9.325                0.926981847     -67.3153148
9.326                0.926774128     -67.4226018
9.327                0.926565663     -67.5301797
9.328                0.926356449     -67.6380495
9.329                0.926146484     -67.7462123
9.33                 0.925935764     -67.8546692
9.331                0.925724286     -67.9634212
9.332                0.925512048     -68.0724694
9.333                0.925299047     -68.1818149
9.334                 0.92508528     -68.2914587
9.335                0.924870744      -68.401402
9.336                0.924655436     -68.5116458
9.337                0.924439353     -68.6221912
9.338                0.924222493     -68.7330393
9.339                0.924004852     -68.8441913
9.34                 0.923786427     -68.9556482
9.341                0.923567216     -69.0674111
9.342                0.923347215     -69.1794812
9.343                0.923126422     -69.2918596
9.344                0.922904834     -69.4045473
9.345                0.922682447     -69.5175456
9.346                0.922459259     -69.6308555
9.347                0.922235266     -69.7444782
9.348                0.922010467     -69.8584149
9.349                0.921784857     -69.9726666
9.35                 0.921558434     -70.0872345
9.351                0.921331195     -70.2021198
9.352                0.921103137     -70.3173236
9.353                0.920874256     -70.4328471
9.354                0.920644551     -70.5486915
9.355                0.920414017     -70.6648579
9.356                0.920182652     -70.7813475
9.357                0.919950453     -70.8981614
9.358                0.919717416     -71.0153009
9.359                 0.91948354     -71.1327671
9.36                  0.91924882     -71.2505613
9.361                0.919013254     -71.3686846
9.362                0.918776838     -71.4871382
9.363                0.918539571     -71.6059234
9.364                0.918301448     -71.7250413
9.365                0.918062466     -71.8444931
9.366                0.917822623     -71.9642801
9.367                0.917581916     -72.0844035
9.368                0.917340341     -72.2048645
9.369                0.917097896     -72.3256643
9.37                 0.916854577     -72.4468042
9.371                0.916610382     -72.5682855
9.372                0.916365306     -72.6901092
9.373                0.916119348     -72.8122768
9.374                0.915872504     -72.9347895
9.375                0.915624772     -73.0576484
9.376                0.915376147      -73.180855
9.377                0.915126628     -73.3044103
9.378                 0.91487621     -73.4283158
9.379                0.914624892     -73.5525727
9.38                 0.914372669     -73.6771822
9.381                0.914119539     -73.8021457
9.382                0.913865499     -73.9274643
9.383                0.913610546     -74.0531396
9.384                0.913354676     -74.1791726
9.385                0.913097887     -74.3055647
9.386                0.912840176     -74.4323173
9.387                0.912581539     -74.5594316
9.388                0.912321974      -74.686909
9.389                0.912061477     -74.8147507
9.39                 0.911800045     -74.9429581
9.391                0.911537676     -75.0715325
9.392                0.911274366     -75.2004753
9.393                0.911010112     -75.3297877
9.394                0.910744912     -75.4594712
9.395                0.910478762     -75.5895271
9.396                0.910211659     -75.7199566
