! TOUCHSTONE file generated by CST DESIGN STUDIO
! Date and time: Wed Feb  5 13:19:42 2025
! Project name: C:\Work\MatlabApps\UnitCellOptimizationMatlab\CST\unitcell.cst
! Tree item: Tasks\Sweep1\SPara1\S-Parameters
! Header version: 2024
! Port assignment regex: !\s*Touchstone port\s*([0-9]+)\s*=\s*(CST MWS port|CST DES external port|CST DES block port)\s*(.+)\s* \(\"(.*)\"\)(\s*mode\s*([0-9]+))?.*
! Touchstone port assignment:
! Touchstone port 1 = CST DES external port 1 ("")
# GHz S MA R 50
9                    0.972944341     -71.4290278
9.001                0.972824222     -71.5489633
9.002                0.972703228     -71.6692112
9.003                0.972581357     -71.7897724
9.004                0.972458607     -71.9106479
9.005                0.972334977     -72.0318386
9.006                0.972210464     -72.1533455
9.007                0.972085067     -72.2751695
9.008                0.971958784     -72.3973115
9.009                0.971831613     -72.5197724
9.01                 0.971703554     -72.6425532
9.011                0.971574604     -72.7656549
9.012                0.971444761     -72.8890784
9.013                0.971314025     -73.0128246
9.014                0.971182393     -73.1368945
9.015                0.971049864     -73.2612891
9.016                0.970916436     -73.3860093
9.017                0.970782108     -73.5110561
9.018                0.970646878     -73.6364304
9.019                0.970510746     -73.7621333
9.02                 0.970373709     -73.8881656
9.021                0.970235765     -74.0145284
9.022                0.970096915     -74.1412227
9.023                0.969957155     -74.2682494
9.024                0.969816486     -74.3956096
9.025                0.969674904     -74.5233041
9.026                 0.96953241     -74.6513341
9.027                0.969389002     -74.7797004
9.028                0.969244678     -74.9084041
9.029                0.969099438     -75.0374463
9.03                 0.968953279     -75.1668278
9.031                0.968806202     -75.2965498
9.032                0.968658204     -75.4266131
9.033                0.968509284     -75.5570189
9.034                0.968359442     -75.6877682
9.035                0.968208675     -75.8188619
9.036                0.968056984     -75.9503011
9.037                0.967904367     -76.0820868
9.038                0.967750823     -76.2142201
9.039                0.967596351      -76.346702
9.04                  0.96744095     -76.4795334
9.041                0.967284618     -76.6127156
9.042                0.967127356     -76.7462494
9.043                0.966969161      -76.880136
9.044                0.966810034     -77.0143763
9.045                0.966649973     -77.1489715
9.046                0.966488978     -77.2839226
9.047                0.966327047     -77.4192307
9.048                 0.96616418     -77.5548967
9.049                0.966000376     -77.6909219
9.05                 0.965835634     -77.8273072
9.051                0.965669954     -77.9640537
9.052                0.965503334     -78.1011624
9.053                0.965335775     -78.2386346
9.054                0.965167276     -78.3764712
9.055                0.964997835     -78.5146733
9.056                0.964827453      -78.653242
9.057                0.964656129     -78.7921784
9.058                0.964483862     -78.9314837
9.059                0.964310652     -79.0711588
9.06                 0.964136499     -79.2112048
9.061                0.963961401      -79.351623
9.062                0.963785359     -79.4924144
9.063                0.963608372       -79.63358
9.064                 0.96343044     -79.7751211
9.065                0.963251563     -79.9170386
9.066                 0.96307174     -80.0593338
9.067                0.962890971     -80.2020078
9.068                0.962709256     -80.3450616
9.069                0.962526594     -80.4884964
9.07                 0.962342986     -80.6323134
9.071                0.962158431     -80.7765136
9.072                 0.96197293     -80.9210982
9.073                0.961786482     -81.0660683
9.074                0.961599087     -81.2114251
9.075                0.961410745     -81.3571697
9.076                0.961221456     -81.5033033
9.077                0.961031221      -81.649827
9.078                 0.96084004     -81.7967419
9.079                0.960647912     -81.9440493
9.08                 0.960454837     -82.0917502
9.081                0.960260817     -82.2398459
9.082                0.960065851     -82.3883374
9.083                 0.95986994      -82.537226
9.084                0.959673083     -82.6865129
9.085                0.959475282     -82.8361991
9.086                0.959276537     -82.9862859
9.087                0.959076847     -83.1367745
9.088                0.958876214      -83.287666
9.089                0.958674638     -83.4389616
9.09                  0.95847212     -83.5906626
9.091                 0.95826866       -83.74277
9.092                0.958064259     -83.8952851
9.093                0.957858917      -84.048209
9.094                0.957652635     -84.2015431
9.095                0.957445414     -84.3552884
9.096                0.957237255     -84.5094461
9.097                0.957028159     -84.6640176
9.098                0.956818126     -84.8190039
9.099                0.956607157     -84.9744064
9.1                  0.956395253     -85.1302261
9.101                0.956182415     -85.2864643
9.102                0.955968645     -85.4431223
9.103                0.955753942     -85.6002012
9.104                0.955538309     -85.7577023
9.105                0.955321747     -85.9156268
9.106                0.955104256     -86.0739759
9.107                0.954885838     -86.2327509
9.108                0.954666494      -86.391953
9.109                0.954446226     -86.5515833
9.11                 0.954225034     -86.7116433
9.111                0.954002921      -86.872134
9.112                0.953779887     -87.0330567
9.113                0.953555935     -87.1944127
9.114                0.953331065     -87.3562032
9.115                0.953105279     -87.5184295
9.116                0.952878579     -87.6810928
9.117                0.952650967     -87.8441943
9.118                0.952422444     -88.0077354
9.119                0.952193012     -88.1717172
9.12                 0.951962673      -88.336141
9.121                0.951731428     -88.5010081
9.122                 0.95149928     -88.6663198
9.123                0.951266231     -88.8320772
9.124                0.951032282     -88.9982817
9.125                0.950797435     -89.1649345
9.126                0.950561693      -89.332037
9.127                0.950325058     -89.4995902
9.128                0.950087532     -89.6675956
9.129                0.949849118     -89.8360544
9.13                 0.949609816     -90.0049679
9.131                0.949369631     -90.1743373
9.132                0.949128563     -90.3441639
9.133                0.948886617      -90.514449
9.134                0.948643793     -90.6851939
9.135                0.948400096     -90.8563999
9.136                0.948155526     -91.0280682
9.137                0.947910088     -91.2002001
9.138                0.947663783     -91.3727969
9.139                0.947416615     -91.5458598
9.14                 0.947168585     -91.7193903
9.141                0.946919698     -91.8933894
9.142                0.946669956     -92.0678586
9.143                0.946419362     -92.2427992
9.144                0.946167919     -92.4182123
9.145                 0.94591563     -92.5940993
9.146                0.945662498     -92.7704615
9.147                0.945408526     -92.9473002
9.148                0.945153718     -93.1246167
9.149                0.944898077     -93.3024122
9.15                 0.944641607      -93.480688
9.151                 0.94438431     -93.6594455
9.152                 0.94412619     -93.8386859
9.153                0.943867251     -94.0184105
9.154                0.943607496     -94.1986206
9.155                0.943346929     -94.3793175
9.156                0.943085554     -94.5605025
9.157                0.942823375     -94.7421769
9.158                0.942560394     -94.9243419
9.159                0.942296617     -95.1069989
9.16                 0.942032047     -95.2901491
9.161                0.941766688     -95.4737939
9.162                0.941500544     -95.6579345
9.163                0.941233619     -95.8425722
9.164                0.940965918     -96.0277083
9.165                0.940697445     -96.2133441
9.166                0.940428204     -96.3994808
9.167                0.940158199     -96.5861198
9.168                0.939887435     -96.7732624
9.169                0.939615917     -96.9609098
9.17                 0.939343649     -97.1490632
9.171                0.939070635     -97.3377241
9.172                 0.93879688     -97.5268936
9.173                 0.93852239     -97.7165731
9.174                0.938247169     -97.9067637
9.175                0.937971221     -98.0974669
9.176                0.937694553     -98.2886838
9.177                0.937417168     -98.4804157
9.178                0.937139072      -98.672664
9.179                 0.93686027     -98.8654297
9.18                 0.936580767     -99.0587143
9.181                0.936300569      -99.252519
9.182                0.936019682     -99.4468451
9.183                0.935738109     -99.6416937
9.184                0.935455858     -99.8370662
9.185                0.935172933     -100.032964
9.186                 0.93488934     -100.229388
9.187                0.934605086     -100.426339
9.188                0.934320174      -100.62382
9.189                0.934034613      -100.82183
9.19                 0.933748407     -101.020372
9.191                0.933461563     -101.219446
9.192                0.933174086     -101.419054
9.193                0.932885983     -101.619197
9.194                0.932597259     -101.819877
9.195                0.932307922     -102.021093
9.196                0.932017978     -102.222849
9.197                0.931727433     -102.425144
9.198                0.931436293      -102.62798
9.199                0.931144566     -102.831359
9.2                  0.930852257     -103.035281
9.201                0.930559374     -103.239748
9.202                0.930265923      -103.44476
9.203                0.929971912      -103.65032
9.204                0.929677346     -103.856427
9.205                0.929382235     -104.063084
9.206                0.929086583     -104.270292
9.207                0.928790399     -104.478051
9.208                 0.92849369     -104.686363
9.209                0.928196464     -104.895229
9.21                 0.927898726     -105.104651
9.211                0.927600487     -105.314628
9.212                0.927301751     -105.525163
9.213                0.927002529     -105.736256
9.214                0.926702826     -105.947909
9.215                0.926402652     -106.160123
9.216                0.926102013     -106.372899
9.217                0.925800919     -106.586237
9.218                0.925499376      -106.80014
9.219                0.925197393     -107.014608
9.22                 0.924894979     -107.229642
9.221                0.924592141     -107.445243
9.222                0.924288888     -107.661412
9.223                0.923985229     -107.878151
9.224                0.923681172      -108.09546
9.225                0.923376725     -108.313341
9.226                0.923071898     -108.531794
9.227                0.922766699      -108.75082
9.228                0.922461137     -108.970422
9.229                0.922155222     -109.190598
9.23                 0.921848961     -109.411351
9.231                0.921542364     -109.632681
9.232                0.921235441      -109.85459
9.233                  0.9209282     -110.077079
9.234                0.920620652     -110.300147
9.235                0.920312804     -110.523797
9.236                0.920004669     -110.748029
9.237                0.919696253     -110.972844
9.238                0.919387568     -111.198243
9.239                0.919078624     -111.424227
9.24                 0.918769429     -111.650797
9.241                0.918459994     -111.877954
9.242                 0.91815033     -112.105698
9.243                0.917840445      -112.33403
9.244                0.917530352     -112.562952
9.245                0.917220058     -112.792464
9.246                0.916909576     -113.022567
9.247                0.916598916     -113.253261
9.248                0.916288088     -113.484548
9.249                0.915977102     -113.716428
9.25                  0.91566597     -113.948902
9.251                0.915354703      -114.18197
9.252                 0.91504331     -114.415635
9.253                0.914731804     -114.649895
9.254                0.914420195     -114.884752
9.255                0.914108494     -115.120207
9.256                0.913796713     -115.356261
9.257                0.913484864     -115.592913
9.258                0.913172956     -115.830165
9.259                0.912861002     -116.068017
9.26                 0.912549014     -116.306469
9.261                0.912237003     -116.545524
9.262                 0.91192498      -116.78518
9.263                0.911612959     -117.025439
9.264                0.911300949     -117.266301
9.265                0.910988965     -117.507767
9.266                0.910677017     -117.749837
9.267                0.910365118     -117.992512
9.268                0.910053279     -118.235792
9.269                0.909741514     -118.479677
9.27                 0.909429835     -118.724169
9.271                0.909118254     -118.969267
9.272                0.908806784     -119.214973
9.273                0.908495438     -119.461285
9.274                0.908184227     -119.708206
9.275                0.907873166     -119.955734
9.276                0.907562266     -120.203871
9.277                0.907251541     -120.452617
9.278                0.906941004     -120.701972
9.279                0.906630669     -120.951936
9.28                 0.906320547      -121.20251
9.281                0.906010653     -121.453694
9.282                   0.905701     -121.705487
9.283                0.905391601     -121.957891
9.284                0.905082471     -122.210906
9.285                0.904773621     -122.464531
9.286                0.904465067     -122.718767
9.287                0.904156822     -122.973613
9.288                0.903848899     -123.229071
9.289                0.903541313     -123.485139
9.29                 0.903234078     -123.741819
9.291                0.902927207      -123.99911
9.292                0.902620715     -124.257012
9.293                0.902314616     -124.515524
9.294                0.902008924     -124.774648
9.295                0.901703654     -125.034383
9.296                 0.90139882     -125.294729
9.297                0.901094436     -125.555685
9.298                0.900790517     -125.817252
9.299                0.900487078     -126.079429
9.3                  0.900184133     -126.342216
9.301                0.899881697     -126.605614
9.302                0.899579784     -126.869621
9.303                 0.89927841     -127.134238
9.304                 0.89897759     -127.399463
9.305                0.898677339     -127.665298
9.306                0.898377671     -127.931741
9.307                0.898078602     -128.198792
9.308                0.897780146     -128.466451
9.309                 0.89748232     -128.734717
9.31                 0.897185138      -129.00359
9.311                0.896888616     -129.273069
9.312                0.896592769     -129.543154
9.313                0.896297613     -129.813844
9.314                0.896003163     -130.085139
9.315                0.895709434     -130.357038
9.316                0.895416443     -130.629541
9.317                0.895124205     -130.902646
9.318                0.894832735     -131.176353
9.319                 0.89454205     -131.450661
9.32                 0.894252165     -131.725571
9.321                0.893963096      -132.00108
9.322                0.893674859     -132.277188
9.323                0.893387469     -132.553894
9.324                0.893100944     -132.831197
9.325                0.892815298     -133.109097
9.326                0.892530548     -133.387592
9.327                 0.89224671     -133.666682
9.328                0.891963799     -133.946365
9.329                0.891681833      -134.22664
9.33                 0.891400828     -134.507507
9.331                0.891120799     -134.788964
9.332                0.890841762      -135.07101
9.333                0.890563735     -135.353644
9.334                0.890286732     -135.636865
9.335                0.890010772     -135.920672
9.336                0.889735869     -136.205062
9.337                 0.88946204     -136.490036
9.338                0.889189303     -136.775591
9.339                0.888917672     -137.061727
9.34                 0.888647164     -137.348441
9.341                0.888377796     -137.635733
9.342                0.888109585     -137.923601
9.343                0.887842546     -138.212043
9.344                0.887576696     -138.501058
9.345                0.887312051     -138.790644
9.346                0.887048628       -139.0808
9.347                0.886786444     -139.371524
9.348                0.886525515     -139.662814
9.349                0.886265857     -139.954669
9.35                 0.886007486     -140.247087
9.351                0.885750419     -140.540066
9.352                0.885494673     -140.833604
9.353                0.885240264       -141.1277
9.354                0.884987208     -141.422351
9.355                0.884735522     -141.717555
9.356                0.884485222     -142.013311
9.357                0.884236324     -142.309617
9.358                0.883988845      -142.60647
9.359                0.883742801     -142.903868
9.36                 0.883498208      -143.20181
9.361                0.883255083     -143.500292
9.362                0.883013441     -143.799314
9.363                  0.8827733     -144.098872
9.364                0.882534674     -144.398965
9.365                 0.88229758     -144.699589
9.366                0.882062035     -145.000743
9.367                0.881828054     -145.302425
9.368                0.881595653     -145.604631
9.369                0.881364848      -145.90736
9.37                 0.881135655     -146.210608
9.371                 0.88090809     -146.514374
9.372                0.880682168     -146.818654
9.373                0.880457906     -147.123447
9.374                0.880235319     -147.428749
9.375                0.880014422     -147.734557
9.376                0.879795232      -148.04087
9.377                0.879577763     -148.347684
9.378                0.879362031     -148.654996
9.379                0.879148052     -148.962804
9.38                  0.87893584     -149.271104
9.381                0.878725411     -149.579894
9.382                0.878516779      -149.88917
9.383                0.878309961      -150.19893
9.384                 0.87810497     -150.509171
9.385                0.877901822     -150.819889
9.386                0.877700532     -151.131082
9.387                0.877501113     -151.442745
9.388                0.877303581     -151.754877
9.389                0.877107951     -152.067474
9.39                 0.876914235     -152.380531
9.391                 0.87672245     -152.694047
9.392                0.876532608     -153.008018
9.393                0.876344725      -153.32244
9.394                0.876158813      -153.63731
9.395                0.875974888     -153.952625
9.396                0.875792961      -154.26838
