! TOUCHSTONE file generated by CST DESIGN STUDIO
! Date and time: Wed Feb  5 13:19:41 2025
! Project name: C:\Work\MatlabApps\UnitCellOptimizationMatlab\CST\unitcell.cst
! Tree item: Tasks\Sweep1\SPara1\S-Parameters
! Header version: 2024
! Port assignment regex: !\s*Touchstone port\s*([0-9]+)\s*=\s*(CST MWS port|CST DES external port|CST DES block port)\s*(.+)\s* \(\"(.*)\"\)(\s*mode\s*([0-9]+))?.*
! Touchstone port assignment:
! Touchstone port 1 = CST DES external port 1 ("")
# GHz S MA R 50
9                    0.970912172     -75.4590185
9.001                 0.97078433     -75.5905269
9.002                0.970655487     -75.7223896
9.003                 0.97052564     -75.8546076
9.004                0.970394788     -75.9871821
9.005                0.970262929      -76.120114
9.006                0.970130059     -76.2534043
9.007                0.969996179     -76.3870541
9.008                0.969861284     -76.5210645
9.009                0.969725374     -76.6554363
9.01                 0.969588446     -76.7901708
9.011                0.969450499     -76.9252689
9.012                0.969311531     -77.0607316
9.013                0.969171539       -77.19656
9.014                0.969030521     -77.3327553
9.015                0.968888477     -77.4693183
9.016                0.968745404     -77.6062502
9.017                  0.9686013      -77.743552
9.018                0.968456164     -77.8812248
9.019                0.968309994     -78.0192696
9.02                 0.968162787     -78.1576876
9.021                0.968014544     -78.2964797
9.022                0.967865261     -78.4356471
9.023                0.967714937     -78.5751908
9.024                0.967563571     -78.7151119
9.025                0.967411161     -78.8554115
9.026                0.967257706     -78.9960907
9.027                0.967103203     -79.1371505
9.028                0.966947652      -79.278592
9.029                0.966791051     -79.4204164
9.03                 0.966633399     -79.5626247
9.031                0.966474694      -79.705218
9.032                0.966314935     -79.8481974
9.033                0.966154121      -79.991564
9.034                 0.96599225     -80.1353189
9.035                0.965829321     -80.2794633
9.036                0.965665333     -80.4239982
9.037                0.965500284     -80.5689247
9.038                0.965334174      -80.714244
9.039                0.965167002     -80.8599572
9.04                 0.964998766     -81.0060653
9.041                0.964829464     -81.1525696
9.042                0.964659098     -81.2994711
9.043                0.964487664      -81.446771
9.044                0.964315162     -81.5944703
9.045                0.964141592     -81.7425703
9.046                0.963966952     -81.8910721
9.047                0.963791242     -82.0399767
9.048                0.963614461     -82.1892854
9.049                0.963436608     -82.3389993
9.05                 0.963257682     -82.4891195
9.051                0.963077682     -82.6396471
9.052                0.962896609     -82.7905834
9.053                 0.96271446     -82.9419295
9.054                0.962531237     -83.0936864
9.055                0.962346937     -83.2458555
9.056                0.962161561     -83.3984378
9.057                0.961975109     -83.5514345
9.058                0.961787579     -83.7048467
9.059                0.961598971     -83.8586757
9.06                 0.961409285     -84.0129226
9.061                0.961218521     -84.1675885
9.062                0.961026679     -84.3226747
9.063                0.960833757     -84.4781823
9.064                0.960639757     -84.6341125
9.065                0.960444678     -84.7904665
9.066                0.960248519     -84.9472454
9.067                0.960051281     -85.1044504
9.068                0.959852963     -85.2620828
9.069                0.959653567     -85.4201436
9.07                 0.959453091     -85.5786341
9.071                0.959251536     -85.7375556
9.072                0.959048902     -85.8969091
9.073                0.958845189     -86.0566958
9.074                0.958640398      -86.216917
9.075                0.958434529     -86.3775739
9.076                0.958227582     -86.5386677
9.077                0.958019557     -86.7001995
9.078                0.957810456     -86.8621706
9.079                0.957600278     -87.0245821
9.08                 0.957389024     -87.1874354
9.081                0.957176695     -87.3507315
9.082                0.956963291     -87.5144717
9.083                0.956748813     -87.6786573
9.084                0.956533261     -87.8432893
9.085                0.956316637     -88.0083691
9.086                0.956098942     -88.1738979
9.087                0.955880175     -88.3398768
9.088                0.955660339     -88.5063072
9.089                0.955439434     -88.6731901
9.09                 0.955217461     -88.8405269
9.091                0.954994421     -89.0083187
9.092                0.954770315     -89.1765668
9.093                0.954545146     -89.3452724
9.094                0.954318913     -89.5144367
9.095                0.954091618     -89.6840611
9.096                0.953863262     -89.8541465
9.097                0.953633848     -90.0246945
9.098                0.953403376      -90.195706
9.099                0.953171848     -90.3671825
9.1                  0.952939265      -90.539125
9.101                 0.95270563     -90.7115349
9.102                0.952470943     -90.8844134
9.103                0.952235207     -91.0577617
9.104                0.951998423      -91.231581
9.105                0.951760594     -91.4058726
9.106                0.951521721     -91.5806377
9.107                0.951281806     -91.7558776
9.108                0.951040851     -91.9315935
9.109                0.950798859     -92.1077866
9.11                 0.950555831     -92.2844582
9.111                 0.95031177     -92.4616094
9.112                0.950066678     -92.6392417
9.113                0.949820557      -92.817356
9.114                0.949573411     -92.9959539
9.115                 0.94932524     -93.1750363
9.116                0.949076049     -93.3546047
9.117                0.948825839     -93.5346601
9.118                0.948574613      -93.715204
9.119                0.948322374     -93.8962374
9.12                 0.948069125     -94.0777617
9.121                0.947814868     -94.2597781
9.122                0.947559607     -94.4422878
9.123                0.947303344      -94.625292
9.124                0.947046083      -94.808792
9.125                0.946787827      -94.992789
9.126                0.946528578     -95.1772843
9.127                0.946268341      -95.362279
9.128                0.946007118     -95.5477745
9.129                0.945744913     -95.7337719
9.13                  0.94548173     -95.9202724
9.131                0.945217572     -96.1072774
9.132                0.944952442     -96.2947879
9.133                0.944686344     -96.4828054
9.134                0.944419283     -96.6713308
9.135                0.944151261     -96.8603656
9.136                0.943882284     -97.0499109
9.137                0.943612354     -97.2399679
9.138                0.943341476     -97.4305379
9.139                0.943069654      -97.621622
9.14                 0.942796892     -97.8132215
9.141                0.942523194     -98.0053375
9.142                0.942248566     -98.1979714
9.143                0.941973011     -98.3911242
9.144                0.941696533     -98.5847973
9.145                0.941419138     -98.7789917
9.146                 0.94114083     -98.9737088
9.147                0.940861613     -99.1689496
9.148                0.940581494     -99.3647154
9.149                0.940300475     -99.5610074
9.15                 0.940018564     -99.7578268
9.151                0.939735763     -99.9551747
9.152                 0.93945208     -100.153052
9.153                0.939167518     -100.351461
9.154                0.938882083     -100.550401
9.155                0.938595781     -100.749875
9.156                0.938308617     -100.949884
9.157                0.938020597     -101.150427
9.158                0.937731725     -101.351508
9.159                0.937442009     -101.553126
9.16                 0.937151453     -101.755284
9.161                0.936860064     -101.957982
9.162                0.936567847     -102.161221
9.163                0.936274809     -102.365002
9.164                0.935980956     -102.569327
9.165                0.935686294     -102.774197
9.166                0.935390828     -102.979613
9.167                0.935094567     -103.185575
9.168                0.934797515     -103.392086
9.169                 0.93449968     -103.599146
9.17                 0.934201069     -103.806756
9.171                0.933901687     -104.014917
9.172                0.933601543     -104.223631
9.173                0.933300642     -104.432899
9.174                0.932998992     -104.642721
9.175                  0.9326966     -104.853099
9.176                0.932393473     -105.064034
9.177                0.932089618     -105.275526
9.178                0.931785043     -105.487577
9.179                0.931479756     -105.700189
9.18                 0.931173763     -105.913361
9.181                0.930867072     -106.127095
9.182                0.930559692     -106.341393
9.183                0.930251629     -106.556254
9.184                0.929942893      -106.77168
9.185                 0.92963349     -106.987673
9.186                 0.92932343     -107.204232
9.187                0.929012719      -107.42136
9.188                0.928701368     -107.639056
9.189                0.928389383     -107.857323
9.19                 0.928076773      -108.07616
9.191                0.927763548     -108.295569
9.192                0.927449715     -108.515552
9.193                0.927135284     -108.736108
9.194                0.926820263     -108.957238
9.195                0.926504661     -109.178945
9.196                0.926188488     -109.401227
9.197                0.925871752     -109.624088
9.198                0.925554463     -109.847526
9.199                 0.92523663     -110.071544
9.2                  0.924918263     -110.296142
9.201                0.924599371     -110.521321
9.202                0.924279964     -110.747081
9.203                0.923960051     -110.973424
9.204                0.923639643     -111.200351
9.205                0.923318749     -111.427861
9.206                 0.92299738     -111.655957
9.207                0.922675545     -111.884639
9.208                0.922353255     -112.113907
9.209                 0.92203052     -112.343762
9.21                 0.921707351     -112.574206
9.211                0.921383758     -112.805239
9.212                0.921059752     -113.036861
9.213                0.920735343     -113.269073
9.214                0.920410543     -113.501877
9.215                0.920085362     -113.735272
9.216                0.919759812      -113.96926
9.217                0.919433903      -114.20384
9.218                0.919107647     -114.439015
9.219                0.918781055     -114.674783
9.22                 0.918454138     -114.911147
9.221                0.918126909     -115.148106
9.222                0.917799379     -115.385662
9.223                0.917471559     -115.623814
9.224                0.917143462     -115.862563
9.225                0.916815099      -116.10191
9.226                0.916486482     -116.341856
9.227                0.916157624     -116.582401
9.228                0.915828537     -116.823545
9.229                0.915499233     -117.065288
9.23                 0.915169724     -117.307633
9.231                0.914840024     -117.550578
9.232                0.914510145     -117.794124
9.233                0.914180099     -118.038272
9.234                  0.9138499     -118.283022
9.235                 0.91351956     -118.528374
9.236                0.913189092      -118.77433
9.237                 0.91285851     -119.020888
9.238                0.912527827      -119.26805
9.239                0.912197056     -119.515816
9.24                 0.911866211     -119.764185
9.241                0.911535305     -120.013159
9.242                0.911204352     -120.262738
9.243                0.910873365     -120.512922
9.244                0.910542359     -120.763711
9.245                0.910211347     -121.015105
9.246                0.909880343     -121.267104
9.247                0.909549362     -121.519709
9.248                0.909218417      -121.77292
9.249                0.908887523     -122.026736
9.25                 0.908556695     -122.281159
9.251                0.908225947     -122.536187
9.252                0.907895293     -122.791822
9.253                0.907564748     -123.048063
9.254                0.907234327      -123.30491
9.255                0.906904045     -123.562362
9.256                0.906573917     -123.820421
9.257                0.906243957     -124.079086
9.258                0.905914181     -124.338357
9.259                0.905584605     -124.598234
9.26                 0.905255243     -124.858716
9.261                0.904926111     -125.119804
9.262                0.904597224     -125.381497
9.263                0.904268598     -125.643795
9.264                0.903940248     -125.906698
9.265                0.903612191     -126.170206
9.266                0.903284442     -126.434318
9.267                0.902957017     -126.699035
9.268                0.902629932     -126.964355
9.269                0.902303203     -127.230278
9.27                 0.901976846     -127.496805
9.271                0.901650878     -127.763934
9.272                0.901325315     -128.031665
9.273                0.901000172     -128.299998
9.274                0.900675468     -128.568932
9.275                0.900351217     -128.838467
9.276                0.900027437     -129.108602
9.277                0.899704144     -129.379337
9.278                0.899381356     -129.650671
9.279                0.899059089     -129.922603
9.28                 0.898737359     -130.195133
9.281                0.898416184      -130.46826
9.282                0.898095582     -130.741983
9.283                0.897775568     -131.016302
9.284                 0.89745616     -131.291216
9.285                0.897137375     -131.566724
9.286                0.896819231     -131.842825
9.287                0.896501745     -132.119519
9.288                0.896184934     -132.396804
9.289                0.895868816      -132.67468
9.29                 0.895553408     -132.953145
9.291                0.895238728     -133.232199
9.292                0.894924793     -133.511841
9.293                0.894611622     -133.792069
9.294                0.894299231     -134.072883
9.295                0.893987639     -134.354282
9.296                0.893676863     -134.636263
9.297                0.893366921     -134.918827
9.298                0.893057831     -135.201972
9.299                0.892749612     -135.485696
9.3                   0.89244228     -135.769999
9.301                0.892135855     -136.054879
9.302                0.891830353     -136.340335
9.303                0.891525794     -136.626366
9.304                0.891222195     -136.912969
9.305                0.890919574     -137.200144
9.306                 0.89061795      -137.48789
9.307                 0.89031734     -137.776204
9.308                0.890017764     -138.065085
9.309                0.889719239     -138.354532
9.31                 0.889421783     -138.644542
9.311                0.889125416     -138.935115
9.312                0.888830154     -139.226249
9.313                0.888536017     -139.517942
9.314                0.888243022     -139.810192
9.315                0.887951189     -140.102997
9.316                0.887660535     -140.396356
9.317                0.887371079     -140.690267
9.318                0.887082839     -140.984728
9.319                0.886795833     -141.279737
9.32                  0.88651008     -141.575291
9.321                0.886225599      -141.87139
9.322                0.885942407     -142.168031
9.323                0.885660523     -142.465212
9.324                0.885379965      -142.76293
9.325                0.885100752     -143.061185
9.326                0.884822902     -143.359973
9.327                0.884546432     -143.659292
9.328                0.884271362      -143.95914
9.329                 0.88399771     -144.259515
9.33                 0.883725494     -144.560415
9.331                0.883454732     -144.861837
9.332                0.883185442     -145.163778
9.333                0.882917642     -145.466237
9.334                0.882651351      -145.76921
9.335                0.882386586     -146.072696
9.336                0.882123366     -146.376691
9.337                0.881861708     -146.681194
9.338                0.881601631     -146.986201
9.339                0.881343152     -147.291711
9.34                 0.881086289     -147.597719
9.341                0.880831061     -147.904224
9.342                0.880577483     -148.211222
9.343                0.880325576     -148.518711
9.344                0.880075355     -148.826688
9.345                0.879826838     -149.135151
9.346                0.879580044     -149.444095
9.347                0.879334989     -149.753519
9.348                 0.87909169     -150.063419
9.349                0.878850166     -150.373792
9.35                 0.878610432     -150.684636
9.351                0.878372507     -150.995946
9.352                0.878136407      -151.30772
9.353                0.877902149     -151.619955
9.354                0.877669751     -151.932647
9.355                0.877439228     -152.245793
9.356                0.877210597     -152.559391
9.357                0.876983876     -152.873435
9.358                0.876759079     -153.187924
9.359                0.876536225     -153.502854
9.36                 0.876315329      -153.81822
9.361                0.876096407     -154.134021
9.362                0.875879475     -154.450252
9.363                0.875664549     -154.766909
9.364                0.875451645      -155.08399
9.365                0.875240779     -155.401489
9.366                0.875031966     -155.719405
9.367                0.874825221     -156.037733
9.368                 0.87462056     -156.356469
9.369                0.874417999     -156.675609
9.37                 0.874217551     -156.995151
9.371                0.874019233     -157.315089
9.372                0.873823058      -157.63542
9.373                0.873629042      -157.95614
9.374                0.873437198     -158.277245
9.375                0.873247542     -158.598731
9.376                0.873060087     -158.920594
9.377                0.872874847      -159.24283
9.378                0.872691837     -159.565435
9.379                0.872511069     -159.888405
9.38                 0.872332558     -160.211735
9.381                0.872156317     -160.535421
9.382                0.871982359      -160.85946
9.383                0.871810697     -161.183847
9.384                0.871641344     -161.508577
9.385                0.871474312     -161.833646
9.386                0.871309615      -162.15905
9.387                0.871147265     -162.484785
9.388                0.870987273     -162.810845
9.389                0.870829651     -163.137227
9.39                 0.870674413     -163.463926
9.391                0.870521568     -163.790938
9.392                0.870371129     -164.118258
9.393                0.870223106     -164.445881
9.394                0.870077511     -164.773803
9.395                0.869934355     -165.102019
9.396                0.869793648     -165.430524
