! TOUCHSTONE file generated by CST DESIGN STUDIO
! Date and time: Wed Feb  5 13:19:39 2025
! Project name: C:\Work\MatlabApps\UnitCellOptimizationMatlab\CST\unitcell.cst
! Tree item: Tasks\Sweep1\SPara1\S-Parameters
! Header version: 2024
! Port assignment regex: !\s*Touchstone port\s*([0-9]+)\s*=\s*(CST MWS port|CST DES external port|CST DES block port)\s*(.+)\s* \(\"(.*)\"\)(\s*mode\s*([0-9]+))?.*
! Touchstone port assignment:
! Touchstone port 1 = CST DES external port 1 ("")
# GHz S MA R 50
9                    0.968711962     -79.7629147
9.001                 0.96857349     -79.9072428
9.002                0.968433966     -80.0519725
9.003                0.968293388      -80.197105
9.004                0.968151752     -80.3426414
9.005                0.968009054     -80.4885829
9.006                0.967865293     -80.6349306
9.007                0.967720464     -80.7816858
9.008                0.967574566     -80.9288496
9.009                0.967427595     -81.0764231
9.01                 0.967279548     -81.2244075
9.011                0.967130423      -81.372804
9.012                0.966980216     -81.5216138
9.013                0.966828925     -81.6708379
9.014                0.966676547     -81.8204777
9.015                 0.96652308     -81.9705343
9.016                 0.96636852     -82.1210088
9.017                0.966212864     -82.2719024
9.018                0.966056111     -82.4232163
9.019                0.965898258     -82.5749518
9.02                 0.965739301     -82.7271098
9.021                0.965579239     -82.8796918
9.022                0.965418068     -83.0326988
9.023                0.965255787      -83.186132
9.024                0.965092393     -83.3399926
9.025                0.964927883     -83.4942818
9.026                0.964762256     -83.6490009
9.027                0.964595508     -83.8041509
9.028                0.964427637     -83.9597331
9.029                0.964258642     -84.1157486
9.03                 0.964088519     -84.2721988
9.031                0.963917267     -84.4290847
9.032                0.963744883     -84.5864076
9.033                0.963571366     -84.7441687
9.034                0.963396713     -84.9023691
9.035                0.963220921     -85.0610101
9.036                 0.96304399     -85.2200928
9.037                0.962865918     -85.3796186
9.038                0.962686701     -85.5395885
9.039                0.962506338     -85.7000038
9.04                 0.962324828     -85.8608657
9.041                0.962142169     -86.0221754
9.042                0.961958359     -86.1839341
9.043                0.961773395     -86.3461431
9.044                0.961587277     -86.5088034
9.045                0.961400003     -86.6719164
9.046                0.961211571     -86.8354833
9.047                 0.96102198     -86.9995052
9.048                0.960831228     -87.1639834
9.049                0.960639313     -87.3289191
9.05                 0.960446236     -87.4943134
9.051                0.960251993     -87.6601677
9.052                0.960056583     -87.8264831
9.053                0.959860006     -87.9932609
9.054                0.959662261     -88.1605022
9.055                0.959463345     -88.3282083
9.056                0.959263259     -88.4963803
9.057                   0.959062     -88.6650196
9.058                0.958859569     -88.8341273
9.059                0.958655963     -89.0037046
9.06                 0.958451183     -89.1737528
9.061                0.958245227     -89.3442731
9.062                0.958038095     -89.5152666
9.063                0.957829785     -89.6867346
9.064                0.957620298     -89.8586784
9.065                0.957409632      -90.031099
9.066                0.957197787     -90.2039979
9.067                0.956984763      -90.377376
9.068                0.956770559     -90.5512348
9.069                0.956555175     -90.7255753
9.07                 0.956338611     -90.9003989
9.071                0.956120865     -91.0757066
9.072                0.955901939     -91.2514998
9.073                0.955681832     -91.4277797
9.074                0.955460544     -91.6045473
9.075                0.955238074     -91.7818041
9.076                0.955014424     -91.9595511
9.077                0.954789593     -92.1377896
9.078                0.954563581     -92.3165208
9.079                0.954336389     -92.4957459
9.08                 0.954108017      -92.675466
9.081                0.953878466     -92.8556825
9.082                0.953647735     -93.0363965
9.083                0.953415826     -93.2176092
9.084                0.953182739     -93.3993219
9.085                0.952948475     -93.5815356
9.086                0.952713035     -93.7642516
9.087                0.952476419     -93.9474712
9.088                0.952238628     -94.1311954
9.089                0.951999664     -94.3154256
9.09                 0.951759527     -94.5001628
9.091                0.951518219     -94.6854083
9.092                 0.95127574     -94.8711633
9.093                0.951032093     -95.0574289
9.094                0.950787278     -95.2442063
9.095                0.950541297     -95.4314968
9.096                0.950294151     -95.6193014
9.097                0.950045842     -95.8076214
9.098                0.949796372      -95.996458
9.099                0.949545743     -96.1858122
9.1                  0.949293956     -96.3756854
9.101                0.949041013     -96.5660786
9.102                0.948786917      -96.756993
9.103                0.948531669     -96.9484298
9.104                0.948275271     -97.1403901
9.105                0.948017727     -97.3328751
9.106                0.947759037      -97.525886
9.107                0.947499206     -97.7194238
9.108                0.947238234     -97.9134898
9.109                0.946976125      -98.108085
9.11                 0.946712882     -98.3032107
9.111                0.946448507     -98.4988679
9.112                0.946183004     -98.6950578
9.113                0.945916374     -98.8917815
9.114                0.945648622     -99.0890401
9.115                 0.94537975     -99.2868348
9.116                0.945109762     -99.4851667
9.117                0.944838661     -99.6840368
9.118                0.944566451     -99.8834463
9.119                0.944293134     -100.083396
9.12                 0.944018715     -100.283888
9.121                0.943743197     -100.484922
9.122                0.943466585       -100.6865
9.123                0.943188882     -100.888623
9.124                0.942910092     -101.091292
9.125                0.942630219     -101.294508
9.126                0.942349267     -101.498272
9.127                0.942067242     -101.702585
9.128                0.941784147     -101.907448
9.129                0.941499986     -102.112863
9.13                 0.941214765      -102.31883
9.131                0.940928488      -102.52535
9.132                 0.94064116     -102.732424
9.133                0.940352785     -102.940054
9.134                 0.94006337     -103.148241
9.135                0.939772919     -103.356984
9.136                0.939481437     -103.566287
9.137                 0.93918893     -103.776148
9.138                0.938895403     -103.986571
9.139                0.938600862     -104.197554
9.14                 0.938305312       -104.4091
9.141                0.938008759      -104.62121
9.142                 0.93771121     -104.833884
9.143                0.937412669     -105.047123
9.144                0.937113144     -105.260929
9.145                 0.93681264     -105.475301
9.146                0.936511165     -105.690242
9.147                0.936208723     -105.905752
9.148                0.935905323     -106.121833
9.149                 0.93560097     -106.338484
9.15                 0.935295671     -106.555707
9.151                0.934989434     -106.773502
9.152                0.934682265     -106.991872
9.153                0.934374171     -107.210815
9.154                 0.93406516     -107.430335
9.155                 0.93375524      -107.65043
9.156                0.933444417     -107.871103
9.157                0.933132699     -108.092354
9.158                0.932820094     -108.314183
9.159                 0.93250661     -108.536592
9.16                 0.932192255     -108.759581
9.161                0.931877037     -108.983152
9.162                0.931560964     -109.207305
9.163                0.931244045      -109.43204
9.164                0.930926287      -109.65736
9.165                  0.9306077     -109.883263
9.166                0.930288292     -110.109752
9.167                0.929968072     -110.336826
9.168                0.929647049     -110.564487
9.169                0.929325232     -110.792736
9.17                 0.929002631     -111.021572
9.171                0.928679253     -111.250997
9.172                 0.92835511     -111.481012
9.173                0.928030211     -111.711616
9.174                0.927704565     -111.942811
9.175                0.927378181     -112.174598
9.176                0.927051071     -112.406976
9.177                0.926723244     -112.639948
9.178                 0.92639471     -112.873512
9.179                 0.92606548      -113.10767
9.18                 0.925735563     -113.342423
9.181                0.925404972      -113.57777
9.182                0.925073715     -113.813713
9.183                0.924741805     -114.050252
9.184                0.924409252     -114.287388
9.185                0.924076066     -114.525121
9.186                0.923742261     -114.763451
9.187                0.923407845      -115.00238
9.188                0.923072832     -115.241907
9.189                0.922737233     -115.482033
9.19                 0.922401059     -115.722758
9.191                0.922064323     -115.964083
9.192                0.921727035     -116.206009
9.193                 0.92138921     -116.448535
9.194                0.921050857     -116.691662
9.195                0.920711991      -116.93539
9.196                0.920372623      -117.17972
9.197                0.920032766     -117.424653
9.198                0.919692432     -117.670187
9.199                0.919351636     -117.916324
9.2                  0.919010389     -118.163064
9.201                0.918668704     -118.410407
9.202                0.918326596     -118.658354
9.203                0.917984077     -118.906904
9.204                0.917641161     -119.156057
9.205                0.917297861     -119.405815
9.206                0.916954192     -119.656177
9.207                0.916610166     -119.907143
9.208                0.916265799     -120.158714
9.209                0.915921104     -120.410889
9.21                 0.915576096     -120.663668
9.211                0.915230788     -120.917053
9.212                0.914885196     -121.171042
9.213                0.914539334     -121.425635
9.214                0.914193216     -121.680834
9.215                0.913846858     -121.936637
9.216                0.913500275     -122.193044
9.217                0.913153481     -122.450056
9.218                0.912806493     -122.707673
9.219                0.912459324     -122.965894
9.22                 0.912111992      -123.22472
9.221                0.911764511     -123.484149
9.222                0.911416897     -123.744183
9.223                0.911069166      -124.00482
9.224                0.910721334     -124.266061
9.225                0.910373417     -124.527905
9.226                0.910025431     -124.790352
9.227                0.909677393     -125.053402
9.228                0.909329318     -125.317054
9.229                0.908981224     -125.581309
9.23                 0.908633127     -125.846165
9.231                0.908285044     -126.111623
9.232                0.907936992     -126.377681
9.233                0.907588987      -126.64434
9.234                0.907241047       -126.9116
9.235                0.906893189     -127.179458
9.236                 0.90654543     -127.447916
9.237                0.906197788     -127.716973
9.238                 0.90585028     -127.986627
9.239                0.905502924     -128.256879
9.24                 0.905155738     -128.527728
9.241                0.904808739     -128.799173
9.242                0.904461945     -129.071213
9.243                0.904115375     -129.343848
9.244                0.903769046     -129.617078
9.245                0.903422977       -129.8909
9.246                0.903077186     -130.165316
9.247                0.902731691     -130.440323
9.248                0.902386511      -130.71592
9.249                0.902041665     -130.992108
9.25                 0.901697171     -131.268886
9.251                0.901353048     -131.546251
9.252                0.901009314     -131.824204
9.253                 0.90066599     -132.102743
9.254                0.900323093     -132.381867
9.255                0.899980644     -132.661576
9.256                 0.89963866     -132.941868
9.257                0.899297162     -133.222742
9.258                0.898956169     -133.504197
9.259                  0.8986157     -133.786233
9.26                 0.898275775     -134.068846
9.261                0.897936413     -134.352037
9.262                0.897597634     -134.635805
9.263                0.897259457     -134.920147
9.264                0.896921903     -135.205063
9.265                0.896584992     -135.490551
9.266                0.896248742     -135.776611
9.267                0.895913175     -136.063239
9.268                 0.89557831     -136.350436
9.269                0.895244168     -136.638199
9.27                 0.894910768     -136.926528
9.271                 0.89457813      -137.21542
9.272                0.894246276     -137.504874
9.273                0.893915224     -137.794888
9.274                0.893584997     -138.085461
9.275                0.893255613     -138.376591
9.276                0.892927093     -138.668277
9.277                0.892599459     -138.960516
9.278                 0.89227273     -139.253307
9.279                0.891946926     -139.546648
9.28                  0.89162207     -139.840537
9.281                 0.89129818     -140.134973
9.282                0.890975278     -140.429953
9.283                0.890653384     -140.725475
9.284                 0.89033252     -141.021538
9.285                0.890012705      -141.31814
9.286                0.889693961     -141.615278
9.287                0.889376308      -141.91295
9.288                0.889059767     -142.211155
9.289                0.888744359      -142.50989
9.29                 0.888430105     -142.809153
9.291                0.888117025     -143.108941
9.292                0.887805139     -143.409253
9.293                 0.88749447     -143.710086
9.294                0.887185038     -144.011437
9.295                0.886876863     -144.313306
9.296                0.886569966     -144.615688
9.297                0.886264368     -144.918582
9.298                 0.88596009     -145.221985
9.299                0.885657152     -145.525894
9.3                  0.885355575     -145.830308
9.301                 0.88505538     -146.135223
9.302                0.884756588     -146.440637
9.303                0.884459219     -146.746547
9.304                0.884163293     -147.052951
9.305                0.883868831     -147.359845
9.306                0.883575855     -147.667227
9.307                0.883284383     -147.975095
9.308                0.882994438     -148.283445
9.309                0.882706038     -148.592275
9.31                 0.882419205     -148.901581
9.311                0.882133958      -149.21136
9.312                0.881850319     -149.521611
9.313                0.881568306     -149.832329
9.314                0.881287941     -150.143511
9.315                0.881009243     -150.455156
9.316                0.880732233     -150.767258
9.317                0.880456929     -151.079815
9.318                0.880183353     -151.392825
9.319                0.879911523     -151.706283
9.32                  0.87964146     -152.020187
9.321                0.879373183     -152.334533
9.322                0.879106712     -152.649317
9.323                0.878842065     -152.964537
9.324                0.878579263     -153.280189
9.325                0.878318325      -153.59627
9.326                0.878059269     -153.912776
9.327                0.877802115     -154.229703
9.328                0.877546882     -154.547048
9.329                0.877293588     -154.864807
9.33                 0.877042252     -155.182977
9.331                0.876792893     -155.501554
9.332                0.876545529     -155.820534
9.333                0.876300179     -156.139914
9.334                0.876056861      -156.45969
9.335                0.875815592     -156.779858
9.336                0.875576392     -157.100414
9.337                0.875339277     -157.421354
9.338                0.875104266     -157.742674
9.339                0.874871375     -158.064371
9.34                 0.874640623      -158.38644
9.341                0.874412026     -158.708878
9.342                0.874185602      -159.03168
9.343                0.873961368     -159.354843
9.344                 0.87373934     -159.678361
9.345                0.873519535     -160.002232
9.346                 0.87330197      -160.32645
9.347                0.873086661     -160.651012
9.348                0.872873624     -160.975914
9.349                0.872662875      -161.30115
9.35                 0.872454429     -161.626718
9.351                0.872248303     -161.952611
9.352                0.872044512     -162.278827
9.353                0.871843071     -162.605361
9.354                0.871643995     -162.932208
9.355                  0.8714473     -163.259363
9.356                0.871252999     -163.586823
9.357                0.871061107     -163.914583
9.358                0.870871639     -164.242638
9.359                0.870684608     -164.570984
9.36                 0.870500029     -164.899616
9.361                0.870317915     -165.228529
9.362                 0.87013828     -165.557719
9.363                0.869961137     -165.887181
9.364                0.869786499      -166.21691
9.365                0.869614379     -166.546902
9.366                0.869444789     -166.877152
9.367                0.869277742     -167.207655
9.368                 0.86911325     -167.538406
9.369                0.868951326     -167.869401
9.37                 0.868791979     -168.200634
9.371                0.868635224     -168.532101
9.372                0.868481069     -168.863796
9.373                0.868329527     -169.195715
9.374                0.868180609     -169.527853
9.375                0.868034324     -169.860205
9.376                0.867890683     -170.192766
9.377                0.867749697      -170.52553
9.378                0.867611375     -170.858493
9.379                0.867475726      -171.19165
9.38                  0.86734276     -171.524995
9.381                0.867212486     -171.858524
9.382                0.867084912     -172.192231
9.383                0.866960048     -172.526111
9.384                0.866837902     -172.860159
9.385                0.866718481      -173.19437
9.386                0.866601794     -173.528739
9.387                0.866487848      -173.86326
9.388                 0.86637665     -174.197928
9.389                0.866268207     -174.532738
9.39                 0.866162526     -174.867684
9.391                0.866059613     -175.202762
9.392                0.865959475     -175.537965
9.393                0.865862117      -175.87329
9.394                0.865767546      -176.20873
9.395                0.865675766     -176.544279
9.396                0.865586783     -176.879934
