! TOUCHSTONE file generated by CST DESIGN STUDIO
! Date and time: Wed Feb  5 13:19:34 2025
! Project name: C:\Work\MatlabApps\UnitCellOptimizationMatlab\CST\unitcell.cst
! Tree item: Tasks\Sweep1\SPara1\S-Parameters
! Header version: 2024
! Port assignment regex: !\s*Touchstone port\s*([0-9]+)\s*=\s*(CST MWS port|CST DES external port|CST DES block port)\s*(.+)\s* \(\"(.*)\"\)(\s*mode\s*([0-9]+))?.*
! Touchstone port assignment:
! Touchstone port 1 = CST DES external port 1 ("")
# GHz S MA R 50
9                    0.961243509     -94.2483565
9.001                0.961097502     -94.4395423
9.002                0.960949568     -94.6312659
9.003                0.960799712     -94.8235288
9.004                0.960647939     -95.0163325
9.005                0.960494253     -95.2096783
9.006                0.960338658     -95.4035676
9.007                 0.96018116     -95.5980018
9.008                0.960021762     -95.7929824
9.009                 0.95986047     -95.9885106
9.01                 0.959697287      -96.184588
9.011                0.959532219     -96.3812158
9.012                 0.95936527     -96.5783955
9.013                0.959196444     -96.7761283
9.014                0.959025745     -96.9744157
9.015                0.958853179     -97.1732589
9.016                 0.95867875     -97.3726594
9.017                0.958502463     -97.5726184
9.018                0.958324321     -97.7731374
9.019                 0.95814433     -97.9742175
9.02                 0.957962494     -98.1758601
9.021                0.957778817     -98.3780665
9.022                0.957593305      -98.580838
9.023                0.957405961      -98.784176
9.024                0.957216791     -98.9880816
9.025                0.957025799     -99.1925561
9.026                 0.95683299     -99.3976009
9.027                0.956638368     -99.6032171
9.028                0.956441938      -99.809406
9.029                0.956243705     -100.016169
9.03                 0.956043674     -100.223507
9.031                0.955841849     -100.431422
9.032                0.955638236     -100.639914
9.033                0.955432838     -100.848985
9.034                0.955225663     -101.058636
9.035                0.955016713     -101.268868
9.036                0.954805994     -101.479683
9.037                0.954593512     -101.691081
9.038                 0.95437927     -101.903064
9.039                0.954163276     -102.115633
9.04                 0.953945532     -102.328789
9.041                0.953726046     -102.542534
9.042                0.953504822     -102.756867
9.043                0.953281866     -102.971791
9.044                0.953057182     -103.187307
9.045                0.952830777     -103.403415
9.046                0.952602656     -103.620117
9.047                0.952372824     -103.837414
9.048                0.952141288     -104.055306
9.049                0.951908052     -104.273796
9.05                 0.951673123     -104.492884
9.051                0.951436506      -104.71257
9.052                0.951198208     -104.932857
9.053                0.950958235     -105.153745
9.054                0.950716592     -105.375235
9.055                0.950473285     -105.597327
9.056                0.950228322     -105.820024
9.057                0.949981707     -106.043326
9.058                0.949733448     -106.267234
9.059                0.949483551     -106.491749
9.06                 0.949232022     -106.716872
9.061                0.948978869     -106.942603
9.062                0.948724097     -107.168944
9.063                0.948467714     -107.395896
9.064                0.948209726     -107.623459
9.065                0.947950141     -107.851635
9.066                0.947688965     -108.080423
9.067                0.947426206     -108.309826
9.068                0.947161871     -108.539844
9.069                0.946895967     -108.770477
9.07                 0.946628502     -109.001726
9.071                0.946359482     -109.233593
9.072                0.946088917     -109.466078
9.073                0.945816813     -109.699182
9.074                0.945543179     -109.932905
9.075                0.945268022     -110.167249
9.076                 0.94499135     -110.402213
9.077                0.944713172       -110.6378
9.078                0.944433496     -110.874008
9.079                 0.94415233      -111.11084
9.08                 0.943869682     -111.348295
9.081                0.943585562     -111.586375
9.082                0.943299978     -111.825079
9.083                0.943012939      -112.06441
9.084                0.942724453     -112.304366
9.085                 0.94243453     -112.544949
9.086                 0.94214318     -112.786159
9.087                 0.94185041     -113.027997
9.088                0.941556231     -113.270464
9.089                0.941260653     -113.513559
9.09                 0.940963684     -113.757284
9.091                0.940665336     -114.001638
9.092                0.940365616     -114.246622
9.093                0.940064537     -114.492238
9.094                0.939762107     -114.738484
9.095                0.939458338     -114.985362
9.096                0.939153239     -115.232871
9.097                0.938846821     -115.481013
9.098                0.938539095     -115.729787
9.099                0.938230071     -115.979195
9.1                  0.937919761     -116.229235
9.101                0.937608176     -116.479909
9.102                0.937295327     -116.731216
9.103                0.936981225     -116.983157
9.104                0.936665882     -117.235733
9.105                0.936349309     -117.488942
9.106                0.936031518     -117.742786
9.107                0.935712521     -117.997265
9.108                0.935392331     -118.252379
9.109                0.935070959     -118.508127
9.11                 0.934748418     -118.764511
9.111                0.934424719     -119.021529
9.112                0.934099877     -119.279182
9.113                0.933773903     -119.537471
9.114                0.933446811     -119.796394
9.115                0.933118613     -120.055953
9.116                0.932789323     -120.316146
9.117                0.932458954     -120.576974
9.118                 0.93212752     -120.838437
9.119                0.931795034     -121.100535
9.12                  0.93146151     -121.363268
9.121                0.931126962     -121.626634
9.122                0.930791405     -121.890635
9.123                0.930454851     -122.155269
9.124                0.930117317     -122.420538
9.125                0.929778815     -122.686439
9.126                0.929439362     -122.952974
9.127                0.929098971     -123.220141
9.128                0.928757659     -123.487941
9.129                0.928415439     -123.756373
9.13                 0.928072327     -124.025436
9.131                 0.92772834     -124.295131
9.132                0.927383491     -124.565456
9.133                0.927037798     -124.836411
9.134                0.926691276     -125.107996
9.135                 0.92634394      -125.38021
9.136                0.925995808     -125.653053
9.137                0.925646895     -125.926524
9.138                0.925297219     -126.200622
9.139                0.924946795     -126.475346
9.14                 0.924595641     -126.750697
9.141                0.924243773     -127.026673
9.142                0.923891209     -127.303273
9.143                0.923537966     -127.580497
9.144                0.923184061     -127.858344
9.145                0.922829512     -128.136813
9.146                0.922474336     -128.415903
9.147                0.922118552     -128.695614
9.148                0.921762177     -128.975944
9.149                 0.92140523     -129.256892
9.15                 0.921047728     -129.538458
9.151                0.920689691      -129.82064
9.152                0.920331137     -130.103437
9.153                0.919972084     -130.386849
9.154                0.919612552     -130.670873
9.155                 0.91925256      -130.95551
9.156                0.918892125     -131.240757
9.157                0.918531269     -131.526614
9.158                0.918170011     -131.813079
9.159                0.917808369     -132.100152
9.16                 0.917446364      -132.38783
9.161                0.917084015     -132.676112
9.162                0.916721343     -132.964997
9.163                0.916358368     -133.254484
9.164                 0.91599511      -133.54457
9.165                0.915631589     -133.835256
9.166                0.915267825     -134.126538
9.167                0.914903841     -134.418416
9.168                0.914539655     -134.710888
9.169                 0.91417529     -135.003952
9.17                 0.913810766     -135.297607
9.171                0.913446105     -135.591851
9.172                0.913081327     -135.886681
9.173                0.912716454     -136.182098
9.174                0.912351508     -136.478097
9.175                0.911986511     -136.774679
9.176                0.911621483      -137.07184
9.177                0.911256447      -137.36958
9.178                0.910891425     -137.667895
9.179                0.910526439     -137.966785
9.18                 0.910161511     -138.266246
9.181                0.909796664     -138.566278
9.182                 0.90943192     -138.866877
9.183                0.909067301     -139.168042
9.184                0.908702831     -139.469771
9.185                0.908338531      -139.77206
9.186                0.907974425     -140.074909
9.187                0.907610535     -140.378315
9.188                0.907246885     -140.682275
9.189                0.906883498     -140.986787
9.19                 0.906520396     -141.291849
9.191                0.906157604     -141.597459
9.192                0.905795144     -141.903613
9.193                 0.90543304     -142.210309
9.194                0.905071316     -142.517545
9.195                0.904709994     -142.825318
9.196                0.904349099     -143.133626
9.197                0.903988655     -143.442466
9.198                0.903628685     -143.751835
9.199                0.903269213      -144.06173
9.2                  0.902910262     -144.372148
9.201                0.902551858     -144.683088
9.202                0.902194024     -144.994545
9.203                0.901836784     -145.306518
9.204                0.901480162     -145.619003
9.205                0.901124182     -145.931996
9.206                0.900768869     -146.245496
9.207                0.900414247     -146.559499
9.208                0.900060341     -146.874002
9.209                0.899707173     -147.189002
9.21                  0.89935477     -147.504495
9.211                0.899003155     -147.820479
9.212                0.898652353      -148.13695
9.213                0.898302389     -148.453906
9.214                0.897953286     -148.771341
9.215                0.897605069     -149.089254
9.216                0.897257763     -149.407641
9.217                0.896911392     -149.726498
9.218                0.896565981     -150.045822
9.219                0.896221554      -150.36561
9.22                 0.895878136     -150.685857
9.221                0.895535751     -151.006561
9.222                0.895194424     -151.327718
9.223                0.894854179     -151.649323
9.224                0.894515042     -151.971374
9.225                0.894177035     -152.293866
9.226                0.893840184     -152.616796
9.227                0.893504513      -152.94016
9.228                0.893170046     -153.263954
9.229                0.892836809     -153.588174
9.23                 0.892504824     -153.912817
9.231                0.892174117     -154.237877
9.232                0.891844711     -154.563352
9.233                0.891516632     -154.889238
9.234                0.891189902     -155.215529
9.235                0.890864546     -155.542223
9.236                0.890540587     -155.869314
9.237                0.890218051       -156.1968
9.238                0.889896961     -156.524675
9.239                 0.88957734     -156.852935
9.24                 0.889259213     -157.181576
9.241                0.888942602     -157.510594
9.242                0.888627532     -157.839984
9.243                0.888314026     -158.169742
9.244                0.888002107     -158.499863
9.245                0.887691799     -158.830344
9.246                0.887383125     -159.161179
9.247                0.887076108     -159.492364
9.248                 0.88677077     -159.823894
9.249                0.886467136     -160.155765
9.25                 0.886165227     -160.487973
9.251                0.885865066     -160.820512
9.252                0.885566676     -161.153378
9.253                 0.88527008     -161.486566
9.254                0.884975298     -161.820072
9.255                0.884682354      -162.15389
9.256                 0.88439127     -162.488016
9.257                0.884102067     -162.822445
9.258                0.883814768     -163.157172
9.259                0.883529393     -163.492192
9.26                 0.883245964     -163.827501
9.261                0.882964502     -164.163093
9.262                0.882685029     -164.498963
9.263                0.882407566     -164.835106
9.264                0.882132132     -165.171518
9.265                 0.88185875     -165.508193
9.266                0.881587438     -165.845126
9.267                0.881318218     -166.182312
9.268                 0.88105111     -166.519745
9.269                0.880786133     -166.857422
9.27                 0.880523307     -167.195336
9.271                0.880262652     -167.533482
9.272                0.880004186     -167.871855
9.273                 0.87974793     -168.210449
9.274                0.879493902      -168.54926
9.275                 0.87924212     -168.888282
9.276                0.878992604      -169.22751
9.277                0.878745371     -169.566939
9.278                0.878500439     -169.906562
9.279                0.878257827     -170.246375
9.28                 0.878017552     -170.586372
9.281                0.877779631     -170.926547
9.282                0.877544082     -171.266896
9.283                0.877310922     -171.607413
9.284                0.877080167     -171.948092
9.285                0.876851833     -172.288928
9.286                0.876625938     -172.629915
9.287                0.876402497     -172.971048
9.288                0.876181525     -173.312321
9.289                0.875963039     -173.653728
9.29                 0.875747053     -173.995264
9.291                0.875533583     -174.336924
9.292                0.875322643     -174.678701
9.293                0.875114248     -175.020591
9.294                0.874908411     -175.362586
9.295                0.874705148     -175.704683
9.296                0.874504472     -176.046874
9.297                0.874306396     -176.389155
9.298                0.874110933      -176.73152
9.299                0.873918096     -177.073963
9.3                  0.873727898     -177.416477
9.301                0.873540352     -177.759059
9.302                0.873355469     -178.101701
9.303                 0.87317326     -178.444398
9.304                0.872993739     -178.787145
9.305                0.872816915     -179.129935
9.306                  0.8726428     -179.472763
9.307                0.872471404     -179.815623
9.308                0.872302738       179.84149
9.309                0.872136813      179.498583
9.31                 0.871973636      179.155662
9.311                0.871813219      178.812731
9.312                0.871655571      178.469797
9.313                0.871500699      178.126866
9.314                0.871348614      177.783943
9.315                0.871199323      177.441034
9.316                0.871052834      177.098146
9.317                0.870909155      176.755283
9.318                0.870768293      176.412451
9.319                0.870630256      176.069657
9.32                 0.870495051      175.726906
9.321                0.870362683      175.384203
9.322                0.870233159      175.041555
9.323                0.870106485      174.698968
9.324                0.869982667      174.356446
9.325                 0.86986171      174.013997
9.326                0.869743618      173.671625
9.327                0.869628398      173.329336
9.328                0.869516052      172.987136
9.329                0.869406585      172.645031
9.33                 0.869300001      172.303027
9.331                0.869196304      171.961128
9.332                0.869095496      171.619342
9.333                 0.86899758      171.277673
9.334                0.868902559      170.936127
9.335                0.868810435       170.59471
9.336                0.868721211      170.253428
9.337                0.868634887      169.912285
9.338                0.868551466      169.571289
9.339                0.868470947      169.230443
9.34                 0.868393333      168.889755
9.341                0.868318622      168.549229
9.342                0.868246817      168.208871
9.343                0.868177915      167.868687
9.344                0.868111918      167.528682
9.345                0.868048824      167.188862
9.346                0.867988631      166.849231
9.347                 0.86793134      166.509796
9.348                0.867876947      166.170562
9.349                0.867825452      165.831535
9.35                 0.867776852      165.492719
9.351                0.867731144      165.154121
9.352                0.867688325      164.815745
9.353                0.867648394      164.477598
9.354                0.867611345      164.139683
9.355                0.867577176      163.802007
9.356                0.867545882      163.464575
9.357                 0.86751746      163.127392
9.358                0.867491905      162.790463
9.359                0.867469211      162.453794
9.36                 0.867449375      162.117389
9.361                 0.86743239      161.781254
9.362                0.867418252      161.445394
9.363                0.867406954      161.109814
9.364                0.867398489       160.77452
9.365                0.867392853      160.439515
9.366                0.867390037      160.104806
9.367                0.867390036      159.770396
9.368                0.867392841      159.436292
9.369                0.867398446      159.102498
9.37                 0.867406843      158.769019
9.371                0.867418024      158.435859
9.372                 0.86743198      158.103025
9.373                0.867448703      157.770519
9.374                0.867468186      157.438348
9.375                0.867490417      157.106516
9.376                 0.86751539      156.775027
9.377                0.867543093      156.443887
9.378                0.867573518        156.1131
9.379                0.867606654       155.78267
9.38                 0.867642492      155.452602
9.381                0.867681021      155.122901
9.382                0.867722231      154.793572
9.383                 0.86776611      154.464618
9.384                0.867812649      154.136044
9.385                0.867861836      153.807855
9.386                0.867913658      153.480055
9.387                0.867968106      153.152647
9.388                0.868025167      152.825638
9.389                0.868084828       152.49903
9.39                 0.868147079      152.172828
9.391                0.868211906      151.847037
9.392                0.868279296       151.52166
9.393                0.868349238      151.196701
9.394                0.868421718      150.872165
9.395                0.868496722      150.548056
9.396                0.868574238      150.224377
