! TOUCHSTONE file generated by CST DESIGN STUDIO
! Date and time: Tue Feb  4 13:17:37 2025
! Project name: C:\Work\MatlabApps\UnitCellOptimizationMatlab\CST\unitcell.cst
! Tree item: Tasks\Sweep1\SPara1\S-Parameters
! Header version: 2024
! Port assignment regex: !\s*Touchstone port\s*([0-9]+)\s*=\s*(CST MWS port|CST DES external port|CST DES block port)\s*(.+)\s* \(\"(.*)\"\)(\s*mode\s*([0-9]+))?.*
! Touchstone port assignment:
! Touchstone port 1 = CST DES external port 1 ("")
# GHz S MA R 50
9                      0.9795594     -82.8556569
9.001                 0.97950343     -82.9906097
9.002                0.979447286     -83.1259108
9.003                0.979390968     -83.2615612
9.004                0.979334476      -83.397562
9.005                 0.97927781     -83.5339141
9.006                 0.97922097     -83.6706185
9.007                0.979163955     -83.8076764
9.008                0.979106766     -83.9450886
9.009                0.979049401     -84.0828562
9.01                 0.978991861     -84.2209803
9.011                0.978934145     -84.3594618
9.012                0.978876253     -84.4983018
9.013                0.978818186     -84.6375012
9.014                0.978759941     -84.7770612
9.015                0.978701521     -84.9169828
9.016                0.978642924     -85.0572669
9.017                0.978584149     -85.1979146
9.018                0.978525198     -85.3389269
9.019                0.978466069     -85.4803049
9.02                 0.978406763     -85.6220496
9.021                0.978347279     -85.7641621
9.022                0.978287616     -85.9066433
9.023                0.978227776     -86.0494942
9.024                0.978167758     -86.1927161
9.025                0.978107561     -86.3363098
9.026                0.978047185     -86.4802763
9.027                 0.97798663     -86.6246169
9.028                0.977925897     -86.7693324
9.029                0.977864984      -86.914424
9.03                 0.977803892     -87.0598926
9.031                0.977742621     -87.2057393
9.032                 0.97768117     -87.3519652
9.033                0.977619539     -87.4985713
9.034                0.977557729     -87.6455586
9.035                0.977495738     -87.7929282
9.036                0.977433567     -87.9406811
9.037                0.977371217     -88.0888185
9.038                0.977308685     -88.2373412
9.039                0.977245974     -88.3862504
9.04                 0.977183082     -88.5355472
9.041                0.977120009     -88.6852325
9.042                0.977056756     -88.8353074
9.043                0.976993322      -88.985773
9.044                0.976929707     -89.1366303
9.045                0.976865911     -89.2878803
9.046                0.976801934     -89.4395242
9.047                0.976737776      -89.591563
9.048                0.976673437     -89.7439976
9.049                0.976608917     -89.8968292
9.05                 0.976544216     -90.0500589
9.051                0.976479334     -90.2036876
9.052                0.976414271     -90.3577164
9.053                0.976349026     -90.5121464
9.054                0.976283601     -90.6669786
9.055                0.976217994      -90.822214
9.056                0.976152206     -90.9778538
9.057                0.976086237      -91.133899
9.058                0.976020087     -91.2903505
9.059                0.975953755     -91.4472095
9.06                 0.975887243     -91.6044771
9.061                 0.97582055     -91.7621541
9.062                0.975753676     -91.9202418
9.063                0.975686621     -92.0787412
9.064                0.975619385     -92.2376532
9.065                0.975551969      -92.396979
9.066                0.975484372     -92.5567196
9.067                0.975416594      -92.716876
9.068                0.975348636     -92.8774493
9.069                0.975280498     -93.0384405
9.07                  0.97521218     -93.1998507
9.071                0.975143682     -93.3616808
9.072                0.975075003      -93.523932
9.073                0.975006146     -93.6866053
9.074                0.974937108     -93.8497017
9.075                0.974867891     -94.0132223
9.076                0.974798495     -94.1771681
9.077                0.974728921       -94.34154
9.078                0.974659167     -94.5063393
9.079                0.974589235     -94.6715668
9.08                 0.974519124     -94.8372236
9.081                0.974448835     -95.0033108
9.082                0.974378368     -95.1698293
9.083                0.974307724     -95.3367802
9.084                0.974236902     -95.5041646
9.085                0.974165904     -95.6719834
9.086                0.974094728     -95.8402376
9.087                0.974023376     -96.0089283
9.088                0.973951848     -96.1780565
9.089                0.973880144     -96.3476232
9.09                 0.973808264     -96.5176294
9.091                0.973736209     -96.6880762
9.092                0.973663979     -96.8589644
9.093                0.973591574     -97.0302952
9.094                0.973518996     -97.2020695
9.095                0.973446243     -97.3742883
9.096                0.973373318     -97.5469527
9.097                0.973300219     -97.7200636
9.098                0.973226948      -97.893622
9.099                0.973153504     -98.0676289
9.1                  0.973079889     -98.2420853
9.101                0.973006103     -98.4169921
9.102                0.972932146     -98.5923504
9.103                0.972858019     -98.7681611
9.104                0.972783722     -98.9444252
9.105                0.972709256     -99.1211437
9.106                0.972634621     -99.2983174
9.107                0.972559818     -99.4759475
9.108                0.972484847     -99.6540349
9.109                0.972409709     -99.8325804
9.11                 0.972334404     -100.011585
9.111                0.972258934      -100.19105
9.112                0.972183298     -100.370976
9.113                0.972107498     -100.551364
9.114                0.972031533     -100.732214
9.115                0.971955405     -100.913529
9.116                0.971879115     -101.095308
9.117                0.971802662     -101.277553
9.118                0.971726048     -101.460265
9.119                0.971649273     -101.643445
9.12                 0.971572338     -101.827092
9.121                0.971495243     -102.011209
9.122                0.971417991     -102.195797
9.123                 0.97134058     -102.380855
9.124                0.971263013     -102.566386
9.125                0.971185289     -102.752389
9.126                 0.97110741     -102.938867
9.127                0.971029376     -103.125819
9.128                0.970951189     -103.313246
9.129                0.970872849      -103.50115
9.13                 0.970794357     -103.689531
9.131                0.970715714     -103.878391
9.132                 0.97063692     -104.067729
9.133                0.970557978     -104.257547
9.134                0.970478887     -104.447846
9.135                0.970399648     -104.638626
9.136                0.970320264     -104.829889
9.137                0.970240733     -105.021635
9.138                0.970161059     -105.213864
9.139                0.970081241     -105.406579
9.14                 0.970001281     -105.599779
9.141                 0.96992118     -105.793465
9.142                0.969840938     -105.987639
9.143                0.969760557       -106.1823
9.144                0.969680039      -106.37745
9.145                0.969599383     -106.573089
9.146                0.969518592     -106.769219
9.147                0.969437666     -106.965839
9.148                0.969356607     -107.162951
9.149                0.969275416     -107.360556
9.15                 0.969194094     -107.558653
9.151                0.969112642     -107.757245
9.152                0.969031062     -107.956331
9.153                0.968949355     -108.155912
9.154                0.968867521      -108.35599
9.155                0.968785564     -108.556563
9.156                0.968703483     -108.757635
9.157                0.968621281     -108.959204
9.158                0.968538958     -109.161271
9.159                0.968456516     -109.363838
9.16                 0.968373956     -109.566905
9.161                0.968291281     -109.770473
9.162                 0.96820849     -109.974542
9.163                0.968125587     -110.179112
9.164                0.968042572     -110.384185
9.165                0.967959446     -110.589761
9.166                0.967876212      -110.79584
9.167                0.967792871     -111.002424
9.168                0.967709424     -111.209512
9.169                0.967625874     -111.417105
9.17                 0.967542221     -111.625205
9.171                0.967458467      -111.83381
9.172                0.967374615     -112.042923
9.173                0.967290665     -112.252543
9.174                 0.96720662     -112.462671
9.175                0.967122481     -112.673307
9.176                 0.96703825     -112.884452
9.177                0.966953929     -113.096106
9.178                0.966869519      -113.30827
9.179                0.966785022     -113.520944
9.18                 0.966700441     -113.734129
9.181                0.966615777     -113.947825
9.182                0.966531032     -114.162033
9.183                0.966446207     -114.376752
9.184                0.966361305     -114.591984
9.185                0.966276328     -114.807728
9.186                0.966191278     -115.023985
9.187                0.966106157     -115.240756
9.188                0.966020966      -115.45804
9.189                0.965935708     -115.675839
9.19                 0.965850385     -115.894151
9.191                0.965764999     -116.112978
9.192                0.965679551     -116.332321
9.193                0.965594045     -116.552178
9.194                0.965508483     -116.772551
9.195                0.965422866     -116.993439
9.196                0.965337197     -117.214843
9.197                0.965251477     -117.436764
9.198                 0.96516571     -117.659201
9.199                0.965079898     -117.882154
9.2                  0.964994042     -118.105624
9.201                0.964908145      -118.32961
9.202                 0.96482221     -118.554114
9.203                0.964736239     -118.779135
9.204                0.964650234     -119.004673
9.205                0.964564198     -119.230728
9.206                0.964478133     -119.457301
9.207                0.964392041     -119.684391
9.208                0.964305925     -119.911999
9.209                0.964219789     -120.140124
9.21                 0.964133633     -120.368767
9.211                0.964047461     -120.597927
9.212                0.963961275     -120.827605
9.213                0.963875078     -121.057801
9.214                0.963788873     -121.288514
9.215                0.963702661     -121.519744
9.216                0.963616447     -121.751492
9.217                0.963530232     -121.983756
9.218                 0.96344402     -122.216538
9.219                0.963357812     -122.449837
9.22                 0.963271613     -122.683653
9.221                0.963185424     -122.917986
9.222                0.963099248     -123.152835
9.223                0.963013089       -123.3882
9.224                0.962926949     -123.624081
9.225                 0.96284083     -123.860478
9.226                0.962754737     -124.097391
9.227                0.962668672     -124.334819
9.228                0.962582638     -124.572762
9.229                0.962496637      -124.81122
9.23                 0.962410674     -125.050192
9.231                 0.96232475     -125.289678
9.232                0.962238869     -125.529678
9.233                0.962153034     -125.770191
9.234                0.962067248     -126.011217
9.235                0.961981515     -126.252755
9.236                0.961895837     -126.494805
9.237                0.961810218     -126.737367
9.238                 0.96172466     -126.980439
9.239                0.961639167     -127.224022
9.24                 0.961553743     -127.468116
9.241                 0.96146839     -127.712718
9.242                0.961383111     -127.957829
9.243                0.961297911     -128.203449
9.244                0.961212792     -128.449576
9.245                0.961127758     -128.696211
9.246                0.961042812     -128.943352
9.247                0.960957958     -129.190998
9.248                0.960873198     -129.439149
9.249                0.960788536     -129.687805
9.25                 0.960703977     -129.936964
9.251                0.960619522     -130.186626
9.252                0.960535177      -130.43679
9.253                0.960450943     -130.687455
9.254                0.960366825     -130.938621
9.255                0.960282827     -131.190286
9.256                0.960198951      -131.44245
9.257                0.960115202     -131.695111
9.258                0.960031583     -131.948269
9.259                0.959948098     -132.201924
9.26                  0.95986475     -132.456073
9.261                0.959781543     -132.710716
9.262                0.959698481     -132.965852
9.263                0.959615567      -133.22148
9.264                0.959532806     -133.477598
9.265                  0.9594502     -133.734207
9.266                0.959367754     -133.991304
9.267                0.959285471     -134.248889
9.268                0.959203355      -134.50696
9.269                0.959121411     -134.765516
9.27                 0.959039641     -135.024556
9.271                0.958958049      -135.28408
9.272                0.958876641     -135.544084
9.273                0.958795418     -135.804569
9.274                0.958714386     -136.065533
9.275                0.958633548     -136.326975
9.276                0.958552908     -136.588893
9.277                 0.95847247     -136.851286
9.278                0.958392238     -137.114153
9.279                0.958312215     -137.377491
9.28                 0.958232407     -137.641301
9.281                0.958152816     -137.905579
9.282                0.958073447     -138.170326
9.283                0.957994304     -138.435538
9.284                 0.95791539     -138.701216
9.285                0.957836711     -138.967356
9.286                0.957758269     -139.233958
9.287                0.957680069      -139.50102
9.288                0.957602115      -139.76854
9.289                0.957524411     -140.036517
9.29                 0.957446961     -140.304949
9.291                0.957369769     -140.573834
9.292                 0.95729284      -140.84317
9.293                0.957216177     -141.112956
9.294                0.957139784      -141.38319
9.295                0.957063665      -141.65387
9.296                0.956987826     -141.924995
9.297                0.956912269     -142.196561
9.298                0.956836999     -142.468568
9.299                 0.95676202     -142.741014
9.3                  0.956687337     -143.013896
9.301                0.956612952     -143.287213
9.302                0.956538871     -143.560962
9.303                0.956465098     -143.835142
9.304                0.956391637      -144.10975
9.305                0.956318491     -144.384785
9.306                0.956245666     -144.660244
9.307                0.956173165     -144.936126
9.308                0.956100992     -145.212427
9.309                0.956029152     -145.489146
9.31                 0.955957648     -145.766281
9.311                0.955886485     -146.043829
9.312                0.955815668     -146.321789
9.313                0.955745199     -146.600157
9.314                0.955675084     -146.878931
9.315                0.955605327      -147.15811
9.316                0.955535931     -147.437691
9.317                0.955466901     -147.717671
9.318                 0.95539824     -147.998049
9.319                0.955329954     -148.278821
9.32                 0.955262046     -148.559985
9.321                 0.95519452     -148.841538
9.322                0.955127381     -149.123479
9.323                0.955060632     -149.405804
9.324                0.954994278     -149.688511
9.325                0.954928323     -149.971598
9.326                 0.95486277     -150.255061
9.327                0.954797624     -150.538899
9.328                 0.95473289     -150.823108
9.329                 0.95466857     -151.107685
9.33                 0.954604669     -151.392629
9.331                0.954541191     -151.677936
9.332                 0.95447814     -151.963603
9.333                0.954415521     -152.249629
9.334                0.954353336     -152.536009
9.335                 0.95429159     -152.822741
9.336                0.954230288     -153.109822
9.337                0.954169432      -153.39725
9.338                0.954109027     -153.685021
9.339                0.954049077     -153.973132
9.34                 0.953989586     -154.261581
9.341                0.953930557     -154.550364
9.342                0.953871995     -154.839479
9.343                0.953813903     -155.128922
9.344                0.953756285     -155.418691
9.345                0.953699145     -155.708782
9.346                0.953642486     -155.999192
9.347                0.953586313     -156.289917
9.348                0.953530629     -156.580956
9.349                0.953475438     -156.872305
9.35                 0.953420743      -157.16396
9.351                0.953366549     -157.455918
9.352                0.953312858     -157.748176
9.353                0.953259675     -158.040731
9.354                0.953207003     -158.333579
9.355                0.953154846     -158.626718
9.356                0.953103206     -158.920143
9.357                0.953052089     -159.213852
9.358                0.953001496     -159.507841
9.359                0.952951432     -159.802107
9.36                 0.952901901     -160.096645
9.361                0.952852904     -160.391454
9.362                0.952804447     -160.686529
9.363                0.952756531     -160.981867
9.364                0.952709161     -161.277464
9.365                0.952662339     -161.573317
9.366                 0.95261607     -161.869423
9.367                0.952570355     -162.165777
9.368                0.952525199     -162.462377
9.369                0.952480605     -162.759218
9.37                 0.952436575     -163.056296
9.371                0.952393112      -163.35361
9.372                 0.95235022     -163.651154
9.373                0.952307902     -163.948925
9.374                 0.95226616     -164.246919
9.375                0.952224998     -164.545133
9.376                0.952184418     -164.843563
9.377                0.952144423     -165.142205
9.378                0.952105016     -165.441055
9.379                  0.9520662      -165.74011
9.38                 0.952027978     -166.039366
9.381                0.951990351     -166.338819
9.382                0.951953324     -166.638465
9.383                0.951916898     -166.938301
9.384                0.951881076     -167.238322
9.385                 0.95184586     -167.538524
9.386                0.951811253     -167.838905
9.387                0.951777258     -168.139459
9.388                0.951743876     -168.440183
9.389                0.951711111     -168.741073
9.39                 0.951678964     -169.042126
9.391                0.951647437     -169.343336
9.392                0.951616534     -169.644701
9.393                0.951586255     -169.946216
9.394                0.951556603     -170.247877
9.395                0.951527581      -170.54968
9.396                 0.95149919     -170.851622
