! TOUCHSTONE file generated by CST DESIGN STUDIO
! Date and time: Tue Feb  4 13:17:41 2025
! Project name: C:\Work\MatlabApps\UnitCellOptimizationMatlab\CST\unitcell.cst
! Tree item: Tasks\Sweep1\SPara1\S-Parameters
! Header version: 2024
! Port assignment regex: !\s*Touchstone port\s*([0-9]+)\s*=\s*(CST MWS port|CST DES external port|CST DES block port)\s*(.+)\s* \(\"(.*)\"\)(\s*mode\s*([0-9]+))?.*
! Touchstone port assignment:
! Touchstone port 1 = CST DES external port 1 ("")
# GHz S MA R 50
9                    0.981071554     -77.7140643
9.001                0.981022166      -77.836202
9.002                0.980972619     -77.9586501
9.003                0.980922913     -78.0814096
9.004                0.980873048     -78.2044813
9.005                0.980823023     -78.3278663
9.006                0.980772839     -78.4515654
9.007                0.980722494     -78.5755797
9.008                 0.98067199       -78.69991
9.009                0.980621324     -78.8245574
9.01                 0.980570498     -78.9495227
9.011                 0.98051951     -79.0748069
9.012                 0.98046836     -79.2004111
9.013                0.980417049      -79.326336
9.014                0.980365575     -79.4525828
9.015                0.980313939     -79.5791524
9.016                 0.98026214     -79.7060457
9.017                0.980210177     -79.8332637
9.018                0.980158051     -79.9608074
9.019                0.980105762     -80.0886777
9.02                 0.980053308     -80.2168757
9.021                 0.98000069     -80.3454022
9.022                0.979947907     -80.4742584
9.023                 0.97989496     -80.6034451
9.024                0.979841847     -80.7329633
9.025                0.979788568      -80.862814
9.026                0.979735124     -80.9929982
9.027                0.979681514      -81.123517
9.028                0.979627737     -81.2543712
9.029                0.979573794     -81.3855619
9.03                 0.979519684       -81.51709
9.031                0.979465407     -81.6489566
9.032                0.979410963     -81.7811626
9.033                0.979356351     -81.9137091
9.034                0.979301571      -82.046597
9.035                0.979246623     -82.1798274
9.036                0.979191506     -82.3134012
9.037                0.979136221     -82.4473195
9.038                0.979080767     -82.5815832
9.039                0.979025143     -82.7161934
9.04                 0.978969351     -82.8511511
9.041                0.978913388     -82.9864572
9.042                0.978857256     -83.1221129
9.043                0.978800954     -83.2581191
9.044                0.978744482     -83.3944767
9.045                0.978687839      -83.531187
9.046                0.978631025     -83.6682507
9.047                0.978574041     -83.8056691
9.048                0.978516885     -83.9434431
9.049                0.978459558     -84.0815736
9.05                  0.97840206     -84.2200619
9.051                0.978344389     -84.3589088
9.052                0.978286547     -84.4981153
9.053                0.978228533     -84.6376827
9.054                0.978170346     -84.7776117
9.055                0.978111987     -84.9179036
9.056                0.978053456     -85.0585592
9.057                0.977994751     -85.1995797
9.058                0.977935874     -85.3409661
9.059                0.977876823     -85.4827194
9.06                 0.977817599     -85.6248406
9.061                0.977758202     -85.7673308
9.062                0.977698631     -85.9101911
9.063                0.977638886     -86.0534224
9.064                0.977578968     -86.1970258
9.065                0.977518875     -86.3410023
9.066                0.977458609     -86.4853531
9.067                0.977398168      -86.630079
9.068                0.977337553     -86.7751813
9.069                0.977276763     -86.9206608
9.07                 0.977215799     -87.0665187
9.071                 0.97715466      -87.212756
9.072                0.977093346     -87.3593738
9.073                0.977031857     -87.5063731
9.074                0.976970194     -87.6537549
9.075                0.976908355     -87.8015203
9.076                0.976846342     -87.9496703
9.077                0.976784153     -88.0982061
9.078                0.976721789     -88.2471286
9.079                 0.97665925     -88.3964389
9.08                 0.976596535      -88.546138
9.081                0.976533645     -88.6962271
9.082                 0.97647058     -88.8467071
9.083                0.976407339     -88.9975791
9.084                0.976343923     -89.1488441
9.085                0.976280331     -89.3005033
9.086                0.976216564     -89.4525576
9.087                0.976152622     -89.6050082
9.088                0.976088504      -89.757856
9.089                 0.97602421     -89.9111022
9.09                 0.975959742     -90.0647477
9.091                0.975895097     -90.2187936
9.092                0.975830278     -90.3732411
9.093                0.975765283      -90.528091
9.094                0.975700113     -90.6833446
9.095                0.975634767     -90.8390028
9.096                0.975569247     -90.9950667
9.097                0.975503551     -91.1515374
9.098                0.975437681     -91.3084158
9.099                0.975371635     -91.4657031
9.1                  0.975305415     -91.6234003
9.101                 0.97523902     -91.7815085
9.102                0.975172451     -91.9400287
9.103                0.975105706     -92.0989619
9.104                0.975038788     -92.2583093
9.105                0.974971696     -92.4180718
9.106                0.974904429     -92.5782505
9.107                0.974836988     -92.7388464
9.108                0.974769374     -92.8998607
9.109                0.974701586     -93.0612942
9.11                 0.974633625     -93.2231482
9.111                0.974565491     -93.3854236
9.112                0.974497184     -93.5481215
9.113                0.974428704     -93.7112429
9.114                0.974360051     -93.8747888
9.115                0.974291226     -94.0387603
9.116                0.974222229     -94.2031585
9.117                 0.97415306     -94.3679843
9.118                0.974083719     -94.5332388
9.119                0.974014208     -94.6989231
9.12                 0.973944525     -94.8650381
9.121                0.973874671     -95.0315849
9.122                0.973804647     -95.1985645
9.123                0.973734453      -95.365978
9.124                0.973664089     -95.5338263
9.125                0.973593556     -95.7021106
9.126                0.973522853     -95.8708317
9.127                0.973451982     -96.0399908
9.128                0.973380942     -96.2095889
9.129                0.973309734     -96.3796269
9.13                 0.973238359     -96.5501059
9.131                0.973166816     -96.7210269
9.132                0.973095107     -96.8923909
9.133                0.973023231     -97.0641989
9.134                0.972951189     -97.2364519
9.135                0.972878981      -97.409151
9.136                0.972806608      -97.582297
9.137                0.972734071      -97.755891
9.138                 0.97266137      -97.929934
9.139                0.972588505      -98.104427
9.14                 0.972515476      -98.279371
9.141                0.972442286     -98.4547669
9.142                0.972368933     -98.6306158
9.143                0.972295418     -98.8069186
9.144                0.972221743     -98.9836762
9.145                0.972147907     -99.1608897
9.146                0.972073911     -99.3385601
9.147                0.971999756     -99.5166882
9.148                0.971925443      -99.695275
9.149                0.971850971     -99.8743216
9.15                 0.971776342     -100.053829
9.151                0.971701557     -100.233798
9.152                0.971626615     -100.414229
9.153                0.971551518     -100.595124
9.154                0.971476266     -100.776483
9.155                0.971400861     -100.958308
9.156                0.971325302     -101.140599
9.157                 0.97124959     -101.323357
9.158                0.971173727     -101.506583
9.159                0.971097713     -101.690278
9.16                 0.971021549     -101.874444
9.161                0.970945235      -102.05908
9.162                0.970868773     -102.244188
9.163                0.970792163     -102.429768
9.164                0.970715406     -102.615822
9.165                0.970638503     -102.802351
9.166                0.970561454     -102.989354
9.167                0.970484262     -103.176834
9.168                0.970406926     -103.364791
9.169                0.970329448     -103.553226
9.17                 0.970251828      -103.74214
9.171                0.970174067     -103.931534
9.172                0.970096167     -104.121407
9.173                0.970018129     -104.311762
9.174                0.969939952       -104.5026
9.175                 0.96986164      -104.69392
9.176                0.969783191     -104.885724
9.177                0.969704609     -105.078013
9.178                0.969625892     -105.270787
9.179                0.969547044     -105.464047
9.18                 0.969468064     -105.657794
9.181                0.969388954      -105.85203
9.182                0.969309716     -106.046753
9.183                0.969230349     -106.241966
9.184                0.969150856     -106.437669
9.185                0.969071238     -106.633864
9.186                0.968991495     -106.830549
9.187                 0.96891163     -107.027727
9.188                0.968831643     -107.225399
9.189                0.968751535     -107.423564
9.19                 0.968671308     -107.622223
9.191                0.968590964     -107.821378
9.192                0.968510503     -108.021029
9.193                0.968429927     -108.221177
9.194                0.968349237     -108.421822
9.195                0.968268435     -108.622965
9.196                0.968187522     -108.824607
9.197                  0.9681065     -109.026748
9.198                0.968025369      -109.22939
9.199                0.967944132     -109.432532
9.2                  0.967862789     -109.636175
9.201                0.967781343      -109.84032
9.202                0.967699795     -110.044968
9.203                0.967618146     -110.250119
9.204                0.967536399     -110.455774
9.205                0.967454554     -110.661934
9.206                0.967372613     -110.868598
9.207                0.967290578     -111.075768
9.208                0.967208451     -111.283443
9.209                0.967126232     -111.491626
9.21                 0.967043925     -111.700316
9.211                 0.96696153     -111.909513
9.212                 0.96687905     -112.119218
9.213                0.966796485     -112.329433
9.214                0.966713839     -112.540156
9.215                0.966631112      -112.75139
9.216                0.966548306     -112.963133
9.217                0.966465424     -113.175387
9.218                0.966382467     -113.388152
9.219                0.966299437     -113.601429
9.22                 0.966216336     -113.815218
9.221                0.966133166     -114.029519
9.222                0.966049929     -114.244332
9.223                0.965966627     -114.459659
9.224                0.965883261       -114.6755
9.225                0.965799834     -114.891854
9.226                0.965716348     -115.108723
9.227                0.965632805     -115.326106
9.228                0.965549208     -115.544005
9.229                0.965465557     -115.762418
9.23                 0.965381855     -115.981347
9.231                0.965298105     -116.200792
9.232                0.965214308     -116.420753
9.233                0.965130468      -116.64123
9.234                0.965046585     -116.862224
9.235                0.964962662     -117.083735
9.236                0.964878702     -117.305763
9.237                0.964794707     -117.528309
9.238                0.964710679     -117.751371
9.239                 0.96462662     -117.974952
9.24                 0.964542534      -118.19905
9.241                0.964458421     -118.423666
9.242                0.964374285       -118.6488
9.243                0.964290128     -118.874452
9.244                0.964205953     -119.100623
9.245                0.964121761     -119.327312
9.246                0.964037556      -119.55452
9.247                 0.96395334     -119.782246
9.248                0.963869115     -120.010491
9.249                0.963784885     -120.239254
9.25                 0.963700651     -120.468536
9.251                0.963616416     -120.698336
9.252                0.963532184     -120.928655
9.253                0.963447956     -121.159493
9.254                0.963363735     -121.390849
9.255                0.963279524     -121.622723
9.256                0.963195326     -121.855115
9.257                0.963111143     -122.088026
9.258                0.963026979     -122.321455
9.259                0.962942836     -122.555402
9.26                 0.962858716     -122.789866
9.261                0.962774623     -123.024848
9.262                 0.96269056     -123.260348
9.263                0.962606529     -123.496364
9.264                0.962522534     -123.732898
9.265                0.962438577     -123.969948
9.266                0.962354661     -124.207514
9.267                0.962270789     -124.445597
9.268                0.962186965     -124.684195
9.269                0.962103191     -124.923309
9.27                  0.96201947     -125.162938
9.271                0.961935805     -125.403081
9.272                0.961852201      -125.64374
9.273                0.961768658     -125.884911
9.274                0.961685182     -126.126597
9.275                0.961601774     -126.368796
9.276                0.961518438     -126.611507
9.277                0.961435178      -126.85473
9.278                0.961351996     -127.098465
9.279                0.961268896     -127.342711
9.28                 0.961185881     -127.587468
9.281                0.961102954     -127.832734
9.282                0.961020119      -128.07851
9.283                0.960937379     -128.324795
9.284                0.960854737     -128.571588
9.285                0.960772197     -128.818889
9.286                0.960689761     -129.066696
9.287                0.960607435      -129.31501
9.288                 0.96052522     -129.563829
9.289                 0.96044312     -129.813152
9.29                 0.960361139      -130.06298
9.291                0.960279281     -130.313311
9.292                0.960197548     -130.564144
9.293                0.960115945     -130.815478
9.294                0.960034474     -131.067314
9.295                 0.95995314     -131.319649
9.296                0.959871946     -131.572483
9.297                0.959790896     -131.825815
9.298                0.959709993     -132.079644
9.299                 0.95962924     -132.333969
9.3                  0.959548643      -132.58879
9.301                0.959468203     -132.844104
9.302                0.959387926     -133.099912
9.303                0.959307814     -133.356211
9.304                0.959227871     -133.613002
9.305                0.959148102     -133.870282
9.306                0.959068509     -134.128052
9.307                0.958989097     -134.386308
9.308                0.958909869     -134.645052
9.309                0.958830829      -134.90428
9.31                 0.958751982     -135.163992
9.311                 0.95867333     -135.424188
9.312                0.958594878     -135.684864
9.313                0.958516629     -135.946021
9.314                0.958438588     -136.207657
9.315                0.958360758      -136.46977
9.316                0.958283143     -136.732359
9.317                0.958205748     -136.995423
9.318                0.958128575     -137.258961
9.319                0.958051629      -137.52297
9.32                 0.957974914      -137.78745
9.321                0.957898434     -138.052399
9.322                0.957822193     -138.317815
9.323                0.957746195     -138.583698
9.324                0.957670443     -138.850044
9.325                0.957594942     -139.116853
9.326                0.957519696     -139.384124
9.327                0.957444709     -139.651853
9.328                0.957369984     -139.920041
9.329                0.957295526     -140.188685
9.33                 0.957221339     -140.457783
9.331                0.957147427     -140.727334
9.332                0.957073794     -140.997335
9.333                0.957000445     -141.267786
9.334                0.956927382     -141.538684
9.335                 0.95685461     -141.810027
9.336                0.956782133     -142.081814
9.337                0.956709956     -142.354043
9.338                0.956638082     -142.626711
9.339                0.956566516     -142.899817
9.34                 0.956495261     -143.173359
9.341                0.956424322     -143.447334
9.342                0.956353702     -143.721741
9.343                0.956283407     -143.996578
9.344                0.956213439     -144.271843
9.345                0.956143803     -144.547533
9.346                0.956074504     -144.823646
9.347                0.956005544     -145.100181
9.348                0.955936929     -145.377134
9.349                0.955868663     -145.654505
9.35                 0.955800749      -145.93229
9.351                0.955733191     -146.210487
9.352                0.955665994     -146.489094
9.353                0.955599162     -146.768109
9.354                0.955532698     -147.047529
9.355                0.955466608     -147.327352
9.356                0.955400894     -147.607576
9.357                0.955335561     -147.888197
9.358                0.955270614     -148.169215
9.359                0.955206055     -148.450626
9.36                  0.95514189     -148.732427
9.361                0.955078122     -149.014617
9.362                0.955014755     -149.297192
9.363                0.954951794     -149.580151
9.364                0.954889241      -149.86349
9.365                0.954827102     -150.147207
9.366                 0.95476538     -150.431299
9.367                0.954704079     -150.715763
9.368                0.954643204     -151.000597
9.369                0.954582757     -151.285799
9.37                 0.954522744     -151.571365
9.371                0.954463167     -151.857292
9.372                0.954404031     -152.143578
9.373                 0.95434534      -152.43022
9.374                0.954287098     -152.717215
9.375                0.954229308     -153.004561
9.376                0.954171975     -153.292253
9.377                0.954115101      -153.58029
9.378                0.954058692     -153.868669
9.379                 0.95400275     -154.157386
9.38                  0.95394728     -154.446438
9.381                0.953892285     -154.735823
9.382                 0.95383777     -155.025537
9.383                0.953783736     -155.315578
9.384                 0.95373019     -155.605942
9.385                0.953677133     -155.896626
9.386                 0.95362457     -156.187627
9.387                0.953572505     -156.478941
9.388                 0.95352094     -156.770567
9.389                 0.95346988     -157.062499
9.39                 0.953419328     -157.354736
9.391                0.953369288     -157.647274
9.392                0.953319763      -157.94011
9.393                0.953270756     -158.233239
9.394                0.953222271      -158.52666
9.395                0.953174312     -158.820369
9.396                0.953126881     -159.114362
