! TOUCHSTONE file generated by CST DESIGN STUDIO
! Date and time: Tue Feb  4 13:17:35 2025
! Project name: C:\Work\MatlabApps\UnitCellOptimizationMatlab\CST\unitcell.cst
! Tree item: Tasks\Sweep1\SPara1\S-Parameters
! Header version: 2024
! Port assignment regex: !\s*Touchstone port\s*([0-9]+)\s*=\s*(CST MWS port|CST DES external port|CST DES block port)\s*(.+)\s* \(\"(.*)\"\)(\s*mode\s*([0-9]+))?.*
! Touchstone port assignment:
! Touchstone port 1 = CST DES external port 1 ("")
# GHz S MA R 50
9                     0.97907599     -84.4892314
9.001                0.979018136     -84.6284299
9.002                0.978960103     -84.7679889
9.003                 0.97890189     -84.9079093
9.004                0.978843498     -85.0481923
9.005                0.978784926     -85.1888388
9.006                0.978726174     -85.3298499
9.007                0.978667241     -85.4712267
9.008                0.978608128     -85.6129701
9.009                0.978548835     -85.7550811
9.01                  0.97848936     -85.8975609
9.011                0.978429704     -86.0404104
9.012                0.978369867     -86.1836307
9.013                0.978309849     -86.3272229
9.014                0.978249648     -86.4711879
9.015                0.978189266     -86.6155268
9.016                0.978128702     -86.7602406
9.017                0.978067956     -86.9053305
9.018                0.978007027     -87.0507973
9.019                0.977945916     -87.1966422
9.02                 0.977884622     -87.3428662
9.021                0.977823145     -87.4894704
9.022                0.977761485     -87.6364558
9.023                0.977699642     -87.7838234
9.024                0.977637616     -87.9315743
9.025                0.977575407     -88.0797095
9.026                0.977513014     -88.2282302
9.027                0.977450437     -88.3771372
9.028                0.977387677     -88.5264317
9.029                0.977324733     -88.6761148
9.03                 0.977261605     -88.8261874
9.031                0.977198293     -88.9766506
9.032                0.977134797     -89.1275056
9.033                0.977071117     -89.2787532
9.034                0.977007252     -89.4303946
9.035                0.976943204     -89.5824308
9.036                0.976878971     -89.7348629
9.037                0.976814553      -89.887692
9.038                0.976749951      -90.040919
9.039                0.976685165      -90.194545
9.04                 0.976620194     -90.3485711
9.041                0.976555039     -90.5029983
9.042                0.976489699     -90.6578277
9.043                0.976424174     -90.8130603
9.044                0.976358465     -90.9686972
9.045                0.976292572     -91.1247394
9.046                0.976226493      -91.281188
9.047                0.976160231      -91.438044
9.048                0.976093784     -91.5953085
9.049                0.976027152     -91.7529825
9.05                 0.975960336      -91.911067
9.051                0.975893336     -92.0695632
9.052                0.975826151     -92.2284721
9.053                0.975758783     -92.3877946
9.054                 0.97569123     -92.5475319
9.055                0.975623493      -92.707685
9.056                0.975555572     -92.8682549
9.057                0.975487467     -93.0292427
9.058                0.975419179     -93.1906495
9.059                0.975350706     -93.3524762
9.06                 0.975282051     -93.5147239
9.061                0.975213212     -93.6773937
9.062                 0.97514419     -93.8404865
9.063                0.975074985     -94.0040034
9.064                0.975005597     -94.1679456
9.065                0.974936026     -94.3323138
9.066                0.974866273     -94.4971094
9.067                0.974796337     -94.6623331
9.068                0.974726219     -94.8279862
9.069                 0.97465592     -94.9940695
9.07                 0.974585439     -95.1605842
9.071                0.974514776     -95.3275313
9.072                0.974443932     -95.4949117
9.073                0.974372908     -95.6627265
9.074                0.974301703     -95.8309768
9.075                0.974230317     -95.9996635
9.076                0.974158751     -96.1687877
9.077                0.974087006     -96.3383503
9.078                0.974015081     -96.5083524
9.079                0.973942977      -96.678795
9.08                 0.973870694     -96.8496791
9.081                0.973798232     -97.0210057
9.082                0.973725593     -97.1927758
9.083                0.973652776     -97.3649904
9.084                0.973579781     -97.5376505
9.085                 0.97350661     -97.7107571
9.086                0.973433262     -97.8843112
9.087                0.973359737     -98.0583137
9.088                0.973286038     -98.2327657
9.089                0.973212163     -98.4076682
9.09                 0.973138113      -98.583022
9.091                0.973063888     -98.7588283
9.092                 0.97298949     -98.9350879
9.093                0.972914919     -99.1118019
9.094                0.972840174     -99.2889712
9.095                0.972765258     -99.4665967
9.096                0.972690169     -99.6446795
9.097                 0.97261491     -99.8232205
9.098                0.972539479     -100.002221
9.099                0.972463878     -100.181681
9.1                  0.972388108     -100.361602
9.101                0.972312169     -100.541985
9.102                0.972236062     -100.722831
9.103                0.972159787     -100.904141
9.104                0.972083345     -101.085916
9.105                0.972006736     -101.268156
9.106                0.971929962     -101.450863
9.107                0.971853023     -101.634038
9.108                0.971775919     -101.817681
9.109                0.971698652     -102.001793
9.11                 0.971621222     -102.186376
9.111                 0.97154363     -102.371429
9.112                0.971465876     -102.556955
9.113                0.971387962     -102.742954
9.114                0.971309888     -102.929426
9.115                0.971231655     -103.116374
9.116                0.971153264     -103.303796
9.117                0.971074716     -103.491695
9.118                0.970996011     -103.680072
9.119                 0.97091715     -103.868926
9.12                 0.970838135      -104.05826
9.121                0.970758966     -104.248073
9.122                0.970679645     -104.438367
9.123                0.970600171     -104.629142
9.124                0.970520546       -104.8204
9.125                0.970440772     -105.012141
9.126                0.970360848     -105.204366
9.127                0.970280776     -105.397075
9.128                0.970200558      -105.59027
9.129                0.970120194     -105.783952
9.13                 0.970039684      -105.97812
9.131                0.969959031     -106.172777
9.132                0.969878236     -106.367922
9.133                0.969797298     -106.563556
9.134                0.969716221     -106.759681
9.135                0.969635004     -106.956296
9.136                0.969553649     -107.153404
9.137                0.969472157     -107.351003
9.138                 0.96939053     -107.549096
9.139                0.969308768     -107.747683
9.14                 0.969226873     -107.946764
9.141                0.969144846     -108.146341
9.142                0.969062688     -108.346413
9.143                0.968980402     -108.546982
9.144                0.968897987     -108.748049
9.145                0.968815445     -108.949613
9.146                0.968732778     -109.151676
9.147                0.968649987     -109.354238
9.148                0.968567074     -109.557301
9.149                 0.96848404     -109.760863
9.15                 0.968400886     -109.964927
9.151                0.968317614     -110.169493
9.152                0.968234225     -110.374561
9.153                0.968150721     -110.580133
9.154                0.968067104     -110.786208
9.155                0.967983374     -110.992787
9.156                0.967899534      -111.19987
9.157                0.967815585     -111.407459
9.158                0.967731529     -111.615554
9.159                0.967647367     -111.824155
9.16                 0.967563101     -112.033264
9.161                0.967478733     -112.242879
9.162                0.967394264     -112.453003
9.163                0.967309697     -112.663634
9.164                0.967225032     -112.874775
9.165                0.967140272     -113.086425
9.166                0.967055418     -113.298585
9.167                0.966970472     -113.511255
9.168                0.966885436     -113.724436
9.169                0.966800313     -113.938128
9.17                 0.966715103     -114.152331
9.171                0.966629809     -114.367047
9.172                0.966544432     -114.582275
9.173                0.966458975     -114.798015
9.174                0.966373439     -115.014268
9.175                0.966287827     -115.231035
9.176                0.966202141     -115.448316
9.177                0.966116382      -115.66611
9.178                0.966030552     -115.884419
9.179                0.965944655     -116.103243
9.18                 0.965858691     -116.322582
9.181                0.965772663     -116.542436
9.182                0.965686573     -116.762805
9.183                0.965600423      -116.98369
9.184                0.965514216     -117.205091
9.185                0.965427953     -117.427008
9.186                0.965341638     -117.649442
9.187                0.965255272     -117.872392
9.188                0.965168857     -118.095859
9.189                0.965082396     -118.319843
9.19                 0.964995891     -118.544344
9.191                0.964909344     -118.769362
9.192                0.964822759     -118.994897
9.193                0.964736137      -119.22095
9.194                 0.96464948      -119.44752
9.195                0.964562792     -119.674607
9.196                0.964476075     -119.902213
9.197                 0.96438933     -120.130336
9.198                0.964302562     -120.358976
9.199                0.964215772     -120.588134
9.2                  0.964128962      -120.81781
9.201                0.964042137     -121.048003
9.202                0.963955297     -121.278714
9.203                0.963868446     -121.509943
9.204                0.963781586     -121.741689
9.205                0.963694721     -121.973952
9.206                0.963607852     -122.206732
9.207                0.963520984      -122.44003
9.208                0.963434117     -122.673844
9.209                0.963347256     -122.908175
9.21                 0.963260402     -123.143023
9.211                 0.96317356     -123.378387
9.212                0.963086731     -123.614268
9.213                0.962999919     -123.850664
9.214                0.962913126     -124.087576
9.215                0.962826356     -124.325003
9.216                0.962739611     -124.562946
9.217                0.962652895     -124.801403
9.218                 0.96256621     -125.040375
9.219                 0.96247956     -125.279861
9.22                 0.962392947      -125.51986
9.221                0.962306374     -125.760373
9.222                0.962219845     -126.001399
9.223                0.962133364     -126.242937
9.224                0.962046932     -126.484988
9.225                0.961960553      -126.72755
9.226                 0.96187423     -126.970623
9.227                0.961787967     -127.214207
9.228                0.961701767     -127.458301
9.229                0.961615633     -127.702905
9.23                 0.961529568     -127.948017
9.231                0.961443576     -128.193638
9.232                 0.96135766     -128.439767
9.233                0.961271823     -128.686403
9.234                0.961186068     -128.933545
9.235                  0.9611004     -129.181193
9.236                0.961014821     -129.429347
9.237                0.960929336     -129.678004
9.238                0.960843946     -129.927166
9.239                0.960758657      -130.17683
9.24                  0.96067347     -130.426997
9.241                0.960588391     -130.677665
9.242                0.960503422     -130.928833
9.243                0.960418567     -131.180501
9.244                0.960333829     -131.432668
9.245                0.960249213     -131.685333
9.246                0.960164721     -131.938494
9.247                0.960080358     -132.192152
9.248                0.959996127     -132.446305
9.249                0.959912032     -132.700952
9.25                 0.959828076     -132.956092
9.251                0.959744263     -133.211724
9.252                0.959660597     -133.467847
9.253                0.959577081     -133.724461
9.254                 0.95949372     -133.981562
9.255                0.959410517     -134.239152
9.256                0.959327476     -134.497228
9.257                0.959244601      -134.75579
9.258                0.959161896     -135.014836
9.259                0.959079364     -135.274365
9.26                 0.958997009     -135.534375
9.261                0.958914836     -135.794866
9.262                0.958832847     -136.055837
9.263                0.958751048     -136.317285
9.264                0.958669441     -136.579209
9.265                0.958588032     -136.841609
9.266                0.958506823     -137.104483
9.267                0.958425819     -137.367829
9.268                0.958345024     -137.631645
9.269                0.958264441     -137.895932
9.27                 0.958184076     -138.160686
9.271                0.958103931     -138.425907
9.272                0.958024011     -138.691592
9.273                 0.95794432     -138.957741
9.274                0.957864862     -139.224352
9.275                 0.95778564     -139.491423
9.276                 0.95770666     -139.758952
9.277                0.957627925     -140.026938
9.278                 0.95754944     -140.295379
9.279                0.957471207     -140.564274
9.28                 0.957393233      -140.83362
9.281                0.957315519     -141.103416
9.282                0.957238072     -141.373661
9.283                0.957160894     -141.644351
9.284                 0.95708399     -141.915486
9.285                0.957007364     -142.187064
9.286                0.956931021     -142.459082
9.287                0.956854964     -142.731539
9.288                0.956779198     -143.004433
9.289                0.956703727     -143.277762
9.29                 0.956628554     -143.551523
9.291                0.956553685     -143.825716
9.292                0.956479123     -144.100337
9.293                0.956404872     -144.375385
9.294                0.956330937     -144.650857
9.295                0.956257322     -144.926752
9.296                0.956184031     -145.203067
9.297                0.956111069       -145.4798
9.298                0.956038438     -145.756949
9.299                0.955966145     -146.034511
9.3                  0.955894192     -146.312485
9.301                0.955822584     -146.590869
9.302                0.955751326     -146.869658
9.303                0.955680421     -147.148853
9.304                0.955609873     -147.428449
9.305                0.955539687     -147.708445
9.306                0.955469867     -147.988839
9.307                0.955400417     -148.269627
9.308                0.955331342     -148.550808
9.309                0.955262644     -148.832378
9.31                  0.95519433     -149.114336
9.311                0.955126402     -149.396679
9.312                0.955058865     -149.679404
9.313                0.954991723     -149.962509
9.314                0.954924979      -150.24599
9.315                 0.95485864     -150.529847
9.316                0.954792707     -150.814074
9.317                0.954727186     -151.098671
9.318                 0.95466208     -151.383634
9.319                0.954597394     -151.668961
9.32                 0.954533131     -151.954649
9.321                0.954469296     -152.240694
9.322                0.954405893     -152.527095
9.323                0.954342926     -152.813848
9.324                0.954280398      -153.10095
9.325                0.954218314     -153.388399
9.326                0.954156677     -153.676192
9.327                0.954095492     -153.964325
9.328                0.954034763     -154.252797
9.329                0.953974493     -154.541602
9.33                 0.953914686      -154.83074
9.331                0.953855347     -155.120206
9.332                0.953796479     -155.409998
9.333                0.953738086     -155.700113
9.334                0.953680171     -155.990547
9.335                 0.95362274     -156.281297
9.336                0.953565794     -156.572361
9.337                0.953509339     -156.863734
9.338                0.953453378     -157.155414
9.339                0.953397914     -157.447398
9.34                 0.953342951     -157.739682
9.341                0.953288494     -158.032263
9.342                0.953234545     -158.325138
9.343                0.953181108     -158.618303
9.344                0.953128187     -158.911756
9.345                0.953075786     -159.205492
9.346                0.953023907     -159.499508
9.347                0.952972555     -159.793802
9.348                0.952921732     -160.088369
9.349                0.952871443     -160.383206
9.35                 0.952821691      -160.67831
9.351                0.952772479     -160.973677
9.352                 0.95272381     -161.269304
9.353                0.952675688     -161.565187
9.354                0.952628116     -161.861323
9.355                0.952581097     -162.157708
9.356                0.952534635     -162.454338
9.357                0.952488733      -162.75121
9.358                0.952443394      -163.04832
9.359                 0.95239862     -163.345665
9.36                 0.952354416     -163.643241
9.361                0.952310784     -163.941045
9.362                0.952267727     -164.239072
9.363                0.952225248     -164.537319
9.364                0.952183351     -164.835782
9.365                0.952142037     -165.134457
9.366                 0.95210131     -165.433342
9.367                0.952061173     -165.732431
9.368                0.952021628     -166.031721
9.369                0.951982678     -166.331209
9.37                 0.951944326      -166.63089
9.371                0.951906575     -166.930761
9.372                0.951869427     -167.230818
9.373                0.951832884     -167.531057
9.374                 0.95179695     -167.831474
9.375                0.951761626     -168.132065
9.376                0.951726916     -168.432826
9.377                0.951692821     -168.733753
9.378                0.951659344     -169.034844
9.379                0.951626487     -169.336092
9.38                 0.951594253     -169.637495
9.381                0.951562644     -169.939049
9.382                0.951531661     -170.240749
9.383                0.951501307     -170.542591
9.384                0.951471584     -170.844572
9.385                0.951442495     -171.146688
9.386                 0.95141404     -171.448934
9.387                0.951386222     -171.751306
9.388                0.951359044     -172.053801
9.389                0.951332506     -172.356414
9.39                  0.95130661     -172.659142
9.391                0.951281359     -172.961979
9.392                0.951256753     -173.264923
9.393                0.951232795     -173.567968
9.394                0.951209487     -173.871111
9.395                0.951186828     -174.174348
9.396                0.951164822     -174.477675
