! TOUCHSTONE file generated by CST DESIGN STUDIO
! Date and time: Tue Feb  4 13:17:49 2025
! Project name: C:\Work\MatlabApps\UnitCellOptimizationMatlab\CST\unitcell.cst
! Tree item: Tasks\Sweep1\SPara1\S-Parameters
! Header version: 2024
! Port assignment regex: !\s*Touchstone port\s*([0-9]+)\s*=\s*(CST MWS port|CST DES external port|CST DES block port)\s*(.+)\s* \(\"(.*)\"\)(\s*mode\s*([0-9]+))?.*
! Touchstone port assignment:
! Touchstone port 1 = CST DES external port 1 ("")
# GHz S MA R 50
9                    0.983536654      -69.132563
9.001                0.983497461     -69.2348495
9.002                0.983458143     -69.3373865
9.003                0.983418699     -69.4401749
9.004                 0.98337913     -69.5432154
9.005                0.983339435     -69.6465089
9.006                0.983299613      -69.750056
9.007                0.983259665     -69.8538577
9.008                 0.98321959     -69.9579146
9.009                0.983179387     -70.0622277
9.01                 0.983139057     -70.1667978
9.011                0.983098598     -70.2716255
9.012                0.983058011     -70.3767118
9.013                0.983017296     -70.4820574
9.014                0.982976451     -70.5876633
9.015                0.982935477     -70.6935301
9.016                0.982894373     -70.7996587
9.017                 0.98285314     -70.9060499
9.018                0.982811775     -71.0127046
9.019                 0.98277028     -71.1196236
9.02                 0.982728655     -71.2268077
9.021                0.982686897     -71.3342577
9.022                0.982645008     -71.4419745
9.023                0.982602987     -71.5499589
9.024                0.982560833     -71.6582118
9.025                0.982518547      -71.766734
9.026                0.982476128     -71.8755263
9.027                0.982433575     -71.9845896
9.028                0.982390889     -72.0939247
9.029                0.982348068     -72.2035326
9.03                 0.982305113     -72.3134139
9.031                0.982262024     -72.4235697
9.032                0.982218799     -72.5340007
9.033                0.982175439     -72.6447079
9.034                0.982131943      -72.755692
9.035                0.982088311      -72.866954
9.036                0.982044543     -72.9784947
9.037                0.982000638      -73.090315
9.038                0.981956597     -73.2024157
9.039                0.981912417     -73.3147978
9.04                 0.981868101     -73.4274621
9.041                0.981823646     -73.5404095
9.042                0.981779053     -73.6536408
9.043                0.981734321     -73.7671571
9.044                 0.98168945     -73.8809591
9.045                 0.98164444     -73.9950477
9.046                 0.98159929     -74.1094238
9.047                0.981554001     -74.2240884
9.048                0.981508571     -74.3390424
9.049                0.981463001     -74.4542865
9.05                  0.98141729     -74.5698218
9.051                0.981371437     -74.6856491
9.052                0.981325443     -74.8017693
9.053                0.981279307     -74.9181834
9.054                0.981233029     -75.0348923
9.055                0.981186609     -75.1518968
9.056                0.981140046     -75.2691979
9.057                 0.98109334     -75.3867965
9.058                 0.98104649     -75.5046936
9.059                0.980999497       -75.62289
9.06                 0.980952359     -75.7413867
9.061                0.980905078     -75.8601846
9.062                0.980857651     -75.9792846
9.063                 0.98081008     -76.0986877
9.064                0.980762364     -76.2183949
9.065                0.980714502     -76.3384069
9.066                0.980666494     -76.4587249
9.067                 0.98061834     -76.5793496
9.068                 0.98057004     -76.7002821
9.069                0.980521593     -76.8215234
9.07                 0.980472999     -76.9430743
9.071                0.980424258     -77.0649358
9.072                0.980375369     -77.1871089
9.073                0.980326332     -77.3095945
9.074                0.980277148     -77.4323936
9.075                0.980227814     -77.5555071
9.076                0.980178332      -77.678936
9.077                0.980128701     -77.8026813
9.078                0.980078921      -77.926744
9.079                0.980028991     -78.0511249
9.08                 0.979978911     -78.1758251
9.081                0.979928681     -78.3008455
9.082                0.979878301     -78.4261872
9.083                 0.97982777      -78.551851
9.084                0.979777089     -78.6778381
9.085                0.979726256     -78.8041493
9.086                0.979675271     -78.9307856
9.087                0.979624135      -79.057748
9.088                0.979572847     -79.1850376
9.089                0.979521407     -79.3126553
9.09                 0.979469814     -79.4406021
9.091                0.979418068     -79.5688789
9.092                 0.97936617     -79.6974869
9.093                0.979314118     -79.8264269
9.094                0.979261913        -79.9557
9.095                0.979209554     -80.0853072
9.096                0.979157041     -80.2152495
9.097                0.979104374     -80.3455279
9.098                0.979051553     -80.4761434
9.099                0.978998576      -80.607097
9.1                  0.978945445     -80.7383897
9.101                0.978892159     -80.8700225
9.102                0.978838718     -81.0019966
9.103                0.978785121     -81.1343127
9.104                0.978731368     -81.2669721
9.105                 0.97867746     -81.3999757
9.106                0.978623395     -81.5333245
9.107                0.978569174     -81.6670196
9.108                0.978514796     -81.8010619
9.109                0.978460261     -81.9354526
9.11                  0.97840557     -82.0701926
9.111                0.978350721      -82.205283
9.112                0.978295715     -82.3407248
9.113                0.978240551      -82.476519
9.114                 0.97818523     -82.6126667
9.115                 0.97812975      -82.749169
9.116                0.978074113     -82.8860268
9.117                0.978018317     -83.0232411
9.118                0.977962363     -83.1608132
9.119                0.977906251     -83.2987439
9.12                 0.977849979     -83.4370343
9.121                0.977793549     -83.5756855
9.122                 0.97773696     -83.7146986
9.123                0.977680211     -83.8540745
9.124                0.977623303     -83.9938143
9.125                0.977566236     -84.1339191
9.126                0.977509009       -84.27439
9.127                0.977451623      -84.415228
9.128                0.977394076     -84.5564341
9.129                 0.97733637     -84.6980094
9.13                 0.977278503      -84.839955
9.131                0.977220476     -84.9822719
9.132                0.977162289     -85.1249612
9.133                0.977103942     -85.2680239
9.134                0.977045434     -85.4114612
9.135                0.976986765     -85.5552741
9.136                0.976927936     -85.6994636
9.137                0.976868946     -85.8440308
9.138                0.976809795     -85.9889768
9.139                0.976750484     -86.1343027
9.14                 0.976691011     -86.2800095
9.141                0.976631377     -86.4260983
9.142                0.976571582     -86.5725701
9.143                0.976511626     -86.7194262
9.144                0.976451509     -86.8666674
9.145                0.976391231     -87.0142949
9.146                0.976330792     -87.1623098
9.147                0.976270191     -87.3107132
9.148                0.976209429      -87.459506
9.149                0.976148505     -87.6086895
9.15                 0.976087421     -87.7582647
9.151                0.976026175     -87.9082326
9.152                0.975964767     -88.0585943
9.153                0.975903199      -88.209351
9.154                0.975841469     -88.3605037
9.155                0.975779578     -88.5120534
9.156                0.975717526     -88.6640013
9.157                0.975655313     -88.8163485
9.158                0.975592938      -88.969096
9.159                0.975530402     -89.1222449
9.16                 0.975467706     -89.2757962
9.161                0.975404848     -89.4297512
9.162                 0.97534183     -89.5841108
9.163                0.975278651     -89.7388761
9.164                0.975215311     -89.8940483
9.165                0.975151811     -90.0496284
9.166                 0.97508815     -90.2056174
9.167                0.975024329     -90.3620165
9.168                0.974960347     -90.5188268
9.169                0.974896205     -90.6760493
9.17                 0.974831904     -90.8336851
9.171                0.974767442     -90.9917353
9.172                0.974702821      -91.150201
9.173                0.974638041     -91.3090833
9.174                  0.9745731     -91.4683831
9.175                0.974508001     -91.6281018
9.176                0.974442743     -91.7882402
9.177                0.974377326     -91.9487994
9.178                 0.97431175     -92.1097807
9.179                0.974246016     -92.2711849
9.18                 0.974180124     -92.4330133
9.181                0.974114074     -92.5952669
9.182                0.974047866     -92.7579467
9.183                0.973981501     -92.9210538
9.184                0.973914978     -93.0845894
9.185                0.973848299     -93.2485544
9.186                0.973781463       -93.41295
9.187                 0.97371447     -93.5777772
9.188                0.973647322      -93.743037
9.189                0.973580017     -93.9087307
9.19                 0.973512558     -94.0748591
9.191                0.973444943     -94.2414234
9.192                0.973377173     -94.4084247
9.193                0.973309249      -94.575864
9.194                0.973241171     -94.7437423
9.195                0.973172939     -94.9120607
9.196                0.973104554     -95.0808204
9.197                0.973036016     -95.2500222
9.198                0.972967325     -95.4196674
9.199                0.972898482     -95.5897568
9.2                  0.972829488     -95.7602917
9.201                0.972760342      -95.931273
9.202                0.972691045     -96.1027017
9.203                0.972621598      -96.274579
9.204                0.972552002     -96.4469058
9.205                0.972482255     -96.6196832
9.206                 0.97241236     -96.7929122
9.207                0.972342316     -96.9665939
9.208                0.972272125     -97.1407292
9.209                0.972201786     -97.3153193
9.21                   0.9721313      -97.490365
9.211                0.972060668     -97.6658676
9.212                 0.97198989     -97.8418279
9.213                0.971918967      -98.018247
9.214                  0.9718479     -98.1951258
9.215                0.971776688     -98.3724655
9.216                0.971705333      -98.550267
9.217                0.971633836     -98.7285313
9.218                0.971562196     -98.9072594
9.219                0.971490415     -99.0864523
9.22                 0.971418494      -99.266111
9.221                0.971346432     -99.4462365
9.222                0.971274231     -99.6268297
9.223                0.971201891     -99.8078917
9.224                0.971129414     -99.9894234
9.225                0.971056799     -100.171426
9.226                0.970984048       -100.3539
9.227                0.970911161     -100.536846
9.228                0.970838139     -100.720267
9.229                0.970764983     -100.904161
9.23                 0.970691694     -101.088532
9.231                0.970618272     -101.273378
9.232                0.970544719     -101.458702
9.233                0.970471035     -101.644505
9.234                0.970397222     -101.830786
9.235                0.970323279     -102.017548
9.236                0.970249208     -102.204791
9.237                 0.97017501     -102.392515
9.238                0.970100686     -102.580723
9.239                0.970026237     -102.769415
9.24                 0.969951663     -102.958591
9.241                0.969876966     -103.148253
9.242                0.969802146     -103.338401
9.243                0.969727206     -103.529037
9.244                0.969652145      -103.72016
9.245                0.969576965     -103.911773
9.246                0.969501666     -104.103876
9.247                0.969426251      -104.29647
9.248                0.969350719     -104.489556
9.249                0.969275073     -104.683134
9.25                 0.969199313     -104.877205
9.251                 0.96912344      -105.07177
9.252                0.969047456     -105.266831
9.253                0.968971362     -105.462387
9.254                0.968895159      -105.65844
9.255                0.968818848     -105.854991
9.256                 0.96874243      -106.05204
9.257                0.968665907     -106.249587
9.258                 0.96858928     -106.447635
9.259                 0.96851255     -106.646183
9.26                 0.968435719     -106.845232
9.261                0.968358788     -107.044784
9.262                0.968281758     -107.244838
9.263                 0.96820463     -107.445396
9.264                0.968127407     -107.646459
9.265                0.968050089     -107.848026
9.266                0.967972678     -108.050099
9.267                0.967895175     -108.252679
9.268                0.967817582     -108.455765
9.269                  0.9677399      -108.65936
9.27                  0.96766213     -108.863463
9.271                0.967584275     -109.068075
9.272                0.967506336     -109.273198
9.273                0.967428314      -109.47883
9.274                0.967350211     -109.684974
9.275                0.967272029      -109.89163
9.276                0.967193768     -110.098798
9.277                0.967115432     -110.306479
9.278                0.967037021     -110.514673
9.279                0.966958537     -110.723382
9.28                 0.966879982     -110.932606
9.281                0.966801357     -111.142345
9.282                0.966722665       -111.3526
9.283                0.966643907     -111.563371
9.284                0.966565084      -111.77466
9.285                0.966486199     -111.986466
9.286                0.966407254      -112.19879
9.287                 0.96632825     -112.411632
9.288                 0.96624919     -112.624994
9.289                0.966170074     -112.838875
9.29                 0.966090905     -113.053276
9.291                0.966011686     -113.268198
9.292                0.965932417     -113.483641
9.293                0.965853101     -113.699604
9.294                 0.96577374      -113.91609
9.295                0.965694335     -114.133098
9.296                 0.96561489     -114.350628
9.297                0.965535406     -114.568682
9.298                0.965455884     -114.787258
9.299                0.965376328     -115.006358
9.3                   0.96529674     -115.225983
9.301                 0.96521712     -115.446131
9.302                0.965137473     -115.666805
9.303                0.965057799     -115.888003
9.304                0.964978101     -116.109726
9.305                0.964898381     -116.331975
9.306                0.964818642      -116.55475
9.307                0.964738886     -116.778051
9.308                0.964659115     -117.001878
9.309                0.964579332     -117.226232
9.31                 0.964499538     -117.451112
9.311                0.964419736     -117.676519
9.312                0.964339929     -117.902453
9.313                0.964260119     -118.128914
9.314                0.964180309     -118.355903
9.315                  0.9641005     -118.583419
9.316                0.964020696     -118.811463
9.317                0.963940898     -119.040034
9.318                 0.96386111     -119.269133
9.319                0.963781334      -119.49876
9.32                 0.963701573     -119.728915
9.321                0.963621829     -119.959597
9.322                0.963542104     -120.190808
9.323                0.963462402     -120.422546
9.324                0.963382725     -120.654812
9.325                0.963303076     -120.887606
9.326                0.963223457     -121.120928
9.327                0.963143872     -121.354777
9.328                0.963064322     -121.589154
9.329                0.962984812     -121.824059
9.33                 0.962905342     -122.059491
9.331                0.962825917      -122.29545
9.332                 0.96274654     -122.531936
9.333                0.962667212     -122.768949
9.334                0.962587937     -123.006488
9.335                0.962508719     -123.244555
9.336                0.962429559     -123.483147
9.337                 0.96235046     -123.722265
9.338                0.962271427     -123.961909
9.339                0.962192461     -124.202078
9.34                 0.962113566     -124.442772
9.341                0.962034745     -124.683991
9.342                   0.961956     -124.925735
9.343                0.961877336     -125.168002
9.344                0.961798754     -125.410793
9.345                0.961720259     -125.654107
9.346                0.961641853     -125.897944
9.347                0.961563539     -126.142303
9.348                0.961485321     -126.387184
9.349                0.961407202     -126.632586
9.35                 0.961329184     -126.878509
9.351                0.961251273     -127.124953
9.352                0.961173469     -127.371916
9.353                0.961095778     -127.619398
9.354                0.961018202     -127.867398
9.355                0.960940744     -128.115917
9.356                0.960863408     -128.364953
9.357                0.960786197     -128.614505
9.358                0.960709115     -128.864573
9.359                0.960632165     -129.115156
9.36                  0.96055535     -129.366254
9.361                0.960478674     -129.617865
9.362                 0.96040214      -129.86999
9.363                0.960325753     -130.122626
9.364                0.960249514     -130.375774
9.365                0.960173428     -130.629432
9.366                0.960097498     -130.883599
9.367                0.960021729     -131.138275
9.368                0.959946122     -131.393459
9.369                0.959870683      -131.64915
9.37                 0.959795414     -131.905346
9.371                 0.95972032     -132.162047
9.372                0.959645403     -132.419252
9.373                0.959570668      -132.67696
9.374                0.959496117     -132.935169
9.375                0.959421756     -133.193879
9.376                0.959347587     -133.453089
9.377                0.959273614     -133.712797
9.378                0.959199841     -133.973002
9.379                0.959126272     -134.233703
9.38                  0.95905291     -134.494898
9.381                0.958979759     -134.756588
9.382                0.958906823     -135.018769
9.383                0.958834106     -135.281442
9.384                0.958761611     -135.544604
9.385                0.958689343     -135.808255
9.386                0.958617304     -136.072393
9.387                  0.9585455     -136.337016
9.388                0.958473933     -136.602124
9.389                0.958402608     -136.867714
9.39                 0.958331528     -137.133786
9.391                0.958260698     -137.400337
9.392                0.958190121     -137.667367
9.393                0.958119801     -137.934873
9.394                0.958049742     -138.202854
9.395                0.957979947      -138.47131
9.396                0.957910422     -138.740237
