! TOUCHSTONE file generated by CST DESIGN STUDIO
! Date and time: Tue Feb  4 13:17:38 2025
! Project name: C:\Work\MatlabApps\UnitCellOptimizationMatlab\CST\unitcell.cst
! Tree item: Tasks\Sweep1\SPara1\S-Parameters
! Header version: 2024
! Port assignment regex: !\s*Touchstone port\s*([0-9]+)\s*=\s*(CST MWS port|CST DES external port|CST DES block port)\s*(.+)\s* \(\"(.*)\"\)(\s*mode\s*([0-9]+))?.*
! Touchstone port assignment:
! Touchstone port 1 = CST DES external port 1 ("")
# GHz S MA R 50
9                    0.980057705     -81.1676494
9.001                0.980003774     -81.2983107
9.002                0.979949676     -81.4293077
9.003                 0.97989541     -81.5606415
9.004                0.979840976     -81.6923131
9.005                0.979786373     -81.8243234
9.006                  0.9797316     -81.9566735
9.007                0.979676659     -82.0893643
9.008                0.979621548     -82.2223968
9.009                0.979566267     -82.3557721
9.01                 0.979510816     -82.4894911
9.011                0.979455195     -82.6235549
9.012                0.979399403     -82.7579643
9.013                0.979343441     -82.8927206
9.014                0.979287307     -83.0278246
9.015                0.979231002     -83.1632773
9.016                0.979174525     -83.2990798
9.017                0.979117876     -83.4352332
9.018                0.979061055     -83.5717383
9.019                0.979004062     -83.7085962
9.02                 0.978946896      -83.845808
9.021                0.978889557     -83.9833746
9.022                0.978832046     -84.1212971
9.023                0.978774361     -84.2595764
9.024                0.978716502     -84.3982137
9.025                 0.97865847     -84.5372099
9.026                0.978600263     -84.6765661
9.027                0.978541883     -84.8162832
9.028                0.978483328     -84.9563624
9.029                0.978424599     -85.0968046
9.03                 0.978365694     -85.2376108
9.031                0.978306615     -85.3787822
9.032                0.978247361     -85.5203197
9.033                0.978187931     -85.6622244
9.034                0.978128326     -85.8044972
9.035                0.978068545     -85.9471393
9.036                0.978008588     -86.0901517
9.037                0.977948455     -86.2335353
9.038                0.977888146     -86.3772913
9.039                0.977827661     -86.5214207
9.04                 0.977766999     -86.6659245
9.041                 0.97770616     -86.8108037
9.042                0.977645145     -86.9560595
9.043                0.977583953     -87.1016928
9.044                0.977522583     -87.2477047
9.045                0.977461037     -87.3940962
9.046                0.977399313     -87.5408684
9.047                0.977337412     -87.6880223
9.048                0.977275333      -87.835559
9.049                0.977213076     -87.9834795
9.05                 0.977150642     -88.1317849
9.051                 0.97708803     -88.2804761
9.052                 0.97702524     -88.4295543
9.053                0.976962272     -88.5790205
9.054                0.976899127     -88.7288758
9.055                0.976835802     -88.8791212
9.056                  0.9767723     -89.0297577
9.057                 0.97670862     -89.1807864
9.058                0.976644761     -89.3322083
9.059                0.976580724     -89.4840246
9.06                 0.976516508     -89.6362362
9.061                0.976452115     -89.7888442
9.062                0.976387542     -89.9418497
9.063                0.976322792     -90.0952536
9.064                0.976257862     -90.2490571
9.065                0.976192755     -90.4032613
9.066                0.976127469      -90.557867
9.067                0.976062005     -90.7128755
9.068                0.975996362     -90.8682877
9.069                0.975930541     -91.0241047
9.07                 0.975864541     -91.1803276
9.071                0.975798364     -91.3369574
9.072                0.975732008     -91.4939951
9.073                0.975665474     -91.6514418
9.074                0.975598762     -91.8092986
9.075                0.975531872     -91.9675665
9.076                0.975464803     -92.1262465
9.077                0.975397558     -92.2853397
9.078                0.975330134     -92.4448471
9.079                0.975262533     -92.6047698
9.08                 0.975194754     -92.7651089
9.081                0.975126798     -92.9258653
9.082                0.975058665     -93.0870401
9.083                0.974990354     -93.2486343
9.084                0.974921867     -93.4106491
9.085                0.974853203     -93.5730854
9.086                0.974784362     -93.7359442
9.087                0.974715345     -93.8992267
9.088                0.974646152     -94.0629338
9.089                0.974576782     -94.2270666
9.09                 0.974507237     -94.3916261
9.091                0.974437516     -94.5566133
9.092                 0.97436762     -94.7220293
9.093                0.974297549     -94.8878751
9.094                0.974227303     -95.0541517
9.095                0.974156882     -95.2208602
9.096                0.974086287     -95.3880016
9.097                0.974015518     -95.5555769
9.098                0.973944575     -95.7235871
9.099                0.973873459     -95.8920332
9.1                  0.973802169     -96.0609163
9.101                0.973730707     -96.2302374
9.102                0.973659072     -96.3999974
9.103                0.973587265     -96.5701974
9.104                0.973515287     -96.7408385
9.105                0.973443137     -96.9119215
9.106                0.973370815     -97.0834476
9.107                0.973298324     -97.2554177
9.108                0.973225662     -97.4278327
9.109                 0.97315283     -97.6006938
9.11                 0.973079829     -97.7740019
9.111                0.973006659      -97.947758
9.112                 0.97293332      -98.121963
9.113                0.972859813      -98.296618
9.114                0.972786139      -98.471724
9.115                0.972712298     -98.6472818
9.116                 0.97263829     -98.8232926
9.117                0.972564116     -98.9997572
9.118                0.972489777     -99.1766766
9.119                0.972415273     -99.3540519
9.12                 0.972340604     -99.5318839
9.121                0.972265772     -99.7101736
9.122                0.972190776      -99.888922
9.123                0.972115617      -100.06813
9.124                0.972040297     -100.247799
9.125                0.971964815     -100.427929
9.126                0.971889172     -100.608521
9.127                0.971813369     -100.789577
9.128                0.971737407     -100.971097
9.129                0.971661286     -101.153083
9.13                 0.971585007     -101.335535
9.131                 0.97150857     -101.518453
9.132                0.971431977      -101.70184
9.133                0.971355227     -101.885696
9.134                0.971278323     -102.070021
9.135                0.971201264     -102.254817
9.136                0.971124052     -102.440085
9.137                0.971046687     -102.625825
9.138                0.970969169     -102.812039
9.139                0.970891501     -102.998727
9.14                 0.970813682      -103.18589
9.141                0.970735714     -103.373529
9.142                0.970657598     -103.561645
9.143                0.970579333     -103.750238
9.144                0.970500922      -103.93931
9.145                0.970422365     -104.128862
9.146                0.970343663     -104.318893
9.147                0.970264817     -104.509406
9.148                0.970185828     -104.700401
9.149                0.970106698     -104.891879
9.15                 0.970027426      -105.08384
9.151                0.969948014     -105.276285
9.152                0.969868464     -105.469215
9.153                0.969788776     -105.662632
9.154                0.969708951     -105.856535
9.155                 0.96962899     -106.050926
9.156                0.969548895     -106.245805
9.157                0.969468667     -106.441173
9.158                0.969388306     -106.637031
9.159                0.969307814     -106.833379
9.16                 0.969227193     -107.030219
9.161                0.969146443     -107.227551
9.162                0.969065565     -107.425375
9.163                0.968984561     -107.623693
9.164                0.968903433     -107.822506
9.165                0.968822181     -108.021813
9.166                0.968740806     -108.221616
9.167                0.968659311     -108.421915
9.168                0.968577696     -108.622711
9.169                0.968495962     -108.824005
9.17                 0.968414112     -109.025797
9.171                0.968332146     -109.228088
9.172                0.968250066     -109.430879
9.173                0.968167874      -109.63417
9.174                 0.96808557     -109.837961
9.175                0.968003157     -110.042255
9.176                0.967920636      -110.24705
9.177                0.967838008     -110.452349
9.178                0.967755275      -110.65815
9.179                0.967672438     -110.864456
9.18                 0.967589499     -111.071266
9.181                 0.96750646      -111.27858
9.182                0.967423323     -111.486401
9.183                0.967340088     -111.694728
9.184                0.967256758     -111.903561
9.185                0.967173334     -112.112901
9.186                0.967089818     -112.322749
9.187                0.967006212     -112.533106
9.188                0.966922517      -112.74397
9.189                0.966838736     -112.955345
9.19                  0.96675487     -113.167228
9.191                 0.96667092     -113.379622
9.192                 0.96658689     -113.592526
9.193                 0.96650278     -113.805941
9.194                0.966418592     -114.019867
9.195                0.966334329     -114.234305
9.196                0.966249992     -114.449256
9.197                0.966165584     -114.664719
9.198                0.966081105     -114.880694
9.199                0.965996559     -115.097183
9.2                  0.965911947     -115.314185
9.201                0.965827272     -115.531702
9.202                0.965742535     -115.749732
9.203                0.965657738     -115.968278
9.204                0.965572884     -116.187337
9.205                0.965487975     -116.406912
9.206                0.965403012     -116.627003
9.207                0.965317999     -116.847609
9.208                0.965232937     -117.068731
9.209                0.965147828     -117.290369
9.21                 0.965062675     -117.512523
9.211                 0.96497748     -117.735194
9.212                0.964892246     -117.958381
9.213                0.964806974     -118.182085
9.214                0.964721667     -118.406306
9.215                0.964636327     -118.631045
9.216                0.964550957       -118.8563
9.217                0.964465559     -119.082073
9.218                0.964380136     -119.308363
9.219                 0.96429469     -119.535171
9.22                 0.964209223     -119.762496
9.221                0.964123739     -119.990339
9.222                0.964038239       -120.2187
9.223                0.963952726     -120.447578
9.224                0.963867203     -120.676974
9.225                0.963781672     -120.906887
9.226                0.963696136     -121.137318
9.227                0.963610598     -121.368267
9.228                0.963525059     -121.599733
9.229                0.963439524     -121.831717
9.23                 0.963353995     -122.064217
9.231                0.963268474     -122.297235
9.232                0.963182964      -122.53077
9.233                0.963097468     -122.764822
9.234                0.963011988      -122.99939
9.235                0.962926529     -123.234475
9.236                0.962841092     -123.470076
9.237                 0.96275568     -123.706193
9.238                0.962670296     -123.942827
9.239                0.962584944     -124.179975
9.24                 0.962499626     -124.417639
9.241                0.962414345     -124.655818
9.242                0.962329104     -124.894511
9.243                0.962243906     -125.133719
9.244                0.962158754      -125.37344
9.245                0.962073652     -125.613676
9.246                0.961988602     -125.854424
9.247                0.961903607     -126.095685
9.248                0.961818671     -126.337458
9.249                0.961733797     -126.579744
9.25                 0.961648988      -126.82254
9.251                0.961564246     -127.065848
9.252                0.961479576     -127.309665
9.253                0.961394981     -127.553993
9.254                0.961310464      -127.79883
9.255                0.961226027     -128.044176
9.256                0.961141675     -128.290029
9.257                0.961057411      -128.53639
9.258                0.960973238     -128.783258
9.259                0.960889159     -129.030633
9.26                 0.960805179     -129.278512
9.261                0.960721299     -129.526897
9.262                0.960637525     -129.775785
9.263                0.960553858     -130.025177
9.264                0.960470303     -130.275071
9.265                0.960386864     -130.525467
9.266                0.960303543     -130.776364
9.267                0.960220344     -131.027761
9.268                0.960137271     -131.279657
9.269                0.960054328     -131.532051
9.27                 0.959971517     -131.784943
9.271                0.959888843     -132.038332
9.272                0.959806309     -132.292216
9.273                0.959723918     -132.546595
9.274                0.959641676     -132.801467
9.275                0.959559584     -133.056832
9.276                0.959477647     -133.312688
9.277                0.959395869     -133.569035
9.278                0.959314253     -133.825871
9.279                0.959232803     -134.083195
9.28                 0.959151523     -134.341007
9.281                0.959070417     -134.599304
9.282                0.958989488     -134.858087
9.283                 0.95890874     -135.117353
9.284                0.958828178     -135.377101
9.285                0.958747804      -135.63733
9.286                0.958667623     -135.898039
9.287                0.958587638     -136.159227
9.288                0.958507854     -136.420892
9.289                0.958428275     -136.683032
9.29                 0.958348904     -136.945647
9.291                0.958269745     -137.208736
9.292                0.958190802     -137.472295
9.293                0.958112079     -137.736325
9.294                0.958033581     -138.000824
9.295                0.957955311     -138.265789
9.296                0.957877272     -138.531221
9.297                 0.95779947     -138.797116
9.298                0.957721908     -139.063474
9.299                 0.95764459     -139.330293
9.3                   0.95756752     -139.597571
9.301                0.957490703     -139.865307
9.302                0.957414141     -140.133499
9.303                 0.95733784     -140.402145
9.304                0.957261803     -140.671243
9.305                0.957186035     -140.940793
9.306                0.957110539     -141.210791
9.307                0.957035319     -141.481236
9.308                0.956960381     -141.752127
9.309                0.956885727     -142.023461
9.31                 0.956811362     -142.295237
9.311                 0.95673729     -142.567453
9.312                0.956663515     -142.840106
9.313                0.956590041     -143.113195
9.314                0.956516873     -143.386718
9.315                0.956444014     -143.660672
9.316                0.956371468     -143.935057
9.317                 0.95629924     -144.209869
9.318                0.956227334     -144.485106
9.319                0.956155754     -144.760767
9.32                 0.956084505      -145.03685
9.321                0.956013589     -145.313351
9.322                0.955943012      -145.59027
9.323                0.955872777     -145.867603
9.324                0.955802889     -146.145348
9.325                0.955733351     -146.423504
9.326                0.955664169     -146.702068
9.327                0.955595345     -146.981037
9.328                0.955526884      -147.26041
9.329                0.955458791     -147.540183
9.33                 0.955391069     -147.820355
9.331                0.955323723     -148.100923
9.332                0.955256756     -148.381885
9.333                0.955190172     -148.663237
9.334                0.955123976     -148.944978
9.335                0.955058172     -149.227106
9.336                0.954992764     -149.509616
9.337                0.954927756     -149.792508
9.338                0.954863152     -150.075778
9.339                0.954798956     -150.359423
9.34                 0.954735172     -150.643442
9.341                0.954671804     -150.927831
9.342                0.954608855     -151.212587
9.343                0.954546332     -151.497709
9.344                0.954484236     -151.783192
9.345                0.954422572     -152.069035
9.346                0.954361344     -152.355234
9.347                0.954300556     -152.641788
9.348                0.954240212     -152.928691
9.349                0.954180315     -153.215943
9.35                 0.954120871      -153.50354
9.351                0.954061882     -153.791479
9.352                0.954003352     -154.079758
9.353                0.953945286     -154.368372
9.354                0.953887686      -154.65732
9.355                0.953830558     -154.946597
9.356                0.953773904     -155.236202
9.357                0.953717729     -155.526131
9.358                0.953662036     -155.816381
9.359                0.953606829     -156.106949
9.36                 0.953552111     -156.397831
9.361                0.953497887     -156.689025
9.362                 0.95344416     -156.980527
9.363                0.953390933     -157.272335
9.364                0.953338211     -157.564444
9.365                0.953285996     -157.856852
9.366                0.953234293     -158.149555
9.367                0.953183105      -158.44255
9.368                0.953132435     -158.735834
9.369                0.953082287     -159.029403
9.37                 0.953032664     -159.323254
9.371                 0.95298357     -159.617384
9.372                0.952935008     -159.911789
9.373                0.952886982     -160.206466
9.374                0.952839495     -160.501411
9.375                 0.95279255     -160.796622
9.376                 0.95274615     -161.092093
9.377                0.952700299     -161.387822
9.378                0.952654999     -161.683806
9.379                0.952610255      -161.98004
9.38                 0.952566069     -162.276522
9.381                0.952522444     -162.573247
9.382                0.952479383     -162.870213
9.383                 0.95243689     -163.167415
9.384                0.952394968     -163.464849
9.385                0.952353618     -163.762513
9.386                0.952312845     -164.060402
9.387                0.952272651     -164.358512
9.388                0.952233039     -164.656841
9.389                0.952194012     -164.955384
9.39                 0.952155572     -165.254138
9.391                0.952117723     -165.553098
9.392                0.952080467     -165.852261
9.393                0.952043806     -166.151624
9.394                0.952007744     -166.451181
9.395                0.951972282     -166.750931
9.396                0.951937424     -167.050868
