! TOUCHSTONE file generated by CST DESIGN STUDIO
! Date and time: Tue Feb  4 13:35:38 2025
! Project name: C:\Work\MatlabApps\UnitCellOptimizationMatlab\CST\unitcell.cst
! Tree item: Tasks\Sweep1\SPara1\S-Parameters
! Header version: 2024
! Port assignment regex: !\s*Touchstone port\s*([0-9]+)\s*=\s*(CST MWS port|CST DES external port|CST DES block port)\s*(.+)\s* \(\"(.*)\"\)(\s*mode\s*([0-9]+))?.*
! Touchstone port assignment:
! Touchstone port 1 = CST DES external port 1 ("")
# GHz S MA R 50
9                     0.96948316     -43.8765228
9.001                0.969427406     -43.9291235
9.002                0.969371456     -43.9818308
9.003                0.969315309     -44.0346448
9.004                0.969258964     -44.0875659
9.005                0.969202421     -44.1405944
9.006                0.969145678     -44.1937307
9.007                0.969088735      -44.246975
9.008                0.969031592     -44.3003278
9.009                0.968974246     -44.3537893
9.01                 0.968916698     -44.4073598
9.011                0.968858947     -44.4610397
9.012                0.968800991     -44.5148294
9.013                 0.96874283     -44.5687292
9.014                0.968684464     -44.6227393
9.015                 0.96862589     -44.6768602
9.016                0.968567109     -44.7310921
9.017                0.968508119     -44.7854355
9.018                 0.96844892     -44.8398906
9.019                0.968389511     -44.8944579
9.02                 0.968329891     -44.9491376
9.021                0.968270058       -45.00393
9.022                0.968210013     -45.0588357
9.023                0.968149754     -45.1138547
9.024                0.968089281     -45.1689877
9.025                0.968028592     -45.2242348
9.026                0.967967686     -45.2795964
9.027                0.967906564      -45.335073
9.028                0.967845223     -45.3906648
9.029                0.967783663     -45.4463721
9.03                 0.967721883     -45.5021955
9.031                0.967659882     -45.5581351
9.032                0.967597659     -45.6141914
9.033                0.967535213     -45.6703648
9.034                0.967472544     -45.7266556
9.035                 0.96740965     -45.7830641
9.036                0.967346531     -45.8395907
9.037                0.967283185     -45.8962359
9.038                0.967219611     -45.9529999
9.039                 0.96715581     -46.0098831
9.04                 0.967091779     -46.0668859
9.041                0.967027517     -46.1240087
9.042                0.966963024     -46.1812519
9.043                  0.9668983     -46.2386158
9.044                0.966833341     -46.2961008
9.045                0.966768149     -46.3537072
9.046                0.966702722     -46.4114355
9.047                0.966637058     -46.4692861
9.048                0.966571157     -46.5272593
9.049                0.966505018     -46.5853554
9.05                 0.966438641      -46.643575
9.051                0.966372022     -46.7019183
9.052                0.966305163     -46.7603858
9.053                0.966238062     -46.8189779
9.054                0.966170717     -46.8776949
9.055                0.966103129     -46.9365372
9.056                0.966035295     -46.9955053
9.057                0.965967215     -47.0545995
9.058                0.965898887     -47.1138202
9.059                0.965830312     -47.1731679
9.06                 0.965761486     -47.2326429
9.061                0.965692411     -47.2922456
9.062                0.965623084     -47.3519764
9.063                0.965553505     -47.4118357
9.064                0.965483672      -47.471824
9.065                0.965413584     -47.5319417
9.066                0.965343241     -47.5921891
9.067                0.965272641     -47.6525667
9.068                0.965201783     -47.7130748
9.069                0.965130666      -47.773714
9.07                 0.965059289     -47.8344845
9.071                 0.96498765     -47.8953869
9.072                 0.96491575     -47.9564216
9.073                0.964843586     -48.0175889
9.074                0.964771158     -48.0788893
9.075                0.964698464     -48.1403232
9.076                0.964625503     -48.2018911
9.077                0.964552275     -48.2635933
9.078                0.964478777     -48.3254303
9.079                 0.96440501     -48.3874026
9.08                 0.964330971     -48.4495105
9.081                 0.96425666     -48.5117545
9.082                0.964182075     -48.5741351
9.083                0.964107216     -48.6366526
9.084                 0.96403208     -48.6993075
9.085                0.963956668     -48.7621003
9.086                0.963880977     -48.8250313
9.087                0.963805007     -48.8881011
9.088                0.963728756     -48.9513101
9.089                0.963652224     -49.0146587
9.09                 0.963575408     -49.0781474
9.091                0.963498309     -49.1417766
9.092                0.963420924     -49.2055468
9.093                0.963343252     -49.2694584
9.094                0.963265293      -49.333512
9.095                0.963187044     -49.3977078
9.096                0.963108506     -49.4620465
9.097                0.963029675     -49.5265285
9.098                0.962950552     -49.5911542
9.099                0.962871136     -49.6559241
9.1                  0.962791423     -49.7208386
9.101                0.962711415     -49.7858984
9.102                0.962631108     -49.8511037
9.103                0.962550503     -49.9164551
9.104                0.962469597      -49.981953
9.105                 0.96238839      -50.047598
9.106                 0.96230688     -50.1133905
9.107                0.962225066      -50.179331
9.108                0.962142946       -50.24542
9.109                0.962060519      -50.311658
9.11                 0.961977785     -50.3780453
9.111                0.961894741     -50.4445826
9.112                0.961811387     -50.5112704
9.113                 0.96172772      -50.578109
9.114                 0.96164374     -50.6450991
9.115                0.961559446      -50.712241
9.116                0.961474835     -50.7795354
9.117                0.961389907     -50.8469827
9.118                0.961304661     -50.9145833
9.119                0.961219094     -50.9823379
9.12                 0.961133206     -51.0502469
9.121                0.961046995     -51.1183108
9.122                 0.96096046     -51.1865301
9.123                  0.9608736     -51.2549054
9.124                0.960786412     -51.3234371
9.125                0.960698897     -51.3921257
9.126                0.960611051     -51.4609719
9.127                0.960522874     -51.5299761
9.128                0.960434365     -51.5991388
9.129                0.960345522     -51.6684605
9.13                 0.960256343     -51.7379418
9.131                0.960166827     -51.8075833
9.132                0.960076973     -51.8773853
9.133                 0.95998678     -51.9473486
9.134                0.959896245     -52.0174735
9.135                0.959805368     -52.0877606
9.136                0.959714146     -52.1582106
9.137                0.959622579     -52.2288238
9.138                0.959530665     -52.2996009
9.139                0.959438403     -52.3705424
9.14                  0.95934579     -52.4416489
9.141                0.959252826     -52.5129208
9.142                0.959159509     -52.5843588
9.143                0.959065837     -52.6559634
9.144                 0.95897181     -52.7277352
9.145                0.958877424     -52.7996746
9.146                 0.95878268     -52.8717824
9.147                0.958687575      -52.944059
9.148                0.958592108      -53.016505
9.149                0.958496278     -53.0891209
9.15                 0.958400082     -53.1619074
9.151                0.958303519      -53.234865
9.152                0.958206588     -53.3079943
9.153                0.958109287     -53.3812959
9.154                0.958011614     -53.4547703
9.155                0.957913568     -53.5284181
9.156                0.957815148     -53.6022399
9.157                0.957716351     -53.6762363
9.158                0.957617177     -53.7504078
9.159                0.957517622     -53.8247552
9.16                 0.957417687     -53.8992788
9.161                0.957317369     -53.9739795
9.162                0.957216667     -54.0488576
9.163                0.957115578      -54.123914
9.164                0.957014102      -54.199149
9.165                0.956912236     -54.2745634
9.166                 0.95680998     -54.3501578
9.167                0.956707331     -54.4259328
9.168                0.956604287     -54.5018889
9.169                0.956500848     -54.5780268
9.17                  0.95639701     -54.6543471
9.171                0.956292774     -54.7308505
9.172                0.956188136     -54.8075375
9.173                0.956083095     -54.8844087
9.174                 0.95597765     -54.9614649
9.175                0.955871799     -55.0387066
9.176                0.955765539     -55.1161344
9.177                 0.95565887     -55.1937491
9.178                 0.95555179     -55.2715511
9.179                0.955444296     -55.3495412
9.18                 0.955336387     -55.4277201
9.181                0.955228062     -55.5060883
9.182                0.955119318     -55.5846464
9.183                0.955010153     -55.6633953
9.184                0.954900567     -55.7423354
9.185                0.954790557     -55.8214675
9.186                0.954680121     -55.9007922
9.187                0.954569257     -55.9803101
9.188                0.954457965      -56.060022
9.189                0.954346241     -56.1399285
9.19                 0.954234084     -56.2200302
9.191                0.954121492     -56.3003279
9.192                0.954008464     -56.3808222
9.193                0.953894997     -56.4615138
9.194                 0.95378109     -56.5424033
9.195                0.953666741     -56.6234915
9.196                0.953551948     -56.7047789
9.197                0.953436708     -56.7862664
9.198                0.953321021     -56.8679546
9.199                0.953204884     -56.9498442
9.2                  0.953088295     -57.0319359
9.201                0.952971253     -57.1142304
9.202                0.952853756     -57.1967283
9.203                  0.9527358     -57.2794305
9.204                0.952617386     -57.3623375
9.205                 0.95249851     -57.4454501
9.206                0.952379171     -57.5287691
9.207                0.952259367     -57.6122951
9.208                0.952139096     -57.6960288
9.209                0.952018355      -57.779971
9.21                 0.951897144     -57.8641224
9.211                0.951775459     -57.9484837
9.212                  0.9516533     -58.0330556
9.213                0.951530663     -58.1178389
9.214                0.951407547     -58.2028343
9.215                 0.95128395     -58.2880426
9.216                 0.95115987     -58.3734645
9.217                0.951035304     -58.4591007
9.218                0.950910252      -58.544952
9.219                 0.95078471     -58.6310191
9.22                 0.950658677     -58.7173028
9.221                0.950532151     -58.8038038
9.222                0.950405129     -58.8905229
9.223                0.950277609     -58.9774609
9.224                 0.95014959     -59.0646185
9.225                 0.95002107     -59.1519966
9.226                0.949892045     -59.2395957
9.227                0.949762515     -59.3274168
9.228                0.949632477     -59.4154607
9.229                0.949501928      -59.503728
9.23                 0.949370867     -59.5922196
9.231                0.949239292     -59.6809362
9.232                  0.9491072     -59.7698787
9.233                 0.94897459     -59.8590479
9.234                0.948841459     -59.9484445
9.235                0.948707804     -60.0380693
9.236                0.948573625     -60.1279232
9.237                0.948438918      -60.218007
9.238                0.948303681     -60.3083214
9.239                0.948167913     -60.3988673
9.24                 0.948031611     -60.4896454
9.241                0.947894772     -60.5806567
9.242                0.947757395     -60.6719019
9.243                0.947619478     -60.7633818
9.244                0.947481017     -60.8550974
9.245                0.947342012     -60.9470493
9.246                0.947202459     -61.0392385
9.247                0.947062356     -61.1316658
9.248                0.946921701      -61.224332
9.249                0.946780492      -61.317238
9.25                 0.946638727     -61.4103846
9.251                0.946496403     -61.5037727
9.252                0.946353518     -61.5974031
9.253                0.946210069     -61.6912767
9.254                0.946066055     -61.7853944
9.255                0.945921473     -61.8797569
9.256                 0.94577632     -61.9743653
9.257                0.945630595     -62.0692203
9.258                0.945484294     -62.1643229
9.259                0.945337416     -62.2596738
9.26                 0.945189959     -62.3552741
9.261                0.945041919     -62.4511246
9.262                0.944893295     -62.5472261
9.263                0.944744084     -62.6435796
9.264                0.944594284     -62.7401859
9.265                0.944443892      -62.837046
9.266                0.944292906     -62.9341608
9.267                0.944141324     -63.0315312
9.268                0.943989142      -63.129158
9.269                 0.94383636     -63.2270423
9.27                 0.943682973     -63.3251849
9.271                0.943528981     -63.4235867
9.272                0.943374379     -63.5222487
9.273                0.943219167     -63.6211718
9.274                0.943063341     -63.7203569
9.275                0.942906899      -63.819805
9.276                0.942749838      -63.919517
9.277                0.942592157     -64.0194938
9.278                0.942433852     -64.1197365
9.279                0.942274921     -64.2202459
9.28                 0.942115361      -64.321023
9.281                0.941955171     -64.4220688
9.282                0.941794347     -64.5233842
9.283                0.941632887     -64.6249703
9.284                0.941470788     -64.7268279
9.285                0.941308048      -64.828958
9.286                0.941144664     -64.9313617
9.287                0.940980635     -65.0340398
9.288                0.940815956     -65.1369935
9.289                0.940650626     -65.2402236
9.29                 0.940484642     -65.3437312
9.291                0.940318001     -65.4475173
9.292                0.940150702     -65.5515828
9.293                 0.93998274     -65.6559289
9.294                0.939814115     -65.7605564
9.295                0.939644822     -65.8654664
9.296                 0.93947486     -65.9706599
9.297                0.939304225      -66.076138
9.298                0.939132916     -66.1819016
9.299                0.938960929     -66.2879518
9.3                  0.938788263     -66.3942897
9.301                0.938614913     -66.5009162
9.302                0.938440878     -66.6078324
9.303                0.938266155     -66.7150393
9.304                0.938090742     -66.8225381
9.305                0.937914635     -66.9303297
9.306                0.937737832     -67.0384152
9.307                 0.93756033     -67.1467956
9.308                0.937382126     -67.2554721
9.309                0.937203219     -67.3644457
9.31                 0.937023605     -67.4737175
9.311                0.936843281     -67.5832885
9.312                0.936662245     -67.6931599
9.313                0.936480494     -67.8033326
9.314                0.936298025     -67.9138079
9.315                0.936114836     -68.0245868
9.316                0.935930923     -68.1356704
9.317                0.935746285     -68.2470597
9.318                0.935560918      -68.358756
9.319                 0.93537482     -68.4707603
9.32                 0.935187987     -68.5830738
9.321                0.935000418     -68.6956974
9.322                0.934812109     -68.8086325
9.323                0.934623057     -68.9218801
9.324                0.934433261     -69.0354413
9.325                0.934242716     -69.1493172
9.326                 0.93405142     -69.2635091
9.327                0.933859371      -69.378018
9.328                0.933666566     -69.4928451
9.329                0.933473001     -69.6079916
9.33                 0.933278675     -69.7234586
9.331                0.933083583     -69.8392473
9.332                0.932887724     -69.9553588
9.333                0.932691095     -70.0717943
9.334                0.932493692      -70.188555
9.335                0.932295514      -70.305642
9.336                0.932096556     -70.4230566
9.337                0.931896817        -70.5408
9.338                0.931696294     -70.6588732
9.339                0.931494983     -70.7772776
9.34                 0.931292882     -70.8960143
9.341                0.931089988     -71.0150845
9.342                0.930886298     -71.1344895
9.343                0.930681809     -71.2542304
9.344                0.930476519     -71.3743084
9.345                0.930270425     -71.4947249
9.346                0.930063523      -71.615481
9.347                0.929855811     -71.7365779
9.348                0.929647286     -71.8580169
9.349                0.929437946     -71.9797992
9.35                 0.929227787     -72.1019261
9.351                0.929016806     -72.2243988
9.352                0.928805001     -72.3472185
9.353                0.928592369     -72.4703866
9.354                0.928378906     -72.5939043
9.355                0.928164611     -72.7177728
9.356                 0.92794948     -72.8419935
9.357                 0.92773351     -72.9665675
9.358                0.927516699     -73.0914963
9.359                0.927299043      -73.216781
9.36                  0.92708054     -73.3424229
9.361                0.926861187     -73.4684234
9.362                0.926640981     -73.5947838
9.363                0.926419919     -73.7215053
9.364                0.926197998     -73.8485892
9.365                0.925975216     -73.9760369
9.366                0.925751569     -74.1038497
9.367                0.925527055     -74.2320289
9.368                0.925301671     -74.3605759
9.369                0.925075414     -74.4894918
9.37                 0.924848281     -74.6187782
9.371                0.924620269     -74.7484363
9.372                0.924391376     -74.8784675
9.373                0.924161598     -75.0088731
9.374                0.923930933     -75.1396545
9.375                0.923699378      -75.270813
9.376                 0.92346693       -75.40235
9.377                0.923233586     -75.5342668
9.378                0.922999344     -75.6665649
9.379                  0.9227642     -75.7992455
9.38                 0.922528152     -75.9323102
9.381                0.922291197     -76.0657602
9.382                0.922053332     -76.1995969
9.383                0.921814554     -76.3338218
9.384                0.921574861     -76.4684362
9.385                0.921334249     -76.6034416
9.386                0.921092716     -76.7388393
9.387                 0.92085026     -76.8746308
9.388                0.920606877     -77.0108174
9.389                0.920362564     -77.1474007
9.39                 0.920117319     -77.2843819
9.391                0.919871139     -77.4217626
9.392                0.919624022     -77.5595441
9.393                0.919375964      -77.697728
9.394                0.919126962     -77.8363156
9.395                0.918877015     -77.9753084
9.396                 0.91862612     -78.1147079
