! TOUCHSTONE file generated by CST DESIGN STUDIO
! Date and time: Tue Feb  4 13:35:29 2025
! Project name: C:\Work\MatlabApps\UnitCellOptimizationMatlab\CST\unitcell.cst
! Tree item: Tasks\Sweep1\SPara1\S-Parameters
! Header version: 2024
! Port assignment regex: !\s*Touchstone port\s*([0-9]+)\s*=\s*(CST MWS port|CST DES external port|CST DES block port)\s*(.+)\s* \(\"(.*)\"\)(\s*mode\s*([0-9]+))?.*
! Touchstone port assignment:
! Touchstone port 1 = CST DES external port 1 ("")
# GHz S MA R 50
9                    0.838120513     -86.3731106
9.001                 0.83758631     -86.5518382
9.002                 0.83705002     -86.7312058
9.003                0.836511639     -86.9112163
9.004                0.835971164     -87.0918724
9.005                 0.83542859      -87.273177
9.006                0.834883914     -87.4551328
9.007                 0.83433713     -87.6377426
9.008                0.833788236     -87.8210092
9.009                0.833237228     -88.0049356
9.01                 0.832684102     -88.1895244
9.011                0.832128854     -88.3747786
9.012                0.831571481     -88.5607011
9.013                0.831011979     -88.7472946
9.014                0.830450346     -88.9345621
9.015                0.829886577     -89.1225064
9.016                 0.82932067     -89.3111305
9.017                0.828752622     -89.5004372
9.018                 0.82818243     -89.6904295
9.019                 0.82761009     -89.8811103
9.02                 0.827035601     -90.0724824
9.021                0.826458959      -90.264549
9.022                0.825880163     -90.4573128
9.023                0.825299209     -90.6507769
9.024                0.824716095     -90.8449442
9.025                 0.82413082     -91.0398178
9.026                 0.82354338     -91.2354005
9.027                0.822953775     -91.4316954
9.028                0.822362002     -91.6287055
9.029                 0.82176806     -91.8264338
9.03                 0.821171947     -92.0248833
9.031                0.820573662     -92.2240571
9.032                0.819973202     -92.4239582
9.033                0.819370568     -92.6245895
9.034                0.818765758     -92.8259543
9.035                0.818158771     -93.0280555
9.036                0.817549607     -93.2308962
9.037                0.816938264     -93.4344795
9.038                0.816324743     -93.6388084
9.039                0.815709042     -93.8438861
9.04                 0.815091162     -94.0497157
9.041                0.814471103     -94.2563002
9.042                0.813848864     -94.4636427
9.043                0.813224447     -94.6717465
9.044                0.812597851     -94.8806146
9.045                0.811969077     -95.0902501
9.046                0.811338127     -95.3006562
9.047                   0.810705     -95.5118361
9.048                0.810069697     -95.7237928
9.049                0.809432221     -95.9365296
9.05                 0.808792573     -96.1500495
9.051                0.808150754     -96.3643559
9.052                0.807506766     -96.5794518
9.053                0.806860611     -96.7953404
9.054                0.806212291     -97.0120249
9.055                0.805561809     -97.2295085
9.056                0.804909168     -97.4477945
9.057                0.804254369     -97.6668859
9.058                0.803597416     -97.8867861
9.059                0.802938312     -98.1074981
9.06                  0.80227706     -98.3290253
9.061                0.801613665     -98.5513709
9.062                0.800948129      -98.774538
9.063                0.800280457     -98.9985299
9.064                0.799610654     -99.2233498
9.065                0.798938722     -99.4490009
9.066                0.798264668     -99.6754866
9.067                0.797588496     -99.9028099
9.068                0.796910211     -100.130974
9.069                0.796229819     -100.359983
9.07                 0.795547324     -100.589839
9.071                0.794862734     -100.820545
9.072                0.794176053     -101.052106
9.073                0.793487289     -101.284524
9.074                0.792796447     -101.517802
9.075                0.792103536     -101.751944
9.076                0.791408561     -101.986952
9.077                 0.79071153     -102.222831
9.078                 0.79001245     -102.459584
9.079                0.789311331     -102.697213
9.08                 0.788608178     -102.935722
9.081                0.787903002     -103.175114
9.082                0.787195811     -103.415392
9.083                0.786486613      -103.65656
9.084                0.785775418     -103.898621
9.085                0.785062235     -104.141578
9.086                0.784347075     -104.385434
9.087                0.783629946     -104.630193
9.088                0.782910861     -104.875858
9.089                0.782189828     -105.122432
9.09                  0.78146686     -105.369917
9.091                0.780741968     -105.618319
9.092                0.780015163     -105.867639
9.093                0.779286457      -106.11788
9.094                0.778555862     -106.369047
9.095                0.777823391     -106.621142
9.096                0.777089056     -106.874169
9.097                0.776352872     -107.128129
9.098                0.775614851     -107.383028
9.099                0.774875007     -107.638868
9.1                  0.774133355     -107.895651
9.101                0.773389909     -108.153382
9.102                0.772644683     -108.412063
9.103                0.771897694     -108.671697
9.104                0.771148956     -108.932288
9.105                0.770398485     -109.193838
9.106                0.769646299     -109.456351
9.107                0.768892412      -109.71983
9.108                0.768136843     -109.984277
9.109                0.767379609     -110.249696
9.11                 0.766620726      -110.51609
9.111                0.765860214     -110.783462
9.112                0.765098091     -111.051815
9.113                0.764334376     -111.321152
9.114                0.763569087     -111.591475
9.115                0.762802245     -111.862788
9.116                0.762033869     -112.135094
9.117                 0.76126398     -112.408395
9.118                0.760492598     -112.682695
9.119                0.759719745     -112.957996
9.12                 0.758945442     -113.234301
9.121                 0.75816971     -113.511614
9.122                0.757392573     -113.789935
9.123                0.756614053      -114.06927
9.124                0.755834173      -114.34962
9.125                0.755052956     -114.630988
9.126                0.754270427     -114.913376
9.127                 0.75348661     -115.196788
9.128                0.752701529     -115.481226
9.129                 0.75191521     -115.766693
9.13                 0.751127678     -116.053191
9.131                0.750338959     -116.340723
9.132                 0.74954908     -116.629291
9.133                0.748758068     -116.918898
9.134                0.747965949     -117.209547
9.135                0.747172752     -117.501239
9.136                0.746378504     -117.793978
9.137                0.745583234     -118.087765
9.138                0.744786971     -118.382603
9.139                0.743989744     -118.678494
9.14                 0.743191584     -118.975441
9.141                 0.74239252     -119.273445
9.142                0.741592582     -119.572509
9.143                0.740791803     -119.872636
9.144                0.739990214     -120.173826
9.145                0.739187845     -120.476083
9.146                0.738384731     -120.779407
9.147                0.737580903     -121.083802
9.148                0.736776396     -121.389269
9.149                0.735971241      -121.69581
9.15                 0.735165474     -122.003427
9.151                 0.73435913     -122.312121
9.152                0.733552242     -122.621894
9.153                0.732744846     -122.932749
9.154                0.731936979     -123.244686
9.155                0.731128675     -123.557707
9.156                0.730319972     -123.871814
9.157                0.729510908     -124.187007
9.158                0.728701518      -124.50329
9.159                0.727891841     -124.820662
9.16                 0.727081915     -125.139125
9.161                0.726271779      -125.45868
9.162                0.725461471     -125.779329
9.163                0.724651031     -126.101073
9.164                  0.7238405     -126.423912
9.165                0.723029916     -126.747847
9.166                 0.72221932      -127.07288
9.167                0.721408754     -127.399011
9.168                0.720598258     -127.726241
9.169                0.719787874     -128.054571
9.17                 0.718977645        -128.384
9.171                0.718167611      -128.71453
9.172                0.717357816     -129.046162
9.173                0.716548303     -129.378895
9.174                0.715739115     -129.712729
9.175                0.714930295     -130.047665
9.176                0.714121888     -130.383704
9.177                0.713313936     -130.720844
9.178                0.712506486     -131.059086
9.179                 0.71169958      -131.39843
9.18                 0.710893265     -131.738875
9.181                0.710087584     -132.080422
9.182                0.709282584     -132.423069
9.183                 0.70847831     -132.766816
9.184                0.707674808     -133.111662
9.185                0.706872123     -133.457607
9.186                0.706070301      -133.80465
9.187                0.705269388      -134.15279
9.188                0.704469431     -134.502026
9.189                0.703670476     -134.852356
9.19                  0.70287257     -135.203779
9.191                0.702075757     -135.556295
9.192                0.701280086       -135.9099
9.193                0.700485602     -136.264594
9.194                0.699692352     -136.620375
9.195                0.698900382     -136.977241
9.196                0.698109738      -137.33519
9.197                0.697320466      -137.69422
9.198                0.696532612     -138.054328
9.199                0.695746223     -138.415513
9.2                  0.694961342      -138.77777
9.201                0.694178015     -139.141099
9.202                0.693396288     -139.505496
9.203                0.692616205     -139.870957
9.204                0.691837809      -140.23748
9.205                0.691061144     -140.605062
9.206                0.690286254     -140.973699
9.207                 0.68951318     -141.343388
9.208                0.688741965     -141.714124
9.209                0.687972649     -142.085904
9.21                 0.687205274     -142.458723
9.211                0.686439878     -142.832579
9.212                  0.6856765     -143.207465
9.213                0.684915177     -143.583377
9.214                0.684155947     -143.960311
9.215                0.683398844     -144.338262
9.216                0.682643902     -144.717224
9.217                0.681891155     -145.097192
9.218                0.681140632     -145.478161
9.219                0.680392364     -145.860125
9.22                 0.679646378     -146.243077
9.221                0.678902699     -146.627013
9.222                0.678161352     -147.011924
9.223                0.677422359     -147.397805
9.224                0.676685737      -147.78465
9.225                0.675951504      -148.17245
9.226                0.675219674     -148.561198
9.227                0.674490257     -148.950888
9.228                 0.67376326     -149.341511
9.229                0.673038688      -149.73306
9.23                 0.672316542     -150.125526
9.231                0.671596816     -150.518901
9.232                0.670879503     -150.913176
9.233                 0.67016459     -151.308342
9.234                 0.66945206     -151.704389
9.235                0.668741888      -152.10131
9.236                0.668034045     -152.499092
9.237                0.667328495     -152.897728
9.238                0.666625195     -153.297205
9.239                0.665924095     -153.697515
9.24                 0.665225137     -154.098645
9.241                0.664528251     -154.500586
9.242                0.663833362     -154.903325
9.243                0.663140381      -155.30685
9.244                0.662449209     -155.711151
9.245                0.661759736     -156.116215
9.246                0.661071834     -156.522029
9.247                0.660385366     -156.928582
9.248                0.659700174      -157.33586
9.249                0.659016086     -157.743851
9.25                 0.658332908     -158.152541
9.251                0.657650426     -158.561919
9.252                0.656968405      -158.97197
9.253                0.656286581     -159.382681
9.254                0.655604664     -159.794041
9.255                0.654922334     -160.206036
9.256                0.654239238     -160.618654
9.257                0.653554983     -161.031884
9.258                0.652869138     -161.445715
9.259                0.652181227     -161.860136
9.26                 0.651490723     -162.275139
9.261                0.650797046     -162.690717
9.262                0.650099554     -163.106863
9.263                 0.64939754     -163.523576
9.264                0.648690221     -163.940856
9.265                0.647976736     -164.358705
9.266                0.647256132     -164.777133
9.267                0.646527357     -165.196153
9.268                0.645789252     -165.615787
9.269                0.645040538     -166.036063
9.27                 0.644279805     -166.457021
9.271                0.643505502     -166.878713
9.272                0.642715926     -167.301207
9.273                0.641909206      -167.72459
9.274                0.641083303     -168.148971
9.275                0.640235992     -168.574488
9.276                0.639364869     -169.001312
9.277                 0.63846735     -169.429657
9.278                0.637540688     -169.859788
9.279                0.636582002     -170.292029
9.28                 0.635588332     -170.726782
9.281                0.634556722     -171.164533
9.282                0.633484349     -171.605879
9.283                0.632368714     -172.051538
9.284                0.631207908     -172.502376
9.285                 0.63000099     -172.959423
9.286                0.628748495     -173.423893
9.287                0.627453108     -173.897194
9.288                0.626120515     -174.380923
9.289                0.624760452     -174.876846
9.29                 0.623387892      -175.38683
9.291                0.622024299     -175.912738
9.292                0.620698719     -176.456246
9.293                0.619448388     -177.018591
9.294                  0.6183184     -177.600248
9.295                0.617359894     -178.200558
9.296                0.616626338     -178.817392
9.297                 0.61616783     -179.446934
9.298                0.616024001      179.916289
9.299                0.616216852      179.279052
9.3                   0.61674543      178.648744
9.301                0.617584089       178.03248
9.302                  0.6186852      177.436207
9.303                0.619985736      176.864044
9.304                0.621415929      176.317992
9.305                0.622907792       175.79804
9.306                0.624401689      175.302556
9.307                0.625850138      174.828818
9.308                 0.62721895      174.373537
9.309                0.628486369      173.933294
9.31                  0.62964108      173.504839
9.311                0.630679806      173.085274
9.312                0.631604983      172.672125
9.313                0.632422773      172.263362
9.314                0.633141515      171.857361
9.315                0.633770585      171.452858
9.316                0.634319613      171.048891
9.317                0.634797978      170.644747
9.318                0.635214506      170.239907
9.319                0.635577309      169.834009
9.32                 0.635893722       169.42681
9.321                0.636170302      169.018157
9.322                0.636412859      168.607966
9.323                0.636626515      168.196205
9.324                0.636815763      167.782878
9.325                0.636984534      167.368017
9.326                0.637136264      166.951672
9.327                 0.63727395      166.533906
9.328                0.637400206       166.11479
9.329                0.637517314      165.694402
9.33                 0.637627263      165.272821
9.331                0.637731792      164.850126
9.332                0.637832419      164.426398
9.333                0.637930474      164.001715
9.334                0.638027119      163.576152
9.335                0.638123374      163.149783
9.336                0.638220132       162.72268
9.337                0.638318181      162.294909
9.338                0.638418209      161.866537
9.339                0.638520825      161.437626
9.34                 0.638626562      161.008235
9.341                0.638735892      160.578421
9.342                0.638849229      160.148239
9.343                 0.63896694      159.717739
9.344                0.639089346      159.286971
9.345                0.639216731      158.855983
9.346                0.639349347      158.424819
9.347                0.639487411      157.993522
9.348                0.639631118      157.562133
9.349                0.639780638      157.130691
9.35                 0.639936119      156.699234
9.351                0.640097689      156.267798
9.352                0.640265463      155.836417
9.353                0.640439536      155.405125
9.354                0.640619993      154.973954
9.355                0.640806906      154.542933
9.356                0.641000334      154.112094
9.357                0.641200328      153.681464
9.358                0.641406929      153.251071
9.359                0.641620171       152.82094
9.36                 0.641840078      152.391099
9.361                 0.64206667      151.961571
9.362                 0.64229996      151.532381
9.363                0.642539953      151.103552
9.364                0.642786653      150.675105
9.365                0.643040056      150.247064
9.366                0.643300154      149.819449
9.367                0.643566936      149.392281
9.368                0.643840388      148.965579
9.369                 0.64412049      148.539363
9.37                 0.644407222      148.113652
9.371                0.644700557      147.688464
9.372                 0.64500047      147.263818
9.373                 0.64530693      146.839729
9.374                0.645619906      146.416216
9.375                0.645939362      145.993295
9.376                0.646265262      145.570982
9.377                0.646597569      145.149292
9.378                0.646936242      144.728241
9.379                 0.64728124      144.307844
9.38                 0.647632519      143.888115
9.381                0.647990035      143.469069
9.382                0.648353742      143.050719
9.383                0.648723592      142.633078
9.384                0.649099537      142.216161
9.385                0.649481528       141.79998
9.386                0.649869513      141.384547
9.387                0.650263442      140.969875
9.388                0.650663262      140.555975
9.389                0.651068919       140.14286
9.39                 0.651480359      139.730541
9.391                0.651897527      139.319029
9.392                0.652320368      138.908335
9.393                0.652748824      138.498469
9.394                 0.65318284      138.089442
9.395                0.653622358      137.681265
9.396                0.654067319      137.273946
