! TOUCHSTONE file generated by CST DESIGN STUDIO
! Date and time: Tue Feb  4 13:35:26 2025
! Project name: C:\Work\MatlabApps\UnitCellOptimizationMatlab\CST\unitcell.cst
! Tree item: Tasks\Sweep1\SPara1\S-Parameters
! Header version: 2024
! Port assignment regex: !\s*Touchstone port\s*([0-9]+)\s*=\s*(CST MWS port|CST DES external port|CST DES block port)\s*(.+)\s* \(\"(.*)\"\)(\s*mode\s*([0-9]+))?.*
! Touchstone port assignment:
! Touchstone port 1 = CST DES external port 1 ("")
# GHz S MA R 50
9                     0.69021171     -127.828423
9.001                  0.6893039     -128.173132
9.002                0.688396799     -128.519132
9.003                0.687490467     -128.866425
9.004                0.686584963     -129.215013
9.005                0.685680348     -129.564898
9.006                0.684776684     -129.916081
9.007                0.683874032     -130.268563
9.008                0.682972455     -130.622347
9.009                0.682072015     -130.977434
9.01                 0.681172778     -131.333825
9.011                0.680274806     -131.691521
9.012                0.679378166     -132.050523
9.013                0.678482922     -132.410833
9.014                 0.67758914     -132.772451
9.015                0.676696889     -133.135378
9.016                0.675806234     -133.499615
9.017                0.674917244     -133.865163
9.018                0.674029987     -134.232022
9.019                0.673144532     -134.600192
9.02                  0.67226095     -134.969674
9.021                0.671379309     -135.340468
9.022                0.670499681     -135.712574
9.023                0.669622137     -136.085992
9.024                0.668746749     -136.460722
9.025                0.667873588     -136.836764
9.026                0.667002729     -137.214116
9.027                0.666134243      -137.59278
9.028                0.665268205     -137.972753
9.029                0.664404689     -138.354035
9.03                  0.66354377     -138.736626
9.031                0.662685522     -139.120524
9.032                0.661830022     -139.505728
9.033                0.660977345     -139.892237
9.034                0.660127568      -140.28005
9.035                0.659280768     -140.669164
9.036                0.658437021     -141.059578
9.037                0.657596406      -141.45129
9.038                   0.656759     -141.844299
9.039                0.655924882     -142.238601
9.04                 0.655094131     -142.634195
9.041                0.654266825     -143.031079
9.042                0.653443043     -143.429249
9.043                0.652622865     -143.828703
9.044                0.651806372     -144.229438
9.045                0.650993642     -144.631451
9.046                0.650184757     -145.034738
9.047                0.649379796     -145.439296
9.048                0.648578841     -145.845123
9.049                0.647781973     -146.252213
9.05                 0.646989272     -146.660563
9.051                0.646200819     -147.070169
9.052                0.645416697     -147.481027
9.053                0.644636986     -147.893132
9.054                0.643861769      -148.30648
9.055                0.643091126     -148.721066
9.056                0.642325139     -149.136885
9.057                0.641563891     -149.553932
9.058                0.640807462     -149.972202
9.059                0.640055934      -150.39169
9.06                 0.639309389     -150.812389
9.061                0.638567909     -151.234294
9.062                0.637831575     -151.657399
9.063                0.637100469     -152.081697
9.064                0.636374671     -152.507184
9.065                0.635654263     -152.933851
9.066                0.634939326     -153.361693
9.067                0.634229942     -153.790702
9.068                0.633526189     -154.220872
9.069                 0.63282815     -154.652195
9.07                 0.632135903     -155.084664
9.071                 0.63144953     -155.518271
9.072                 0.63076911     -155.953009
9.073                0.630094722      -156.38887
9.074                0.629426445     -156.825845
9.075                0.628764359     -157.263927
9.076                0.628108541     -157.703106
9.077                0.627459071     -158.143375
9.078                0.626816025     -158.584724
9.079                0.626179482     -159.027145
9.08                 0.625549519     -159.470629
9.081                0.624926213     -159.915166
9.082                0.624309639     -160.360747
9.083                0.623699875     -160.807362
9.084                0.623096997     -161.255001
9.085                0.622501079     -161.703656
9.086                0.621912197     -162.153315
9.087                0.621330427     -162.603968
9.088                0.620755842     -163.055606
9.089                0.620188518     -163.508217
9.09                 0.619628528     -163.961791
9.091                0.619075947     -164.416317
9.092                0.618530848     -164.871785
9.093                0.617993306     -165.328183
9.094                0.617463394       -165.7855
9.095                0.616941186     -166.243724
9.096                0.616426755     -166.702845
9.097                0.615920176      -167.16285
9.098                0.615421523     -167.623728
9.099                 0.61493087     -168.085467
9.1                  0.614448291     -168.548055
9.101                0.613973861      -169.01148
9.102                0.613507657     -169.475729
9.103                0.613049753     -169.940789
9.104                0.612600227     -170.406649
9.105                0.612159155     -170.873295
9.106                0.611726615     -171.340714
9.107                0.611302686     -171.808893
9.108                0.610887447     -172.277818
9.109                0.610480979     -172.747477
9.11                 0.610083362     -173.217854
9.111                 0.60969468     -173.688936
9.112                0.609315014     -174.160708
9.113                0.608944449     -174.633156
9.114                0.608583069     -175.106265
9.115                0.608230961     -175.580019
9.116                0.607888209     -176.054402
9.117                0.607554901     -176.529399
9.118                0.607231124     -177.004993
9.119                0.606916964     -177.481166
9.12                  0.60661251     -177.957903
9.121                0.606317847     -178.435184
9.122                0.606033063     -178.912993
9.123                0.605758242     -179.391309
9.124                0.605493467     -179.870114
9.125                0.605238823      179.650612
9.126                0.604994387      179.170889
9.127                0.604760238      178.690738
9.128                 0.60453645       178.21018
9.129                0.604323095      177.729237
9.13                 0.604120238      177.247932
9.131                0.603927943      176.766285
9.132                0.603746267      176.284322
9.133                0.603575263      175.802064
9.134                0.603414979      175.319537
9.135                0.603265454      174.836763
9.136                0.603126724      174.353768
9.137                0.602998817      173.870576
9.138                0.602881756      173.387211
9.139                0.602775556      172.903698
9.14                 0.602680225      172.420062
9.141                0.602595766      171.936327
9.142                0.602522175       171.45252
9.143                0.602459441      170.968663
9.144                0.602407547      170.484781
9.145                0.602366472      170.000899
9.146                0.602336186       169.51704
9.147                0.602316658      169.033228
9.148                 0.60230785      168.549487
9.149                0.602309719      168.065838
9.15                 0.602322221      167.582306
9.151                0.602345305       167.09891
9.152                0.602378921      166.615675
9.153                0.602423013      166.132619
9.154                0.602477525      165.649766
9.155                0.602542399      165.167134
9.156                0.602617575      164.684745
9.157                0.602702991      164.202617
9.158                0.602798587       163.72077
9.159                  0.6029043      163.239224
9.16                 0.603020067      162.757995
9.161                0.603145828      162.277104
9.162                0.603281519      161.796567
9.163                0.603427078      161.316402
9.164                0.603582443      160.836628
9.165                0.603747554       160.35726
9.166                 0.60392235      159.878315
9.167                 0.60410677      159.399811
9.168                0.604300754      158.921764
9.169                0.604504244       158.44419
9.17                  0.60471718      157.967105
9.171                0.604939505      157.490525
9.172                0.605171159      157.014465
9.173                0.605412086      156.538942
9.174                0.605662229      156.063971
9.175                0.605921529      155.589567
9.176                 0.60618993      155.115746
9.177                0.606467376      154.642522
9.178                0.606753808       154.16991
9.179                0.607049171      153.697926
9.18                 0.607353407      153.226584
9.181                0.607666459      152.755899
9.182                0.607988268      152.285886
9.183                0.608318778      151.816558
9.184                 0.60865793       151.34793
9.185                0.609005664      150.880017
9.186                0.609361923      150.412832
9.187                0.609726646      149.946389
9.188                0.610099773      149.480703
9.189                0.610481242      149.015787
9.19                 0.610870993      148.551654
9.191                0.611268964      148.088319
9.192                0.611675091      147.625793
9.193                0.612089311      147.164092
9.194                 0.61251156      146.703227
9.195                0.612941773      146.243211
9.196                0.613379884      145.784058
9.197                0.613825827       145.32578
9.198                0.614279534      144.868389
9.199                0.614740939      144.411898
9.2                  0.615209973      143.956319
9.201                0.615686565      143.501663
9.202                0.616170647      143.047943
9.203                0.616662148      142.595171
9.204                0.617160996      142.143357
9.205                0.617667119      141.692513
9.206                0.618180445       141.24265
9.207                0.618700901       140.79378
9.208                0.619228412      140.345912
9.209                0.619762903      139.899058
9.21                 0.620304301      139.453227
9.211                0.620852529      139.008431
9.212                0.621407511      138.564678
9.213                0.621969169       138.12198
9.214                0.622537428      137.680344
9.215                0.623112209      137.239782
9.216                0.623693434      136.800302
9.217                0.624281024      136.361913
9.218                0.624874901      135.924624
9.219                0.625474984      135.488444
9.22                 0.626081195      135.053381
9.221                0.626693452      134.619443
9.222                0.627311676      134.186639
9.223                0.627935786      133.754977
9.224                0.628565701      133.324464
9.225                0.629201339      132.895107
9.226                 0.62984262      132.466914
9.227                0.630489461      132.039893
9.228                0.631141781      131.614049
9.229                0.631799497       131.18939
9.23                 0.632462529      130.765923
9.231                0.633130793      130.343653
9.232                0.633804208      129.922586
9.233                 0.63448269       129.50273
9.234                0.635166159      129.084089
9.235                0.635854531      128.666669
9.236                0.636547724      128.250475
9.237                0.637245656      127.835513
9.238                0.637948244      127.421788
9.239                0.638655407      127.009305
9.24                 0.639367063      126.598068
9.241                0.640083129      126.188081
9.242                0.640803524       125.77935
9.243                0.641528166      125.371878
9.244                0.642256974      124.965669
9.245                0.642989866      124.560727
9.246                0.643726762      124.157056
9.247                 0.64446758      123.754659
9.248                 0.64521224      123.353539
9.249                0.645960662        122.9537
9.25                 0.646712766      122.555144
9.251                0.647468471      122.157874
9.252                  0.6482277      121.761894
9.253                0.648990371      121.367205
9.254                0.649756408       120.97381
9.255                0.650525731       120.58171
9.256                0.651298262      120.190909
9.257                0.652073924      119.801407
9.258                 0.65285264      119.413207
9.259                0.653634332       119.02631
9.26                 0.654418925      118.640718
9.261                0.655206342      118.256432
9.262                0.655996508      117.873452
9.263                0.656789348      117.491781
9.264                0.657584788      117.111419
9.265                0.658382752      116.732367
9.266                0.659183168      116.354624
9.267                0.659985963      115.978193
9.268                0.660791064      115.603073
9.269                0.661598398      115.229265
9.27                 0.662407895      114.856768
9.271                0.663219483      114.485583
9.272                0.664033093      114.115709
9.273                0.664848653      113.747147
9.274                0.665666095      113.379895
9.275                 0.66648535      113.013954
9.276                 0.66730635      112.649323
9.277                0.668129026      112.286001
9.278                0.668953313      111.923988
9.279                0.669779144      111.563282
9.28                 0.670606452      111.203883
9.281                0.671435173       110.84579
9.282                0.672265242         110.489
9.283                0.673096595      110.133514
9.284                0.673929169       109.77933
9.285                  0.6747629      109.426446
9.286                0.675597727       109.07486
9.287                0.676433588      108.724572
9.288                0.677270422      108.375579
9.289                0.678108169       108.02788
9.29                  0.67894677      107.681472
9.291                0.679786164      107.336354
9.292                0.680626295      106.992523
9.293                0.681467104      106.649978
9.294                0.682308534      106.308716
9.295                0.683150528      105.968736
9.296                0.683993032      105.630034
9.297                0.684835989      105.292608
9.298                0.685679346      104.956456
9.299                0.686523048      104.621575
9.3                  0.687367042      104.287963
9.301                0.688211276      103.955616
9.302                0.689055698      103.624533
9.303                0.689900257       103.29471
9.304                0.690744901      102.966145
9.305                0.691589581      102.638834
9.306                0.692434248      102.312775
9.307                0.693278853      101.987964
9.308                0.694123348      101.664399
9.309                0.694967685      101.342076
9.31                 0.695811819      101.020992
9.311                0.696655701      100.701145
9.312                0.697499288       100.38253
9.313                0.698342534      100.065144
9.314                0.699185396      99.7489841
9.315                0.700027829      99.4340469
9.316                 0.70086979      99.1203288
9.317                0.701711237      98.8078263
9.318                0.702552129      98.4965358
9.319                0.703392424      98.1864539
9.32                 0.704232082      97.8775769
9.321                0.705071063      97.5699011
9.322                0.705909328      97.2634229
9.323                0.706746838      96.9581386
9.324                0.707583554      96.6540445
9.325                0.708419441      96.3511366
9.326                0.709254459      96.0494114
9.327                0.710088574      95.7488649
9.328                 0.71092175      95.4494933
9.329                0.711753951      95.1512926
9.33                 0.712585144      94.8542591
9.331                0.713415293      94.5583887
9.332                0.714244366      94.2636775
9.333                 0.71507233      93.9701215
9.334                0.715899152      93.6777167
9.335                0.716724802      93.3864592
9.336                0.717549247      93.0963448
9.337                0.718372457      92.8073695
9.338                0.719194403      92.5195292
9.339                0.720015054      92.2328198
9.34                 0.720834382      91.9472373
9.341                0.721652358      91.6627775
9.342                0.722468954      91.3794362
9.343                0.723284144      91.0972094
9.344                0.724097899      90.8160928
9.345                0.724910195      90.5360822
9.346                0.725721004      90.2571736
9.347                0.726530303      89.9793626
9.348                0.727338065      89.7026451
9.349                0.728144266      89.4270168
9.35                 0.728948884      89.1524735
9.351                0.729751893       88.879011
9.352                0.730553272      88.6066251
9.353                0.731352999      88.3353115
9.354                 0.73215105      88.0650659
9.355                0.732947405      87.7958841
9.356                0.733742043      87.5277618
9.357                0.734534943      87.2606947
9.358                0.735326085      86.9946787
9.359                 0.73611545      86.7297093
9.36                 0.736903018      86.4657823
9.361                 0.73768877      86.2028935
9.362                0.738472689      85.9410386
9.363                0.739254756      85.6802132
9.364                0.740034954      85.4204132
9.365                0.740813266      85.1616341
9.366                0.741589675      84.9038718
9.367                0.742364165      84.6471219
9.368                0.743136721      84.3913802
9.369                0.743907326      84.1366425
9.37                 0.744675965      83.8829043
9.371                0.745442625      83.6301615
9.372                0.746207291      83.3784098
9.373                0.746969948      83.1276449
9.374                0.747730584      82.8778625
9.375                0.748489186      82.6290585
9.376                0.749245739      82.3812285
9.377                0.750000233      82.1343683
9.378                0.750752656      81.8884737
9.379                0.751502994      81.6435405
9.38                 0.752251238      81.3995643
9.381                0.752997376       81.156541
9.382                0.753741397      80.9144663
9.383                0.754483291      80.6733362
9.384                0.755223048      80.4331462
9.385                0.755960659      80.1938924
9.386                0.756696114      79.9555704
9.387                0.757429404      79.7181761
9.388                 0.75816052      79.4817054
9.389                0.758889454       79.246154
9.39                 0.759616198      79.0115178
9.391                0.760340744      78.7777927
9.392                0.761063084      78.5449746
9.393                0.761783212      78.3130593
9.394                0.762501119      78.0820427
9.395                  0.7632168      77.8519207
9.396                0.763930249      77.6226892
