! TOUCHSTONE file generated by CST DESIGN STUDIO
! Date and time: Tue Feb  4 13:35:31 2025
! Project name: C:\Work\MatlabApps\UnitCellOptimizationMatlab\CST\unitcell.cst
! Tree item: Tasks\Sweep1\SPara1\S-Parameters
! Header version: 2024
! Port assignment regex: !\s*Touchstone port\s*([0-9]+)\s*=\s*(CST MWS port|CST DES external port|CST DES block port)\s*(.+)\s* \(\"(.*)\"\)(\s*mode\s*([0-9]+))?.*
! Touchstone port assignment:
! Touchstone port 1 = CST DES external port 1 ("")
# GHz S MA R 50
9                    0.884063521     -73.7444378
9.001                0.883709311     -73.8785161
9.002                0.883353616     -74.0130279
9.003                 0.88299643     -74.1479748
9.004                0.882637747     -74.2833589
9.005                0.882277562     -74.4191818
9.006                0.881915869     -74.5554456
9.007                0.881552663      -74.692152
9.008                0.881187937      -74.829303
9.009                0.880821686     -74.9669004
9.01                 0.880453903     -75.1049461
9.011                0.880084585      -75.243442
9.012                0.879713723       -75.38239
9.013                0.879341314     -75.5217921
9.014                 0.87896735     -75.6616502
9.015                0.878591827     -75.8019662
9.016                0.878214739     -75.9427421
9.017                0.877836079     -76.0839797
9.018                0.877455842     -76.2256812
9.019                0.877074023     -76.3678483
9.02                 0.876690616     -76.5104832
9.021                0.876305614     -76.6535878
9.022                0.875919013     -76.7971641
9.023                0.875530807     -76.9412141
9.024                0.875140989     -77.0857398
9.025                0.874749554     -77.2307432
9.026                0.874356497     -77.3762265
9.027                0.873961812     -77.5221915
9.028                0.873565493     -77.6686403
9.029                0.873167534     -77.8155751
9.03                  0.87276793     -77.9629979
9.031                0.872366675     -78.1109107
9.032                0.871963764     -78.2593156
9.033                0.871559191     -78.4082147
9.034                 0.87115295     -78.5576102
9.035                0.870745036     -78.7075041
9.036                0.870335443     -78.8578985
9.037                0.869924166     -79.0087956
9.038                0.869511199     -79.1601974
9.039                0.869096536     -79.3121063
9.04                 0.868680172     -79.4645242
9.041                0.868262102     -79.6174534
9.042                 0.86784232      -79.770896
9.043                0.867420821     -79.9248542
9.044                0.866997599     -80.0793302
9.045                0.866572648     -80.2343262
9.046                0.866145964     -80.3898444
9.047                0.865717541      -80.545887
9.048                0.865287373     -80.7024563
9.049                0.864855456     -80.8595544
9.05                 0.864421784     -81.0171836
9.051                0.863986352     -81.1753461
9.052                0.863549154     -81.3340443
9.053                0.863110185     -81.4932804
9.054                0.862669441     -81.6530566
9.055                0.862226915     -81.8133752
9.056                0.861782604     -81.9742386
9.057                0.861336501     -82.1356491
9.058                0.860888601     -82.2976088
9.059                0.860438901     -82.4601203
9.06                 0.859987393     -82.6231857
9.061                0.859534075     -82.7868075
9.062                 0.85907894      -82.950988
9.063                0.858621984     -83.1157295
9.064                0.858163202     -83.2810345
9.065                0.857702589     -83.4469052
9.066                0.857240141     -83.6133441
9.067                0.856775852     -83.7803535
9.068                0.856309719      -83.947936
9.069                0.855841735     -84.1160937
9.07                 0.855371898     -84.2848293
9.071                0.854900201     -84.4541451
9.072                0.854426642     -84.6240435
9.073                0.853951214      -84.794527
9.074                0.853473915     -84.9655981
9.075                0.852994739     -85.1372592
9.076                0.852513682     -85.3095128
9.077                 0.85203074     -85.4823613
9.078                0.851545909     -85.6558073
9.079                0.851059185     -85.8298532
9.08                 0.850570563     -86.0045016
9.081                 0.85008004     -86.1797549
9.082                0.849587612     -86.3556158
9.083                0.849093274     -86.5320866
9.084                0.848597023       -86.70917
9.085                0.848098855     -86.8868685
9.086                0.847598767     -87.0651847
9.087                0.847096755     -87.2441211
9.088                0.846592815     -87.4236803
9.089                0.846086944     -87.6038648
9.09                 0.845579138     -87.7846774
9.091                0.845069394     -87.9661205
9.092                0.844557709     -88.1481968
9.093                0.844044079     -88.3309088
9.094                0.843528502     -88.5142593
9.095                0.843010975     -88.6982508
9.096                0.842491494      -88.882886
9.097                0.841970057     -89.0681675
9.098                 0.84144666      -89.254098
9.099                0.840921302     -89.4406802
9.1                   0.84039398     -89.6279166
9.101                 0.83986469       -89.81581
9.102                0.839333432     -90.0043631
9.103                0.838800201     -90.1935786
9.104                0.838264997     -90.3834591
9.105                0.837727817     -90.5740074
9.106                0.837188659     -90.7652262
9.107                0.836647521     -90.9571181
9.108                0.836104401      -91.149686
9.109                0.835559298     -91.3429326
9.11                 0.835012209     -91.5368606
9.111                0.834463134     -91.7314728
9.112                0.833912072     -91.9267718
9.113                0.833359019     -92.1227606
9.114                0.832803977     -92.3194418
9.115                0.832246943     -92.5168183
9.116                0.831687917     -92.7148927
9.117                0.831126898      -92.913668
9.118                0.830563885     -93.1131469
9.119                0.829998877     -93.3133321
9.12                 0.829431875     -93.5142266
9.121                0.828862877     -93.7158331
9.122                0.828291885     -93.9181545
9.123                0.827718897     -94.1211935
9.124                0.827143914     -94.3249531
9.125                0.826566936      -94.529436
9.126                0.825987964     -94.7346451
9.127                0.825406997     -94.9405832
9.128                0.824824038     -95.1472532
9.129                0.824239085     -95.3546579
9.13                 0.823652142     -95.5628003
9.131                0.823063208     -95.7716832
9.132                0.822472285     -95.9813094
9.133                0.821879375     -96.1916818
9.134                0.821284478     -96.4028033
9.135                0.820687597     -96.6146769
9.136                0.820088734     -96.8273053
9.137                0.819487891     -97.0406915
9.138                 0.81888507     -97.2548384
9.139                0.818280274     -97.4697489
9.14                 0.817673504     -97.6854259
9.141                0.817064765     -97.9018722
9.142                0.816454059     -98.1190909
9.143                0.815841388     -98.3370847
9.144                0.815226758     -98.5558567
9.145                 0.81461017     -98.7754098
9.146                0.813991629     -98.9957468
9.147                0.813371139     -99.2168707
9.148                0.812748704     -99.4387845
9.149                0.812124327      -99.661491
9.15                 0.811498015     -99.8849931
9.151                 0.81086977     -100.109294
9.152                  0.8102396     -100.334396
9.153                0.809607507     -100.560303
9.154                0.808973499     -100.787017
9.155                 0.80833758     -101.014542
9.156                0.807699756     -101.242879
9.157                0.807060033     -101.472033
9.158                0.806418418     -101.702006
9.159                0.805774917     -101.932801
9.16                 0.805129537     -102.164422
9.161                0.804482284      -102.39687
9.162                0.803833166     -102.630148
9.163                 0.80318219     -102.864261
9.164                0.802529364      -103.09921
9.165                0.801874696     -103.334999
9.166                0.801218194     -103.571631
9.167                0.800559866     -103.809107
9.168                0.799899721     -104.047433
9.169                0.799237768     -104.286609
9.17                 0.798574016      -104.52664
9.171                0.797908475     -104.767528
9.172                0.797241154     -105.009275
9.173                0.796572063     -105.251886
9.174                0.795901213     -105.495362
9.175                0.795228614     -105.739707
9.176                0.794554276     -105.984924
9.177                0.793878211     -106.231014
9.178                0.793200431     -106.477983
9.179                0.792520947     -106.725831
9.18                  0.79183977     -106.974562
9.181                0.791156914     -107.224179
9.182                 0.79047239     -107.474684
9.183                0.789786212     -107.726081
9.184                0.789098393     -107.978372
9.185                0.788408945     -108.231561
9.186                0.787717884     -108.485649
9.187                0.787025223      -108.74064
9.188                0.786330976     -108.996536
9.189                0.785635158      -109.25334
9.19                 0.784937784     -109.511056
9.191                 0.78423887     -109.769685
9.192                0.783538431      -110.02923
9.193                0.782836483     -110.289695
9.194                0.782133043     -110.551082
9.195                0.781428127     -110.813393
9.196                0.780721752     -111.076631
9.197                0.780013936     -111.340799
9.198                0.779304696       -111.6059
9.199                0.778594051     -111.871936
9.2                  0.777882019     -112.138909
9.201                0.777168618     -112.406823
9.202                0.776453868      -112.67568
9.203                0.775737789     -112.945483
9.204                0.775020399     -113.216233
9.205                 0.77430172     -113.487935
9.206                0.773581772     -113.760589
9.207                0.772860576     -114.034199
9.208                0.772138153     -114.308767
9.209                0.771414525     -114.584295
9.21                 0.770689714     -114.860787
9.211                0.769963743     -115.138243
9.212                0.769236634     -115.416668
9.213                 0.76850841     -115.696062
9.214                0.767779096     -115.976429
9.215                0.767048715     -116.257771
9.216                0.766317292     -116.540089
9.217                0.765584852     -116.823387
9.218                0.764851419     -117.107667
9.219                0.764117019      -117.39293
9.22                 0.763381679     -117.679178
9.221                0.762645424     -117.966415
9.222                0.761908282     -118.254642
9.223                 0.76117028     -118.543861
9.224                0.760431446     -118.834075
9.225                0.759691807     -119.125284
9.226                0.758951392     -119.417492
9.227                 0.75821023       -119.7107
9.228                 0.75746835      -120.00491
9.229                0.756725782     -120.300125
9.23                 0.755982556     -120.596345
9.231                0.755238703     -120.893572
9.232                0.754494253      -121.19181
9.233                0.753749239     -121.491058
9.234                0.753003691     -121.791319
9.235                0.752257642     -122.092595
9.236                0.751511126     -122.394887
9.237                0.750764174     -122.698197
9.238                0.750016821     -123.002526
9.239                  0.7492691     -123.307875
9.24                 0.748521047     -123.614247
9.241                0.747772695     -123.921643
9.242                 0.74702408     -124.230064
9.243                0.746275238     -124.539511
9.244                0.745526205     -124.849985
9.245                0.744777018     -125.161489
9.246                0.744027713     -125.474022
9.247                0.743278328     -125.787586
9.248                0.742528901     -126.102183
9.249                 0.74177947     -126.417812
9.25                 0.741030075     -126.734476
9.251                0.740280753     -127.052175
9.252                0.739531545      -127.37091
9.253                 0.73878249     -127.690681
9.254                 0.73803363      -128.01149
9.255                0.737285005     -128.333337
9.256                0.736536657     -128.656223
9.257                0.735788626     -128.980148
9.258                0.735040956     -129.305113
9.259                0.734293689     -129.631119
9.26                 0.733546868     -129.958164
9.261                0.732800536     -130.286251
9.262                0.732054737     -130.615379
9.263                0.731309516     -130.945549
9.264                0.730564917      -131.27676
9.265                0.729820985     -131.609013
9.266                0.729077766     -131.942307
9.267                0.728335306     -132.276642
9.268                0.727593651     -132.612019
9.269                0.726852847     -132.948438
9.27                 0.726112942     -133.285896
9.271                0.725373983     -133.624396
9.272                0.724636018     -133.963935
9.273                0.723899095     -134.304514
9.274                0.723163264     -134.646132
9.275                0.722428572     -134.988787
9.276                 0.72169507     -135.332481
9.277                0.720962806      -135.67721
9.278                0.720231832     -136.022976
9.279                0.719502198     -136.369776
9.28                 0.718773954      -136.71761
9.281                0.718047152     -137.066476
9.282                0.717321843     -137.416373
9.283                0.716598079       -137.7673
9.284                0.715875912     -138.119255
9.285                0.715155395     -138.472237
9.286                 0.71443658     -138.826245
9.287                0.713719521     -139.181276
9.288                0.713004271     -139.537328
9.289                0.712290884     -139.894401
9.29                 0.711579413     -140.252491
9.291                0.710869914     -140.611597
9.292                0.710162441     -140.971717
9.293                0.709457048     -141.332848
9.294                0.708753791     -141.694988
9.295                0.708052725     -142.058134
9.296                0.707353906     -142.422284
9.297                 0.70665739     -142.787436
9.298                0.705963232     -143.153586
9.299                 0.70527149     -143.520732
9.3                  0.704582219      -143.88887
9.301                0.703895476     -144.257998
9.302                0.703211318     -144.628113
9.303                0.702529803      -144.99921
9.304                0.701850988     -145.371288
9.305                 0.70117493     -145.744341
9.306                0.700501687     -146.118367
9.307                0.699831316     -146.493362
9.308                0.699163875     -146.869322
9.309                0.698499423     -147.246242
9.31                 0.697838018      -147.62412
9.311                0.697179718     -148.002951
9.312                 0.69652458      -148.38273
9.313                0.695872665     -148.763453
9.314                0.695224029     -149.145116
9.315                0.694578732     -149.527714
9.316                0.693936832     -149.911242
9.317                0.693298388     -150.295696
9.318                0.692663459      -150.68107
9.319                0.692032103     -151.067359
9.32                 0.691404379     -151.454558
9.321                0.690780345     -151.842662
9.322                 0.69016006     -152.231665
9.323                0.689543583     -152.621562
9.324                0.688930972     -153.012347
9.325                0.688322286     -153.404013
9.326                0.687717583     -153.796556
9.327                0.687116922      -154.18997
9.328                0.686520359     -154.584247
9.329                0.685927955     -154.979381
9.33                 0.685339766     -155.375367
9.331                0.684755851     -155.772198
9.332                0.684176266     -156.169866
9.333                 0.68360107     -156.568366
9.334                0.683030319     -156.967689
9.335                0.682464072      -157.36783
9.336                0.681902384     -157.768781
9.337                0.681345312     -158.170535
9.338                0.680792913     -158.573083
9.339                0.680245242      -158.97642
9.34                 0.679702356     -159.380537
9.341                 0.67916431     -159.785426
9.342                0.678631159     -160.191079
9.343                0.678102959     -160.597488
9.344                0.677579763     -161.004646
9.345                0.677061626     -161.412543
9.346                0.676548603     -161.821173
9.347                0.676040745     -162.230525
9.348                0.675538107     -162.640591
9.349                0.675040742     -163.051363
9.35                   0.6745487     -163.462831
9.351                0.674062035     -163.874988
9.352                0.673580798     -164.287822
9.353                0.673105039     -164.701327
9.354                0.672634809     -165.115491
9.355                0.672170158     -165.530305
9.356                0.671711136     -165.945761
9.357                 0.67125779     -166.361848
9.358                 0.67081017     -166.778556
9.359                0.670368324     -167.195876
9.36                 0.669932298     -167.613797
9.361                0.669502139      -168.03231
9.362                0.669077893     -168.451404
9.363                0.668659606     -168.871068
9.364                0.668247323     -169.291293
9.365                0.667841087     -169.712068
9.366                0.667440943     -170.133381
9.367                0.667046933     -170.555223
9.368                0.666659098     -170.977583
9.369                0.666277482     -171.400449
9.37                 0.665902124      -171.82381
9.371                0.665533064     -172.247655
9.372                0.665170342     -172.671974
9.373                0.664813996     -173.096754
9.374                0.664464065     -173.521984
9.375                0.664120585     -173.947653
9.376                0.663783592     -174.373749
9.377                0.663453123     -174.800261
9.378                0.663129211     -175.227176
9.379                 0.66281189     -175.654483
9.38                 0.662501194     -176.082169
9.381                0.662197155     -176.510223
9.382                0.661899804     -176.938633
9.383                0.661609171     -177.367386
9.384                0.661325287     -177.796471
9.385                 0.66104818     -178.225874
9.386                0.660777877     -178.655584
9.387                0.660514406     -179.085589
9.388                0.660257793     -179.515874
9.389                0.660008063     -179.946429
9.39                  0.65976524       179.62276
9.391                0.659529347      179.191705
9.392                0.659300408      178.760419
9.393                0.659078442      178.328915
9.394                0.658863472      177.897205
9.395                0.658655515      177.465303
9.396                0.658454592      177.033221
