! TOUCHSTONE file generated by CST DESIGN STUDIO
! Date and time: Tue Feb  4 13:58:09 2025
! Project name: C:\Work\MatlabApps\UnitCellOptimizationMatlab\CST\unitcell.cst
! Tree item: Tasks\Sweep1\SPara1\S-Parameters
! Header version: 2024
! Port assignment regex: !\s*Touchstone port\s*([0-9]+)\s*=\s*(CST MWS port|CST DES external port|CST DES block port)\s*(.+)\s* \(\"(.*)\"\)(\s*mode\s*([0-9]+))?.*
! Touchstone port assignment:
! Touchstone port 1 = CST DES external port 1 ("")
# GHz S MA R 50
9                    0.911517126     -88.6483261
9.001                0.911255687     -88.8099259
9.002                0.910994234     -88.9720215
9.003                0.910732771     -89.1346148
9.004                  0.9104713     -89.2977077
9.005                0.910209823     -89.4613023
9.006                0.909948343     -89.6254006
9.007                0.909686863     -89.7900044
9.008                0.909425384      -89.955116
9.009                 0.90916391     -90.1207371
9.01                 0.908902443     -90.2868699
9.011                0.908640986     -90.4535164
9.012                0.908379541     -90.6206785
9.013                0.908118111     -90.7883583
9.014                0.907856698     -90.9565578
9.015                0.907595306     -91.1252791
9.016                0.907333936     -91.2945241
9.017                0.907072591     -91.4642949
9.018                0.906811275     -91.6345935
9.019                0.906549989      -91.805422
9.02                 0.906288736     -91.9767824
9.021                 0.90602752     -92.1486768
9.022                0.905766343     -92.3211072
9.023                0.905505207     -92.4940757
9.024                0.905244115     -92.6675842
9.025                0.904983071      -92.841635
9.026                0.904722077       -93.01623
9.027                0.904461136     -93.1913713
9.028                 0.90420025     -93.3670611
9.029                0.903939423     -93.5433012
9.03                 0.903678658     -93.7200939
9.031                0.903417957     -93.8974412
9.032                0.903157323     -94.0753452
9.033                0.902896759     -94.2538079
9.034                0.902636268     -94.4328315
9.035                0.902375854      -94.612418
9.036                0.902115519     -94.7925695
9.037                0.901855266     -94.9732882
9.038                0.901595098      -95.154576
9.039                0.901335018     -95.3364351
9.04                  0.90107503     -95.5188677
9.041                0.900815137     -95.7018757
9.042                0.900555341     -95.8854613
9.043                0.900295646     -96.0696265
9.044                0.900036054     -96.2543736
9.045                0.899776571     -96.4397045
9.046                0.899517197     -96.6256214
9.047                0.899257937     -96.8121263
9.048                0.898998795     -96.9992215
9.049                0.898739772     -97.1869089
9.05                 0.898480873     -97.3751908
9.051                0.898222101     -97.5640691
9.052                 0.89796346      -97.753546
9.053                0.897704952     -97.9436236
9.054                0.897446582      -98.134304
9.055                0.897188352     -98.3255893
9.056                0.896930267     -98.5174816
9.057                0.896672329      -98.709983
9.058                0.896414542     -98.9030957
9.059                0.896156911     -99.0968216
9.06                 0.895899438     -99.2911629
9.061                0.895642127     -99.4861217
9.062                0.895384981     -99.6817001
9.063                0.895128006     -99.8779001
9.064                0.894871203     -100.074724
9.065                0.894614578     -100.272174
9.066                0.894358133     -100.470251
9.067                0.894101873     -100.668959
9.068                0.893845802     -100.868299
9.069                0.893589923     -101.068273
9.07                  0.89333424     -101.268883
9.071                0.893078758     -101.470132
9.072                 0.89282348     -101.672021
9.073                 0.89256841     -101.874552
9.074                0.892313553     -102.077728
9.075                0.892058912     -102.281551
9.076                0.891804492     -102.486022
9.077                0.891550296     -102.691144
9.078                 0.89129633     -102.896918
9.079                0.891042597     -103.103348
9.08                 0.890789102     -103.310434
9.081                0.890535848     -103.518179
9.082                0.890282841     -103.726585
9.083                0.890030084     -103.935654
9.084                0.889777583     -104.145388
9.085                0.889525341     -104.355789
9.086                0.889273363     -104.566858
9.087                0.889021654     -104.778599
9.088                0.888770218     -104.991012
9.089                0.888519061     -105.204101
9.09                 0.888268185     -105.417866
9.091                0.888017597      -105.63231
9.092                0.887767302     -105.847434
9.093                0.887517303     -106.063242
9.094                0.887267606     -106.279734
9.095                0.887018215     -106.496913
9.096                0.886769137      -106.71478
9.097                0.886520375     -106.933338
9.098                0.886271934     -107.152588
9.099                 0.88602382     -107.372532
9.1                  0.885776039     -107.593172
9.101                0.885528594     -107.814511
9.102                0.885281491     -108.036549
9.103                0.885034736     -108.259289
9.104                0.884788334     -108.482733
9.105                0.884542289     -108.706882
9.106                0.884296609     -108.931738
9.107                0.884051297     -109.157304
9.108                 0.88380636      -109.38358
9.109                0.883561803     -109.610569
9.11                 0.883317632     -109.838272
9.111                0.883073852     -110.066692
9.112                0.882830469     -110.295829
9.113                0.882587489     -110.525686
9.114                0.882344917     -110.756264
9.115                 0.88210276     -110.987566
9.116                0.881861023     -111.219592
9.117                0.881619712     -111.452345
9.118                0.881378834     -111.685826
9.119                0.881138394     -111.920036
9.12                 0.880898398     -112.154978
9.121                0.880658853     -112.390653
9.122                0.880419765     -112.627063
9.123                 0.88018114     -112.864209
9.124                0.879942984     -113.102093
9.125                0.879705305     -113.340715
9.126                0.879468107     -113.580079
9.127                0.879231398     -113.820185
9.128                0.878995184     -114.061035
9.129                0.878759472      -114.30263
9.13                 0.878524269     -114.544972
9.131                0.878289581     -114.788063
9.132                0.878055414     -115.031902
9.133                0.877821777     -115.276493
9.134                0.877588675     -115.521837
9.135                0.877356116     -115.767933
9.136                0.877124106     -116.014785
9.137                0.876892652     -116.262394
9.138                0.876661763      -116.51076
9.139                0.876431444     -116.759885
9.14                 0.876201703      -117.00977
9.141                0.875972548     -117.260417
9.142                0.875743985     -117.511826
9.143                0.875516022     -117.763999
9.144                0.875288667     -118.016936
9.145                0.875061926      -118.27064
9.146                0.874835808     -118.525111
9.147                 0.87461032      -118.78035
9.148                 0.87438547     -119.036358
9.149                0.874161265     -119.293137
9.15                 0.873937714     -119.550687
9.151                0.873714823     -119.809009
9.152                0.873492602     -120.068104
9.153                0.873271057     -120.327973
9.154                0.873050197     -120.588617
9.155                 0.87283003     -120.850037
9.156                0.872610565     -121.112233
9.157                0.872391808     -121.375207
9.158                0.872173769     -121.638959
9.159                0.871956456      -121.90349
9.16                 0.871739877       -122.1688
9.161                0.871524041      -122.43489
9.162                0.871308955     -122.701762
9.163                0.871094629     -122.969414
9.164                0.870881071     -123.237849
9.165                 0.87066829     -123.507067
9.166                0.870456294     -123.777067
9.167                0.870245092     -124.047851
9.168                0.870034692     -124.319419
9.169                0.869825105     -124.591771
9.17                 0.869616338     -124.864908
9.171                0.869408401      -125.13883
9.172                0.869201302     -125.413537
9.173                 0.86899505      -125.68903
9.174                0.868789656     -125.965308
9.175                0.868585127     -126.242373
9.176                0.868381473     -126.520223
9.177                0.868178703      -126.79886
9.178                0.867976827     -127.078283
9.179                0.867775854     -127.358492
9.18                 0.867575792     -127.639488
9.181                0.867376653     -127.921269
9.182                0.867178445     -128.203837
9.183                0.866981177     -128.487191
9.184                 0.86678486      -128.77133
9.185                0.866589503     -129.056255
9.186                0.866395115     -129.341965
9.187                0.866201707      -129.62846
9.188                0.866009287      -129.91574
9.189                0.865817867     -130.203804
9.19                 0.865627455     -130.492651
9.191                0.865438061     -130.782282
9.192                0.865249696     -131.072696
9.193                 0.86506237     -131.363892
9.194                0.864876092     -131.655869
9.195                0.864690872     -131.948627
9.196                0.864506721     -132.242165
9.197                0.864323648     -132.536482
9.198                0.864141664     -132.831578
9.199                0.863960779     -133.127452
9.2                  0.863781003     -133.424102
9.201                0.863602346     -133.721528
9.202                0.863424819     -134.019729
9.203                0.863248431     -134.318704
9.204                0.863073194     -134.618451
9.205                0.862899117     -134.918969
9.206                 0.86272621     -135.220258
9.207                0.862554485     -135.522316
9.208                0.862383951     -135.825141
9.209                0.862214619     -136.128733
9.21                   0.8620465     -136.433089
9.211                0.861879603     -136.738209
9.212                 0.86171394      -137.04409
9.213                 0.86154952     -137.350732
9.214                0.861386354     -137.658133
9.215                0.861224453      -137.96629
9.216                0.861063827     -138.275203
9.217                0.860904487     -138.584869
9.218                0.860746444     -138.895286
9.219                0.860589707     -139.206453
9.22                 0.860434287     -139.518368
9.221                0.860280195     -139.831028
9.222                0.860127441     -140.144431
9.223                0.859976036     -140.458577
9.224                0.859825991     -140.773461
9.225                0.859677315     -141.089082
9.226                 0.85953002     -141.405438
9.227                0.859384115     -141.722526
9.228                0.859239612     -142.040344
9.229                0.859096521     -142.358889
9.23                 0.858954851     -142.678159
9.231                0.858814615     -142.998151
9.232                0.858675822     -143.318863
9.233                0.858538482     -143.640292
9.234                0.858402606     -143.962434
9.235                0.858268204     -144.285288
9.236                0.858135287      -144.60885
9.237                0.858003864     -144.933117
9.238                0.857873947     -145.258086
9.239                0.857745545     -145.583755
9.24                 0.857618668     -145.910119
9.241                0.857493327     -146.237177
9.242                0.857369531     -146.564924
9.243                0.857247291     -146.893357
9.244                0.857126617     -147.222473
9.245                0.857007519     -147.552268
9.246                0.856890006      -147.88274
9.247                0.856774089     -148.213883
9.248                0.856659777     -148.545695
9.249                0.856547081     -148.878172
9.25                 0.856436009     -149.211311
9.251                0.856326571     -149.545106
9.252                0.856218777     -149.879555
9.253                0.856112637     -150.214654
9.254                 0.85600816     -150.550398
9.255                0.855905355     -150.886783
9.256                0.855804232     -151.223806
9.257                0.855704799     -151.561461
9.258                0.855607067     -151.899746
9.259                0.855511043     -152.238655
9.26                 0.855416738     -152.578184
9.261                0.855324159     -152.918329
9.262                0.855233316     -153.259085
9.263                0.855144217     -153.600447
9.264                0.855056871     -153.942412
9.265                0.854971287     -154.284973
9.266                0.854887473     -154.628127
9.267                0.854805437     -154.971869
9.268                0.854725188     -155.316194
9.269                0.854646733     -155.661097
9.27                 0.854570081     -156.006572
9.271                0.854495239     -156.352615
9.272                0.854422216     -156.699221
9.273                0.854351019     -157.046385
9.274                0.854281655     -157.394101
9.275                0.854214133     -157.742363
9.276                0.854148459     -158.091168
9.277                 0.85408464     -158.440509
9.278                0.854022684      -158.79038
9.279                0.853962598     -159.140777
9.28                 0.853904388     -159.491693
9.281                0.853848061     -159.843123
9.282                0.853793624     -160.195062
9.283                0.853741083     -160.547503
9.284                0.853690444     -160.900441
9.285                0.853641713      -161.25387
9.286                0.853594897     -161.607784
9.287                0.853550001     -161.962177
9.288                0.853507031     -162.317042
9.289                0.853465993     -162.672375
9.29                 0.853426891     -163.028168
9.291                0.853389732     -163.384416
9.292                0.853354519     -163.741112
9.293                0.853321259      -164.09825
9.294                0.853289955     -164.455823
9.295                0.853260613     -164.813826
9.296                0.853233236     -165.172252
9.297                 0.85320783     -165.531094
9.298                0.853184397     -165.890345
9.299                0.853162943         -166.25
9.3                   0.85314347     -166.610052
9.301                0.853125983     -166.970493
9.302                0.853110485     -167.331317
9.303                0.853096978     -167.692517
9.304                0.853085466     -168.054087
9.305                0.853075952      -168.41602
9.306                0.853068439     -168.778308
9.307                0.853062928     -169.140945
9.308                0.853059423     -169.503924
9.309                0.853057925     -169.867238
9.31                 0.853058437     -170.230879
9.311                0.853060959      -170.59484
9.312                0.853065494     -170.959115
9.313                0.853072042     -171.323696
9.314                0.853080606     -171.688576
9.315                0.853091186     -172.053748
9.316                0.853103782     -172.419203
9.317                0.853118396     -172.784936
9.318                0.853135027     -173.150939
9.319                0.853153677     -173.517203
9.32                 0.853174344     -173.883723
9.321                0.853197028     -174.250489
9.322                 0.85322173     -174.617496
9.323                0.853248449     -174.984735
9.324                0.853277183     -175.352198
9.325                0.853307931     -175.719879
9.326                0.853340693     -176.087769
9.327                0.853375467      -176.45586
9.328                0.853412251     -176.824146
9.329                0.853451044     -177.192619
9.33                 0.853491843      -177.56127
9.331                0.853534646     -177.930092
9.332                0.853579451     -178.299078
9.333                0.853626254     -178.668219
9.334                0.853675054     -179.037507
9.335                0.853725847     -179.406936
9.336                0.853778629     -179.776497
9.337                0.853833397      179.853819
9.338                0.853890148      179.484018
9.339                0.853948878      179.114108
9.34                 0.854009582      178.744098
9.341                0.854072256      178.373995
9.342                0.854136895      178.003808
9.343                0.854203496      177.633543
9.344                0.854272052       177.26321
9.345                0.854342559      176.892816
9.346                0.854415012      176.522369
9.347                0.854489405      176.151877
9.348                0.854565732      175.781348
9.349                0.854643987      175.410789
9.35                 0.854724164       175.04021
9.351                0.854806257      174.669617
9.352                0.854890259      174.299019
9.353                0.854976164      173.928424
9.354                0.855063965       173.55784
9.355                0.855153654      173.187274
9.356                0.855245225      172.816735
9.357                0.855338669      172.446231
9.358                0.855433979      172.075769
9.359                0.855531148      171.705358
9.36                 0.855630167      171.335005
9.361                0.855731028      170.964719
9.362                0.855833722      170.594507
9.363                0.855938242      170.224377
9.364                0.856044578      169.854337
9.365                0.856152721      169.484396
9.366                0.856262662       169.11456
9.367                0.856374392      168.744838
9.368                0.856487902      168.375237
9.369                0.856603182      168.005766
9.37                 0.856720221      167.636432
9.371                0.856839011      167.267243
9.372                 0.85695954      166.898207
9.373                  0.8570818      166.529331
9.374                0.857205778      166.160624
9.375                0.857331466      165.792092
9.376                0.857458851      165.423744
9.377                0.857587923      165.055588
9.378                0.857718671       164.68763
9.379                0.857851084      164.319879
9.38                  0.85798515      163.952342
9.381                0.858120858      163.585027
9.382                0.858258197       163.21794
9.383                0.858397154      162.851091
9.384                0.858537718      162.484485
9.385                0.858679877      162.118131
9.386                0.858823618      161.752036
9.387                0.858968929      161.386208
9.388                0.859115799      161.020653
9.389                0.859264214      160.655379
9.39                 0.859414161      160.290393
9.391                0.859565629      159.925702
9.392                0.859718603      159.561314
9.393                0.859873072      159.197236
9.394                0.860029022      158.833474
9.395                 0.86018644      158.470037
9.396                0.860345313       158.10693
