! TOUCHSTONE file generated by CST DESIGN STUDIO
! Date and time: Tue Feb  4 13:58:07 2025
! Project name: C:\Work\MatlabApps\UnitCellOptimizationMatlab\CST\unitcell.cst
! Tree item: Tasks\Sweep1\SPara1\S-Parameters
! Header version: 2024
! Port assignment regex: !\s*Touchstone port\s*([0-9]+)\s*=\s*(CST MWS port|CST DES external port|CST DES block port)\s*(.+)\s* \(\"(.*)\"\)(\s*mode\s*([0-9]+))?.*
! Touchstone port assignment:
! Touchstone port 1 = CST DES external port 1 ("")
# GHz S MA R 50
9                    0.900402825     -95.5388241
9.001                0.900094137     -95.7211647
9.002                0.899785492     -95.9040677
9.003                0.899476895     -96.0875352
9.004                0.899168349     -96.2715692
9.005                 0.89885986     -96.4561718
9.006                0.898551434     -96.6413452
9.007                0.898243075     -96.8270913
9.008                0.897934787     -97.0134122
9.009                0.897626577     -97.2003101
9.01                  0.89731845     -97.3877871
9.011                0.897010409     -97.5758451
9.012                0.896702462     -97.7644864
9.013                0.896394612      -97.953713
9.014                0.896086866     -98.1435269
9.015                0.895779228     -98.3339303
9.016                0.895471704     -98.5249253
9.017                  0.8951643      -98.716514
9.018                 0.89485702     -98.9086984
9.019                 0.89454987     -99.1014807
9.02                 0.894242856     -99.2948629
9.021                0.893935983     -99.4888471
9.022                0.893629257     -99.6834354
9.023                0.893322683       -99.87863
9.024                0.893016267     -100.074433
9.025                0.892710015     -100.270846
9.026                0.892403933     -100.467872
9.027                0.892098026     -100.665512
9.028                0.891792301     -100.863769
9.029                0.891486762     -101.062645
9.03                 0.891181417     -101.262141
9.031                 0.89087627     -101.462261
9.032                0.890571329     -101.663005
9.033                0.890266598     -101.864377
9.034                0.889962085     -102.066378
9.035                0.889657795      -102.26901
9.036                0.889353735     -102.472275
9.037                0.889049911     -102.676175
9.038                0.888746328     -102.880713
9.039                0.888442994     -103.085891
9.04                 0.888139915      -103.29171
9.041                0.887837098     -103.498173
9.042                0.887534548     -103.705281
9.043                0.887232272     -103.913037
9.044                0.886930277     -104.121443
9.045                0.886628569       -104.3305
9.046                0.886327156     -104.540212
9.047                0.886026044     -104.750579
9.048                0.885725239     -104.961604
9.049                0.885424749     -105.173289
9.05                 0.885124581     -105.385636
9.051                 0.88482474     -105.598646
9.052                0.884525235     -105.812323
9.053                0.884226072     -106.026668
9.054                0.883927259     -106.241682
9.055                0.883628802     -106.457368
9.056                 0.88333071     -106.673729
9.057                0.883032988     -106.890765
9.058                0.882735644     -107.108478
9.059                0.882438686     -107.326872
9.06                 0.882142121     -107.545947
9.061                0.881845957     -107.765706
9.062                0.881550201      -107.98615
9.063                 0.88125486     -108.207282
9.064                0.880959943     -108.429103
9.065                0.880665457     -108.651615
9.066                0.880371409     -108.874821
9.067                0.880077808     -109.098721
9.068                0.879784661     -109.323319
9.069                0.879491976     -109.548615
9.07                 0.879199762     -109.774612
9.071                0.878908026     -110.001311
9.072                0.878616776     -110.228714
9.073                 0.87832602     -110.456824
9.074                0.878035767     -110.685641
9.075                0.877746025     -110.915169
9.076                0.877456802     -111.145407
9.077                0.877168107     -111.376359
9.078                0.876879948     -111.608026
9.079                0.876592333     -111.840409
9.08                 0.876305271     -112.073511
9.081                0.876018771     -112.307333
9.082                0.875732841     -112.541877
9.083                0.875447491     -112.777145
9.084                0.875162727     -113.013138
9.085                0.874878561     -113.249857
9.086                   0.874595     -113.487305
9.087                0.874312054     -113.725483
9.088                0.874029731     -113.964393
9.089                0.873748041     -114.204036
9.09                 0.873466992     -114.444414
9.091                0.873186595     -114.685528
9.092                0.872906857     -114.927381
9.093                 0.87262779     -115.169972
9.094                0.872349401     -115.413305
9.095                  0.8720717      -115.65738
9.096                0.871794698     -115.902199
9.097                0.871518403     -116.147764
9.098                0.871242825     -116.394075
9.099                0.870967974     -116.641134
9.1                  0.870693859     -116.888943
9.101                 0.87042049     -117.137502
9.102                0.870147878     -117.386814
9.103                0.869876032     -117.636879
9.104                0.869604962     -117.887699
9.105                0.869334678     -118.139275
9.106                0.869065191     -118.391609
9.107                 0.86879651     -118.644701
9.108                0.868528645     -118.898552
9.109                0.868261608     -119.153165
9.11                 0.867995408      -119.40854
9.111                0.867730055     -119.664677
9.112                0.867465561     -119.921579
9.113                0.867201936     -120.179247
9.114                0.866939189      -120.43768
9.115                0.866677333     -120.696881
9.116                0.866416377     -120.956851
9.117                0.866156333      -121.21759
9.118                0.865897211     -121.479099
9.119                0.865639022     -121.741379
9.12                 0.865381776     -122.004431
9.121                0.865125486     -122.268256
9.122                0.864870162     -122.532855
9.123                0.864615815     -122.798228
9.124                0.864362456     -123.064377
9.125                0.864110097     -123.331301
9.126                0.863858748     -123.599002
9.127                0.863608421      -123.86748
9.128                0.863359127     -124.136737
9.129                0.863110879     -124.406771
9.13                 0.862863686     -124.677585
9.131                0.862617561     -124.949179
9.132                0.862372515     -125.221552
9.133                0.862128561     -125.494706
9.134                0.861885708     -125.768641
9.135                 0.86164397     -126.043358
9.136                0.861403358     -126.318856
9.137                0.861163884     -126.595136
9.138                0.860925559     -126.872198
9.139                0.860688395     -127.150043
9.14                 0.860452405     -127.428671
9.141                0.860217601     -127.708081
9.142                0.859983994     -127.988274
9.143                0.859751596     -128.269251
9.144                0.859520419     -128.551011
9.145                0.859290477     -128.833553
9.146                 0.85906178     -129.116879
9.147                0.858834341     -129.400988
9.148                0.858608172     -129.685879
9.149                0.858383286     -129.971554
9.15                 0.858159694     -130.258011
9.151                 0.85793741      -130.54525
9.152                0.857716445     -130.833271
9.153                0.857496812     -131.122073
9.154                0.857278523     -131.411657
9.155                0.857061591     -131.702022
9.156                0.856846029     -131.993167
9.157                0.856631848     -132.285092
9.158                0.856419061     -132.577796
9.159                0.856207681     -132.871278
9.16                  0.85599772     -133.165539
9.161                0.855789191     -133.460577
9.162                0.855582107     -133.756391
9.163                 0.85537648     -134.052982
9.164                0.855172323     -134.350347
9.165                0.854969648     -134.648485
9.166                0.854768467     -134.947397
9.167                0.854568795     -135.247081
9.168                0.854370643     -135.547536
9.169                0.854174024     -135.848761
9.17                  0.85397895     -136.150754
9.171                0.853785435     -136.453515
9.172                0.853593491     -136.757042
9.173                 0.85340313     -137.061335
9.174                0.853214366      -137.36639
9.175                0.853027211     -137.672208
9.176                0.852841677     -137.978786
9.177                0.852657777     -138.286124
9.178                0.852475525     -138.594219
9.179                0.852294931      -138.90307
9.18                  0.85211601     -139.212675
9.181                0.851938774     -139.523033
9.182                0.851763234     -139.834142
9.183                0.851589405     -140.145999
9.184                0.851417297     -140.458603
9.185                0.851246924     -140.771952
9.186                0.851078299     -141.086045
9.187                0.850911433     -141.400878
9.188                0.850746339     -141.716449
9.189                0.850583029     -142.032757
9.19                 0.850421516       -142.3498
9.191                0.850261811     -142.667574
9.192                0.850103928     -142.986078
9.193                0.849947878     -143.305309
9.194                0.849793674     -143.625265
9.195                0.849641327     -143.945942
9.196                0.849490849     -144.267339
9.197                0.849342253     -144.589453
9.198                 0.84919555     -144.912281
9.199                0.849050753      -145.23582
9.2                  0.848907872     -145.560067
9.201                0.848766921      -145.88502
9.202                0.848627909     -146.210676
9.203                 0.84849085      -146.53703
9.204                0.848355754     -146.864082
9.205                0.848222633     -147.191826
9.206                0.848091499      -147.52026
9.207                0.847962362     -147.849381
9.208                0.847835233     -148.179185
9.209                0.847710125     -148.509669
9.21                 0.847587047     -148.840829
9.211                0.847466011     -149.172662
9.212                0.847347028     -149.505164
9.213                0.847230108     -149.838332
9.214                0.847115262     -150.172162
9.215                  0.8470025      -150.50665
9.216                0.846891833     -150.841792
9.217                0.846783271     -151.177584
9.218                0.846676825     -151.514023
9.219                0.846572503     -151.851104
9.22                 0.846470318     -152.188823
9.221                0.846370277     -152.527176
9.222                0.846272391     -152.866159
9.223                 0.84617667     -153.205767
9.224                0.846083122     -153.545996
9.225                0.845991758     -153.886842
9.226                0.845902586       -154.2283
9.227                0.845815615     -154.570366
9.228                0.845730855     -154.913035
9.229                0.845648313     -155.256302
9.23                    0.845568     -155.600162
9.231                0.845489922     -155.944612
9.232                 0.84541409     -156.289645
9.233                0.845340509     -156.635258
9.234                0.845269189     -156.981445
9.235                0.845200138       -157.3282
9.236                0.845133363      -157.67552
9.237                0.845068871     -158.023398
9.238                 0.84500667      -158.37183
9.239                0.844946768      -158.72081
9.24                  0.84488917     -159.070334
9.241                0.844833885     -159.420394
9.242                0.844780918     -159.770987
9.243                0.844730276     -160.122106
9.244                0.844681965     -160.473746
9.245                0.844635991     -160.825902
9.246                0.844592361     -161.178567
9.247                 0.84455108     -161.531735
9.248                0.844512153     -161.885402
9.249                0.844475586     -162.239562
9.25                 0.844441384     -162.594207
9.251                0.844409552     -162.949333
9.252                0.844380094     -163.304932
9.253                0.844353015     -163.661001
9.254                0.844328319     -164.017531
9.255                0.844306011     -164.374516
9.256                0.844286094     -164.731952
9.257                0.844268572     -165.089831
9.258                0.844253448     -165.448146
9.259                0.844240726     -165.806892
9.26                 0.844230408     -166.166062
9.261                0.844222498      -166.52565
9.262                0.844216998     -166.885649
9.263                0.844213909     -167.246052
9.264                0.844213235     -167.606852
9.265                0.844214978     -167.968044
9.266                0.844219137      -168.32962
9.267                0.844225717     -168.691573
9.268                0.844234716     -169.053897
9.269                0.844246137     -169.416585
9.27                  0.84425998     -169.779629
9.271                0.844276245     -170.143024
9.272                0.844294933     -170.506761
9.273                0.844316044     -170.870834
9.274                0.844339577     -171.235235
9.275                0.844365531     -171.599958
9.276                0.844393907     -171.964995
9.277                0.844424703     -172.330339
9.278                0.844457918     -172.695983
9.279                0.844493551      -173.06192
9.28                 0.844531598     -173.428141
9.281                 0.84457206     -173.794641
9.282                0.844614933     -174.161411
9.283                0.844660215     -174.528444
9.284                0.844707903     -174.895732
9.285                0.844757994     -175.263268
9.286                0.844810485     -175.631045
9.287                0.844865372     -175.999054
9.288                0.844922653     -176.367289
9.289                0.844982321     -176.735742
9.29                 0.845044375     -177.104404
9.291                0.845108808     -177.473269
9.292                0.845175616     -177.842329
9.293                0.845244795     -178.211575
9.294                0.845316338        -178.581
9.295                0.845390241     -178.950597
9.296                0.845466498     -179.320357
9.297                0.845545102     -179.690273
9.298                0.845626048      179.939663
9.299                0.845709328      179.569459
9.3                  0.845794937      179.199123
9.301                0.845882866      178.828662
9.302                 0.84597311      178.458086
9.303                0.846065659      178.087401
9.304                0.846160508      177.716615
9.305                0.846257647      177.345737
9.306                0.846357068      176.974774
9.307                0.846458764      176.603734
9.308                0.846562724      176.232626
9.309                0.846668941      175.861458
9.31                 0.846777405      175.490236
9.311                0.846888107       175.11897
9.312                0.847001037      174.747668
9.313                0.847116184      174.376336
9.314                 0.84723354      174.004984
9.315                0.847353094       173.63362
9.316                0.847474834      173.262251
9.317                0.847598751      172.890885
9.318                0.847724833      172.519531
9.319                0.847853069      172.148196
9.32                 0.847983448      171.776889
9.321                0.848115957      171.405617
9.322                0.848250585      171.034389
9.323                0.848387321      170.663212
9.324                0.848526151      170.292095
9.325                0.848667063      169.921045
9.326                0.848810044      169.550071
9.327                0.848955081       169.17918
9.328                0.849102162       168.80838
9.329                0.849251273      168.437679
9.33                   0.8494024      168.067086
9.331                 0.84955553      167.696608
9.332                0.849710649      167.326253
9.333                0.849867743      166.956029
9.334                0.850026797      166.585943
9.335                0.850187796      166.216004
9.336                0.850350728       165.84622
9.337                0.850515576      165.476598
9.338                0.850682325      165.107145
9.339                0.850850962      164.737871
9.34                 0.851021469      164.368781
9.341                0.851193832      163.999885
9.342                0.851368035       163.63119
9.343                0.851544063      163.262704
9.344                0.851721899      162.894433
9.345                0.851901528      162.526386
9.346                0.852082933      162.158571
9.347                0.852266098      161.790994
9.348                0.852451006      161.423664
9.349                0.852637641      161.056588
9.35                 0.852825986      160.689773
9.351                0.853016024      160.323226
9.352                0.853207739      159.956956
9.353                0.853401113      159.590969
9.354                0.853596128      159.225272
9.355                0.853792769      158.859874
9.356                0.853991016      158.494781
9.357                0.854190853      158.130001
9.358                0.854392262       157.76554
9.359                0.854595226      157.401405
9.36                 0.854799726      157.037605
9.361                0.855005744      156.674145
9.362                0.855213263      156.311033
9.363                0.855422265      155.948275
9.364                0.855632731       155.58588
9.365                0.855844643      155.223852
9.366                0.856057983        154.8622
9.367                0.856272732      154.500931
9.368                0.856488873       154.14005
9.369                0.856706386      153.779564
9.37                 0.856925253       153.41948
9.371                0.857145456      153.059806
9.372                0.857366976      152.700546
9.373                0.857589794      152.341708
9.374                0.857813892      151.983298
9.375                0.858039251      151.625322
9.376                0.858265851      151.267788
9.377                0.858493676        150.9107
9.378                0.858722704      150.554066
9.379                0.858952918      150.197891
9.38                 0.859184299      149.842182
9.381                0.859416828      149.486945
9.382                0.859650487      149.132185
9.383                0.859885255      148.777908
9.384                0.860121115      148.424122
9.385                0.860358047       148.07083
9.386                0.860596033       147.71804
9.387                0.860835054      147.365757
9.388                0.861075091      147.013986
9.389                0.861316125      146.662733
9.39                 0.861558137      146.312005
9.391                0.861801109      145.961805
9.392                0.862045022       145.61214
9.393                0.862289857      145.263015
9.394                0.862535595      144.914436
9.395                0.862782218      144.566407
9.396                0.863029707      144.218934
