! TOUCHSTONE file generated by CST DESIGN STUDIO
! Date and time: Tue Feb  4 13:58:06 2025
! Project name: C:\Work\MatlabApps\UnitCellOptimizationMatlab\CST\unitcell.cst
! Tree item: Tasks\Sweep1\SPara1\S-Parameters
! Header version: 2024
! Port assignment regex: !\s*Touchstone port\s*([0-9]+)\s*=\s*(CST MWS port|CST DES external port|CST DES block port)\s*(.+)\s* \(\"(.*)\"\)(\s*mode\s*([0-9]+))?.*
! Touchstone port assignment:
! Touchstone port 1 = CST DES external port 1 ("")
# GHz S MA R 50
9                    0.888515913     -103.046744
9.001                0.888155711      -103.25215
9.002                0.887795773     -103.458182
9.003                0.887436109     -103.664842
9.004                0.887076727     -103.872131
9.005                0.886717635     -104.080052
9.006                0.886358841     -104.288608
9.007                0.886000355       -104.4978
9.008                0.885642184      -104.70763
9.009                0.885284338       -104.9181
9.01                 0.884926826     -105.129212
9.011                0.884569655     -105.340969
9.012                0.884212835     -105.553373
9.013                0.883856376     -105.766425
9.014                0.883500285     -105.980128
9.015                0.883144572     -106.194484
9.016                0.882789246     -106.409495
9.017                0.882434316     -106.625162
9.018                0.882079791     -106.841488
9.019                 0.88172568     -107.058476
9.02                 0.881371993     -107.276126
9.021                0.881018739     -107.494441
9.022                0.880665927     -107.713423
9.023                0.880313567     -107.933075
9.024                0.879961669     -108.153397
9.025                0.879610241     -108.374392
9.026                0.879259293     -108.596062
9.027                0.878908836     -108.818409
9.028                0.878558878     -109.041435
9.029                 0.87820943     -109.265142
9.03                 0.877860501     -109.489532
9.031                0.877512102     -109.714606
9.032                0.877164242     -109.940368
9.033                0.876816931     -110.166817
9.034                0.876470179     -110.393958
9.035                0.876123996     -110.621791
9.036                0.875778394     -110.850318
9.037                0.875433381     -111.079541
9.038                0.875088968     -111.309462
9.039                0.874745166     -111.540083
9.04                 0.874401984     -111.771406
9.041                0.874059434     -112.003433
9.042                0.873717526     -112.236165
9.043                0.873376271     -112.469604
9.044                0.873035679     -112.703752
9.045                 0.87269576      -112.93861
9.046                0.872356527     -113.174182
9.047                0.872017989     -113.410467
9.048                0.871680158     -113.647468
9.049                0.871343044     -113.885188
9.05                 0.871006659     -114.123626
9.051                0.870671013     -114.362786
9.052                0.870336118     -114.602668
9.053                0.870001986     -114.843275
9.054                0.869668627     -115.084607
9.055                0.869336052     -115.326668
9.056                0.869004274     -115.569457
9.057                0.868673303     -115.812978
9.058                0.868343152      -116.05723
9.059                0.868013831     -116.302217
9.06                 0.867685353     -116.547939
9.061                0.867357729     -116.794398
9.062                0.867030971     -117.041596
9.063                0.866705091     -117.289533
9.064                0.866380101     -117.538212
9.065                0.866056013     -117.787633
9.066                0.865732839     -118.037799
9.067                0.865410591      -118.28871
9.068                0.865089281     -118.540368
9.069                0.864768921     -118.792774
9.07                 0.864449525      -119.04593
9.071                0.864131103     -119.299836
9.072                0.863813669     -119.554495
9.073                0.863497236     -119.809907
9.074                0.863181815     -120.066074
9.075                0.862867419     -120.322996
9.076                0.862554062     -120.580675
9.077                0.862241755     -120.839112
9.078                0.861930512     -121.098308
9.079                0.861620345     -121.358265
9.08                 0.861311268     -121.618982
9.081                0.861003293     -121.880462
9.082                0.860696433     -122.142706
9.083                0.860390702     -122.405713
9.084                0.860086113     -122.669486
9.085                0.859782679     -122.934025
9.086                0.859480413     -123.199331
9.087                0.859179329     -123.465405
9.088                 0.85887944     -123.732247
9.089                0.858580759     -123.999859
9.09                 0.858283301     -124.268241
9.091                0.857987077     -124.537394
9.092                0.857692104     -124.807319
9.093                0.857398393     -125.078016
9.094                0.857105958     -125.349486
9.095                0.856814814     -125.621729
9.096                0.856524974     -125.894746
9.097                0.856236453     -126.168539
9.098                0.855949263     -126.443106
9.099                 0.85566342     -126.718449
9.1                  0.855378936     -126.994567
9.101                0.855095827     -127.271462
9.102                0.854814106     -127.549134
9.103                0.854533788     -127.827582
9.104                0.854254886     -128.106808
9.105                0.853977415     -128.386812
9.106                 0.85370139     -128.667593
9.107                0.853426824     -128.949152
9.108                0.853153732     -129.231488
9.109                0.852882128     -129.514603
9.11                 0.852612028     -129.798496
9.111                0.852343444     -130.083166
9.112                0.852076393     -130.368615
9.113                0.851810888     -130.654841
9.114                0.851546944     -130.941845
9.115                0.851284576     -131.229627
9.116                0.851023798     -131.518186
9.117                0.850764625     -131.807522
9.118                0.850507071     -132.097634
9.119                0.850251152     -132.388523
9.12                 0.849996883     -132.680188
9.121                0.849744277     -132.972628
9.122                 0.84949335     -133.265843
9.123                0.849244117     -133.559833
9.124                0.848996592     -133.854596
9.125                0.848750791     -134.150133
9.126                0.848506727     -134.446442
9.127                0.848264417     -134.743522
9.128                0.848023874     -135.041374
9.129                0.847785114     -135.339996
9.13                 0.847548152     -135.639387
9.131                0.847313003     -135.939546
9.132                0.847079681     -136.240472
9.133                0.846848201     -136.542165
9.134                0.846618579     -136.844623
9.135                0.846390828     -137.147845
9.136                0.846164965     -137.451829
9.137                0.845941004     -137.756575
9.138                0.845718959     -138.062082
9.139                0.845498846     -138.368347
9.14                  0.84528068      -138.67537
9.141                0.845064475     -138.983148
9.142                0.844850246     -139.291681
9.143                0.844638007     -139.600967
9.144                0.844427775     -139.911005
9.145                0.844219562     -140.221791
9.146                0.844013385     -140.533326
9.147                0.843809257     -140.845607
9.148                0.843607194     -141.158632
9.149                0.843407209     -141.472399
9.15                 0.843209318     -141.786906
9.151                0.843013535     -142.102152
9.152                0.842819874     -142.418133
9.153                 0.84262835     -142.734849
9.154                0.842438977     -143.052297
9.155                 0.84225177     -143.370474
9.156                0.842066742     -143.689378
9.157                0.841883908     -144.009007
9.158                0.841703281     -144.329358
9.159                0.841524877      -144.65043
9.16                 0.841348709     -144.972218
9.161                0.841174791     -145.294721
9.162                0.841003136     -145.617936
9.163                0.840833759     -145.941861
9.164                0.840666673     -146.266492
9.165                0.840501892     -146.591826
9.166                0.840339429     -146.917861
9.167                0.840179298     -147.244593
9.168                0.840021512      -147.57202
9.169                0.839866084     -147.900139
9.17                 0.839713028     -148.228945
9.171                0.839562356     -148.558437
9.172                0.839414081      -148.88861
9.173                0.839268216     -149.219462
9.174                0.839124774     -149.550988
9.175                0.838983768     -149.883186
9.176                 0.83884521     -150.216051
9.177                0.838709111     -150.549581
9.178                0.838575485     -150.883771
9.179                0.838444344     -151.218618
9.18                 0.838315699     -151.554118
9.181                0.838189563     -151.890267
9.182                0.838065946     -152.227061
9.183                0.837944861     -152.564496
9.184                0.837826319     -152.902568
9.185                0.837710332     -153.241272
9.186                0.837596909     -153.580606
9.187                0.837486063     -153.920564
9.188                0.837377803     -154.261142
9.189                0.837272142     -154.602336
9.19                 0.837169088      -154.94414
9.191                0.837068653     -155.286552
9.192                0.836970846     -155.629566
9.193                0.836875678     -155.973177
9.194                0.836783158     -156.317381
9.195                0.836693296     -156.662173
9.196                0.836606101     -157.007549
9.197                0.836521582     -157.353502
9.198                0.836439749     -157.700029
9.199                 0.83636061     -158.047125
9.2                  0.836284174     -158.394783
9.201                0.836210449        -158.743
9.202                0.836139444      -159.09177
9.203                0.836071166     -159.441087
9.204                0.836005624     -159.790947
9.205                0.835942824     -160.141344
9.206                0.835882775     -160.492272
9.207                0.835825484     -160.843727
9.208                0.835770956     -161.195702
9.209                  0.8357192     -161.548191
9.21                 0.835670221      -161.90119
9.211                0.835624027     -162.254693
9.212                0.835580622     -162.608693
9.213                0.835540012     -162.963185
9.214                0.835502204     -163.318163
9.215                0.835467203     -163.673621
9.216                0.835435013     -164.029552
9.217                0.835405639     -164.385952
9.218                0.835379086     -164.742813
9.219                0.835355358     -165.100131
9.22                  0.83533446     -165.457897
9.221                0.835316394     -165.816106
9.222                0.835301165     -166.174753
9.223                0.835288776     -166.533829
9.224                 0.83527923     -166.893329
9.225                0.835272529     -167.253247
9.226                0.835268676     -167.613576
9.227                0.835267674     -167.974309
9.228                0.835269523     -168.335439
9.229                0.835274227     -168.696961
9.23                 0.835281785     -169.058866
9.231                  0.8352922     -169.421149
9.232                0.835305472     -169.783803
9.233                0.835321601      -170.14682
9.234                0.835340589     -170.510194
9.235                0.835362434     -170.873918
9.236                0.835387136     -171.237985
9.237                0.835414696     -171.602387
9.238                0.835445111     -171.967118
9.239                0.835478382     -172.332171
9.24                 0.835514505     -172.697538
9.241                 0.83555348     -173.063212
9.242                0.835595304     -173.429186
9.243                0.835639976     -173.795452
9.244                0.835687491     -174.162004
9.245                0.835737849     -174.528834
9.246                0.835791044     -174.895934
9.247                0.835847074     -175.263297
9.248                0.835905935     -175.630916
9.249                0.835967622     -175.998783
9.25                 0.836032131     -176.366891
9.251                0.836099458     -176.735231
9.252                0.836169597     -177.103797
9.253                0.836242543     -177.472581
9.254                 0.83631829     -177.841575
9.255                0.836396833     -178.210771
9.256                0.836478165     -178.580163
9.257                0.836562279     -178.949741
9.258                0.836649169     -179.319499
9.259                0.836738827     -179.689428
9.26                 0.836831247      179.940479
9.261                 0.83692642       179.57023
9.262                0.837024338      179.199833
9.263                0.837124993      178.829296
9.264                0.837228376      178.458626
9.265                0.837334479      178.087832
9.266                0.837443291      177.716921
9.267                0.837554804      177.345901
9.268                0.837669009      176.974781
9.269                0.837785893      176.603568
9.27                 0.837905448       176.23227
9.271                0.838027663      175.860895
9.272                0.838152526      175.489451
9.273                0.838280027      175.117947
9.274                0.838410153      174.746389
9.275                0.838542894      174.374786
9.276                0.838678236      174.003147
9.277                0.838816168      173.631478
9.278                0.838956677      173.259789
9.279                0.839099751      172.888086
9.28                 0.839245375      172.516379
9.281                0.839393536      172.144675
9.282                0.839544221      171.772982
9.283                0.839697416      171.401308
9.284                0.839853107      171.029661
9.285                0.840011279      170.658049
9.286                0.840171916      170.286481
9.287                0.840335006      169.914963
9.288                0.840500531      169.543505
9.289                0.840668477      169.172114
9.29                 0.840838828      168.800797
9.291                0.841011567      168.429564
9.292                 0.84118668      168.058422
9.293                0.841364148      167.687379
9.294                0.841543957      167.316442
9.295                0.841726087       166.94562
9.296                0.841910524      166.574921
9.297                0.842097249      166.204352
9.298                0.842286244      165.833922
9.299                0.842477493      165.463638
9.3                  0.842670976      165.093507
9.301                0.842866677      164.723539
9.302                0.843064575       164.35374
9.303                0.843264654      163.984118
9.304                0.843466894      163.614681
9.305                0.843671276      163.245437
9.306                0.843877781      162.876394
9.307                 0.84408639      162.507558
9.308                0.844297083      162.138938
9.309                 0.84450984      161.770541
9.31                 0.844724642      161.402375
9.311                 0.84494147      161.034448
9.312                0.845160301      160.666766
9.313                0.845381117      160.299338
9.314                0.845603897       159.93217
9.315                0.845828621      159.565271
9.316                0.846055266      159.198647
9.317                0.846283814      158.832306
9.318                0.846514241      158.466256
9.319                0.846746529      158.100502
9.32                 0.846980654      157.735054
9.321                0.847216597      157.369917
9.322                0.847454334        157.0051
9.323                0.847693846      156.640608
9.324                0.847935109       156.27645
9.325                0.848178103      155.912632
9.326                0.848422804      155.549161
9.327                0.848669192      155.186044
9.328                0.848917244      154.823288
9.329                0.849166938        154.4609
9.33                 0.849418252      154.098887
9.331                0.849671163      153.737256
9.332                0.849925649      153.376012
9.333                0.850181688      153.015164
9.334                0.850439256      152.654717
9.335                0.850698332      152.294677
9.336                0.850958893      151.935053
9.337                0.851220915       151.57585
9.338                0.851484377      151.217074
9.339                0.851749256      150.858732
9.34                 0.852015528       150.50083
9.341                0.852283171      150.143374
9.342                0.852552163      149.786371
9.343                 0.85282248      149.429828
9.344                0.853094099      149.073749
9.345                0.853366998      148.718141
9.346                0.853641153       148.36301
9.347                0.853916542      148.008362
9.348                0.854193142      147.654203
9.349                 0.85447093      147.300538
9.35                 0.854749882      146.947374
9.351                0.855029978      146.594717
9.352                0.855311192      146.242571
9.353                0.855593503      145.890943
9.354                0.855876888      145.539837
9.355                0.856161324      145.189261
9.356                0.856446788      144.839218
9.357                0.856733258      144.489715
9.358                 0.85702071      144.140757
9.359                0.857309124      143.792348
9.36                 0.857598475      143.444495
9.361                0.857888741      143.097202
9.362                  0.8581799      142.750475
9.363                 0.85847193      142.404318
9.364                0.858764809      142.058737
9.365                0.859058513      141.713736
9.366                0.859353022      141.369321
9.367                0.859648312      141.025495
9.368                0.859944362      140.682264
9.369                 0.86024115      140.339633
9.37                 0.860538654      139.997605
9.371                0.860836853      139.656187
9.372                0.861135724      139.315381
9.373                0.861435247      138.975193
9.374                  0.8617354      138.635627
9.375                0.862036161      138.296687
9.376                0.862337509      137.958377
9.377                0.862639423      137.620702
9.378                0.862941883      137.283666
9.379                0.863244867      136.947273
9.38                 0.863548354      136.611526
9.381                0.863852324       136.27643
9.382                0.864156757      135.941989
9.383                0.864461631      135.608207
9.384                0.864766927      135.275086
9.385                0.865072625      134.942632
9.386                0.865378704      134.610847
9.387                0.865685144      134.279735
9.388                0.865991926      133.949299
9.389                0.866299031      133.619544
9.39                 0.866606438      133.290473
9.391                0.866914129      132.962088
9.392                0.867222084      132.634393
9.393                0.867530284      132.307392
9.394                0.867838711      131.981087
9.395                0.868147346      131.655481
9.396                0.868456169      131.330578
