! TOUCHSTONE file generated by CST DESIGN STUDIO
! Date and time: Tue Feb  4 13:58:11 2025
! Project name: C:\Work\MatlabApps\UnitCellOptimizationMatlab\CST\unitcell.cst
! Tree item: Tasks\Sweep1\SPara1\S-Parameters
! Header version: 2024
! Port assignment regex: !\s*Touchstone port\s*([0-9]+)\s*=\s*(CST MWS port|CST DES external port|CST DES block port)\s*(.+)\s* \(\"(.*)\"\)(\s*mode\s*([0-9]+))?.*
! Touchstone port assignment:
! Touchstone port 1 = CST DES external port 1 ("")
# GHz S MA R 50
9                    0.921654962     -82.3820966
9.001                 0.92143782       -82.52535
9.002                0.921220658     -82.6690376
9.003                0.921003476     -82.8131609
9.004                0.920786275     -82.9577218
9.005                0.920569056     -83.1027222
9.006                 0.92035182     -83.2481638
9.007                0.920134568     -83.3940484
9.008                  0.9199173     -83.5403779
9.009                0.919700017     -83.6871541
9.01                 0.919482721     -83.8343788
9.011                0.919265411     -83.9820538
9.012                0.919048089      -84.130181
9.013                0.918830756     -84.2787623
9.014                0.918613412     -84.4277994
9.015                0.918396058     -84.5772943
9.016                0.918178695     -84.7272487
9.017                0.917961324     -84.8776647
9.018                0.917743946      -85.028544
9.019                0.917526561     -85.1798885
9.02                 0.917309171     -85.3317001
9.021                0.917091776     -85.4839806
9.022                0.916874377     -85.6367321
9.023                0.916656975     -85.7899563
9.024                 0.91643957     -85.9436552
9.025                0.916222164     -86.0978306
9.026                0.916004758     -86.2524846
9.027                0.915787351     -86.4076189
9.028                0.915569946     -86.5632356
9.029                0.915352543     -86.7193365
9.03                 0.915135142     -86.8759235
9.031                0.914917745     -87.0329987
9.032                0.914700353     -87.1905639
9.033                0.914482966     -87.3486211
9.034                0.914265585     -87.5071723
9.035                0.914048211     -87.6662193
9.036                0.913830846     -87.8257642
9.037                0.913613489     -87.9858088
9.038                0.913396142     -88.1463552
9.039                0.913178806     -88.3074054
9.04                 0.912961481     -88.4689612
9.041                0.912744169     -88.6310247
9.042                 0.91252687     -88.7935979
9.043                0.912309585     -88.9566827
9.044                0.912092316     -89.1202812
9.045                0.911875063     -89.2843952
9.046                0.911657827     -89.4490269
9.047                0.911440609     -89.6141782
9.048                0.911223409     -89.7798511
9.049                 0.91100623     -89.9460476
9.05                 0.910789072     -90.1127697
9.051                0.910571936     -90.2800194
9.052                0.910354822     -90.4477989
9.053                0.910137733     -90.6161099
9.054                0.909920668     -90.7849547
9.055                0.909703629     -90.9543352
9.056                0.909486617     -91.1242534
9.057                0.909269633     -91.2947114
9.058                0.909052678     -91.4657112
9.059                0.908835753     -91.6372548
9.06                 0.908618859     -91.8093444
9.061                0.908401997     -91.9819818
9.062                0.908185169     -92.1551692
9.063                0.907968375     -92.3289086
9.064                0.907751616      -92.503202
9.065                0.907534894     -92.6780516
9.066                0.907318209     -92.8534593
9.067                0.907101564     -93.0294272
9.068                0.906884958     -93.2059574
9.069                0.906668394     -93.3830519
9.07                 0.906451871     -93.5607127
9.071                0.906235393      -93.738942
9.072                0.906018959     -93.9177418
9.073                0.905802571     -94.0971142
9.074                0.905586231     -94.2770612
9.075                0.905369939     -94.4575848
9.076                0.905153696     -94.6386873
9.077                0.904937505     -94.8203705
9.078                0.904721366     -95.0026367
9.079                0.904505281     -95.1854877
9.08                 0.904289251     -95.3689259
9.081                0.904073278     -95.5529531
9.082                0.903857362     -95.7375714
9.083                0.903641505      -95.922783
9.084                0.903425709     -96.1085899
9.085                0.903209975     -96.2949942
9.086                0.902994305     -96.4819979
9.087                0.902778699     -96.6696031
9.088                 0.90256316     -96.8578119
9.089                0.902347689     -97.0466263
9.09                 0.902132288     -97.2360485
9.091                0.901916957     -97.4260804
9.092                0.901701699     -97.6167241
9.093                0.901486516     -97.8079817
9.094                0.901271408     -97.9998553
9.095                0.901056378     -98.1923469
9.096                0.900841427     -98.3854585
9.097                0.900626557     -98.5791923
9.098                 0.90041177     -98.7735503
9.099                0.900197067     -98.9685345
9.1                  0.899982451      -99.164147
9.101                0.899767922     -99.3603898
9.102                0.899553483      -99.557265
9.103                0.899339135     -99.7547746
9.104                0.899124881     -99.9529206
9.105                0.898910723     -100.151705
9.106                0.898696662      -100.35113
9.107                  0.8984827     -100.551198
9.108                0.898268839      -100.75191
9.109                0.898055082     -100.953269
9.11                  0.89784143     -101.155276
9.111                0.897627886     -101.357934
9.112                0.897414451     -101.561244
9.113                0.897201128     -101.765209
9.114                0.896987918     -101.969831
9.115                0.896774825     -102.175111
9.116                 0.89656185     -102.381052
9.117                0.896348996     -102.587656
9.118                0.896136264     -102.794924
9.119                0.895923658     -103.002858
9.12                 0.895711179     -103.211461
9.121                 0.89549883     -103.420735
9.122                0.895286614      -103.63068
9.123                0.895074532       -103.8413
9.124                0.894862588     -104.052597
9.125                0.894650784     -104.264571
9.126                0.894439122     -104.477226
9.127                0.894227606     -104.690562
9.128                0.894016237     -104.904583
9.129                0.893805019     -105.119289
9.13                 0.893593954     -105.334683
9.131                0.893383045     -105.550766
9.132                0.893172295     -105.767541
9.133                0.892961707     -105.985009
9.134                0.892751283     -106.203172
9.135                0.892541027     -106.422033
9.136                0.892330941     -106.641592
9.137                0.892121029     -106.861851
9.138                0.891911293     -107.082813
9.139                0.891701738      -107.30448
9.14                 0.891492365     -107.526852
9.141                0.891283178     -107.749932
9.142                 0.89107418     -107.973721
9.143                0.890865376     -108.198222
9.144                0.890656767     -108.423436
9.145                0.890448357     -108.649365
9.146                 0.89024015      -108.87601
9.147                0.890032149     -109.103373
9.148                0.889824358     -109.331456
9.149                0.889616781     -109.560261
9.15                  0.88940942     -109.789789
9.151                 0.88920228     -110.020041
9.152                0.888995364      -110.25102
9.153                0.888788676     -110.482728
9.154                 0.88858222     -110.715164
9.155                   0.888376     -110.948332
9.156                0.888170019     -111.182233
9.157                0.887964282     -111.416868
9.158                0.887758793     -111.652239
9.159                0.887553555     -111.888348
9.16                 0.887348573     -112.125195
9.161                0.887143851     -112.362783
9.162                0.886939394     -112.601112
9.163                0.886735204     -112.840185
9.164                0.886531288     -113.080003
9.165                0.886327649     -113.320567
9.166                0.886124292     -113.561878
9.167                 0.88592122     -113.803938
9.168                 0.88571844     -114.046748
9.169                0.885515955      -114.29031
9.17                  0.88531377     -114.534625
9.171                0.885111889     -114.779694
9.172                0.884910319     -115.025518
9.173                0.884709062     -115.272099
9.174                0.884508125     -115.519438
9.175                0.884307512     -115.767536
9.176                0.884107229     -116.016394
9.177                0.883907279     -116.266013
9.178                0.883707669     -116.516395
9.179                0.883508404     -116.767541
9.18                 0.883309489     -117.019451
9.181                0.883110929     -117.272127
9.182                0.882912729      -117.52557
9.183                0.882714896     -117.779781
9.184                0.882517434      -118.03476
9.185                0.882320349      -118.29051
9.186                0.882123647     -118.547029
9.187                0.881927334     -118.804321
9.188                0.881731414     -119.062384
9.189                0.881535894     -119.321221
9.19                  0.88134078     -119.580832
9.191                0.881146078     -119.841218
9.192                0.880951794      -120.10238
9.193                0.880757933     -120.364317
9.194                0.880564502     -120.627032
9.195                0.880371508     -120.890524
9.196                0.880178955     -121.154795
9.197                0.879986851     -121.419845
9.198                0.879795202     -121.685674
9.199                0.879604015     -121.952283
9.2                  0.879413295     -122.219672
9.201                 0.87922305     -122.487843
9.202                0.879033285     -122.756795
9.203                0.878844009     -123.026528
9.204                0.878655227     -123.297044
9.205                0.878466946     -123.568343
9.206                0.878279173     -123.840424
9.207                0.878091915     -124.113288
9.208                 0.87790518     -124.386936
9.209                0.877718973     -124.661367
9.21                 0.877533303     -124.936582
9.211                0.877348176     -125.212581
9.212                  0.8771636     -125.489363
9.213                0.876979581     -125.766929
9.214                0.876796128      -126.04528
9.215                0.876613248     -126.324414
9.216                0.876430948     -126.604332
9.217                0.876249235     -126.885033
9.218                0.876068118     -127.166518
9.219                0.875887605     -127.448787
9.22                 0.875707701     -127.731838
9.221                0.875528417     -128.015672
9.222                0.875349759     -128.300289
9.223                0.875171735     -128.585688
9.224                0.874994353     -128.871868
9.225                0.874817622      -129.15883
9.226                0.874641549     -129.446573
9.227                0.874466143     -129.735095
9.228                0.874291411     -130.024398
9.229                0.874117362     -130.314479
9.23                 0.873944005     -130.605339
9.231                0.873771347     -130.896976
9.232                0.873599397     -131.189391
9.233                0.873428164     -131.482581
9.234                0.873257656     -131.776546
9.235                0.873087881     -132.071286
9.236                0.872918848     -132.366799
9.237                0.872750567     -132.663085
9.238                0.872583045     -132.960141
9.239                0.872416291     -133.257968
9.24                 0.872250315     -133.556564
9.241                0.872085125     -133.855928
9.242                0.871920729     -134.156058
9.243                0.871757138     -134.456954
9.244                 0.87159436     -134.758613
9.245                0.871432403     -135.061035
9.246                0.871271278     -135.364218
9.247                0.871110993     -135.668161
9.248                0.870951558     -135.972862
9.249                0.870792981     -136.278319
9.25                 0.870635272     -136.584531
9.251                 0.87047844     -136.891496
9.252                0.870322494     -137.199212
9.253                0.870167445     -137.507678
9.254                0.870013301     -137.816891
9.255                0.869860071      -138.12685
9.256                0.869707766     -138.437553
9.257                0.869556394     -138.748997
9.258                0.869405966     -139.061181
9.259                 0.86925649     -139.374102
9.26                 0.869107976     -139.687758
9.261                0.868960435     -140.002147
9.262                0.868813875     -140.317267
9.263                0.868668306     -140.633115
9.264                0.868523738     -140.949689
9.265                0.868380181     -141.266986
9.266                0.868237643     -141.585004
9.267                0.868096136     -141.903739
9.268                0.867955669     -142.223191
9.269                0.867816251     -142.543355
9.27                 0.867677892     -142.864229
9.271                0.867540602      -143.18581
9.272                0.867404391     -143.508095
9.273                0.867269269     -143.831081
9.274                0.867135245     -144.154766
9.275                0.867002329     -144.479146
9.276                0.866870531     -144.804218
9.277                0.866739861     -145.129978
9.278                0.866610328     -145.456425
9.279                0.866481943     -145.783553
9.28                 0.866354714      -146.11136
9.281                0.866228653     -146.439843
9.282                0.866103768     -146.768998
9.283                 0.86598007     -147.098821
9.284                0.865857568     -147.429309
9.285                0.865736271     -147.760458
9.286                0.865616191     -148.092264
9.287                0.865497335     -148.424724
9.288                0.865379715     -148.757833
9.289                0.865263339     -149.091588
9.29                 0.865148217     -149.425985
9.291                0.865034359      -149.76102
9.292                0.864921775     -150.096689
9.293                0.864810473     -150.432987
9.294                0.864700464      -150.76991
9.295                0.864591756     -151.107454
9.296                 0.86448436     -151.445615
9.297                0.864378284     -151.784388
9.298                0.864273539     -152.123769
9.299                0.864170132     -152.463753
9.3                  0.864068074     -152.804336
9.301                0.863967374     -153.145512
9.302                0.863868041     -153.487278
9.303                0.863770083     -153.829629
9.304                 0.86367351      -154.17256
9.305                0.863578332     -154.516065
9.306                0.863484556      -154.86014
9.307                0.863392192      -155.20478
9.308                0.863301248      -155.54998
9.309                0.863211734     -155.895735
9.31                 0.863123658     -156.242039
9.311                0.863037028     -156.588888
9.312                0.862951852     -156.936276
9.313                0.862868141     -157.284197
9.314                0.862785901     -157.632647
9.315                0.862705141      -157.98162
9.316                0.862625869      -158.33111
9.317                0.862548093     -158.681112
9.318                0.862471822      -159.03162
9.319                0.862397063     -159.382629
9.32                 0.862323824     -159.734132
9.321                0.862252113     -160.086124
9.322                0.862181937     -160.438599
9.323                0.862113304     -160.791552
9.324                0.862046222     -161.144976
9.325                0.861980697     -161.498865
9.326                0.861916737     -161.853213
9.327                 0.86185435     -162.208015
9.328                0.861793541     -162.563263
9.329                0.861734319     -162.918952
9.33                 0.861676689     -163.275076
9.331                0.861620659     -163.631628
9.332                0.861566235     -163.988601
9.333                0.861513423      -164.34599
9.334                 0.86146223     -164.703789
9.335                0.861412662     -165.061989
9.336                0.861364725     -165.420586
9.337                0.861318425     -165.779571
9.338                0.861273768      -166.13894
9.339                0.861230759     -166.498684
9.34                 0.861189404     -166.858798
9.341                0.861149709     -167.219275
9.342                0.861111678     -167.580107
9.343                0.861075317     -167.941288
9.344                0.861040631     -168.302811
9.345                0.861007624     -168.664669
9.346                0.860976301     -169.026855
9.347                0.860946668     -169.389362
9.348                0.860918727     -169.752183
9.349                0.860892484     -170.115311
9.35                 0.860867943     -170.478739
9.351                0.860845107     -170.842459
9.352                 0.86082398     -171.206465
9.353                0.860804566     -171.570749
9.354                0.860786869     -171.935304
9.355                0.860770891     -172.300123
9.356                0.860756637     -172.665198
9.357                0.860744108     -173.030522
9.358                0.860733308     -173.396088
9.359                0.860724239     -173.761887
9.36                 0.860716904     -174.127914
9.361                0.860711305     -174.494159
9.362                0.860707444     -174.860616
9.363                0.860705324     -175.227278
9.364                0.860704946     -175.594136
9.365                0.860706312     -175.961183
9.366                0.860709424     -176.328412
9.367                0.860714282     -176.695814
9.368                0.860720888     -177.063383
9.369                0.860729242      -177.43111
9.37                 0.860739346     -177.798988
9.371                0.860751201      -178.16701
9.372                0.860764806     -178.535166
9.373                0.860780162     -178.903451
9.374                0.860797269     -179.271855
9.375                0.860816127     -179.640372
9.376                0.860836736      179.991007
9.377                0.860859095      179.622289
9.378                0.860883203      179.253483
9.379                 0.86090906      178.884595
9.38                 0.860936666      178.515635
9.381                0.860966017      178.146608
9.382                0.860997115      177.777525
9.383                0.861029956      177.408391
9.384                0.861064539      177.039216
9.385                0.861100863      176.670007
9.386                0.861138925      176.300771
9.387                0.861178723      175.931517
9.388                0.861220254      175.562253
9.389                0.861263517      175.192986
9.39                 0.861308508      174.823725
9.391                0.861355224      174.454476
9.392                0.861403663      174.085249
9.393                0.861453821       173.71605
9.394                0.861505694      173.346888
9.395                0.861559279      172.977771
9.396                0.861614572      172.608706
