! TOUCHSTONE file generated by CST DESIGN STUDIO
! Date and time: Tue Feb  4 18:10:11 2025
! Project name: C:\Work\MatlabApps\UnitCellOptimizationMatlab\CST\unitcell.cst
! Tree item: Tasks\Sweep1\SPara1\S-Parameters
! Header version: 2024
! Port assignment regex: !\s*Touchstone port\s*([0-9]+)\s*=\s*(CST MWS port|CST DES external port|CST DES block port)\s*(.+)\s* \(\"(.*)\"\)(\s*mode\s*([0-9]+))?.*
! Touchstone port assignment:
! Touchstone port 1 = CST DES external port 1 ("")
# GHz S MA R 50
9                     0.94591654      -85.308483
9.001                0.945768636      -85.453275
9.002                0.945620296     -85.5984567
9.003                0.945471519     -85.7440292
9.004                0.945322305     -85.8899937
9.005                0.945172653     -86.0363513
9.006                0.945022564     -86.1831031
9.007                0.944872036     -86.3302504
9.008                 0.94472107     -86.4777943
9.009                0.944569664     -86.6257359
9.01                 0.944417818     -86.7740765
9.011                0.944265532     -86.9228171
9.012                0.944112806      -87.071959
9.013                0.943959639     -87.2215033
9.014                 0.94380603     -87.3714511
9.015                 0.94365198     -87.5218037
9.016                0.943497487     -87.6725622
9.017                0.943342553     -87.8237277
9.018                0.943187176     -87.9753015
9.019                0.943031355     -88.1272848
9.02                 0.942875092     -88.2796786
9.021                0.942718385     -88.4324841
9.022                0.942561235     -88.5857026
9.023                 0.94240364     -88.7393352
9.024                0.942245602     -88.8933831
9.025                0.942087119     -89.0478474
9.026                0.941928191     -89.2027293
9.027                0.941768819     -89.3580301
9.028                0.941609001     -89.5137508
9.029                0.941448739     -89.6698928
9.03                 0.941288032      -89.826457
9.031                 0.94112688     -89.9834448
9.032                0.940965282     -90.1408572
9.033                0.940803239     -90.2986955
9.034                 0.94064075     -90.4569609
9.035                0.940477816     -90.6156545
9.036                0.940314437     -90.7747776
9.037                0.940150612     -90.9343312
9.038                0.939986342     -91.0943166
9.039                0.939821627     -91.2547349
9.04                 0.939656467     -91.4155874
9.041                0.939490861     -91.5768752
9.042                 0.93932481     -91.7385994
9.043                0.939158315     -91.9007614
9.044                0.938991375     -92.0633622
9.045                 0.93882399      -92.226403
9.046                0.938656161      -92.389885
9.047                0.938487888     -92.5538094
9.048                0.938319171     -92.7181774
9.049                0.938150011       -92.88299
9.05                 0.937980407     -93.0482486
9.051                0.937810361     -93.2139543
9.052                0.937639872     -93.3801083
9.053                 0.93746894     -93.5467116
9.054                0.937297567     -93.7137656
9.055                0.937125753     -93.8812714
9.056                0.936953497     -94.0492301
9.057                0.936780801     -94.2176429
9.058                0.936607665      -94.386511
9.059                 0.93643409     -94.5558356
9.06                 0.936260075     -94.7256178
9.061                0.936085622     -94.8958587
9.062                0.935910732     -95.0665596
9.063                0.935735404     -95.2377217
9.064                 0.93555964     -95.4093459
9.065                0.935383439     -95.5814336
9.066                0.935206804     -95.7539859
9.067                0.935029735     -95.9270039
9.068                0.934852231     -96.1004889
9.069                0.934674295     -96.2744418
9.07                 0.934495927     -96.4488639
9.071                0.934317128     -96.6237564
9.072                0.934137898     -96.7991204
9.073                0.933958239     -96.9749569
9.074                0.933778152     -97.1512673
9.075                0.933597637     -97.3280525
9.076                0.933416696     -97.5053138
9.077                0.933235329     -97.6830522
9.078                0.933053538     -97.8612689
9.079                0.932871323     -98.0399651
9.08                 0.932688687     -98.2191417
9.081                0.932505629     -98.3988001
9.082                0.932322152     -98.5789412
9.083                0.932138256     -98.7595663
9.084                0.931953943     -98.9406763
9.085                0.931769214     -99.1222725
9.086                 0.93158407     -99.3043558
9.087                0.931398513     -99.4869275
9.088                0.931212544     -99.6699886
9.089                0.931026164     -99.8535403
9.09                 0.930839376     -100.037584
9.091                 0.93065218     -100.222119
9.092                0.930464578     -100.407149
9.093                0.930276572     -100.592674
9.094                0.930088163     -100.778694
9.095                0.929899352     -100.965212
9.096                0.929710143     -101.152227
9.097                0.929520536     -101.339742
9.098                0.929330532     -101.527757
9.099                0.929140135     -101.716273
9.1                  0.928949346     -101.905291
9.101                0.928758166     -102.094812
9.102                0.928566598     -102.284838
9.103                0.928374643      -102.47537
9.104                0.928182304     -102.666407
9.105                0.927989582     -102.857953
9.106                 0.92779648     -103.050006
9.107                   0.927603     -103.242569
9.108                0.927409144     -103.435643
9.109                0.927214914     -103.629228
9.11                 0.927020313     -103.823325
9.111                0.926825342     -104.017936
9.112                0.926630005     -104.213061
9.113                0.926434303     -104.408701
9.114                0.926238239     -104.604858
9.115                0.926041815     -104.801533
9.116                0.925845035     -104.998725
9.117                  0.9256479     -105.196437
9.118                0.925450413     -105.394668
9.119                0.925252576     -105.593421
9.12                 0.925054394     -105.792696
9.121                0.924855867     -105.992494
9.122                   0.924657     -106.192816
9.123                0.924457795     -106.393662
9.124                0.924258254     -106.595034
9.125                0.924058381     -106.796932
9.126                0.923858179     -106.999358
9.127                 0.92365765     -107.202312
9.128                0.923456799     -107.405795
9.129                0.923255627     -107.609809
9.13                 0.923054139     -107.814353
9.131                0.922852337     -108.019428
9.132                0.922650225     -108.225036
9.133                0.922447806     -108.431178
9.134                0.922245083     -108.637853
9.135                 0.92204206     -108.845064
9.136                0.921838741      -109.05281
9.137                0.921635128     -109.261093
9.138                0.921431226     -109.469912
9.139                0.921227038      -109.67927
9.14                 0.921022568     -109.889167
9.141                 0.92081782     -110.099603
9.142                0.920612797     -110.310579
9.143                0.920407503     -110.522097
9.144                0.920201943     -110.734156
9.145                 0.91999612     -110.946757
9.146                0.919790038     -111.159902
9.147                0.919583702      -111.37359
9.148                0.919377114     -111.587822
9.149                0.919170281       -111.8026
9.15                 0.918963205     -112.017923
9.151                0.918755892     -112.233793
9.152                0.918548345     -112.450209
9.153                0.918340569     -112.667173
9.154                0.918132568     -112.884685
9.155                0.917924348     -113.102746
9.156                0.917715912     -113.321357
9.157                0.917507265     -113.540517
9.158                0.917298412     -113.760227
9.159                0.917089358     -113.980489
9.16                 0.916880107     -114.201301
9.161                0.916670665     -114.422666
9.162                0.916461036     -114.644583
9.163                0.916251225     -114.867053
9.164                0.916041238     -115.090077
9.165                0.915831079     -115.313654
9.166                0.915620754     -115.537786
9.167                0.915410268     -115.762472
9.168                0.915199625     -115.987713
9.169                0.914988833      -116.21351
9.17                 0.914777895     -116.439863
9.171                0.914566818     -116.666772
9.172                0.914355607     -116.894237
9.173                0.914144267      -117.12226
9.174                0.913932804     -117.350839
9.175                0.913721225     -117.579976
9.176                0.913509534     -117.809671
9.177                0.913297738     -118.039924
9.178                0.913085842     -118.270735
9.179                0.912873852     -118.502104
9.18                 0.912661775     -118.734033
9.181                0.912449617      -118.96652
9.182                0.912237383     -119.199567
9.183                 0.91202508     -119.433172
9.184                0.911812715     -119.667338
9.185                0.911600292     -119.902062
9.186                 0.91138782     -120.137347
9.187                0.911175304     -120.373191
9.188                0.910962751     -120.609595
9.189                0.910750167     -120.846559
9.19                  0.91053756     -121.084083
9.191                0.910324935     -121.322167
9.192                  0.9101123     -121.560811
9.193                0.909899661     -121.800015
9.194                0.909687026     -122.039778
9.195                0.909474401     -122.280102
9.196                0.909261793     -122.520985
9.197                0.909049209     -122.762428
9.198                0.908836657     -123.004431
9.199                0.908624143     -123.246993
9.2                  0.908411676     -123.490114
9.201                0.908199261     -123.733795
9.202                0.907986908     -123.978034
9.203                0.907774622     -124.222832
9.204                0.907562412     -124.468189
9.205                0.907350285     -124.714103
9.206                0.907138249     -124.960576
9.207                0.906926312     -125.207606
9.208                 0.90671448     -125.455193
9.209                0.906502763     -125.703338
9.21                 0.906291168     -125.952038
9.211                0.906079702     -126.201295
9.212                0.905868374     -126.451108
9.213                0.905657192     -126.701476
9.214                0.905446164     -126.952399
9.215                0.905235298     -127.203876
9.216                0.905024602     -127.455907
9.217                0.904814085     -127.708491
9.218                0.904603755     -127.961628
9.219                 0.90439362     -128.215318
9.22                 0.904183689     -128.469559
9.221                 0.90397397      -128.72435
9.222                0.903764472     -128.979692
9.223                0.903555204     -129.235584
9.224                0.903346173     -129.492025
9.225                 0.90313739     -129.749013
9.226                0.902928862      -130.00655
9.227                0.902720598     -130.264633
9.228                0.902512608     -130.523261
9.229                  0.9023049     -130.782435
9.23                 0.902097483     -131.042153
9.231                0.901890366     -131.302414
9.232                0.901683559     -131.563218
9.233                0.901477071     -131.824563
9.234                 0.90127091     -132.086449
9.235                0.901065086     -132.348874
9.236                0.900859608     -132.611838
9.237                0.900654486     -132.875339
9.238                0.900449729     -133.139377
9.239                0.900245346      -133.40395
9.24                 0.900041347     -133.669057
9.241                0.899837742     -133.934697
9.242                0.899634539     -134.200869
9.243                0.899431749     -134.467572
9.244                0.899229382     -134.734805
9.245                0.899027446     -135.002565
9.246                0.898825951     -135.270853
9.247                0.898624909     -135.539666
9.248                0.898424327     -135.809003
9.249                0.898224217     -136.078864
9.25                 0.898024587     -136.349246
9.251                0.897825449     -136.620148
9.252                0.897626811     -136.891568
9.253                0.897428685     -137.163506
9.254                0.897231079      -137.43596
9.255                0.897034005     -137.708927
9.256                0.896837471     -137.982407
9.257                0.896641489     -138.256398
9.258                0.896446068     -138.530899
9.259                0.896251219     -138.805907
9.26                 0.896056952     -139.081421
9.261                0.895863277     -139.357439
9.262                0.895670204      -139.63396
9.263                0.895477744     -139.910981
9.264                0.895285907     -140.188501
9.265                0.895094704     -140.466519
9.266                0.894904144     -140.745032
9.267                0.894714239     -141.024038
9.268                0.894524998     -141.303535
9.269                0.894336432     -141.583522
9.27                 0.894148552     -141.863996
9.271                0.893961368     -142.144956
9.272                0.893774891     -142.426399
9.273                 0.89358913     -142.708324
9.274                0.893404097     -142.990727
9.275                0.893219802     -143.273608
9.276                0.893036256     -143.556964
9.277                0.892853469     -143.840792
9.278                0.892671452     -144.125091
9.279                0.892490215     -144.409858
9.28                 0.892309769      -144.69509
9.281                0.892130124     -144.980787
9.282                0.891951291     -145.266944
9.283                0.891773282     -145.553561
9.284                0.891596105     -145.840634
9.285                0.891419772     -146.128161
9.286                0.891244294     -146.416139
9.287                 0.89106968     -146.704566
9.288                0.890895942      -146.99344
9.289                 0.89072309     -147.282758
9.29                 0.890551135     -147.572517
9.291                0.890380087     -147.862714
9.292                0.890209957     -148.153348
9.293                0.890040756     -148.444414
9.294                0.889872493     -148.735912
9.295                0.889705179     -149.027837
9.296                0.889538825     -149.320187
9.297                0.889373441      -149.61296
9.298                0.889209038     -149.906151
9.299                0.889045627      -150.19976
9.3                  0.888883216     -150.493782
9.301                0.888721818     -150.788214
9.302                0.888561442     -151.083054
9.303                0.888402098     -151.378299
9.304                0.888243797     -151.673945
9.305                0.888086549      -151.96999
9.306                0.887930365     -152.266431
9.307                0.887775254     -152.563264
9.308                0.887621227     -152.860486
9.309                0.887468294     -153.158094
9.31                 0.887316464     -153.456086
9.311                0.887165749     -153.754456
9.312                0.887016157     -154.053203
9.313                  0.8868677     -154.352323
9.314                0.886720386     -154.651813
9.315                0.886574226      -154.95167
9.316                0.886429229     -155.251889
9.317                0.886285406     -155.552468
9.318                0.886142766     -155.853403
9.319                0.886001318     -156.154691
9.32                 0.885861073     -156.456328
9.321                 0.88572204     -156.758311
9.322                0.885584228     -157.060636
9.323                0.885447646     -157.363299
9.324                0.885312305     -157.666298
9.325                0.885178214     -157.969627
9.326                0.885045381     -158.273285
9.327                0.884913816     -158.577266
9.328                0.884783528     -158.881568
9.329                0.884654526     -159.186187
9.33                 0.884526819     -159.491118
9.331                0.884400417     -159.796358
9.332                0.884275327     -160.101903
9.333                0.884151559      -160.40775
9.334                0.884029121     -160.713894
9.335                0.883908022     -161.020332
9.336                 0.88378827      -161.32706
9.337                0.883669874     -161.634073
9.338                0.883552842     -161.941368
9.339                0.883437183     -162.248941
9.34                 0.883322905     -162.556788
9.341                0.883210015     -162.864905
9.342                0.883098522     -163.173287
9.343                0.882988434     -163.481931
9.344                0.882879759     -163.790833
9.345                0.882772504     -164.099988
9.346                0.882666676     -164.409392
9.347                0.882562285     -164.719041
9.348                0.882459336     -165.028932
9.349                0.882357838     -165.339059
9.35                 0.882257797     -165.649418
9.351                0.882159221     -165.960006
9.352                0.882062117     -166.270818
9.353                0.881966491     -166.581849
9.354                0.881872351     -166.893096
9.355                0.881779704     -167.204554
9.356                0.881688555     -167.516219
9.357                0.881598912     -167.828086
9.358                 0.88151078     -168.140151
9.359                0.881424167     -168.452409
9.36                 0.881339078     -168.764857
9.361                 0.88125552     -169.077489
9.362                0.881173498     -169.390302
9.363                0.881093018      -169.70329
9.364                0.881014086      -170.01645
9.365                0.880936708     -170.329777
9.366                0.880860888     -170.643266
9.367                0.880786633     -170.956913
9.368                0.880713948     -171.270713
9.369                0.880642837     -171.584661
9.37                 0.880573306     -171.898754
9.371                0.880505359     -172.212987
9.372                0.880439002     -172.527354
9.373                0.880374239     -172.841852
9.374                0.880311074     -173.156475
9.375                0.880249512     -173.471219
9.376                0.880189557      -173.78608
9.377                0.880131213     -174.101053
9.378                0.880074483     -174.416133
9.379                0.880019373     -174.731315
9.38                 0.879965886     -175.046595
9.381                0.879914024     -175.361969
9.382                0.879863792      -175.67743
9.383                0.879815193     -175.992975
9.384                 0.87976823       -176.3086
9.385                0.879722906     -176.624298
9.386                0.879679225     -176.940066
9.387                0.879637187     -177.255899
9.388                0.879596797     -177.571792
9.389                0.879558057      -177.88774
9.39                 0.879520969     -178.203739
9.391                0.879485536     -178.519783
9.392                0.879451759     -178.835869
9.393                 0.87941964     -179.151991
9.394                0.879389181     -179.468144
9.395                0.879360384     -179.784324
9.396                 0.87933325      179.899474
