! TOUCHSTONE file generated by CST DESIGN STUDIO
! Date and time: Tue Feb  4 18:10:26 2025
! Project name: C:\Work\MatlabApps\UnitCellOptimizationMatlab\CST\unitcell.cst
! Tree item: Tasks\Sweep1\SPara1\S-Parameters
! Header version: 2024
! Port assignment regex: !\s*Touchstone port\s*([0-9]+)\s*=\s*(CST MWS port|CST DES external port|CST DES block port)\s*(.+)\s* \(\"(.*)\"\)(\s*mode\s*([0-9]+))?.*
! Touchstone port assignment:
! Touchstone port 1 = CST DES external port 1 ("")
# GHz S MA R 50
9                    0.966057382     -49.5369483
9.001                0.965998176     -49.5994889
9.002                0.965938786     -49.6621607
9.003                0.965879212     -49.7249642
9.004                0.965819454     -49.7878996
9.005                 0.96575951     -49.8509675
9.006                 0.96569938     -49.9141682
9.007                0.965639064     -49.9775022
9.008                 0.96557856     -50.0409697
9.009                0.965517869     -50.1045714
9.01                  0.96545699     -50.1683074
9.011                0.965395921     -50.2321783
9.012                0.965334662     -50.2961845
9.013                0.965273213     -50.3603263
9.014                0.965211573     -50.4246042
9.015                0.965149741     -50.4890187
9.016                0.965087717       -50.55357
9.017                  0.9650255     -50.6182587
9.018                0.964963089     -50.6830852
9.019                0.964900484     -50.7480498
9.02                 0.964837684     -50.8131531
9.021                0.964774688     -50.8783954
9.022                0.964711496     -50.9437771
9.023                0.964648106     -51.0092988
9.024                0.964584519     -51.0749607
9.025                0.964520734     -51.1407634
9.026                0.964456749     -51.2067073
9.027                0.964392565     -51.2727928
9.028                 0.96432818     -51.3390203
9.029                0.964263594     -51.4053903
9.03                 0.964198807     -51.4719033
9.031                0.964133816     -51.5385596
9.032                0.964068623     -51.6053597
9.033                0.964003225     -51.6723041
9.034                0.963937623     -51.7393932
9.035                0.963871816     -51.8066274
9.036                0.963805803     -51.8740072
9.037                0.963739583      -51.941533
9.038                0.963673155     -52.0092054
9.039                0.963606519     -52.0770247
9.04                 0.963539675     -52.1449914
9.041                0.963472621     -52.2131059
9.042                0.963405356     -52.2813688
9.043                0.963337881     -52.3497805
9.044                0.963270193     -52.4183414
9.045                0.963202293      -52.487052
9.046                 0.96313418     -52.5559128
9.047                0.963065853     -52.6249242
9.048                0.962997312     -52.6940867
9.049                0.962928555     -52.7634009
9.05                 0.962859581      -52.832867
9.051                0.962790391     -52.9024857
9.052                0.962720983     -52.9722574
9.053                0.962651357     -53.0421826
9.054                0.962581512     -53.1122617
9.055                0.962511446     -53.1824953
9.056                 0.96244116     -53.2528838
9.057                0.962370653     -53.3234277
9.058                0.962299923     -53.3941275
9.059                0.962228971     -53.4649836
9.06                 0.962157794     -53.5359967
9.061                0.962086394     -53.6071671
9.062                0.962014768     -53.6784954
9.063                0.961942916      -53.749982
9.064                0.961870837     -53.8216275
9.065                 0.96179853     -53.8934323
9.066                0.961725995      -53.965397
9.067                0.961653231      -54.037522
9.068                0.961580237     -54.1098079
9.069                0.961507013     -54.1822551
9.07                 0.961433556     -54.2548643
9.071                0.961359868     -54.3276358
9.072                0.961285946     -54.4005702
9.073                0.961211791      -54.473668
9.074                  0.9611374     -54.5469297
9.075                0.961062774     -54.6203559
9.076                0.960987912     -54.6939471
9.077                0.960912813     -54.7677037
9.078                0.960837475     -54.8416264
9.079                0.960761899     -54.9157156
9.08                 0.960686084     -54.9899718
9.081                0.960610028     -55.0643957
9.082                 0.96053373     -55.1389876
9.083                0.960457191     -55.2137482
9.084                0.960380409     -55.2886781
9.085                0.960303382     -55.3637776
9.086                0.960226112     -55.4390474
9.087                0.960148596      -55.514488
9.088                0.960070834        -55.5901
9.089                0.959992824     -55.6658839
9.09                 0.959914567     -55.7418402
9.091                0.959836061     -55.8179695
9.092                0.959757305     -55.8942724
9.093                0.959678299     -55.9707494
9.094                0.959599042      -56.047401
9.095                0.959519532     -56.1242278
9.096                0.959439769     -56.2012304
9.097                0.959359752     -56.2784094
9.098                0.959279481     -56.3557652
9.099                0.959198954     -56.4332985
9.1                   0.95911817     -56.5110099
9.101                0.959037129     -56.5888998
9.102                 0.95895583     -56.6669689
9.103                0.958874271     -56.7452178
9.104                0.958792453     -56.8236469
9.105                0.958710373      -56.902257
9.106                0.958628032     -56.9810486
9.107                0.958545428     -57.0600222
9.108                 0.95846256     -57.1391785
9.109                0.958379428      -57.218518
9.11                 0.958296031     -57.2980414
9.111                0.958212367     -57.3777491
9.112                0.958128436     -57.4576419
9.113                0.958044237     -57.5377203
9.114                0.957959769     -57.6179848
9.115                0.957875031     -57.6984362
9.116                0.957790022      -57.779075
9.117                0.957704741     -57.8599018
9.118                0.957619188     -57.9409172
9.119                0.957533361     -58.0221218
9.12                  0.95744726     -58.1035163
9.121                0.957360883     -58.1851012
9.122                 0.95727423     -58.2668772
9.123                0.957187299     -58.3488449
9.124                 0.95710009     -58.4310048
9.125                0.957012602     -58.5133577
9.126                0.956924834     -58.5959042
9.127                0.956836785     -58.6786448
9.128                0.956748454     -58.7615802
9.129                 0.95665984     -58.8447111
9.13                 0.956570942      -58.928038
9.131                0.956481759     -59.0115616
9.132                 0.95639229     -59.0952826
9.133                0.956302535     -59.1792016
9.134                0.956212491     -59.2633192
9.135                0.956122159      -59.347636
9.136                0.956031538     -59.4321528
9.137                0.955940626     -59.5168702
9.138                0.955849422     -59.6017888
9.139                0.955757925     -59.6869092
9.14                 0.955666135     -59.7722322
9.141                0.955574051     -59.8577584
9.142                0.955481671     -59.9434884
9.143                0.955388994      -60.029423
9.144                 0.95529602     -60.1155627
9.145                0.955202748     -60.2019084
9.146                0.955109176     -60.2884605
9.147                0.955015303     -60.3752198
9.148                 0.95492113      -60.462187
9.149                0.954826653     -60.5493628
9.15                 0.954731874     -60.6367478
9.151                0.954636789     -60.7243428
9.152                  0.9545414     -60.8121483
9.153                0.954445704     -60.9001652
9.154                  0.9543497      -60.988394
9.155                0.954253388     -61.0768355
9.156                0.954156766     -61.1654904
9.157                0.954059834     -61.2543594
9.158                0.953962591     -61.3434431
9.159                0.953865034     -61.4327424
9.16                 0.953767165     -61.5222578
9.161                 0.95366898     -61.6119901
9.162                 0.95357048       -61.70194
9.163                0.953471664     -61.7921083
9.164                0.953372529     -61.8824956
9.165                0.953273076     -61.9731026
9.166                0.953173304     -62.0639302
9.167                 0.95307321     -62.1549789
9.168                0.952972794     -62.2462496
9.169                0.952872056     -62.3377429
9.17                 0.952770994     -62.4294596
9.171                0.952669606     -62.5214005
9.172                0.952567893     -62.6135662
9.173                0.952465853     -62.7059575
9.174                0.952363484     -62.7985752
9.175                0.952260786       -62.89142
9.176                0.952157759     -62.9844926
9.177                0.952054399     -63.0777938
9.178                0.951950708     -63.1713243
9.179                0.951846683     -63.2650849
9.18                 0.951742323     -63.3590764
9.181                0.951637628     -63.4532995
9.182                0.951532596      -63.547755
9.183                0.951427227     -63.6424437
9.184                0.951321519     -63.7373662
9.185                 0.95121547     -63.8325235
9.186                0.951109081     -63.9279162
9.187                 0.95100235     -64.0235452
9.188                0.950895276     -64.1194111
9.189                0.950787858     -64.2155149
9.19                 0.950680095     -64.3118573
9.191                0.950571985      -64.408439
9.192                0.950463528      -64.505261
9.193                0.950354722     -64.6023238
9.194                0.950245567     -64.6996285
9.195                0.950136061     -64.7971757
9.196                0.950026203     -64.8949663
9.197                0.949915993      -64.993001
9.198                0.949805428     -65.0912807
9.199                0.949694509     -65.1898062
9.2                  0.949583233     -65.2885783
9.201                  0.9494716     -65.3875978
9.202                0.949359609     -65.4868655
9.203                0.949247258     -65.5863823
9.204                0.949134547     -65.6861489
9.205                0.949021474     -65.7861663
9.206                0.948908038     -65.8864352
9.207                0.948794238     -65.9869564
9.208                0.948680074     -66.0877309
9.209                0.948565543     -66.1887594
9.21                 0.948450646     -66.2900428
9.211                0.948335379      -66.391582
9.212                0.948219744     -66.4933777
9.213                0.948103738     -66.5954308
9.214                0.947987361     -66.6977422
9.215                 0.94787061     -66.8003127
9.216                0.947753486     -66.9031433
9.217                0.947635987     -67.0062347
9.218                0.947518112     -67.1095878
9.219                0.947399859     -67.2132035
9.22                 0.947281229     -67.3170826
9.221                0.947162219     -67.4212261
9.222                0.947042828     -67.5256348
9.223                0.946923056     -67.6303096
9.224                0.946802901     -67.7352514
9.225                0.946682362      -67.840461
9.226                0.946561438     -67.9459393
9.227                0.946440128     -68.0516873
9.228                0.946318431     -68.1577058
9.229                0.946196345     -68.2639957
9.23                  0.94607387      -68.370558
9.231                0.945951004     -68.4773934
9.232                0.945827747     -68.5845031
9.233                0.945704096     -68.6918877
9.234                0.945580052     -68.7995483
9.235                0.945455613     -68.9074858
9.236                0.945330778      -69.015701
9.237                0.945205545      -69.124195
9.238                0.945079914     -69.2329686
9.239                0.944953883     -69.3420227
9.24                 0.944827452     -69.4513583
9.241                0.944700619     -69.5609764
9.242                0.944573383     -69.6708777
9.243                0.944445743     -69.7810634
9.244                0.944317698     -69.8915343
9.245                0.944189247     -70.0022914
9.246                0.944060389     -70.1133356
9.247                0.943931122     -70.2246679
9.248                0.943801446     -70.3362892
9.249                0.943671359     -70.4482005
9.25                  0.94354086     -70.5604027
9.251                0.943409949     -70.6728968
9.252                0.943278623     -70.7856839
9.253                0.943146883     -70.8987647
9.254                0.943014726     -71.0121404
9.255                0.942882152     -71.1258118
9.256                 0.94274916       -71.23978
9.257                0.942615748     -71.3540459
9.258                0.942481916     -71.4686106
9.259                0.942347663      -71.583475
9.26                 0.942212986     -71.6986401
9.261                0.942077886     -71.8141069
9.262                0.941942361     -71.9298763
9.263                 0.94180641     -72.0459495
9.264                0.941670032     -72.1623273
9.265                0.941533226     -72.2790109
9.266                0.941395991     -72.3960011
9.267                0.941258325     -72.5132991
9.268                0.941120228     -72.6309058
9.269                0.940981699     -72.7488222
9.27                 0.940842737     -72.8670494
9.271                 0.94070334     -72.9855884
9.272                0.940563507     -73.1044402
9.273                0.940423238     -73.2236058
9.274                0.940282531     -73.3430863
9.275                0.940141385     -73.4628827
9.276                  0.9399998      -73.582996
9.277                0.939857774     -73.7034274
9.278                0.939715306     -73.8241777
9.279                0.939572396     -73.9452481
9.28                 0.939429041     -74.0666397
9.281                0.939285242     -74.1883534
9.282                0.939140996     -74.3103904
9.283                0.938996304     -74.4327516
9.284                0.938851164     -74.5554382
9.285                0.938705575     -74.6784513
9.286                0.938559536     -74.8017918
9.287                0.938413046     -74.9254608
9.288                0.938266104     -75.0494595
9.289                0.938118709     -75.1737889
9.29                 0.937970861       -75.29845
9.291                0.937822557      -75.423444
9.292                0.937673798      -75.548772
9.293                0.937524582      -75.674435
9.294                0.937374908     -75.8004341
9.295                0.937224776     -75.9267705
9.296                0.937074184     -76.0534451
9.297                0.936923131     -76.1804592
9.298                0.936771617     -76.3078138
9.299                 0.93661964       -76.43551
9.3                    0.9364672      -76.563549
9.301                0.936314296     -76.6919317
9.302                0.936160927     -76.8206595
9.303                0.936007091     -76.9497333
9.304                0.935852789     -77.0791543
9.305                0.935698019     -77.2089235
9.306                 0.93554278     -77.3390423
9.307                0.935387071     -77.4695116
9.308                0.935230892     -77.6003326
9.309                0.935074242     -77.7315064
9.31                 0.934917119     -77.8630341
9.311                0.934759524      -77.994917
9.312                0.934601454     -78.1271561
9.313                 0.93444291     -78.2597526
9.314                0.934283891     -78.3927076
9.315                0.934124395     -78.5260223
9.316                0.933964423     -78.6596979
9.317                0.933803972     -78.7937354
9.318                0.933643043      -78.928136
9.319                0.933481634      -79.062901
9.32                 0.933319745     -79.1980314
9.321                0.933157376     -79.3335285
9.322                0.932994525     -79.4693933
9.323                0.932831191     -79.6056271
9.324                0.932667374     -79.7422311
9.325                0.932503074     -79.8792064
9.326                0.932338289     -80.0165541
9.327                0.932173019     -80.1542755
9.328                0.932007263     -80.2923718
9.329                0.931841021     -80.4308441
9.33                 0.931674291     -80.5696937
9.331                0.931507074     -80.7089216
9.332                0.931339368     -80.8485292
9.333                0.931171174     -80.9885175
9.334                0.931002489     -81.1288879
9.335                0.930833315     -81.2696415
9.336                 0.93066365     -81.4107794
9.337                0.930493493      -81.552303
9.338                0.930322845     -81.6942133
9.339                0.930151704     -81.8365117
9.34                  0.92998007     -81.9791993
9.341                0.929807943     -82.1222773
9.342                0.929635322      -82.265747
9.343                0.929462206     -82.4096096
9.344                0.929288596     -82.5538662
9.345                 0.92911449     -82.6985181
9.346                0.928939888     -82.8435666
9.347                 0.92876479     -82.9890128
9.348                0.928589196      -83.134858
9.349                0.928413105     -83.2811035
9.35                 0.928236516     -83.4277503
9.351                 0.92805943     -83.5747998
9.352                0.927881845     -83.7222533
9.353                0.927703763     -83.8701118
9.354                0.927525181     -84.0183768
9.355                0.927346101     -84.1670494
9.356                0.927166521     -84.3161308
9.357                0.926986442     -84.4656223
9.358                0.926805863     -84.6155252
9.359                0.926624784     -84.7658407
9.36                 0.926443206       -84.91657
9.361                0.926261126     -85.0677145
9.362                0.926078547     -85.2192752
9.363                0.925895466     -85.3712536
9.364                0.925711885     -85.5236508
9.365                0.925527803     -85.6764681
9.366                0.925343221     -85.8297067
9.367                0.925158137      -85.983368
9.368                0.924972552     -86.1374532
9.369                0.924786466     -86.2919635
9.37                 0.924599879     -86.4469002
9.371                0.924412792     -86.6022646
9.372                0.924225203     -86.7580578
9.373                0.924037113     -86.9142813
9.374                0.923848523     -87.0709363
9.375                0.923659431     -87.2280239
9.376                 0.92346984     -87.3855456
9.377                0.923279747     -87.5435025
9.378                0.923089155     -87.7018959
9.379                0.922898063     -87.8607271
9.38                  0.92270647     -88.0199974
9.381                0.922514379     -88.1797081
9.382                0.922321788     -88.3398603
9.383                0.922128698     -88.5004555
9.384                 0.92193511     -88.6614948
9.385                0.921741023     -88.8229795
9.386                0.921546438     -88.9849109
9.387                0.921351356     -89.1472904
9.388                0.921155777      -89.310119
9.389                0.920959702     -89.4733982
9.39                  0.92076313     -89.6371293
9.391                0.920566063     -89.8013134
9.392                0.920368501     -89.9659518
9.393                0.920170445     -90.1310459
9.394                0.919971894     -90.2965969
9.395                0.919772851     -90.4626061
9.396                0.919573315     -90.6290747
