! TOUCHSTONE file generated by CST DESIGN STUDIO
! Date and time: Tue Feb  4 18:10:28 2025
! Project name: C:\Work\MatlabApps\UnitCellOptimizationMatlab\CST\unitcell.cst
! Tree item: Tasks\Sweep1\SPara1\S-Parameters
! Header version: 2024
! Port assignment regex: !\s*Touchstone port\s*([0-9]+)\s*=\s*(CST MWS port|CST DES external port|CST DES block port)\s*(.+)\s* \(\"(.*)\"\)(\s*mode\s*([0-9]+))?.*
! Touchstone port assignment:
! Touchstone port 1 = CST DES external port 1 ("")
# GHz S MA R 50
9                    0.968072551     -46.0803315
9.001                0.968021344     -46.1372266
9.002                0.967969979     -46.1942357
9.003                0.967918454     -46.2513593
9.004                 0.96786677     -46.3085975
9.005                0.967814925     -46.3659509
9.006                 0.96776292     -46.4234197
9.007                0.967710753     -46.4810042
9.008                0.967658424     -46.5387049
9.009                0.967605933      -46.596522
9.01                 0.967553279     -46.6544559
9.011                0.967500461      -46.712507
9.012                0.967447479     -46.7706755
9.013                0.967394333      -46.828962
9.014                0.967341021     -46.8873666
9.015                0.967287544     -46.9458898
9.016                  0.9672339     -47.0045319
9.017                 0.96718009     -47.0632933
9.018                0.967126112     -47.1221744
9.019                0.967071966     -47.1811754
9.02                 0.967017651     -47.2402967
9.021                0.966963168     -47.2995388
9.022                0.966908514      -47.358902
9.023                0.966853691     -47.4183866
9.024                0.966798696      -47.477993
9.025                 0.96674353     -47.5377215
9.026                0.966688193     -47.5975726
9.027                0.966632682     -47.6575466
9.028                0.966576998     -47.7176439
9.029                0.966521141     -47.7778649
9.03                 0.966465109     -47.8382098
9.031                0.966408903     -47.8986792
9.032                0.966352521     -47.9592733
9.033                0.966295963     -48.0199926
9.034                0.966239228     -48.0808375
9.035                0.966182316     -48.1418082
9.036                0.966125225     -48.2029052
9.037                0.966067957      -48.264129
9.038                0.966010509     -48.3254797
9.039                0.965952882      -48.386958
9.04                 0.965895074      -48.448564
9.041                0.965837085     -48.5102983
9.042                0.965778915     -48.5721612
9.043                0.965720563     -48.6341531
9.044                0.965662028     -48.6962745
9.045                0.965603309     -48.7585256
9.046                0.965544407     -48.8209069
9.047                0.965485319     -48.8834188
9.048                0.965426047     -48.9460616
9.049                0.965366588     -49.0088359
9.05                 0.965306944      -49.071742
9.051                0.965247111     -49.1347802
9.052                0.965187092     -49.1979511
9.053                0.965126883     -49.2612549
9.054                0.965066486     -49.3246922
9.055                0.965005899     -49.3882633
9.056                0.964945121     -49.4519686
9.057                0.964884152     -49.5158085
9.058                0.964822992     -49.5797836
9.059                 0.96476164     -49.6438941
9.06                 0.964700094     -49.7081405
9.061                0.964638355     -49.7725232
9.062                0.964576421     -49.8370426
9.063                0.964514293     -49.9016992
9.064                0.964451969     -49.9664933
9.065                0.964389448     -50.0314255
9.066                0.964326731     -50.0964961
9.067                0.964263816     -50.1617055
9.068                0.964200702     -50.2270542
9.069                 0.96413739     -50.2925427
9.07                 0.964073878     -50.3581713
9.071                0.964010166     -50.4239404
9.072                0.963946252     -50.4898506
9.073                0.963882137     -50.5559022
9.074                0.963817819     -50.6220958
9.075                0.963753299     -50.6884316
9.076                0.963688574     -50.7549103
9.077                0.963623645     -50.8215321
9.078                0.963558511     -50.8882977
9.079                0.963493171     -50.9552073
9.08                 0.963427624     -51.0222615
9.081                 0.96336187     -51.0894607
9.082                0.963295908     -51.1568054
9.083                0.963229737      -51.224296
9.084                0.963163357     -51.2919329
9.085                0.963096767     -51.3597167
9.086                0.963029966     -51.4276478
9.087                0.962962953     -51.4957267
9.088                0.962895727     -51.5639537
9.089                0.962828289     -51.6323295
9.09                 0.962760637     -51.7008543
9.091                 0.96269277     -51.7695288
9.092                0.962624689     -51.8383534
9.093                0.962556391     -51.9073285
9.094                0.962487876     -51.9764547
9.095                0.962419144     -52.0457323
9.096                0.962350194     -52.1151619
9.097                0.962281025      -52.184744
9.098                0.962211636      -52.254479
9.099                0.962142026     -52.3243674
9.1                  0.962072196     -52.3944097
9.101                0.962002143     -52.4646064
9.102                0.961931867      -52.534958
9.103                0.961861369     -52.6054649
9.104                0.961790645     -52.6761276
9.105                0.961719697     -52.7469468
9.106                0.961648523     -52.8179227
9.107                0.961577122      -52.889056
9.108                0.961505494     -52.9603471
9.109                0.961433638     -53.0317965
9.11                 0.961361553     -53.1034048
9.111                0.961289238     -53.1751724
9.112                0.961216693     -53.2470998
9.113                0.961143916     -53.3191876
9.114                0.961070908     -53.3914363
9.115                0.960997666     -53.4638463
9.116                0.960924191     -53.5364182
9.117                0.960850481     -53.6091525
9.118                0.960776536     -53.6820497
9.119                0.960702355     -53.7551103
9.12                 0.960627937     -53.8283349
9.121                0.960553281      -53.901724
9.122                0.960478387      -53.975278
9.123                0.960403253     -54.0489976
9.124                 0.96032788     -54.1228832
9.125                0.960252265     -54.1969355
9.126                0.960176409     -54.2711548
9.127                0.960100309     -54.3455418
9.128                0.960023967      -54.420097
9.129                 0.95994738     -54.4948209
9.13                 0.959870548      -54.569714
9.131                 0.95979347      -54.644777
9.132                0.959716145     -54.7200103
9.133                0.959638573     -54.7954145
9.134                0.959560752     -54.8709902
9.135                0.959482682     -54.9467379
9.136                0.959404361     -55.0226581
9.137                 0.95932579     -55.0987514
9.138                0.959246966     -55.1750184
9.139                 0.95916789     -55.2514596
9.14                  0.95908856     -55.3280756
9.141                0.959008976     -55.4048669
9.142                0.958929136     -55.4818341
9.143                 0.95884904     -55.5589778
9.144                0.958768687     -55.6362986
9.145                0.958688076      -55.713797
9.146                0.958607206     -55.7914735
9.147                0.958526076     -55.8693288
9.148                0.958444686     -55.9473635
9.149                0.958363034     -56.0255781
9.15                  0.95828112     -56.1039732
9.151                0.958198942     -56.1825494
9.152                0.958116501     -56.2613072
9.153                0.958033794     -56.3402473
9.154                0.957950821     -56.4193703
9.155                0.957867581     -56.4986767
9.156                0.957784074     -56.5781672
9.157                0.957700297     -56.6578423
9.158                0.957616252     -56.7377026
9.159                0.957531935     -56.8177488
9.16                 0.957447347     -56.8979814
9.161                0.957362487     -56.9784011
9.162                0.957277353     -57.0590084
9.163                0.957191946      -57.139804
9.164                0.957106263     -57.2207885
9.165                0.957020304     -57.3019625
9.166                0.956934068     -57.3833265
9.167                0.956847553     -57.4648814
9.168                0.956760761     -57.5466276
9.169                0.956673688     -57.6285657
9.17                 0.956586334     -57.7106965
9.171                0.956498699     -57.7930205
9.172                0.956410781     -57.8755384
9.173                0.956322579     -57.9582507
9.174                0.956234093     -58.0411582
9.175                0.956145322     -58.1242615
9.176                0.956056263     -58.2075612
9.177                0.955966918      -58.291058
9.178                0.955877284     -58.3747525
9.179                 0.95578736     -58.4586453
9.18                 0.955697146     -58.5427371
9.181                0.955606641     -58.6270286
9.182                0.955515844     -58.7115204
9.183                0.955424753     -58.7962131
9.184                0.955333368     -58.8811075
9.185                0.955241687     -58.9662042
9.186                0.955149711     -59.0515038
9.187                0.955057437      -59.137007
9.188                0.954964865     -59.2227146
9.189                0.954871994     -59.3086271
9.19                 0.954778822     -59.3947452
9.191                 0.95468535     -59.4810696
9.192                0.954591575     -59.5676011
9.193                0.954497496     -59.6543402
9.194                0.954403114     -59.7412877
9.195                0.954308427     -59.8284442
9.196                0.954213433     -59.9158105
9.197                0.954118132     -60.0033872
9.198                0.954022522      -60.091175
9.199                0.953926604     -60.1791746
9.2                  0.953830375     -60.2673868
9.201                0.953733834     -60.3558121
9.202                0.953636981     -60.4444514
9.203                0.953539815     -60.5333054
9.204                0.953442335     -60.6223747
9.205                0.953344539       -60.71166
9.206                0.953246426     -60.8011621
9.207                0.953147996     -60.8908817
9.208                0.953049248     -60.9808195
9.209                 0.95295018     -61.0709762
9.21                 0.952850791     -61.1613526
9.211                 0.95275108     -61.2519494
9.212                0.952651047     -61.3427673
9.213                 0.95255069     -61.4338071
9.214                0.952450008     -61.5250694
9.215                   0.952349      -61.616555
9.216                0.952247665     -61.7082648
9.217                0.952146002     -61.8001993
9.218                 0.95204401     -61.8923594
9.219                0.951941688     -61.9847458
9.22                 0.951839035     -62.0773592
9.221                0.951736049     -62.1702005
9.222                 0.95163273     -62.2632703
9.223                0.951529076     -62.3565695
9.224                0.951425087     -62.4500987
9.225                0.951320762     -62.5438588
9.226                0.951216098     -62.6378506
9.227                0.951111096     -62.7320747
9.228                0.951005754      -62.826532
9.229                0.950900071     -62.9212233
9.23                 0.950794047     -63.0161493
9.231                0.950687679     -63.1113108
9.232                0.950580967     -63.2067086
9.233                0.950473909     -63.3023435
9.234                0.950366506     -63.3982162
9.235                0.950258754     -63.4943277
9.236                0.950150654     -63.5906786
9.237                0.950042205     -63.6872697
9.238                0.949933405     -63.7841019
9.239                0.949824253      -63.881176
9.24                 0.949714748     -63.9784928
9.241                0.949604889     -64.0760531
9.242                0.949494674     -64.1738576
9.243                0.949384104     -64.2719073
9.244                0.949273176     -64.3702029
9.245                0.949161889     -64.4687453
9.246                0.949050243     -64.5675353
9.247                0.948938236     -64.6665736
9.248                0.948825867     -64.7658613
9.249                0.948713135      -64.865399
9.25                  0.94860004     -64.9651876
9.251                0.948486579     -65.0652279
9.252                0.948372751     -65.1655209
9.253                0.948258556     -65.2660673
9.254                0.948143993      -65.366868
9.255                 0.94802906     -65.4679238
9.256                0.947913756     -65.5692356
9.257                 0.94779808     -65.6708042
9.258                0.947682031     -65.7726306
9.259                0.947565608     -65.8747156
9.26                 0.947448809     -65.9770599
9.261                0.947331634     -66.0796646
9.262                0.947214082     -66.1825305
9.263                 0.94709615     -66.2856584
9.264                0.946977839     -66.3890493
9.265                0.946859147      -66.492704
9.266                0.946740072     -66.5966233
9.267                0.946620615     -66.7008083
9.268                0.946500773     -66.8052597
9.269                0.946380545     -66.9099785
9.27                 0.946259931     -67.0149655
9.271                0.946138929     -67.1202217
9.272                0.946017538      -67.225748
9.273                0.945895757     -67.3315453
9.274                0.945773585     -67.4376144
9.275                 0.94565102     -67.5439563
9.276                0.945528062     -67.6505719
9.277                 0.94540471     -67.7574621
9.278                0.945280961     -67.8646279
9.279                0.945156816     -67.9720701
9.28                 0.945032272     -68.0797897
9.281                 0.94490733     -68.1877876
9.282                0.944781987     -68.2960648
9.283                0.944656243     -68.4046222
9.284                0.944530096     -68.5134607
9.285                0.944403545     -68.6225812
9.286                 0.94427659     -68.7319848
9.287                0.944149228     -68.8416723
9.288                 0.94402146     -68.9516448
9.289                0.943893283     -69.0619031
9.29                 0.943764697     -69.1724482
9.291                  0.9436357     -69.2832811
9.292                0.943506292     -69.3944027
9.293                 0.94337647     -69.5058141
9.294                0.943246235     -69.6175161
9.295                0.943115585     -69.7295098
9.296                0.942984519     -69.8417962
9.297                0.942853036     -69.9543761
9.298                0.942721134     -70.0672506
9.299                0.942588812     -70.1804207
9.3                   0.94245607     -70.2938874
9.301                0.942322906     -70.4076516
9.302                 0.94218932     -70.5217144
9.303                0.942055309     -70.6360767
9.304                0.941920873     -70.7507396
9.305                0.941786011     -70.8657041
9.306                0.941650722     -70.9809711
9.307                0.941515004     -71.0965416
9.308                0.941378857     -71.2124168
9.309                0.941242279     -71.3285975
9.31                 0.941105269     -71.4450849
9.311                0.940967826     -71.5618799
9.312                 0.94082995     -71.6789836
9.313                0.940691638      -71.796397
9.314                 0.94055289     -71.9141212
9.315                0.940413706     -72.0321571
9.316                0.940274082     -72.1505058
9.317                 0.94013402     -72.2691683
9.318                0.939993517     -72.3881457
9.319                0.939852572     -72.5074391
9.32                 0.939711185     -72.6270495
9.321                0.939569354     -72.7469779
9.322                0.939427078     -72.8672254
9.323                0.939284357     -72.9877931
9.324                0.939141188      -73.108682
9.325                0.938997572     -73.2298932
9.326                0.938853507     -73.3514278
9.327                0.938708992     -73.4732868
9.328                0.938564026     -73.5954713
9.329                0.938418607     -73.7179824
9.33                 0.938272736     -73.8408212
9.331                 0.93812641     -73.9639887
9.332                0.937979629     -74.0874861
9.333                0.937832392     -74.2113144
9.334                0.937684698     -74.3354748
9.335                0.937536546     -74.4599683
9.336                0.937387934      -74.584796
9.337                0.937238862      -74.709959
9.338                0.937089329     -74.8354585
9.339                0.936939334     -74.9612955
9.34                 0.936788875     -75.0874712
9.341                0.936637953     -75.2139867
9.342                0.936486565     -75.3408431
9.343                0.936334711     -75.4680415
9.344                 0.93618239      -75.595583
9.345                0.936029601     -75.7234688
9.346                0.935876343        -75.8517
9.347                0.935722616     -75.9802778
9.348                0.935568417     -76.1092032
9.349                0.935413747     -76.2384774
9.35                 0.935258604     -76.3681016
9.351                0.935102987     -76.4980769
9.352                0.934946896     -76.6284044
9.353                 0.93479033     -76.7590853
9.354                0.934633287     -76.8901208
9.355                0.934475767      -77.021512
9.356                 0.93431777     -77.1532601
9.357                0.934159293     -77.2853662
9.358                0.934000337     -77.4178315
9.359                  0.9338409     -77.5506572
9.36                 0.933680981     -77.6838444
9.361                0.933520581     -77.8173943
9.362                0.933359697     -77.9513081
9.363                 0.93319833      -78.085587
9.364                0.933036478     -78.2202322
9.365                 0.93287414     -78.3552448
9.366                0.932711316      -78.490626
9.367                0.932548005      -78.626377
9.368                0.932384207     -78.7624991
9.369                0.932219919     -78.8989934
9.37                 0.932055143      -79.035861
9.371                0.931889877     -79.1731033
9.372                 0.93172412     -79.3107214
9.373                0.931557871     -79.4487165
9.374                 0.93139113     -79.5870899
9.375                0.931223897     -79.7258427
9.376                 0.93105617     -79.8649761
9.377                0.930887949     -80.0044915
9.378                0.930719233     -80.1443899
9.379                0.930550022     -80.2846726
9.38                 0.930380315     -80.4253409
9.381                0.930210111      -80.566396
9.382                 0.93003941      -80.707839
9.383                0.929868211     -80.8496713
9.384                0.929696513     -80.9918941
9.385                0.929524317     -81.1345086
9.386                0.929351621      -81.277516
9.387                0.929178425     -81.4209176
9.388                0.929004728     -81.5647146
9.389                0.928830531     -81.7089083
9.39                 0.928655832     -81.8534999
9.391                 0.92848063     -81.9984907
9.392                0.928304927      -82.143882
9.393                 0.92812872     -82.2896749
9.394                 0.92795201     -82.4358707
9.395                0.927774797     -82.5824708
9.396                0.927597079     -82.7294763
