! TOUCHSTONE file generated by CST DESIGN STUDIO
! Date and time: Tue Feb  4 18:10:12 2025
! Project name: C:\Work\MatlabApps\UnitCellOptimizationMatlab\CST\unitcell.cst
! Tree item: Tasks\Sweep1\SPara1\S-Parameters
! Header version: 2024
! Port assignment regex: !\s*Touchstone port\s*([0-9]+)\s*=\s*(CST MWS port|CST DES external port|CST DES block port)\s*(.+)\s* \(\"(.*)\"\)(\s*mode\s*([0-9]+))?.*
! Touchstone port assignment:
! Touchstone port 1 = CST DES external port 1 ("")
# GHz S MA R 50
9                    0.947949861     -81.3592761
9.001                 0.94781033     -81.4933574
9.002                0.947670378     -81.6277956
9.003                0.947530005     -81.7625916
9.004                0.947389211     -81.8977467
9.005                0.947247995     -82.0332619
9.006                0.947106356     -82.1691382
9.007                0.946964293     -82.3053769
9.008                0.946821806      -82.441979
9.009                0.946678893     -82.5789457
9.01                 0.946535555      -82.716278
9.011                 0.94639179      -82.853977
9.012                0.946247597     -82.9920439
9.013                0.946102977     -83.1304797
9.014                0.945957928     -83.2692857
9.015                 0.94581245     -83.4084628
9.016                0.945666542     -83.5480123
9.017                0.945520203     -83.6879352
9.018                0.945373433     -83.8282327
9.019                0.945226232      -83.968906
9.02                 0.945078597      -84.109956
9.021                 0.94493053      -84.251384
9.022                0.944782029     -84.3931911
9.023                0.944633094     -84.5353784
9.024                0.944483724     -84.6779471
9.025                0.944333918     -84.8208983
9.026                0.944183677     -84.9642331
9.027                0.944032999     -85.1079527
9.028                0.943881884     -85.2520582
9.029                0.943730331     -85.3965507
9.03                 0.943578341     -85.5414315
9.031                0.943425912     -85.6867016
9.032                0.943273044     -85.8323622
9.033                0.943119736     -85.9784144
9.034                0.942965989     -86.1248594
9.035                0.942811801     -86.2716984
9.036                0.942657173     -86.4189325
9.037                0.942502103     -86.5665628
9.038                0.942346591     -86.7145905
9.039                0.942190638     -86.8630168
9.04                 0.942034242     -87.0118428
9.041                0.941877404     -87.1610697
9.042                0.941720122     -87.3106986
9.043                0.941562398     -87.4607307
9.044                0.941404229     -87.6111672
9.045                0.941245616     -87.7620091
9.046                0.941086559     -87.9132578
9.047                0.940927058     -88.0649144
9.048                0.940767112     -88.2169799
9.049                 0.94060672     -88.3694556
9.05                 0.940445884     -88.5223427
9.051                0.940284602     -88.6756423
9.052                0.940122874     -88.8293556
9.053                  0.9399607     -88.9834837
9.054                0.939798081     -89.1380278
9.055                0.939635015     -89.2929892
9.056                0.939471503     -89.4483689
9.057                0.939307545     -89.6041682
9.058                0.939143141     -89.7603881
9.059                 0.93897829       -89.91703
9.06                 0.938812992     -90.0740949
9.061                0.938647248      -90.231584
9.062                0.938481057     -90.3894985
9.063                 0.93831442     -90.5478396
9.064                0.938147337     -90.7066085
9.065                0.937979806     -90.8658062
9.066                 0.93781183     -91.0254341
9.067                0.937643407     -91.1854932
9.068                0.937474538     -91.3459848
9.069                0.937305223       -91.50691
9.07                 0.937135463       -91.66827
9.071                0.936965256     -91.8300659
9.072                0.936794604      -91.992299
9.073                0.936623507     -92.1549704
9.074                0.936451965     -92.3180813
9.075                0.936279978     -92.4816328
9.076                0.936107546     -92.6456261
9.077                 0.93593467     -92.8100625
9.078                0.935761351      -92.974943
9.079                0.935587588     -93.1402688
9.08                 0.935413382     -93.3060411
9.081                0.935238734     -93.4722611
9.082                0.935063643     -93.6389299
9.083                 0.93488811     -93.8060488
9.084                0.934712137     -93.9736188
9.085                0.934535722     -94.1416411
9.086                0.934358867      -94.310117
9.087                0.934181573     -94.4790474
9.088                0.934003839     -94.6484337
9.089                0.933825667      -94.818277
9.09                 0.933647057     -94.9885784
9.091                0.933468011     -95.1593391
9.092                0.933288527     -95.3305602
9.093                0.933108608      -95.502243
9.094                0.932928254     -95.6743884
9.095                0.932747466     -95.8469978
9.096                0.932566244     -96.0200722
9.097                 0.93238459     -96.1936128
9.098                0.932202504     -96.3676207
9.099                0.932019988     -96.5420972
9.1                  0.931837041     -96.7170432
9.101                0.931653666     -96.8924599
9.102                0.931469863     -97.0683486
9.103                0.931285633     -97.2447102
9.104                0.931100978      -97.421546
9.105                0.930915897     -97.5988571
9.106                0.930730393     -97.7766446
9.107                0.930544467     -97.9549096
9.108                0.930358119     -98.1336532
9.109                0.930171352     -98.3128766
9.11                 0.929984165     -98.4925809
9.111                0.929796561     -98.6727671
9.112                0.929608541     -98.8534364
9.113                0.929420106     -99.0345899
9.114                0.929231258     -99.2162287
9.115                0.929041997     -99.3983538
9.116                0.928852327     -99.5809665
9.117                0.928662247     -99.7640677
9.118                0.928471759     -99.9476585
9.119                0.928280866      -100.13174
9.12                 0.928089568     -100.316314
9.121                0.927897868      -100.50138
9.122                0.927705766      -100.68694
9.123                0.927513266     -100.872995
9.124                0.927320367     -101.059547
9.125                0.927127074     -101.246595
9.126                0.926933386     -101.434142
9.127                0.926739306     -101.622188
9.128                0.926544836     -101.810734
9.129                0.926349978     -101.999781
9.13                 0.926154733     -102.189331
9.131                0.925959105     -102.379384
9.132                0.925763095     -102.569942
9.133                0.925566704     -102.761005
9.134                0.925369936     -102.952574
9.135                0.925172792     -103.144651
9.136                0.924975275     -103.337236
9.137                0.924777387     -103.530331
9.138                 0.92457913     -103.723936
9.139                0.924380507     -103.918052
9.14                  0.92418152     -104.112681
9.141                0.923982172     -104.307824
9.142                0.923782465      -104.50348
9.143                0.923582401     -104.699652
9.144                0.923381983      -104.89634
9.145                0.923181215     -105.093545
9.146                0.922980098     -105.291268
9.147                0.922778635      -105.48951
9.148                0.922576829     -105.688272
9.149                0.922374684     -105.887555
9.15                 0.922172201      -106.08736
9.151                0.921969384     -106.287688
9.152                0.921766235     -106.488539
9.153                0.921562758     -106.689914
9.154                0.921358956     -106.891815
9.155                0.921154832     -107.094242
9.156                0.920950389     -107.297196
9.157                0.920745631     -107.500678
9.158                0.920540559     -107.704688
9.159                0.920335179     -107.909229
9.16                 0.920129493     -108.114299
9.161                0.919923505     -108.319901
9.162                0.919717218     -108.526035
9.163                0.919510636     -108.732702
9.164                0.919303762     -108.939902
9.165                  0.9190966     -109.147637
9.166                0.918889153     -109.355907
9.167                0.918681426     -109.564713
9.168                0.918473422     -109.774055
9.169                0.918265145     -109.983935
9.17                 0.918056599     -110.194353
9.171                0.917847788      -110.40531
9.172                0.917638715     -110.616807
9.173                0.917429386     -110.828844
9.174                0.917219803     -111.041421
9.175                0.917009972     -111.254541
9.176                0.916799896     -111.468203
9.177                0.916589579     -111.682408
9.178                0.916379027     -111.897156
9.179                0.916168244     -112.112449
9.18                 0.915957233     -112.328286
9.181                0.915745999     -112.544669
9.182                0.915534548     -112.761598
9.183                0.915322883     -112.979074
9.184                 0.91511101     -113.197097
9.185                0.914898933     -113.415668
9.186                0.914686656     -113.634787
9.187                0.914474185     -113.854455
9.188                0.914261525     -114.074672
9.189                 0.91404868     -114.295439
9.19                 0.913835657     -114.516757
9.191                0.913622458     -114.738625
9.192                0.913409091     -114.961045
9.193                 0.91319556     -115.184016
9.194                 0.91298187      -115.40754
9.195                0.912768027     -115.631617
9.196                0.912554036     -115.856246
9.197                0.912339903     -116.081429
9.198                0.912125633     -116.307166
9.199                0.911911231     -116.533457
9.2                  0.911696704     -116.760302
9.201                0.911482057     -116.987703
9.202                0.911267296     -117.215658
9.203                0.911052426     -117.444169
9.204                0.910837454     -117.673236
9.205                0.910622385     -117.902859
9.206                0.910407226     -118.133038
9.207                0.910191982     -118.363774
9.208                 0.90997666     -118.595067
9.209                0.909761266     -118.826916
9.21                 0.909545805     -119.059323
9.211                0.909330286     -119.292287
9.212                0.909114713     -119.525809
9.213                0.908899093     -119.759888
9.214                0.908683434     -119.994525
9.215                 0.90846774      -120.22972
9.216                 0.90825202     -120.465472
9.217                0.908036279     -120.701783
9.218                0.907820524     -120.938652
9.219                0.907604763     -121.176078
9.22                 0.907389002     -121.414063
9.221                0.907173248     -121.652606
9.222                0.906957508     -121.891707
9.223                0.906741789     -122.131366
9.224                0.906526099     -122.371583
9.225                0.906310444     -122.612358
9.226                0.906094831     -122.853691
9.227                0.905879269     -123.095581
9.228                0.905663764     -123.338028
9.229                0.905448324     -123.581033
9.23                 0.905232956     -123.824595
9.231                0.905017668     -124.068714
9.232                0.904802468      -124.31339
9.233                0.904587363     -124.558622
9.234                 0.90437236      -124.80441
9.235                0.904157469     -125.050754
9.236                0.903942696     -125.297653
9.237                 0.90372805     -125.545108
9.238                0.903513538     -125.793117
9.239                0.903299169     -126.041681
9.24                  0.90308495     -126.290799
9.241                 0.90287089     -126.540471
9.242                0.902656998     -126.790696
9.243                 0.90244328     -127.041473
9.244                0.902229747     -127.292803
9.245                0.902016405     -127.544684
9.246                0.901803264     -127.797117
9.247                0.901590332       -128.0501
9.248                0.901377617     -128.303633
9.249                0.901165129     -128.557716
9.25                 0.900952876     -128.812347
9.251                0.900740866     -129.067527
9.252                0.900529108     -129.323253
9.253                0.900317612     -129.579527
9.254                0.900106386     -129.836346
9.255                 0.89989544     -130.093711
9.256                0.899684781      -130.35162
9.257                0.899474419     -130.610073
9.258                0.899264364     -130.869068
9.259                0.899054624     -131.128605
9.26                 0.898845209     -131.388684
9.261                0.898636128     -131.649302
9.262                 0.89842739     -131.910459
9.263                0.898219005     -132.172155
9.264                0.898010982     -132.434388
9.265                 0.89780333     -132.697157
9.266                0.897596059     -132.960462
9.267                0.897389179       -133.2243
9.268                0.897182699     -133.488671
9.269                0.896976628     -133.753575
9.27                 0.896770977     -134.019009
9.271                0.896565755     -134.284972
9.272                0.896360973     -134.551464
9.273                0.896156639     -134.818483
9.274                0.895952764     -135.086027
9.275                0.895749357     -135.354096
9.276                0.895546429     -135.622689
9.277                0.895343989     -135.891803
9.278                0.895142048     -136.161438
9.279                0.894940615     -136.431591
9.28                 0.894739701     -136.702263
9.281                0.894539316      -136.97345
9.282                0.894339469     -137.245153
9.283                0.894140172     -137.517368
9.284                0.893941434     -137.790095
9.285                0.893743266     -138.063332
9.286                0.893545678     -138.337078
9.287                 0.89334868      -138.61133
9.288                0.893152283     -138.886088
9.289                0.892956496     -139.161349
9.29                 0.892761331     -139.437111
9.291                0.892566798     -139.713374
9.292                0.892372907     -139.990135
9.293                0.892179669     -140.267392
9.294                0.891987094     -140.545144
9.295                0.891795193     -140.823389
9.296                0.891603976     -141.102124
9.297                0.891413454     -141.381348
9.298                0.891223637     -141.661059
9.299                0.891034537     -141.941255
9.3                  0.890846163     -142.221934
9.301                0.890658527     -142.503093
9.302                0.890471638     -142.784732
9.303                0.890285508     -143.066847
9.304                0.890100148     -143.349436
9.305                0.889915567     -143.632498
9.306                0.889731777     -143.916029
9.307                0.889548788     -144.200029
9.308                0.889366611     -144.484494
9.309                0.889185257     -144.769423
9.31                 0.889004737     -145.054812
9.311                 0.88882506      -145.34066
9.312                0.888646238     -145.626964
9.313                0.888468282     -145.913723
9.314                0.888291202     -146.200932
9.315                0.888115008      -146.48859
9.316                0.887939713     -146.776695
9.317                0.887765325     -147.065244
9.318                0.887591857     -147.354233
9.319                0.887419318     -147.643662
9.32                 0.887247719     -147.933526
9.321                0.887077071     -148.223824
9.322                0.886907385     -148.514552
9.323                0.886738671     -148.805709
9.324                0.886570939      -149.09729
9.325                0.886404201     -149.389294
9.326                0.886238467     -149.681718
9.327                0.886073747     -149.974558
9.328                0.885910051     -150.267812
9.329                0.885747392     -150.561477
9.33                 0.885585778      -150.85555
9.331                 0.88542522     -151.150028
9.332                0.885265728     -151.444909
9.333                0.885107314     -151.740188
9.334                0.884949987     -152.035863
9.335                0.884793758     -152.331931
9.336                0.884638636     -152.628389
9.337                0.884484633     -152.925233
9.338                0.884331758     -153.222461
9.339                0.884180021     -153.520069
9.34                 0.884029433     -153.818055
9.341                0.883880004     -154.116414
9.342                0.883731743     -154.415143
9.343                 0.88358466      -154.71424
9.344                0.883438767       -155.0137
9.345                0.883294071     -155.313521
9.346                0.883150584     -155.613699
9.347                0.883008315      -155.91423
9.348                0.882867273     -156.215112
9.349                0.882727469      -156.51634
9.35                 0.882588911     -156.817911
9.351                 0.88245161     -157.119822
9.352                0.882315575     -157.422069
9.353                0.882180815     -157.724649
9.354                 0.88204734     -158.027557
9.355                0.881915159      -158.33079
9.356                0.881784281     -158.634345
9.357                0.881654715     -158.938218
9.358                 0.88152647     -159.242405
9.359                0.881399556     -159.546902
9.36                 0.881273981     -159.851706
9.361                0.881149755     -160.156812
9.362                0.881026885     -160.462217
9.363                 0.88090538     -160.767917
9.364                 0.88078525     -161.073909
9.365                0.880666503     -161.380187
9.366                0.880549146     -161.686749
9.367                 0.88043319     -161.993591
9.368                0.880318641     -162.300708
9.369                0.880205507     -162.608096
9.37                 0.880093798     -162.915751
9.371                0.879983521      -163.22367
9.372                0.879874684     -163.531848
9.373                0.879767295     -163.840282
9.374                0.879661361     -164.148966
9.375                 0.87955689     -164.457898
9.376                 0.87945389     -164.767072
9.377                0.879352368     -165.076484
9.378                0.879252331     -165.386132
9.379                0.879153787     -165.696009
9.38                 0.879056743     -166.006112
9.381                0.878961205     -166.316437
9.382                0.878867181      -166.62698
9.383                0.878774677     -166.937736
9.384                  0.8786837       -167.2487
9.385                0.878594257     -167.559869
9.386                0.878506354     -167.871238
9.387                0.878419998     -168.182803
9.388                0.878335194     -168.494559
9.389                0.878251949     -168.806503
9.39                 0.878170269     -169.118628
9.391                 0.87809016     -169.430932
9.392                0.878011627      -169.74341
9.393                0.877934676     -170.056057
9.394                0.877859313     -170.368869
9.395                0.877785543     -170.681841
9.396                0.877713372     -170.994968
