! TOUCHSTONE file generated by CST DESIGN STUDIO
! Date and time: Tue Feb  4 18:10:17 2025
! Project name: C:\Work\MatlabApps\UnitCellOptimizationMatlab\CST\unitcell.cst
! Tree item: Tasks\Sweep1\SPara1\S-Parameters
! Header version: 2024
! Port assignment regex: !\s*Touchstone port\s*([0-9]+)\s*=\s*(CST MWS port|CST DES external port|CST DES block port)\s*(.+)\s* \(\"(.*)\"\)(\s*mode\s*([0-9]+))?.*
! Touchstone port assignment:
! Touchstone port 1 = CST DES external port 1 ("")
# GHz S MA R 50
9                    0.954785392     -68.8967351
9.001                0.954676926     -68.9992111
9.002                0.954568118     -69.1019435
9.003                0.954458967     -69.2049332
9.004                0.954349471     -69.3081809
9.005                0.954239631     -69.4116875
9.006                0.954129445     -69.5154539
9.007                0.954018912     -69.6194808
9.008                0.953908031     -69.7237692
9.009                0.953796801     -69.8283197
9.01                  0.95368522     -69.9331334
9.011                0.953573288      -70.038211
9.012                0.953461004     -70.1435535
9.013                0.953348367     -70.2491615
9.014                0.953235375     -70.3550361
9.015                0.953122028      -70.461178
9.016                0.953008324     -70.5675882
9.017                0.952894263     -70.6742674
9.018                0.952779843     -70.7812166
9.019                0.952665063     -70.8884366
9.02                 0.952549923     -70.9959283
9.021                0.952434421     -71.1036925
9.022                0.952318557     -71.2117302
9.023                0.952202328     -71.3200422
9.024                0.952085735     -71.4286294
9.025                0.951968776     -71.5374928
9.026                0.951851449     -71.6466331
9.027                0.951733755     -71.7560512
9.028                0.951615692     -71.8657481
9.029                0.951497259     -71.9757247
9.03                 0.951378454     -72.0859818
9.031                0.951259278     -72.1965204
9.032                0.951139728     -72.3073414
9.033                0.951019804     -72.4184456
9.034                0.950899505      -72.529834
9.035                0.950778829     -72.6415075
9.036                0.950657776      -72.753467
9.037                0.950536345     -72.8657134
9.038                0.950414534     -72.9782476
9.039                0.950292342     -73.0910707
9.04                  0.95016977     -73.2041834
9.041                0.950046814     -73.3175867
9.042                0.949923475     -73.4312816
9.043                0.949799752     -73.5452689
9.044                0.949675642     -73.6595497
9.045                0.949551146     -73.7741248
9.046                0.949426263     -73.8889952
9.047                0.949300991     -74.0041619
9.048                0.949175329     -74.1196258
9.049                0.949049276     -74.2353878
9.05                 0.948922831     -74.3514489
9.051                0.948795994       -74.46781
9.052                0.948668763     -74.5844722
9.053                0.948541137     -74.7014363
9.054                0.948413116     -74.8187033
9.055                0.948284697     -74.9362743
9.056                0.948155881     -75.0541501
9.057                0.948026666     -75.1723317
9.058                0.947897051     -75.2908201
9.059                0.947767035     -75.4096164
9.06                 0.947636618     -75.5287214
9.061                0.947505798     -75.6481361
9.062                0.947374574     -75.7678615
9.063                0.947242945     -75.8878987
9.064                 0.94711091     -76.0082486
9.065                0.946978469     -76.1289122
9.066                0.946845621     -76.2498904
9.067                0.946712363     -76.3711844
9.068                0.946578696      -76.492795
9.069                0.946444618     -76.6147234
9.07                 0.946310129     -76.7369704
9.071                0.946175228     -76.8595372
9.072                0.946039912     -76.9824246
9.073                0.945904183     -77.1056338
9.074                0.945768038     -77.2291657
9.075                0.945631477     -77.3530214
9.076                0.945494499     -77.4772018
9.077                0.945357103     -77.6017081
9.078                0.945219288     -77.7265412
9.079                0.945081052     -77.8517021
9.08                 0.944942396      -77.977192
9.081                0.944803319     -78.1030117
9.082                0.944663818     -78.2291624
9.083                0.944523894     -78.3556451
9.084                0.944383546     -78.4824609
9.085                0.944242772     -78.6096107
9.086                0.944101572     -78.7370956
9.087                0.943959945     -78.8649167
9.088                0.943817889     -78.9930751
9.089                0.943675405     -79.1215717
9.09                 0.943532492     -79.2504076
9.091                0.943389148     -79.3795839
9.092                0.943245372     -79.5091017
9.093                0.943101165      -79.638962
9.094                0.942956524     -79.7691658
9.095                0.942811449     -79.8997143
9.096                 0.94266594     -80.0306085
9.097                0.942519995     -80.1618494
9.098                0.942373614     -80.2934382
9.099                0.942226796      -80.425376
9.1                   0.94207954     -80.5576637
9.101                0.941931845     -80.6903026
9.102                0.941783711     -80.8232936
9.103                0.941635137     -80.9566379
9.104                0.941486122     -81.0903365
9.105                0.941336665     -81.2243905
9.106                0.941186766     -81.3588011
9.107                0.941036424     -81.4935693
9.108                0.940885637     -81.6286962
9.109                0.940734406     -81.7641829
9.11                  0.94058273     -81.9000305
9.111                0.940430608     -82.0362401
9.112                0.940278039     -82.1728129
9.113                0.940125023     -82.3097498
9.114                0.939971559     -82.4470521
9.115                0.939817647     -82.5847209
9.116                0.939663285     -82.7227572
9.117                0.939508473     -82.8611622
9.118                 0.93935321     -82.9999369
9.119                0.939197497     -83.1390826
9.12                 0.939041331     -83.2786002
9.121                0.938884713     -83.4184911
9.122                0.938727643     -83.5587562
9.123                0.938570118     -83.6993966
9.124                 0.93841214     -83.8404136
9.125                0.938253707     -83.9818083
9.126                0.938094819     -84.1235817
9.127                0.937935476     -84.2657351
9.128                0.937775676     -84.4082694
9.129                0.937615419      -84.551186
9.13                 0.937454706     -84.6944859
9.131                0.937293535     -84.8381702
9.132                0.937131905     -84.9822402
9.133                0.936969818     -85.1266969
9.134                0.936807271     -85.2715414
9.135                0.936644265      -85.416775
9.136                0.936480799     -85.5623988
9.137                0.936316873     -85.7084139
9.138                0.936152486     -85.8548214
9.139                0.935987639     -86.0016226
9.14                  0.93582233     -86.1488186
9.141                 0.93565656     -86.2964105
9.142                0.935490328     -86.4443994
9.143                0.935323634     -86.5927866
9.144                0.935156477     -86.7415732
9.145                0.934988858     -86.8907604
9.146                0.934820775     -87.0403493
9.147                 0.93465223      -87.190341
9.148                0.934483221     -87.3407368
9.149                0.934313748     -87.4915378
9.15                 0.934143812     -87.6427451
9.151                0.933973411       -87.79436
9.152                0.933802547     -87.9463835
9.153                0.933631218     -88.0988169
9.154                0.933459425     -88.2516613
9.155                0.933287167      -88.404918
9.156                0.933114445     -88.5585879
9.157                0.932941259     -88.7126724
9.158                0.932767607     -88.8671726
9.159                0.932593491     -89.0220897
9.16                 0.932418911     -89.1774248
9.161                0.932243866     -89.3331791
9.162                0.932068356     -89.4893538
9.163                0.931892382     -89.6459501
9.164                0.931715943      -89.802969
9.165                 0.93153904     -89.9604119
9.166                0.931361673     -90.1182799
9.167                0.931183841     -90.2765741
9.168                0.931005546     -90.4352957
9.169                0.930826787     -90.5944459
9.17                 0.930647565     -90.7540258
9.171                0.930467879     -90.9140368
9.172                 0.93028773     -91.0744798
9.173                0.930107119     -91.2353561
9.174                0.929926045     -91.3966669
9.175                0.929744509     -91.5584133
9.176                0.929562512     -91.7205965
9.177                0.929380053     -91.8832177
9.178                0.929197133      -92.046278
9.179                0.929013752     -92.2097787
9.18                 0.928829912     -92.3737209
9.181                0.928645611     -92.5381057
9.182                0.928460852     -92.7029344
9.183                0.928275634      -92.868208
9.184                0.928089958     -93.0339279
9.185                0.927903825     -93.2000951
9.186                0.927717235     -93.3667108
9.187                0.927530188     -93.5337762
9.188                0.927342686     -93.7012924
9.189                 0.92715473     -93.8692607
9.19                 0.926966319     -94.0376821
9.191                0.926777455     -94.2065578
9.192                0.926588138     -94.3758891
9.193                0.926398369      -94.545677
9.194                0.926208149     -94.7159227
9.195                 0.92601748     -94.8866273
9.196                0.925826361     -95.0577921
9.197                0.925634794     -95.2294182
9.198                0.925442779     -95.4015067
9.199                0.925250318     -95.5740588
9.2                  0.925057412     -95.7470756
9.201                0.924864062     -95.9205583
9.202                0.924670268      -96.094508
9.203                0.924476032     -96.2689258
9.204                0.924281356      -96.443813
9.205                 0.92408624     -96.6191706
9.206                0.923890685     -96.7949998
9.207                0.923694693     -96.9713016
9.208                0.923498265     -97.1480773
9.209                0.923301402      -97.325328
9.21                 0.923104106     -97.5030548
9.211                0.922906378     -97.6812588
9.212                 0.92270822     -97.8599411
9.213                0.922509632     -98.0391029
9.214                0.922310617     -98.2187452
9.215                0.922111177     -98.3988693
9.216                0.921911311     -98.5794761
9.217                0.921711023     -98.7605668
9.218                0.921510314     -98.9421425
9.219                0.921309185     -99.1242042
9.22                 0.921107638     -99.3067532
9.221                0.920905675     -99.4897904
9.222                0.920703299      -99.673317
9.223                0.920500509     -99.8573341
9.224                 0.92029731     -100.041843
9.225                0.920093701     -100.226844
9.226                0.919889687     -100.412339
9.227                0.919685267     -100.598328
9.228                0.919480445     -100.784814
9.229                0.919275223     -100.971796
9.23                 0.919069602     -101.159276
9.231                0.918863585     -101.347255
9.232                0.918657174     -101.535734
9.233                0.918450371     -101.724714
9.234                0.918243179     -101.914197
9.235                  0.9180356     -102.104182
9.236                0.917827636     -102.294671
9.237                0.917619289     -102.485666
9.238                0.917410564     -102.677167
9.239                 0.91720146     -102.869175
9.24                 0.916991983     -103.061691
9.241                0.916782133     -103.254716
9.242                0.916571913     -103.448252
9.243                0.916361327     -103.642298
9.244                0.916150377     -103.836857
9.245                0.915939066     -104.031929
9.246                0.915727397     -104.227515
9.247                0.915515372     -104.423616
9.248                0.915302995     -104.620233
9.249                0.915090268     -104.817367
9.25                 0.914877195     -105.015018
9.251                0.914663779     -105.213189
9.252                0.914450022     -105.411879
9.253                0.914235928      -105.61109
9.254                0.914021501     -105.810822
9.255                0.913806743     -106.011077
9.256                0.913591659     -106.211855
9.257                 0.91337625     -106.413158
9.258                0.913160522     -106.614985
9.259                0.912944476     -106.817339
9.26                 0.912728118     -107.020219
9.261                 0.91251145     -107.223627
9.262                0.912294476     -107.427564
9.263                  0.9120772      -107.63203
9.264                0.911859625     -107.837026
9.265                0.911641756     -108.042554
9.266                0.911423596     -108.248613
9.267                 0.91120515     -108.455205
9.268                0.910986421      -108.66233
9.269                0.910767413     -108.869989
9.27                  0.91054813     -109.078184
9.271                0.910328578     -109.286914
9.272                0.910108758     -109.496181
9.273                0.909888677     -109.705985
9.274                0.909668339     -109.916327
9.275                0.909447747     -110.127208
9.276                0.909226906     -110.338628
9.277                0.909005822     -110.550589
9.278                0.908784497      -110.76309
9.279                0.908562938     -110.976133
9.28                 0.908341148     -111.189718
9.281                0.908119132     -111.403845
9.282                0.907896896     -111.618517
9.283                0.907674443     -111.833732
9.284                 0.90745178     -112.049492
9.285                0.907228911     -112.265798
9.286                 0.90700584      -112.48265
9.287                0.906782574     -112.700048
9.288                0.906559117     -112.917993
9.289                0.906335474     -113.136486
9.29                 0.906111651     -113.355527
9.291                0.905887654     -113.575117
9.292                0.905663487     -113.795256
9.293                0.905439156     -114.015945
9.294                0.905214666     -114.237185
9.295                0.904990024     -114.458975
9.296                0.904765234     -114.681316
9.297                0.904540303      -114.90421
9.298                0.904315237     -115.127655
9.299                 0.90409004     -115.351653
9.3                   0.90386472     -115.576204
9.301                0.903639282     -115.801308
9.302                0.903413731     -116.026967
9.303                0.903188076     -116.253179
9.304                 0.90296232     -116.479946
9.305                0.902736472     -116.707268
9.306                0.902510536     -116.935145
9.307                0.902284519     -117.163577
9.308                0.902058429     -117.392565
9.309                 0.90183227      -117.62211
9.31                 0.901606051      -117.85221
9.311                0.901379777     -118.082867
9.312                0.901153455     -118.314081
9.313                0.900927091     -118.545852
9.314                0.900700694     -118.778181
9.315                0.900474269     -119.011066
9.316                0.900247824     -119.244509
9.317                0.900021365      -119.47851
9.318                  0.8997949     -119.713068
9.319                0.899568436     -119.948185
9.32                  0.89934198     -120.183859
9.321                0.899115539     -120.420092
9.322                0.898889121     -120.656883
9.323                0.898662732     -120.894231
9.324                0.898436382     -121.132138
9.325                0.898210076     -121.370603
9.326                0.897983823     -121.609627
9.327                 0.89775763     -121.849208
9.328                0.897531506     -122.089347
9.329                0.897305457     -122.330045
9.33                 0.897079492       -122.5713
9.331                0.896853618     -122.813113
9.332                0.896627844     -123.055483
9.333                0.896402178     -123.298411
9.334                0.896176627     -123.541896
9.335                0.895951201     -123.785938
9.336                0.895725906     -124.030537
9.337                0.895500753     -124.275693
9.338                0.895275748     -124.521404
9.339                  0.8950509     -124.767672
9.34                 0.894826218     -125.014496
9.341                0.894601711     -125.261875
9.342                0.894377386     -125.509809
9.343                0.894153253     -125.758297
9.344                0.893929321      -126.00734
9.345                0.893705598     -126.256937
9.346                0.893482092     -126.507087
9.347                0.893258814     -126.757789
9.348                0.893035772     -127.009045
9.349                0.892812975     -127.260852
9.35                 0.892590431      -127.51321
9.351                0.892368152      -127.76612
9.352                0.892146144     -128.019579
9.353                0.891924419     -128.273589
9.354                0.891702984     -128.528147
9.355                 0.89148185     -128.783254
9.356                0.891261026     -129.038908
9.357                0.891040521     -129.295109
9.358                0.890820345     -129.551856
9.359                0.890600508     -129.809149
9.36                 0.890381019     -130.066987
9.361                0.890161889     -130.325368
9.362                0.889943125     -130.584292
9.363                 0.88972474     -130.843759
9.364                0.889506742     -131.103767
9.365                0.889289141     -131.364315
9.366                0.889071948     -131.625403
9.367                0.888855172     -131.887029
9.368                0.888638824     -132.149193
9.369                0.888422913     -132.411893
9.37                  0.88820745     -132.675129
9.371                0.887992445     -132.938899
9.372                0.887777908     -133.203203
9.373                 0.88756385     -133.468039
9.374                0.887350281     -133.733405
9.375                0.887137211     -133.999302
9.376                0.886924651     -134.265727
9.377                0.886712611      -134.53268
9.378                0.886501102     -134.800158
9.379                0.886290134     -135.068162
9.38                 0.886079718     -135.336689
9.381                0.885869865     -135.605739
9.382                0.885660586     -135.875309
9.383                 0.88545189     -136.145399
9.384                0.885243789     -136.416007
9.385                0.885036294     -136.687131
9.386                0.884829415     -136.958771
9.387                0.884623163     -137.230924
9.388                 0.88441755     -137.503589
9.389                0.884212585     -137.776764
9.39                 0.884008281     -138.050449
9.391                0.883804648      -138.32464
9.392                0.883601696     -138.599337
9.393                0.883399438     -138.874538
9.394                0.883197884     -139.150242
9.395                0.882997045     -139.426445
9.396                0.882796932     -139.703147
