! TOUCHSTONE file generated by CST DESIGN STUDIO
! Date and time: Tue Feb  4 12:51:35 2025
! Project name: C:\Work\MatlabApps\UnitCellOptimizationMatlab\CST\unitcell.cst
! Tree item: Tasks\Sweep1\SPara1\S-Parameters
! Header version: 2024
! Port assignment regex: !\s*Touchstone port\s*([0-9]+)\s*=\s*(CST MWS port|CST DES external port|CST DES block port)\s*(.+)\s* \(\"(.*)\"\)(\s*mode\s*([0-9]+))?.*
! Touchstone port assignment:
! Touchstone port 1 = CST DES external port 1 ("")
# GHz S MA R 50
9                    0.969145199     -75.0073746
9.001                0.969046594     -75.1355696
9.002                0.968947154     -75.2641137
9.003                0.968846876     -75.3930079
9.004                0.968745757     -75.5222531
9.005                0.968643795     -75.6518506
9.006                0.968540987     -75.7818012
9.007                0.968437331     -75.9121061
9.008                0.968332824     -76.0427663
9.009                0.968227462     -76.1737827
9.01                 0.968121244     -76.3051566
9.011                0.968014167     -76.4368888
9.012                0.967906228     -76.5689805
9.013                0.967797424     -76.7014328
9.014                0.967687754     -76.8342466
9.015                0.967577214     -76.9674231
9.016                0.967465802     -77.1009632
9.017                0.967353515     -77.2348681
9.018                0.967240351     -77.3691388
9.019                0.967126307     -77.5037765
9.02                 0.967011381     -77.6387821
9.021                 0.96689557     -77.7741567
9.022                0.966778872     -77.9099014
9.023                0.966661284     -78.0460173
9.024                0.966542804     -78.1825055
9.025                 0.96642343     -78.3193671
9.026                0.966303159      -78.456603
9.027                0.966181988     -78.5942145
9.028                0.966059916     -78.7322026
9.029                0.965936939     -78.8705684
9.03                 0.965813056     -79.0093131
9.031                0.965688265     -79.1484376
9.032                0.965562562     -79.2879431
9.033                0.965435947     -79.4278306
9.034                0.965308415     -79.5681014
9.035                0.965179966     -79.7087565
9.036                0.965050597      -79.849797
9.037                0.964920306      -79.991224
9.038                 0.96478909     -80.1330387
9.039                0.964656948     -80.2752421
9.04                 0.964523877     -80.4178353
9.041                0.964389875     -80.5608195
9.042                 0.96425494     -80.7041959
9.043                0.964119071     -80.8479654
9.044                0.963982264     -80.9921293
9.045                0.963844518     -81.1366887
9.046                0.963705832     -81.2816446
9.047                0.963566202     -81.4269983
9.048                0.963425627     -81.5727509
9.049                0.963284105     -81.7189035
9.05                 0.963141635     -81.8654572
9.051                0.962998214     -82.0124132
9.052                 0.96285384     -82.1597725
9.053                0.962708512     -82.3075365
9.054                0.962562227     -82.4557061
9.055                0.962414985     -82.6042827
9.056                0.962266782     -82.7532671
9.057                0.962117619     -82.9026608
9.058                0.961967492     -83.0524647
9.059                  0.9618164     -83.2026801
9.06                 0.961664341     -83.3533081
9.061                0.961511315     -83.5043499
9.062                0.961357318     -83.6558066
9.063                0.961202351     -83.8076794
9.064                 0.96104641     -83.9599694
9.065                0.960889495     -84.1126778
9.066                0.960731605     -84.2658058
9.067                0.960572737     -84.4193546
9.068                 0.96041289     -84.5733252
9.069                0.960252063     -84.7277189
9.07                 0.960090255     -84.8825369
9.071                0.959927464     -85.0377803
9.072                0.959763689     -85.1934503
9.073                0.959598929     -85.3495481
9.074                0.959433182     -85.5060748
9.075                0.959266447     -85.6630316
9.076                0.959098724     -85.8204198
9.077                 0.95893001     -85.9782404
9.078                0.958760306     -86.1364947
9.079                0.958589609     -86.2951838
9.08                 0.958417919      -86.454309
9.081                0.958245235     -86.6138714
9.082                0.958071556     -86.7738722
9.083                0.957896881     -86.9343126
9.084                0.957721209     -87.0951938
9.085                0.957544539     -87.2565169
9.086                 0.95736687     -87.4182832
9.087                0.957188203     -87.5804939
9.088                0.957008535     -87.7431501
9.089                0.956827867      -87.906253
9.09                 0.956646197     -88.0698039
9.091                0.956463525     -88.2338039
9.092                0.956279851     -88.3982542
9.093                0.956095174      -88.563156
9.094                0.955909493     -88.7285105
9.095                0.955722808     -88.8943189
9.096                0.955535119     -89.0605824
9.097                0.955346425     -89.2273022
9.098                0.955156727     -89.3944795
9.099                0.954966022     -89.5621155
9.1                  0.954774313     -89.7302114
9.101                0.954581597     -89.8987684
9.102                0.954387876     -90.0677876
9.103                0.954193149     -90.2372704
9.104                0.953997416     -90.4072178
9.105                0.953800676     -90.5776311
9.106                0.953602931     -90.7485115
9.107                 0.95340418     -90.9198601
9.108                0.953204423     -91.0916782
9.109                0.953003661      -91.263967
9.11                 0.952801894     -91.4367277
9.111                0.952599121     -91.6099614
9.112                0.952395344     -91.7836694
9.113                0.952190562     -91.9578529
9.114                0.951984777      -92.132513
9.115                0.951777988      -92.307651
9.116                0.951570197      -92.483268
9.117                0.951361403     -92.6593652
9.118                0.951151608     -92.8359439
9.119                0.950940811     -93.0130052
9.12                 0.950729015     -93.1905503
9.121                0.950516219     -93.3685804
9.122                0.950302425     -93.5470967
9.123                0.950087633     -93.7261004
9.124                0.949871845     -93.9055926
9.125                0.949655061     -94.0855746
9.126                0.949437282     -94.2660476
9.127                0.949218511     -94.4470126
9.128                0.948998747      -94.628471
9.129                0.948777992     -94.8104238
9.13                 0.948556247     -94.9928723
9.131                0.948333514     -95.1758176
9.132                0.948109795      -95.359261
9.133                 0.94788509     -95.5432035
9.134                0.947659401     -95.7276463
9.135                0.947432731     -95.9125907
9.136                0.947205079     -96.0980377
9.137                 0.94697645     -96.2839886
9.138                0.946746843     -96.4704445
9.139                0.946516261     -96.6574066
9.14                 0.946284706      -96.844876
9.141                0.946052179     -97.0328538
9.142                0.945818684     -97.2213413
9.143                0.945584222     -97.4103396
9.144                0.945348795     -97.5998498
9.145                0.945112405      -97.789873
9.146                0.944875055     -97.9804104
9.147                0.944636748     -98.1714632
9.148                0.944397485     -98.3630325
9.149                0.944157269     -98.5551193
9.15                 0.943916103     -98.7477249
9.151                0.943673989     -98.9408503
9.152                 0.94343093     -99.1344967
9.153                 0.94318693     -99.3286652
9.154                 0.94294199     -99.5233569
9.155                0.942696114     -99.7185728
9.156                0.942449305     -99.9143142
9.157                0.942201566     -100.110582
9.158                  0.9419529     -100.307378
9.159                 0.94170331     -100.504702
9.16                   0.9414528     -100.702556
9.161                0.941201373      -100.90094
9.162                0.940949032     -101.099857
9.163                0.940695781     -101.299307
9.164                0.940441624     -101.499291
9.165                0.940186565      -101.69981
9.166                0.939930606     -101.900865
9.167                0.939673753     -102.102457
9.168                0.939416008     -102.304588
9.169                0.939157377     -102.507258
9.17                 0.938897862     -102.710468
9.171                0.938637469      -102.91422
9.172                0.938376201     -103.118514
9.173                0.938114063     -103.323351
9.174                0.937851059     -103.528733
9.175                0.937587194      -103.73466
9.176                0.937322472     -103.941134
9.177                0.937056898     -104.148155
9.178                0.936790477     -104.355725
9.179                0.936523214     -104.563844
9.18                 0.936255113     -104.772513
9.181                 0.93598618     -104.981734
9.182                0.935716419     -105.191507
9.183                0.935445836     -105.401833
9.184                0.935174436     -105.612713
9.185                0.934902224     -105.824148
9.186                0.934629206      -106.03614
9.187                0.934355388     -106.248688
9.188                0.934080775     -106.461794
9.189                0.933805372     -106.675459
9.19                 0.933529186     -106.889683
9.191                0.933252222     -107.104468
9.192                0.932974487     -107.319815
9.193                0.932695987     -107.535723
9.194                0.932416727     -107.752195
9.195                0.932136713     -107.969231
9.196                0.931855954     -108.186831
9.197                0.931574454     -108.404997
9.198                 0.93129222     -108.623729
9.199                0.931009259     -108.843029
9.2                  0.930725578     -109.062897
9.201                0.930441183     -109.283333
9.202                0.930156082     -109.504339
9.203                0.929870281     -109.725916
9.204                0.929583787     -109.948063
9.205                0.929296608     -110.170783
9.206                0.929008752     -110.394075
9.207                0.928720225      -110.61794
9.208                0.928431034      -110.84238
9.209                0.928141189     -111.067394
9.21                 0.927850695     -111.292983
9.211                0.927559562     -111.519149
9.212                0.927267796     -111.745891
9.213                0.926975407     -111.973211
9.214                0.926682401     -112.201109
9.215                0.926388788     -112.429585
9.216                0.926094575     -112.658641
9.217                0.925799771     -112.888276
9.218                0.925504385     -113.118493
9.219                0.925208425      -113.34929
9.22                 0.924911899     -113.580668
9.221                0.924614817     -113.812629
9.222                0.924317188     -114.045173
9.223                0.924019019     -114.278299
9.224                0.923720322      -114.51201
9.225                0.923421104     -114.746304
9.226                0.923121375     -114.981183
9.227                0.922821145     -115.216648
9.228                0.922520423     -115.452698
9.229                0.922219218     -115.689333
9.23                 0.921917541     -115.926556
9.231                0.921615401     -116.164365
9.232                0.921312809     -116.402761
9.233                0.921009773     -116.641745
9.234                0.920706305     -116.881316
9.235                0.920402414     -117.121476
9.236                0.920098112     -117.362225
9.237                0.919793408     -117.603562
9.238                0.919488312     -117.845488
9.239                0.919182837     -118.088004
9.24                 0.918876991     -118.331109
9.241                0.918570787     -118.574804
9.242                0.918264235     -118.819089
9.243                0.917957347     -119.063965
9.244                0.917650133     -119.309431
9.245                0.917342605     -119.555487
9.246                0.917034774     -119.802134
9.247                0.916726652     -120.049372
9.248                 0.91641825     -120.297201
9.249                 0.91610958     -120.545621
9.25                 0.915800654     -120.794632
9.251                0.915491483     -121.044234
9.252                 0.91518208     -121.294427
9.253                0.914872457     -121.545211
9.254                0.914562627     -121.796586
9.255                  0.9142526     -122.048553
9.256                 0.91394239      -122.30111
9.257                 0.91363201     -122.554258
9.258                0.913321472     -122.807997
9.259                0.913010788     -123.062327
9.26                 0.912699972     -123.317247
9.261                0.912389036     -123.572757
9.262                0.912077994     -123.828858
9.263                0.911766858     -124.085549
9.264                0.911455642     -124.342829
9.265                0.911144359     -124.600698
9.266                0.910833023     -124.859157
9.267                0.910521647     -125.118205
9.268                0.910210244     -125.377841
9.269                0.909898829     -125.638065
9.27                 0.909587415     -125.898876
9.271                0.909276016     -126.160276
9.272                0.908964647     -126.422262
9.273                 0.90865332     -126.684834
9.274                0.908342051     -126.947993
9.275                0.908030854     -127.211737
9.276                0.907719742     -127.476065
9.277                0.907408731     -127.740979
9.278                0.907097836     -128.006476
9.279                 0.90678707     -128.272556
9.28                 0.906476448     -128.539219
9.281                0.906165986     -128.806463
9.282                0.905855697     -129.074289
9.283                0.905545598     -129.342695
9.284                0.905235704     -129.611681
9.285                0.904926028     -129.881246
9.286                0.904616588      -130.15139
9.287                0.904307397      -130.42211
9.288                0.903998472     -130.693407
9.289                0.903689827      -130.96528
9.29                 0.903381479     -131.237727
9.291                0.903073443     -131.510748
9.292                0.902765735     -131.784342
9.293                0.902458371     -132.058508
9.294                0.902151366     -132.333245
9.295                0.901844737     -132.608551
9.296                0.901538499     -132.884426
9.297                0.901232669     -133.160869
9.298                0.900927262     -133.437878
9.299                0.900622296     -133.715452
9.3                  0.900317786     -133.993591
9.301                0.900013749     -134.272292
9.302                  0.8997102     -134.551555
9.303                0.899407158     -134.831378
9.304                0.899104637      -135.11176
9.305                0.898802656       -135.3927
9.306                 0.89850123     -135.674196
9.307                0.898200376     -135.956246
9.308                0.897900111      -136.23885
9.309                0.897600452     -136.522006
9.31                 0.897301416     -136.805712
9.311                0.897003019     -137.089968
9.312                 0.89670528      -137.37477
9.313                0.896408214     -137.660118
9.314                0.896111839      -137.94601
9.315                0.895816172     -138.232444
9.316                 0.89552123      -138.51942
9.317                0.895227031     -138.806934
9.318                0.894933592     -139.094985
9.319                0.894640929     -139.383571
9.32                 0.894349061     -139.672691
9.321                0.894058004     -139.962343
9.322                0.893767777     -140.252524
9.323                0.893478397     -140.543233
9.324                 0.89318988     -140.834468
9.325                0.892902245     -141.126227
9.326                0.892615509     -141.418507
9.327                0.892329689     -141.711308
9.328                0.892044804     -142.004626
9.329                 0.89176087     -142.298459
9.33                 0.891477906     -142.592806
9.331                0.891195928     -142.887664
9.332                0.890914956      -143.18303
9.333                0.890635005     -143.478904
9.334                0.890356094     -143.775281
9.335                 0.89007824     -144.072161
9.336                0.889801462      -144.36954
9.337                0.889525776     -144.667416
9.338                  0.8892512     -144.965787
9.339                0.888977753      -145.26465
9.34                 0.888705451     -145.564003
9.341                0.888434312     -145.863843
9.342                0.888164354     -146.164168
9.343                0.887895595     -146.464974
9.344                0.887628051      -146.76626
9.345                0.887361741     -147.068022
9.346                0.887096683     -147.370259
9.347                0.886832892     -147.672966
9.348                0.886570388     -147.976142
9.349                0.886309188     -148.279783
9.35                 0.886049308     -148.583887
9.351                0.885790767      -148.88845
9.352                0.885533582      -149.19347
9.353                 0.88527777     -149.498944
9.354                0.885023348     -149.804869
9.355                0.884770333     -150.111242
9.356                0.884518744     -150.418059
9.357                0.884268597     -150.725318
9.358                0.884019908     -151.033015
9.359                0.883772696     -151.341148
9.36                 0.883526977     -151.649712
9.361                0.883282768     -151.958706
9.362                0.883040086     -152.268124
9.363                0.882798948     -152.577965
9.364                 0.88255937     -152.888225
9.365                0.882321369     -153.198901
9.366                0.882084962     -153.509988
9.367                0.881850166     -153.821484
9.368                0.881616996     -154.133385
9.369                0.881385469     -154.445688
9.37                 0.881155601     -154.758388
9.371                0.880927409     -155.071484
9.372                0.880700909     -155.384969
9.373                0.880476117     -155.698843
9.374                0.880253048     -156.013099
9.375                0.880031718     -156.327736
9.376                0.879812144     -156.642748
9.377                0.879594341     -156.958133
9.378                0.879378324     -157.273886
9.379                0.879164109     -157.590003
9.38                 0.878951711     -157.906481
9.381                0.878741145     -158.223316
9.382                0.878532427     -158.540504
9.383                0.878325571     -158.858041
9.384                0.878120592     -159.175923
9.385                0.877917506     -159.494145
9.386                0.877716326     -159.812704
9.387                0.877517067     -160.131596
9.388                0.877319743     -160.450817
9.389                0.877124369     -160.770362
9.39                 0.876930959     -161.090227
9.391                0.876739526     -161.410408
9.392                0.876550085       -161.7309
9.393                0.876362649     -162.051701
9.394                0.876177231     -162.372804
9.395                0.875993846     -162.694206
9.396                0.875812506     -163.015903
