! TOUCHSTONE file generated by CST DESIGN STUDIO
! Date and time: Tue Feb  4 12:51:28 2025
! Project name: C:\Work\MatlabApps\UnitCellOptimizationMatlab\CST\unitcell.cst
! Tree item: Tasks\Sweep1\SPara1\S-Parameters
! Header version: 2024
! Port assignment regex: !\s*Touchstone port\s*([0-9]+)\s*=\s*(CST MWS port|CST DES external port|CST DES block port)\s*(.+)\s* \(\"(.*)\"\)(\s*mode\s*([0-9]+))?.*
! Touchstone port assignment:
! Touchstone port 1 = CST DES external port 1 ("")
# GHz S MA R 50
9                    0.957063566     -97.5229968
9.001                0.956949485     -97.7198176
9.002                0.956834317     -97.9172255
9.003                0.956718056     -98.1152218
9.004                  0.9566007     -98.3138077
9.005                0.956482244     -98.5129845
9.006                0.956362683     -98.7127535
9.007                0.956242013      -98.913116
9.008                0.956120231     -99.1140731
9.009                0.955997332     -99.3156262
9.01                 0.955873312     -99.5177764
9.011                0.955748168      -99.720525
9.012                0.955621895     -99.9238732
9.013                 0.95549449     -100.127822
9.014                0.955365948     -100.332373
9.015                0.955236267     -100.537528
9.016                0.955105442     -100.743286
9.017                 0.95497347      -100.94965
9.018                0.954840347     -101.156621
9.019                 0.95470607       -101.3642
9.02                 0.954570635     -101.572388
9.021                0.954434039     -101.781186
9.022                0.954296279     -101.990596
9.023                0.954157351     -102.200618
9.024                0.954017252     -102.411253
9.025                 0.95387598     -102.622503
9.026                 0.95373353     -102.834369
9.027                  0.9535899     -103.046851
9.028                0.953445087     -103.259952
9.029                0.953299088     -103.473671
9.03                 0.953151901     -103.688011
9.031                0.953003522     -103.902971
9.032                0.952853949     -104.118554
9.033                 0.95270318      -104.33476
9.034                0.952551211     -104.551589
9.035                0.952398041     -104.769044
9.036                0.952243667     -104.987125
9.037                0.952088088     -105.205833
9.038                0.951931299     -105.425169
9.039                0.951773301     -105.645134
9.04                  0.95161409     -105.865728
9.041                0.951453665     -106.086954
9.042                0.951292024     -106.308811
9.043                0.951129164     -106.531301
9.044                0.950965085     -106.754424
9.045                0.950799785     -106.978181
9.046                0.950633263     -107.202574
9.047                0.950465516     -107.427603
9.048                0.950296544     -107.653268
9.049                0.950126345     -107.879571
9.05                 0.949954919     -108.106513
9.051                0.949782263     -108.334093
9.052                0.949608379     -108.562314
9.053                0.949433263     -108.791175
9.054                0.949256917     -109.020678
9.055                0.949079339     -109.250823
9.056                0.948900528     -109.481611
9.057                0.948720485     -109.713042
9.058                0.948539208     -109.945118
9.059                0.948356699     -110.177838
9.06                 0.948172956     -110.411204
9.061                0.947987979     -110.645216
9.062                 0.94780177     -110.879875
9.063                0.947614328     -111.115181
9.064                0.947425653     -111.351135
9.065                0.947235745     -111.587737
9.066                0.947044607     -111.824988
9.067                0.946852237     -112.062889
9.068                0.946658638      -112.30144
9.069                0.946463809     -112.540641
9.07                 0.946267752     -112.780493
9.071                0.946070469     -113.020996
9.072                 0.94587196     -113.262151
9.073                0.945672227     -113.503958
9.074                0.945471271     -113.746417
9.075                0.945269095     -113.989529
9.076                0.945065699     -114.233295
9.077                0.944861087     -114.477714
9.078                0.944655259     -114.722787
9.079                0.944448219     -114.968514
9.08                 0.944239968     -115.214895
9.081                0.944030509      -115.46193
9.082                0.943819844     -115.709621
9.083                0.943607977     -115.957966
9.084                0.943394911     -116.206967
9.085                0.943180647     -116.456623
9.086                 0.94296519     -116.706934
9.087                0.942748543       -116.9579
9.088                0.942530709     -117.209523
9.089                0.942311691       -117.4618
9.09                 0.942091494     -117.714734
9.091                0.941870122     -117.968323
9.092                0.941647578     -118.222567
9.093                0.941423866     -118.477467
9.094                0.941198992     -118.733023
9.095                0.940972959     -118.989234
9.096                0.940745771       -119.2461
9.097                0.940517435     -119.503621
9.098                0.940287954     -119.761798
9.099                0.940057334     -120.020629
9.1                   0.93982558     -120.280114
9.101                0.939592698     -120.540254
9.102                0.939358693     -120.801048
9.103                 0.93912357     -121.062496
9.104                0.938887336     -121.324597
9.105                0.938649996     -121.587351
9.106                0.938411557     -121.850757
9.107                0.938172025     -122.114816
9.108                0.937931407     -122.379527
9.109                0.937689709     -122.644889
9.11                 0.937446939     -122.910902
9.111                0.937203102     -123.177565
9.112                0.936958207     -123.444878
9.113                 0.93671226      -123.71284
9.114                0.936465269     -123.981451
9.115                0.936217242      -124.25071
9.116                0.935968187     -124.520616
9.117                0.935718111     -124.791168
9.118                0.935467024     -125.062366
9.119                0.935214932      -125.33421
9.12                 0.934961844     -125.606698
9.121                 0.93470777     -125.879829
9.122                0.934452718     -126.153603
9.123                0.934196697     -126.428018
9.124                0.933939717     -126.703075
9.125                0.933681786     -126.978771
9.126                0.933422914     -127.255106
9.127                0.933163111     -127.532079
9.128                0.932902387     -127.809689
9.129                0.932640751     -128.087935
9.13                 0.932378214     -128.366816
9.131                0.932114787      -128.64633
9.132                0.931850479     -128.926476
9.133                0.931585303     -129.207254
9.134                0.931319267     -129.488661
9.135                0.931052384     -129.770697
9.136                0.930784665     -130.053361
9.137                0.930516122     -130.336651
9.138                0.930246765     -130.620565
9.139                0.929976607     -130.905103
9.14                 0.929705659     -131.190262
9.141                0.929433934     -131.476042
9.142                0.929161443      -131.76244
9.143                  0.9288882     -132.049456
9.144                0.928614217     -132.337087
9.145                0.928339507     -132.625333
9.146                0.928064083     -132.914191
9.147                0.927787957      -133.20366
9.148                0.927511143     -133.493738
9.149                0.927233655     -133.784423
9.15                 0.926955507     -134.075713
9.151                0.926676711     -134.367608
9.152                0.926397282     -134.660104
9.153                0.926117235       -134.9532
9.154                0.925836583     -135.246894
9.155                 0.92555534     -135.541183
9.156                0.925273523     -135.836067
9.157                0.924991144     -136.131543
9.158                 0.92470822     -136.427608
9.159                0.924424765     -136.724261
9.16                 0.924140795       -137.0215
9.161                0.923856325     -137.319322
9.162                0.923571371     -137.617725
9.163                0.923285947     -137.916707
9.164                0.923000072     -138.216266
9.165                0.922713759     -138.516398
9.166                0.922427026     -138.817103
9.167                0.922139889     -139.118377
9.168                0.921852364     -139.420217
9.169                0.921564469     -139.722622
9.17                 0.921276219     -140.025589
9.171                0.920987632     -140.329115
9.172                0.920698725     -140.633198
9.173                0.920409515     -140.937835
9.174                0.920120019     -141.243023
9.175                0.919830256     -141.548759
9.176                0.919540242     -141.855042
9.177                0.919249995     -142.161867
9.178                0.918959534     -142.469233
9.179                0.918668876     -142.777136
9.18                 0.918378039     -143.085573
9.181                0.918087043     -143.394542
9.182                0.917795904     -143.704039
9.183                0.917504643     -144.014061
9.184                0.917213277     -144.324605
9.185                0.916921825     -144.635669
9.186                0.916630306     -144.947249
9.187                 0.91633874     -145.259341
9.188                0.916047144     -145.571943
9.189                 0.91575554     -145.885052
9.19                 0.915463945     -146.198663
9.191                 0.91517238     -146.512774
9.192                0.914880863     -146.827381
9.193                0.914589415     -147.142481
9.194                0.914298056      -147.45807
9.195                0.914006804     -147.774146
9.196                0.913715681     -148.090703
9.197                0.913424706      -148.40774
9.198                0.913133899     -148.725251
9.199                 0.91284328     -149.043234
9.2                   0.91255287     -149.361685
9.201                0.912262689       -149.6806
9.202                0.911972758     -149.999975
9.203                0.911683097     -150.319807
9.204                0.911393726     -150.640092
9.205                0.911104667     -150.960825
9.206                 0.91081594     -151.282003
9.207                0.910527565     -151.603622
9.208                0.910239564     -151.925678
9.209                0.909951957     -152.248167
9.21                 0.909664765     -152.571085
9.211                 0.90937801     -152.894428
9.212                0.909091712     -153.218192
9.213                0.908805892     -153.542372
9.214                0.908520572     -153.866964
9.215                0.908235773     -154.191964
9.216                0.907951515     -154.517368
9.217                 0.90766782     -154.843172
9.218                 0.90738471     -155.169371
9.219                0.907102204     -155.495961
9.22                 0.906820326     -155.822937
9.221                0.906539095     -156.150295
9.222                0.906258534     -156.478031
9.223                0.905978663     -156.806139
9.224                0.905699504     -157.134616
9.225                0.905421078     -157.463457
9.226                0.905143406     -157.792658
9.227                 0.90486651     -158.122212
9.228                 0.90459041     -158.452117
9.229                0.904315129     -158.782367
9.23                 0.904040687     -159.112958
9.231                0.903767106     -159.443885
9.232                0.903494407     -159.775142
9.233                 0.90322261     -160.106726
9.234                0.902951738     -160.438631
9.235                0.902681811     -160.770852
9.236                 0.90241285     -161.103386
9.237                0.902144876     -161.436225
9.238                 0.90187791     -161.769367
9.239                0.901611974     -162.102805
9.24                 0.901347087     -162.436534
9.241                0.901083271      -162.77055
9.242                0.900820547     -163.104848
9.243                0.900558934     -163.439422
9.244                0.900298455     -163.774268
9.245                0.900039128      -164.10938
9.246                0.899780976     -164.444752
9.247                0.899524017      -164.78038
9.248                0.899268273     -165.116259
9.249                0.899013763     -165.452384
9.25                 0.898760508     -165.788748
9.251                0.898508527     -166.125347
9.252                0.898257841     -166.462175
9.253                 0.89800847     -166.799228
9.254                0.897760432     -167.136499
9.255                0.897513749     -167.473983
9.256                0.897268438     -167.811675
9.257                 0.89702452      -168.14957
9.258                0.896782013     -168.487662
9.259                0.896540938     -168.825946
9.26                 0.896301312     -169.164415
9.261                0.896063155     -169.503066
9.262                0.895826485     -169.841891
9.263                0.895591321     -170.180886
9.264                0.895357682     -170.520045
9.265                0.895125586     -170.859362
9.266                0.894895051     -171.198833
9.267                0.894666094      -171.53845
9.268                0.894438735     -171.878209
9.269                 0.89421299     -172.218105
9.27                 0.893988876      -172.55813
9.271                0.893766413     -172.898281
9.272                0.893545616      -173.23855
9.273                0.893326502     -173.578933
9.274                 0.89310909     -173.919424
9.275                0.892893394     -174.260017
9.276                0.892679432     -174.600706
9.277                 0.89246722     -174.941486
9.278                0.892256775      -175.28235
9.279                0.892048112     -175.623294
9.28                 0.891841246     -175.964311
9.281                0.891636194     -176.305396
9.282                0.891432971     -176.646543
9.283                0.891231593     -176.987746
9.284                0.891032073     -177.328999
9.285                0.890834427     -177.670298
9.286                 0.89063867     -178.011634
9.287                0.890444815     -178.353004
9.288                0.890252877     -178.694402
9.289                0.890062871      -179.03582
9.29                 0.889874809     -179.377255
9.291                0.889688705     -179.718699
9.292                0.889504573      179.939852
9.293                0.889322426      179.598405
9.294                0.889142276      179.256965
9.295                0.888964136      178.915539
9.296                0.888788018      178.574131
9.297                0.888613935      178.232749
9.298                0.888441899      177.891397
9.299                0.888271921      177.550081
9.3                  0.888104013      177.208807
9.301                0.887938186      176.867581
9.302                0.887774451      176.526409
9.303                0.887612819      176.185296
9.304                0.887453301      175.844249
9.305                0.887295906      175.503272
9.306                0.887140645      175.162372
9.307                0.886987527      174.821554
9.308                0.886836563      174.480824
9.309                0.886687761      174.140188
9.31                  0.88654113      173.799651
9.311                 0.88639668      173.459219
9.312                0.886254418      173.118899
9.313                0.886114354      172.778694
9.314                0.885976495      172.438612
9.315                 0.88584085      172.098658
9.316                0.885707425      171.758837
9.317                0.885576227      171.419155
9.318                0.885447265      171.079618
9.319                0.885320545      170.740231
9.32                 0.885196073         170.401
9.321                0.885073856       170.06193
9.322                  0.8849539      169.723026
9.323                 0.88483621      169.384296
9.324                0.884720792      169.045743
9.325                0.884607652      168.707373
9.326                0.884496794      168.369193
9.327                0.884388223      168.031206
9.328                0.884281944       167.69342
9.329                0.884177961      167.355838
9.33                 0.884076278      167.018467
9.331                0.883976898      166.681312
9.332                0.883879825      166.344378
9.333                0.883785063       166.00767
9.334                0.883692615      165.671194
9.335                0.883602482      165.334956
9.336                0.883514669      164.998959
9.337                0.883429176       164.66321
9.338                0.883346005      164.327714
9.339                 0.88326516      163.992476
9.34                  0.88318664      163.657501
9.341                0.883110448      163.322794
9.342                0.883036584      162.988361
9.343                0.882965049      162.654206
9.344                0.882895843      162.320334
9.345                0.882828967      161.986751
9.346                0.882764421      161.653461
9.347                0.882702205      161.320469
9.348                0.882642317      160.987781
9.349                0.882584757      160.655401
9.35                 0.882529525      160.323334
9.351                0.882476619      159.991585
9.352                0.882426038      159.660158
9.353                 0.88237778       159.32906
9.354                0.882331843      158.998293
9.355                0.882288224      158.667863
9.356                0.882246923      158.337775
9.357                0.882207935      158.008034
9.358                0.882171258      157.678643
9.359                 0.88213689      157.349608
9.36                 0.882104826      157.020933
9.361                0.882075064      156.692622
9.362                  0.8820476      156.364681
9.363                0.882022429      156.037113
9.364                0.881999548      155.709922
9.365                0.881978952      155.383115
9.366                0.881960636      155.056694
9.367                0.881944597      154.730663
9.368                0.881930828      154.405029
9.369                0.881919325      154.079793
9.37                 0.881910082      153.754962
9.371                0.881903094      153.430538
9.372                0.881898355      153.106526
9.373                0.881895859       152.78293
9.374                0.881895599      152.459755
9.375                 0.88189757      152.137003
9.376                0.881901764       151.81468
9.377                0.881908175      151.492789
9.378                0.881916797      151.171334
9.379                0.881927621      150.850319
9.38                  0.88194064      150.529747
9.381                0.881955848      150.209623
9.382                0.881973236      149.889951
9.383                0.881992796      149.570733
9.384                0.882014521      149.251974
9.385                0.882038403      148.933677
9.386                0.882064432      148.615846
9.387                0.882092601      148.298485
9.388                  0.8821229      147.981597
9.389                0.882155321      147.665185
9.39                 0.882189856      147.349253
9.391                0.882226493      147.033804
9.392                0.882265226      146.718842
9.393                0.882306043       146.40437
9.394                0.882348936      146.090391
9.395                0.882393895      145.776909
9.396                0.882440909      145.463927
