! TOUCHSTONE file generated by CST DESIGN STUDIO
! Date and time: Tue Feb  4 12:51:34 2025
! Project name: C:\Work\MatlabApps\UnitCellOptimizationMatlab\CST\unitcell.cst
! Tree item: Tasks\Sweep1\SPara1\S-Parameters
! Header version: 2024
! Port assignment regex: !\s*Touchstone port\s*([0-9]+)\s*=\s*(CST MWS port|CST DES external port|CST DES block port)\s*(.+)\s* \(\"(.*)\"\)(\s*mode\s*([0-9]+))?.*
! Touchstone port assignment:
! Touchstone port 1 = CST DES external port 1 ("")
# GHz S MA R 50
9                    0.966903619     -79.2089561
9.001                0.966801084     -79.3492917
9.002                0.966697624     -79.4900198
9.003                0.966593237     -79.6311417
9.004                 0.96648792     -79.7726585
9.005                 0.96638167     -79.9145713
9.006                0.966274483     -80.0568812
9.007                0.966166358     -80.1995894
9.008                0.966057291      -80.342697
9.009                0.965947279     -80.4862052
9.01                 0.965836319     -80.6301151
9.011                 0.96572441     -80.7744279
9.012                0.965611547     -80.9191447
9.013                0.965497728     -81.0642666
9.014                0.965382951     -81.2097949
9.015                0.965267213     -81.3557306
9.016                 0.96515051     -81.5020749
9.017                0.965032841     -81.6488291
9.018                0.964914203     -81.7959942
9.019                0.964794592     -81.9435714
9.02                 0.964674006     -82.0915618
9.021                0.964552444     -82.2399667
9.022                0.964429901     -82.3887873
9.023                0.964306376     -82.5380246
9.024                0.964181865     -82.6876798
9.025                0.964056367     -82.8377542
9.026                0.963929879     -82.9882488
9.027                0.963802399      -83.139165
9.028                0.963673923     -83.2905038
9.029                 0.96354445     -83.4422664
9.03                 0.963413977      -83.594454
9.031                0.963282501     -83.7470678
9.032                0.963150021      -83.900109
9.033                0.963016533     -84.0535788
9.034                0.962882037     -84.2074783
9.035                0.962746528     -84.3618087
9.036                0.962610006     -84.5165713
9.037                0.962472467     -84.6717672
9.038                 0.96233391     -84.8273976
9.039                0.962194332     -84.9834637
9.04                 0.962053732     -85.1399666
9.041                0.961912106     -85.2969077
9.042                0.961769454     -85.4542881
9.043                0.961625772     -85.6121089
9.044                0.961481059     -85.7703714
9.045                0.961335313     -85.9290768
9.046                0.961188532     -86.0882262
9.047                0.961040714      -86.247821
9.048                0.960891856     -86.4078622
9.049                0.960741958     -86.5683511
9.05                 0.960591016     -86.7292889
9.051                 0.96043903     -86.8906768
9.052                0.960285998      -87.052516
9.053                0.960131917     -87.2148076
9.054                0.959976786      -87.377553
9.055                0.959820603     -87.5407533
9.056                0.959663367     -87.7044098
9.057                0.959505076     -87.8685235
9.058                0.959345729     -88.0330958
9.059                0.959185323     -88.1981278
9.06                 0.959023857     -88.3636208
9.061                 0.95886133     -88.5295759
9.062                0.958697741     -88.6959944
9.063                0.958533087     -88.8628775
9.064                0.958367368     -89.0302264
9.065                0.958200582     -89.1980422
9.066                0.958032728     -89.3663263
9.067                0.957863805     -89.5350798
9.068                0.957693811     -89.7043039
9.069                0.957522746     -89.8739999
9.07                 0.957350607     -90.0441689
9.071                0.957177395     -90.2148121
9.072                0.957003107     -90.3859308
9.073                0.956827744     -90.5575261
9.074                0.956651303     -90.7295994
9.075                0.956473785     -90.9021517
9.076                0.956295188     -91.0751843
9.077                0.956115511     -91.2486984
9.078                0.955934754     -91.4226952
9.079                0.955752915     -91.5971758
9.08                 0.955569995     -91.7721416
9.081                0.955385992     -91.9475937
9.082                0.955200906     -92.1235333
9.083                0.955014737     -92.2999616
9.084                0.954827483     -92.4768797
9.085                0.954639145      -92.654289
9.086                0.954449721     -92.8321906
9.087                0.954259213     -93.0105857
9.088                0.954067618     -93.1894754
9.089                0.953874938     -93.3688611
9.09                 0.953681172     -93.5487438
9.091                 0.95348632     -93.7291247
9.092                0.953290381     -93.9100051
9.093                0.953093356     -94.0913861
9.094                0.952895244     -94.2732689
9.095                0.952696047     -94.4556548
9.096                0.952495763     -94.6385448
9.097                0.952294393     -94.8219401
9.098                0.952091938     -95.0058419
9.099                0.951888397     -95.1902515
9.1                  0.951683771     -95.3751699
9.101                0.951478061     -95.5605983
9.102                0.951271266      -95.746538
9.103                0.951063388       -95.93299
9.104                0.950854427     -96.1199555
9.105                0.950644384     -96.3074357
9.106                0.950433259     -96.4954317
9.107                0.950221054     -96.6839447
9.108                0.950007768     -96.8729759
9.109                0.949793404     -97.0625263
9.11                 0.949577962     -97.2525971
9.111                0.949361442     -97.4431894
9.112                0.949143847     -97.6343045
9.113                0.948925177     -97.8259434
9.114                0.948705434     -98.0181072
9.115                0.948484618     -98.2107971
9.116                0.948262732     -98.4040142
9.117                0.948039777     -98.5977595
9.118                0.947815754     -98.7920343
9.119                0.947590665     -98.9868396
9.12                 0.947364511     -99.1821765
9.121                0.947137294     -99.3780462
9.122                0.946909017     -99.5744496
9.123                0.946679681      -99.771388
9.124                0.946449287     -99.9688624
9.125                0.946217839     -100.166874
9.126                0.945985337     -100.365423
9.127                0.945751785     -100.564512
9.128                0.945517185     -100.764141
9.129                0.945281538     -100.964312
9.13                 0.945044848     -101.165024
9.131                0.944807116      -101.36628
9.132                0.944568346     -101.568081
9.133                0.944328539     -101.770427
9.134                  0.9440877      -101.97332
9.135                 0.94384583      -102.17676
9.136                0.943602932     -102.380749
9.137                 0.94335901     -102.585288
9.138                0.943114066     -102.790377
9.139                0.942868104     -102.996017
9.14                 0.942621127     -103.202211
9.141                0.942373138     -103.408957
9.142                 0.94212414     -103.616259
9.143                0.941874138     -103.824116
9.144                0.941623134     -104.032529
9.145                0.941371133       -104.2415
9.146                0.941118138     -104.451029
9.147                0.940864152     -104.661117
9.148                0.940609181     -104.871766
9.149                0.940353227     -105.082976
9.15                 0.940096295     -105.294748
9.151                 0.93983839     -105.507083
9.152                0.939579515     -105.719982
9.153                0.939319675     -105.933446
9.154                0.939058874     -106.147475
9.155                0.938797117     -106.362071
9.156                0.938534408     -106.577235
9.157                0.938270754     -106.792966
9.158                0.938006157     -107.009267
9.159                0.937740623     -107.226138
9.16                 0.937474158     -107.443579
9.161                0.937206766     -107.661592
9.162                0.936938453     -107.880178
9.163                0.936669224     -108.099336
9.164                0.936399084     -108.319069
9.165                0.936128039     -108.539377
9.166                0.935856095      -108.76026
9.167                0.935583257     -108.981719
9.168                0.935309532     -109.203755
9.169                0.935034925     -109.426369
9.17                 0.934759442     -109.649562
9.171                0.934483089     -109.873333
9.172                0.934205874     -110.097685
9.173                0.933927801     -110.322617
9.174                0.933648878      -110.54813
9.175                0.933369111     -110.774226
9.176                0.933088507     -111.000903
9.177                0.932807073     -111.228164
9.178                0.932524815     -111.456009
9.179                0.932241741     -111.684439
9.18                 0.931957857     -111.913453
9.181                0.931673172     -112.143053
9.182                0.931387691     -112.373239
9.183                0.931101424     -112.604012
9.184                0.930814376     -112.835372
9.185                0.930526557      -113.06732
9.186                0.930237973     -113.299856
9.187                0.929948633     -113.532981
9.188                0.929658545     -113.766695
9.189                0.929367716        -114.001
9.19                 0.929076155     -114.235894
9.191                 0.92878387     -114.471379
9.192                 0.92849087     -114.707455
9.193                0.928197164     -114.944123
9.194                0.927902759     -115.181383
9.195                0.927607666     -115.419235
9.196                0.927311891     -115.657679
9.197                0.927015446     -115.896717
9.198                0.926718338     -116.136348
9.199                0.926420578     -116.376573
9.2                  0.926122174     -116.617391
9.201                0.925823136     -116.858804
9.202                0.925523473     -117.100811
9.203                0.925223196     -117.343413
9.204                0.924922314      -117.58661
9.205                0.924620837     -117.830403
9.206                0.924318775      -118.07479
9.207                0.924016138     -118.319773
9.208                0.923712937     -118.565352
9.209                0.923409182     -118.811527
9.21                 0.923104883     -119.058297
9.211                0.922800052     -119.305664
9.212                0.922494698     -119.553627
9.213                0.922188833     -119.802185
9.214                0.921882469     -120.051341
9.215                0.921575615     -120.301092
9.216                0.921268283     -120.551439
9.217                0.920960485     -120.802383
9.218                0.920652232     -121.053923
9.219                0.920343536     -121.306059
9.22                 0.920034408     -121.558791
9.221                 0.91972486     -121.812119
9.222                0.919414904     -122.066043
9.223                0.919104553     -122.320562
9.224                0.918793817     -122.575677
9.225                0.918482711     -122.831387
9.226                0.918171245     -123.087693
9.227                0.917859433     -123.344593
9.228                0.917547287     -123.602087
9.229                 0.91723482     -123.860176
9.23                 0.916922045     -124.118859
9.231                0.916608975     -124.378135
9.232                0.916295623     -124.638005
9.233                0.915982001     -124.898468
9.234                0.915668124     -125.159523
9.235                0.915354006      -125.42117
9.236                0.915039658     -125.683409
9.237                0.914725096     -125.946239
9.238                0.914410332     -126.209659
9.239                0.914095381      -126.47367
9.24                 0.913780257      -126.73827
9.241                0.913464974     -127.003459
9.242                0.913149546     -127.269237
9.243                0.912833987     -127.535602
9.244                0.912518313     -127.802555
9.245                0.912202536     -128.070094
9.246                0.911886673     -128.338219
9.247                0.911570738     -128.606928
9.248                0.911254745     -128.876222
9.249                 0.91093871       -129.1461
9.25                 0.910622647      -129.41656
9.251                0.910306573     -129.687601
9.252                0.909990501     -129.959224
9.253                0.909674449     -130.231427
9.254                 0.90935843     -130.504208
9.255                0.909042461     -130.777568
9.256                0.908726557     -131.051505
9.257                0.908410735     -131.326019
9.258                0.908095009     -131.601107
9.259                0.907779396     -131.876769
9.26                 0.907463912     -132.153005
9.261                0.907148574     -132.429812
9.262                0.906833396     -132.707189
9.263                0.906518397     -132.985136
9.264                0.906203591     -133.263652
9.265                0.905888997     -133.542734
9.266                0.905574629     -133.822382
9.267                0.905260506     -134.102595
9.268                0.904946643     -134.383371
9.269                0.904633058     -134.664708
9.27                 0.904319768     -134.946606
9.271                0.904006789     -135.229062
9.272                0.903694139     -135.512076
9.273                0.903381835     -135.795646
9.274                0.903069894      -136.07977
9.275                0.902758333     -136.364447
9.276                0.902447171     -136.649675
9.277                0.902136423     -136.935453
9.278                0.901826109     -137.221779
9.279                0.901516245     -137.508651
9.28                 0.901206849     -137.796067
9.281                0.900897939     -138.084027
9.282                0.900589533     -138.372527
9.283                0.900281649     -138.661567
9.284                0.899974304     -138.951144
9.285                0.899667517     -139.241257
9.286                0.899361305     -139.531903
9.287                0.899055687      -139.82308
9.288                0.898750681     -140.114788
9.289                0.898446305     -140.407022
9.29                 0.898142578     -140.699783
9.291                0.897839517     -140.993067
9.292                 0.89753714     -141.286872
9.293                0.897235468     -141.581197
9.294                0.896934517     -141.876038
9.295                0.896634306     -142.171394
9.296                0.896334854     -142.467263
9.297                0.896036179     -142.763642
9.298                  0.8957383     -143.060529
9.299                0.895441235     -143.357922
9.3                  0.895145003     -143.655818
9.301                0.894849624     -143.954215
9.302                0.894555114     -144.253109
9.303                0.894261493       -144.5525
9.304                0.893968781     -144.852384
9.305                0.893676994     -145.152759
9.306                0.893386153     -145.453622
9.307                0.893096276      -145.75497
9.308                0.892807382     -146.056801
9.309                0.892519489     -146.359113
9.31                 0.892232616     -146.661901
9.311                0.891946782     -146.965164
9.312                0.891662006       -147.2689
9.313                0.891378306     -147.573104
9.314                0.891095702     -147.877774
9.315                0.890814212     -148.182907
9.316                0.890533854     -148.488501
9.317                0.890254648     -148.794551
9.318                0.889976613     -149.101057
9.319                0.889699766     -149.408013
9.32                 0.889424126     -149.715417
9.321                0.889149713     -150.023266
9.322                0.888876544     -150.331558
9.323                0.888604639     -150.640287
9.324                0.888334015     -150.949453
9.325                0.888064692      -151.25905
9.326                0.887796688     -151.569076
9.327                0.887530021     -151.879528
9.328                 0.88726471     -152.190402
9.329                0.887000772     -152.501695
9.33                 0.886738227     -152.813404
9.331                0.886477093     -153.125524
9.332                0.886217387     -153.438052
9.333                0.885959128     -153.750986
9.334                0.885702334     -154.064321
9.335                0.885447023     -154.378054
9.336                0.885193212      -154.69218
9.337                 0.88494092     -155.006698
9.338                0.884690165     -155.321602
9.339                0.884440963     -155.636889
9.34                 0.884193334     -155.952555
9.341                0.883947293     -156.268597
9.342                 0.88370286     -156.585011
9.343                0.883460051     -156.901792
9.344                0.883218883     -157.218937
9.345                0.882979374     -157.536443
9.346                 0.88274154     -157.854304
9.347                  0.8825054     -158.172518
9.348                0.882270969      -158.49108
9.349                0.882038264     -158.809986
9.35                 0.881807303     -159.129231
9.351                0.881578101     -159.448813
9.352                0.881350676     -159.768726
9.353                0.881125043     -160.088968
9.354                0.880901219     -160.409532
9.355                 0.88067922     -160.730416
9.356                0.880459062     -161.051614
9.357                 0.88024076     -161.373124
9.358                0.880024332     -161.694939
9.359                0.879809791     -162.017057
9.36                 0.879597154     -162.339472
9.361                0.879386435     -162.662181
9.362                0.879177651     -162.985178
9.363                0.878970816      -163.30846
9.364                0.878765945     -163.632022
9.365                0.878563053      -163.95586
9.366                0.878362155     -164.279968
9.367                0.878163264     -164.604343
9.368                0.877966395     -164.928979
9.369                0.877771563     -165.253873
9.37                 0.877578781      -165.57902
9.371                0.877388063     -165.904414
9.372                0.877199423     -166.230052
9.373                0.877012874     -166.555928
9.374                 0.87682843     -166.882038
9.375                0.876646103     -167.208377
9.376                0.876465907     -167.534941
9.377                0.876287854     -167.861724
9.378                0.876111957     -168.188722
9.379                0.875938229      -168.51593
9.38                 0.875766681     -168.843344
9.381                0.875597326     -169.170957
9.382                0.875430176     -169.498766
9.383                0.875265241     -169.826765
9.384                0.875102535      -170.15495
9.385                0.874942067     -170.483316
9.386                0.874783849     -170.811857
9.387                0.874627893     -171.140569
9.388                0.874474207     -171.469446
9.389                0.874322804     -171.798484
9.39                 0.874173693     -172.127678
9.391                0.874026884     -172.457022
9.392                0.873882388     -172.786512
9.393                0.873740213     -173.116142
9.394                 0.87360037     -173.445908
9.395                0.873462867     -173.775804
9.396                0.873327713     -174.105825
