! TOUCHSTONE file generated by CST DESIGN STUDIO
! Date and time: Tue Feb  4 12:51:31 2025
! Project name: C:\Work\MatlabApps\UnitCellOptimizationMatlab\CST\unitcell.cst
! Tree item: Tasks\Sweep1\SPara1\S-Parameters
! Header version: 2024
! Port assignment regex: !\s*Touchstone port\s*([0-9]+)\s*=\s*(CST MWS port|CST DES external port|CST DES block port)\s*(.+)\s* \(\"(.*)\"\)(\s*mode\s*([0-9]+))?.*
! Touchstone port assignment:
! Touchstone port 1 = CST DES external port 1 ("")
# GHz S MA R 50
9                    0.962080049      -88.156326
9.001                0.961970659     -88.3237108
9.002                 0.96186022     -88.4915854
9.003                0.961748731     -88.6599509
9.004                0.961636186     -88.8288088
9.005                0.961522582     -88.9981602
9.006                0.961407915     -89.1680065
9.007                0.961292182     -89.3383489
9.008                0.961175379     -89.5091887
9.009                0.961057502     -89.6805272
9.01                 0.960938548     -89.8523657
9.011                0.960818512     -90.0247054
9.012                0.960697392     -90.1975477
9.013                0.960575184     -90.3708938
9.014                0.960451884     -90.5447449
9.015                0.960327489     -90.7191024
9.016                0.960201996     -90.8939674
9.017                0.960075401     -91.0693414
9.018                0.959947701     -91.2452255
9.019                0.959818892     -91.4216211
9.02                 0.959688972     -91.5985293
9.021                0.959557936     -91.7759515
9.022                0.959425783     -91.9538888
9.023                0.959292508     -92.1323426
9.024                0.959158108     -92.3113142
9.025                0.959022581     -92.4908047
9.026                0.958885923     -92.6708154
9.027                0.958748132     -92.8513476
9.028                0.958609204     -93.0324025
9.029                0.958469137     -93.2139813
9.03                 0.958327927     -93.3960854
9.031                0.958185572     -93.5787159
9.032                 0.95804207     -93.7618741
9.033                0.957897416     -93.9455612
9.034                0.957751609     -94.1297784
9.035                0.957604647     -94.3145269
9.036                0.957456526     -94.4998081
9.037                0.957307243     -94.6856231
9.038                0.957156797     -94.8719731
9.039                0.957005186     -95.0588593
9.04                 0.956852405      -95.246283
9.041                0.956698454     -95.4342453
9.042                0.956543331     -95.6227475
9.043                0.956387031     -95.8117908
9.044                0.956229555     -96.0013763
9.045                0.956070899     -96.1915052
9.046                0.955911062     -96.3821787
9.047                0.955750041     -96.5733981
9.048                0.955587834     -96.7651645
9.049                 0.95542444      -96.957479
9.05                 0.955259857     -97.1503428
9.051                0.955094084     -97.3437571
9.052                0.954927117     -97.5377231
9.053                0.954758956     -97.7322419
9.054                  0.9545896     -97.9273146
9.055                0.954419046     -98.1229424
9.056                0.954247294     -98.3191265
9.057                0.954074341     -98.5158679
9.058                0.953900187     -98.7131678
9.059                 0.95372483     -98.9110274
9.06                 0.953548269     -99.1094477
9.061                0.953370504     -99.3084298
9.062                0.953191532     -99.5079748
9.063                0.953011353     -99.7080839
9.064                0.952829967     -99.9087582
9.065                0.952647372     -100.109999
9.066                0.952463567     -100.311806
9.067                0.952278553     -100.514183
9.068                0.952092328     -100.717128
9.069                0.951904891     -100.920644
9.07                 0.951716243     -101.124732
9.071                0.951526383     -101.329392
9.072                0.951335311     -101.534626
9.073                0.951143026     -101.740434
9.074                0.950949529     -101.946818
9.075                0.950754819     -102.153779
9.076                0.950558897     -102.361318
9.077                0.950361762     -102.569435
9.078                0.950163414     -102.778132
9.079                0.949963855      -102.98741
9.08                 0.949763085     -103.197269
9.081                0.949561103     -103.407711
9.082                0.949357911     -103.618736
9.083                0.949153509     -103.830346
9.084                0.948947897     -104.042541
9.085                0.948741078     -104.255323
9.086                0.948533051     -104.468692
9.087                0.948323817     -104.682649
9.088                0.948113379     -104.897196
9.089                0.947901736     -105.112332
9.09                 0.947688891     -105.328059
9.091                0.947474844     -105.544378
9.092                0.947259598     -105.761289
9.093                0.947043153     -105.978794
9.094                0.946825512     -106.196893
9.095                0.946606675     -106.415588
9.096                0.946386646     -106.634878
9.097                0.946165426     -106.854765
9.098                0.945943018     -107.075249
9.099                0.945719422     -107.296332
9.1                  0.945494643     -107.518014
9.101                0.945268682     -107.740296
9.102                0.945041541     -107.963178
9.103                0.944813223     -108.186661
9.104                0.944583732     -108.410747
9.105                 0.94435307     -108.635435
9.106                0.944121239     -108.860727
9.107                0.943888243     -109.086623
9.108                0.943654086     -109.313124
9.109                0.943418769      -109.54023
9.11                 0.943182298     -109.767942
9.111                0.942944675     -109.996261
9.112                0.942705904     -110.225187
9.113                0.942465988     -110.454722
9.114                0.942224933     -110.684865
9.115                 0.94198274     -110.915616
9.116                0.941739416     -111.146978
9.117                0.941494963      -111.37895
9.118                0.941249387     -111.611532
9.119                0.941002691     -111.844726
9.12                 0.940754881     -112.078531
9.121                0.940505961     -112.312949
9.122                0.940255936      -112.54798
9.123                0.940004811     -112.783623
9.124                 0.93975259      -113.01988
9.125                 0.93949928     -113.256752
9.126                0.939244886     -113.494237
9.127                0.938989412     -113.732337
9.128                0.938732865     -113.971053
9.129                0.938475251     -114.210384
9.13                 0.938216574     -114.450331
9.131                0.937956842     -114.690894
9.132                0.937696061     -114.932074
9.133                0.937434235      -115.17387
9.134                0.937171373     -115.416283
9.135                0.936907481     -115.659314
9.136                0.936642564     -115.902962
9.137                0.936376631     -116.147228
9.138                0.936109687     -116.392111
9.139                 0.93584174     -116.637613
9.14                 0.935572798     -116.883733
9.141                0.935302867     -117.130471
9.142                0.935031955     -117.377828
9.143                 0.93476007     -117.625803
9.144                0.934487219     -117.874397
9.145                 0.93421341     -118.123609
9.146                0.933938651      -118.37344
9.147                0.933662951      -118.62389
9.148                0.933386318     -118.874958
9.149                 0.93310876     -119.126645
9.15                 0.932830285     -119.378951
9.151                0.932550904     -119.631875
9.152                0.932270623     -119.885418
9.153                0.931989453     -120.139579
9.154                0.931707403     -120.394358
9.155                0.931424482     -120.649755
9.156                0.931140699      -120.90577
9.157                0.930856064     -121.162402
9.158                0.930570586     -121.419652
9.159                0.930284277     -121.677519
9.16                 0.929997145     -121.936002
9.161                  0.9297092     -122.195102
9.162                0.929420454     -122.454819
9.163                0.929130917     -122.715151
9.164                0.928840599     -122.976098
9.165                 0.92854951     -123.237661
9.166                0.928257663     -123.499838
9.167                0.927965068      -123.76263
9.168                0.927671735     -124.026035
9.169                0.927377677     -124.290053
9.17                 0.927082905     -124.554683
9.171                0.926787431     -124.819926
9.172                0.926491266     -125.085781
9.173                0.926194423     -125.352246
9.174                0.925896912     -125.619322
9.175                0.925598748     -125.887007
9.176                0.925299941     -126.155301
9.177                0.925000504     -126.424203
9.178                0.924700451     -126.693713
9.179                0.924399794     -126.963829
9.18                 0.924098545     -127.234551
9.181                0.923796719     -127.505878
9.182                0.923494327      -127.77781
9.183                0.923191384     -128.050345
9.184                0.922887903     -128.323482
9.185                0.922583898      -128.59722
9.186                0.922279382     -128.871559
9.187                 0.92197437     -129.146498
9.188                0.921668875     -129.422035
9.189                0.921362911      -129.69817
9.19                 0.921056494       -129.9749
9.191                0.920749637     -130.252226
9.192                0.920442356     -130.530146
9.193                0.920134664     -130.808659
9.194                0.919826578     -131.087764
9.195                0.919518111     -131.367459
9.196                0.919209279     -131.647743
9.197                0.918900098     -131.928615
9.198                0.918590582     -132.210074
9.199                0.918280748     -132.492117
9.2                  0.917970611     -132.774745
9.201                0.917660187     -133.057955
9.202                0.917349492     -133.341746
9.203                0.917038542     -133.626116
9.204                0.916727354     -133.911064
9.205                0.916415943     -134.196588
9.206                0.916104326     -134.482687
9.207                0.915792519     -134.769359
9.208                 0.91548054     -135.056603
9.209                0.915168406     -135.344416
9.21                 0.914856132     -135.632798
9.211                0.914543737     -135.921745
9.212                0.914231238     -136.211258
9.213                0.913918651     -136.501333
9.214                0.913605995     -136.791969
9.215                0.913293287     -137.083163
9.216                0.912980544     -137.374915
9.217                0.912667784     -137.667222
9.218                0.912355025     -137.960082
9.219                0.912042286     -138.253493
9.22                 0.911729584     -138.547454
9.221                0.911416937     -138.841961
9.222                0.911104364     -139.137013
9.223                0.910791883     -139.432607
9.224                0.910479512     -139.728742
9.225                0.910167271     -140.025416
9.226                0.909855178     -140.322625
9.227                0.909543251     -140.620368
9.228                 0.90923151     -140.918642
9.229                0.908919973     -141.217445
9.23                  0.90860866     -141.516775
9.231                0.908297589     -141.816629
9.232                0.907986781     -142.117005
9.233                0.907676253       -142.4179
9.234                0.907366026     -142.719311
9.235                0.907056119     -143.021237
9.236                0.906746551     -143.323673
9.237                0.906437343     -143.626619
9.238                0.906128513     -143.930071
9.239                0.905820081     -144.234026
9.24                 0.905512068     -144.538481
9.241                0.905204493     -144.843435
9.242                0.904897375     -145.148883
9.243                0.904590736     -145.454824
9.244                0.904284595     -145.761254
9.245                0.903978971      -146.06817
9.246                0.903673886     -146.375569
9.247                0.903369359     -146.683449
9.248                0.903065411     -146.991806
9.249                0.902762062     -147.300637
9.25                 0.902459331     -147.609939
9.251                 0.90215724      -147.91971
9.252                0.901855809     -148.229945
9.253                0.901555058     -148.540641
9.254                0.901255007     -148.851796
9.255                0.900955678     -149.163406
9.256                 0.90065709     -149.475467
9.257                0.900359264     -149.787977
9.258                 0.90006222     -150.100931
9.259                 0.89976598     -150.414327
9.26                 0.899470563     -150.728162
9.261                 0.89917599      -151.04243
9.262                0.898882282      -151.35713
9.263                0.898589458     -151.672257
9.264                0.898297541     -151.987808
9.265                 0.89800655     -152.303779
9.266                0.897716505     -152.620167
9.267                0.897427428     -152.936967
9.268                0.897139338     -153.254176
9.269                0.896852257     -153.571791
9.27                 0.896566204     -153.889808
9.271                  0.8962812     -154.208222
9.272                0.895997266     -154.527029
9.273                0.895714422     -154.846227
9.274                0.895432689     -155.165811
9.275                0.895152085     -155.485776
9.276                0.894872633      -155.80612
9.277                0.894594352     -156.126837
9.278                0.894317262     -156.447925
9.279                0.894041384     -156.769378
9.28                 0.893766737     -157.091193
9.281                0.893493341     -157.413365
9.282                0.893221217     -157.735891
9.283                0.892950385     -158.058765
9.284                0.892680864     -158.381985
9.285                0.892412674     -158.705545
9.286                0.892145834     -159.029441
9.287                0.891880365     -159.353669
9.288                0.891616286     -159.678225
9.289                0.891353616     -160.003103
9.29                 0.891092376     -160.328301
9.291                0.890832583     -160.653812
9.292                0.890574257     -160.979634
9.293                0.890317418      -161.30576
9.294                0.890062085     -161.632187
9.295                0.889808275      -161.95891
9.296                0.889556009     -162.285925
9.297                0.889305305     -162.613226
9.298                0.889056181      -162.94081
9.299                0.888808655     -163.268671
9.3                  0.888562748     -163.596805
9.301                0.888318475     -163.925207
9.302                0.888075856     -164.253873
9.303                0.887834909     -164.582797
9.304                0.887595651     -164.911974
9.305                0.887358101     -165.241401
9.306                0.887122275     -165.571071
9.307                0.886888191     -165.900981
9.308                0.886655867     -166.231125
9.309                 0.88642532     -166.561498
9.31                 0.886196566     -166.892096
9.311                0.885969623     -167.222913
9.312                0.885744507     -167.553944
9.313                0.885521235     -167.885185
9.314                0.885299823      -168.21663
9.315                0.885080287     -168.548275
9.316                0.884862644     -168.880114
9.317                0.884646909     -169.212142
9.318                0.884433099     -169.544354
9.319                0.884221228     -169.876745
9.32                 0.884011312      -170.20931
9.321                0.883803366     -170.542044
9.322                0.883597406     -170.874941
9.323                0.883393446     -171.207996
9.324                  0.8831915     -171.541204
9.325                0.882991583      -171.87456
9.326                 0.88279371     -172.208059
9.327                0.882597895     -172.541695
9.328                0.882404151     -172.875464
9.329                0.882212492     -173.209359
9.33                 0.882022931     -173.543375
9.331                0.881835482     -173.877508
9.332                0.881650158     -174.211752
9.333                0.881466972     -174.546101
9.334                0.881285936      -174.88055
9.335                0.881107063     -175.215094
9.336                0.880930364     -175.549728
9.337                0.880755853     -175.884446
9.338                 0.88058354     -176.219242
9.339                0.880413438     -176.554112
9.34                 0.880245557      -176.88905
9.341                 0.88007991      -177.22405
9.342                0.879916505     -177.559108
9.343                0.879755355     -177.894217
9.344                 0.87959647     -178.229372
9.345                 0.87943986     -178.564569
9.346                0.879285534       -178.8998
9.347                0.879133503     -179.235062
9.348                0.878983777     -179.570349
9.349                0.878836363     -179.905654
9.35                 0.878691272      179.759027
9.351                0.878548513      179.423699
9.352                0.878408093      179.088369
9.353                0.878270021      178.753042
9.354                0.878134305      178.417723
9.355                0.878000953      178.082417
9.356                0.877869972       177.74713
9.357                0.877741371      177.411868
9.358                0.877615155      177.076636
9.359                0.877491332      176.741439
9.36                 0.877369908      176.406283
9.361                 0.87725089      176.071173
9.362                0.877134283      175.736114
9.363                0.877020095      175.401113
9.364                0.876908329      175.066175
9.365                0.876798991      174.731304
9.366                0.876692088      174.396507
9.367                0.876587622      174.061788
9.368                  0.8764856      173.727154
9.369                0.876386025      173.392609
9.37                 0.876288901      173.058159
9.371                0.876194232      172.723809
9.372                0.876102022      172.389565
9.373                0.876012274      172.055432
9.374                0.875924991      171.721416
9.375                0.875840177      171.387521
9.376                0.875757832      171.053753
9.377                 0.87567796      170.720117
9.378                0.875600564      170.386619
9.379                0.875525643      170.053264
9.38                 0.875453201      169.720056
9.381                0.875383238      169.387003
9.382                0.875315756      169.054108
9.383                0.875250755      168.721376
9.384                0.875188236      168.388814
9.385                0.875128199      168.056426
9.386                0.875070644      167.724218
9.387                0.875015571      167.392194
9.388                 0.87496298       167.06036
9.389                0.874912869       166.72872
9.39                 0.874865239      166.397281
9.391                0.874820087      166.066046
9.392                0.874777412      165.735022
9.393                0.874737213      165.404213
9.394                0.874699488      165.073624
9.395                0.874664234       164.74326
9.396                 0.87463145      164.413126
