! TOUCHSTONE file generated by CST DESIGN STUDIO
! Date and time: Tue Feb  4 16:44:41 2025
! Project name: C:\Work\MatlabApps\UnitCellOptimizationMatlab\CST\unitcell.cst
! Tree item: Tasks\Sweep1\SPara1\S-Parameters
! Header version: 2024
! Port assignment regex: !\s*Touchstone port\s*([0-9]+)\s*=\s*(CST MWS port|CST DES external port|CST DES block port)\s*(.+)\s* \(\"(.*)\"\)(\s*mode\s*([0-9]+))?.*
! Touchstone port assignment:
! Touchstone port 1 = CST DES external port 1 ("")
# GHz S MA R 50
9                    0.268337053      173.963025
9.001                0.267782581       173.08014
9.002                0.267263546      172.194765
9.003                0.266780152      171.307085
9.004                0.266332589      170.417294
9.005                0.265921027      169.525585
9.006                0.265545618      168.632158
9.007                0.265206496      167.737214
9.008                0.264903774      166.840957
9.009                0.264637549      165.943594
9.01                 0.264407896      165.045333
9.011                0.264214871      164.146386
9.012                 0.26405851      163.246964
9.013                0.263938828       162.34728
9.014                0.263855824      161.447547
9.015                0.263809471      160.547979
9.016                0.263799728      159.648789
9.017                 0.26382653      158.750191
9.018                0.263889793      157.852397
9.019                0.263989416      156.955618
9.02                 0.264125274      156.060063
9.021                0.264297227      155.165938
9.022                0.264505113       154.27345
9.023                0.264748754      153.382801
9.024                0.265027951      152.494189
9.025                0.265342491      151.607812
9.026                0.265692138       150.72386
9.027                0.266076645      149.842523
9.028                0.266495744      148.963985
9.029                0.266949153      148.088426
9.03                 0.267436574      147.216022
9.031                0.267957694      146.346942
9.032                0.268512187      145.481352
9.033                0.269099711      144.619412
9.034                0.269719912      143.761276
9.035                0.270372423      142.907095
9.036                0.271056867      142.057011
9.037                0.271772853      141.211162
9.038                0.272519981      140.369679
9.039                0.273297841      139.532689
9.04                 0.274106013      138.700312
9.041                0.274944069      137.872662
9.042                0.275811572      137.049846
9.043                 0.27670808      136.231966
9.044                 0.27763314      135.419119
9.045                0.278586298      134.611394
9.046                 0.27956709      133.808876
9.047                0.280575051      133.011642
9.048                0.281609708      132.219765
9.049                0.282670587      131.433313
9.05                 0.283757211      130.652345
9.051                0.284869097      129.876918
9.052                0.286005765      129.107082
9.053                0.287166729      128.342883
9.054                0.288351504      127.584359
9.055                0.289559605      126.831547
9.056                0.290790546      126.084477
9.057                0.292043841      125.343173
9.058                0.293319005      124.607657
9.059                0.294615555      123.877945
9.06                 0.295933009       123.15405
9.061                0.297270888       122.43598
9.062                0.298628712      121.723739
9.063                0.300006007      121.017328
9.064                0.301402301      120.316744
9.065                0.302817124       119.62198
9.066                0.304250012      118.933026
9.067                0.305700502      118.249871
9.068                0.307168137      117.572497
9.069                0.308652462      116.900886
9.07                 0.310153029      116.235016
9.071                0.311669393      115.574865
9.072                0.313201113      114.920405
9.073                0.314747756      114.271608
9.074                0.316308891      113.628443
9.075                0.317884093      112.990878
9.076                0.319472943      112.358878
9.077                0.321075027      111.732407
9.078                0.322689936      111.111427
9.079                0.324317267      110.495899
9.08                 0.325956623      109.885782
9.081                0.327607613      109.281035
9.082                 0.32926985      108.681614
9.083                0.330942954      108.087474
9.084                0.332626552      107.498572
9.085                0.334320274       106.91486
9.086                0.336023759      106.336292
9.087                0.337736649      105.762822
9.088                0.339458594      105.194399
9.089                0.341189249      104.630976
9.09                 0.342928275      104.072505
9.091                0.344675339      103.518934
9.092                0.346430113      102.970215
9.093                0.348192275      102.426297
9.094                 0.34996151      101.887129
9.095                0.351737508      101.352663
9.096                0.353519963      100.822846
9.097                0.355308578      100.297628
9.098                0.357103058      99.7769595
9.099                0.358903116      99.2607886
9.1                  0.360708471      98.7490651
9.101                0.362518843      98.2417386
9.102                0.364333964       97.738759
9.103                0.366153565      97.2400761
9.104                0.367977386      96.7456401
9.105                0.369805172      96.2554014
9.106                0.371636672      95.7693107
9.107                0.373471639       95.287319
9.108                0.375309834      94.8093776
9.109                0.377151021      94.3354382
9.11                 0.378994969      93.8654527
9.111                0.380841451      93.3993737
9.112                0.382690246      92.9371538
9.113                0.384541139      92.4787464
9.114                0.386393915      92.0241052
9.115                0.388248369      91.5731841
9.116                0.390104295      91.1259379
9.117                0.391961497      90.6823214
9.118                0.393819779      90.2422903
9.119                 0.39567895      89.8058004
9.12                 0.397538825      89.3728084
9.121                0.399399221       88.943271
9.122                0.401259961      88.5171459
9.123                0.403120869      88.0943909
9.124                0.404981777      87.6749645
9.125                0.406842517      87.2588257
9.126                0.408702927       86.845934
9.127                0.410562848      86.4362493
9.128                0.412422125      86.0297323
9.129                0.414280605      85.6263438
9.13                  0.41613814      85.2260456
9.131                0.417994586      84.8287995
9.132                0.419849802      84.4345681
9.133                0.421703647      84.0433145
9.134                0.423555989      83.6550023
9.135                0.425406695      83.2695955
9.136                0.427255636      82.8870588
9.137                0.429102688       82.507357
9.138                0.430947727      82.1304559
9.139                0.432790634      81.7563214
9.14                 0.434631292      81.3849201
9.141                0.436469588       81.016219
9.142                 0.43830541      80.6501856
9.143                0.440138651      80.2867877
9.144                0.441969204      79.9259939
9.145                0.443796968       79.567773
9.146                0.445621841      79.2120944
9.147                0.447443726      78.8589278
9.148                0.449262528      78.5082436
9.149                0.451078153      78.1600122
9.15                 0.452890512       77.814205
9.151                0.454699517      77.4707933
9.152                0.456505081      77.1297492
9.153                0.458307122      76.7910451
9.154                0.460105558      76.4546538
9.155                 0.46190031      76.1205484
9.156                0.463691301      75.7887026
9.157                0.465478457      75.4590904
9.158                0.467261704      75.1316861
9.159                0.469040972      74.8064646
9.16                 0.470816192       74.483401
9.161                0.472587298      74.1624708
9.162                0.474354225        73.84365
9.163                0.476116909      73.5269148
9.164                0.477875289      73.2122417
9.165                0.479629306      72.8996079
9.166                0.481378902      72.5889906
9.167                0.483124022      72.2803674
9.168                0.484864611      71.9737164
9.169                0.486600617      71.6690159
9.17                 0.488331988      71.3662445
9.171                0.490058675      71.0653811
9.172                0.491780631      70.7664052
9.173                0.493497809      70.4692962
9.174                0.495210164       70.174034
9.175                0.496917654      69.8805989
9.176                0.498620236      69.5889713
9.177                0.500317869       69.299132
9.178                0.502010516       69.011062
9.179                0.503698137      68.7247428
9.18                 0.505380697      68.4401558
9.181                0.507058161      68.1572831
9.182                0.508730494      67.8761067
9.183                0.510397665       67.596609
9.184                0.512059641      67.3187728
9.185                0.513716393      67.0425808
9.186                0.515367892      66.7680164
9.187                 0.51701411      66.4950629
9.188                 0.51865502       66.223704
9.189                0.520290597      65.9539235
9.19                 0.521920816      65.6857056
9.191                0.523545654      65.4190346
9.192                0.525165088       65.153895
9.193                0.526779098      64.8902717
9.194                0.528387662      64.6281497
9.195                0.529990761      64.3675142
9.196                0.531588377      64.1083506
9.197                0.533180493      63.8506445
9.198                0.534767091      63.5943818
9.199                0.536348156      63.3395485
9.2                  0.537923673      63.0861309
9.201                0.539493629      62.8341152
9.202                0.541058009      62.5834882
9.203                0.542616803      62.3342366
9.204                0.544169998      62.0863475
9.205                0.545717583      61.8398078
9.206                0.547259549       61.594605
9.207                0.548795887      61.3507266
9.208                0.550326587      61.1081602
9.209                0.551851643      60.8668937
9.21                 0.553371048       60.626915
9.211                0.554884794      60.3882123
9.212                0.556392877      60.1507739
9.213                0.557895292      59.9145883
9.214                0.559392034      59.6796441
9.215                0.560883099      59.4459301
9.216                0.562368485      59.2134352
9.217                0.563848189      58.9821484
9.218                0.565322208       58.752059
9.219                0.566790543      58.5231562
9.22                 0.568253192      58.2954297
9.221                0.569710155       58.068869
9.222                0.571161432      57.8434638
9.223                0.572607025      57.6192041
9.224                0.574046935      57.3960798
9.225                0.575481163      57.1740811
9.226                0.576909712      56.9531983
9.227                0.578332586      56.7334217
9.228                0.579749786      56.5147419
9.229                0.581161319      56.2971494
9.23                 0.582567186       56.080635
9.231                0.583967394      55.8651896
9.232                0.585361948      55.6508042
9.233                0.586750853      55.4374697
9.234                0.588134115      55.2251774
9.235                 0.58951174      55.0139187
9.236                0.590883736      54.8036848
9.237                 0.59225011      54.5944673
9.238                0.593610868      54.3862578
9.239                0.594966019       54.179048
9.24                 0.596315572      53.9728297
9.241                0.597659534      53.7675949
9.242                0.598997915      53.5633354
9.243                0.600330724      53.3600434
9.244                 0.60165797      53.1577112
9.245                0.602979664      52.9563308
9.246                0.604295816      52.7558948
9.247                0.605606435      52.5563956
9.248                0.606911534      52.3578257
9.249                0.608211123      52.1601778
9.25                 0.609505213      51.9634444
9.251                0.610793815      51.7676186
9.252                0.612076943       51.572693
9.253                0.613354607      51.3786607
9.254                0.614626821      51.1855147
9.255                0.615893596      50.9932482
9.256                0.617154946      50.8018542
9.257                0.618410883      50.6113261
9.258                0.619661421      50.4216572
9.259                0.620906574      50.2328409
9.26                 0.622146354      50.0448707
9.261                0.623380776      49.8577401
9.262                0.624609854      49.6714428
9.263                0.625833603      49.4859725
9.264                0.627052035      49.3013229
9.265                0.628265167      49.1174879
9.266                0.629473013      48.9344612
9.267                0.630675588       48.752237
9.268                0.631872907      48.5708092
9.269                0.633064985      48.3901719
9.27                 0.634251837      48.2103193
9.271                 0.63543348      48.0312455
9.272                0.636609928      47.8529448
9.273                0.637781199      47.6754116
9.274                0.638947306      47.4986403
9.275                0.640108268      47.3226252
9.276                0.641264099      47.1473608
9.277                0.642414817      46.9728419
9.278                0.643560437      46.7990628
9.279                0.644700977      46.6260184
9.28                 0.645836452      46.4537033
9.281                 0.64696688      46.2821123
9.282                0.648092277      46.1112402
9.283                0.649212661       45.941082
9.284                0.650328048      45.7716324
9.285                0.651438455      45.6028866
9.286                  0.6525439      45.4348395
9.287                  0.6536444      45.2674862
9.288                0.654739972      45.1008218
9.289                0.655830634      44.9348415
9.29                 0.656916403      44.7695405
9.291                0.657997297      44.6049141
9.292                0.659073332      44.4409576
9.293                0.660144528      44.2776663
9.294                0.661210902      44.1150357
9.295                0.662272471      43.9530611
9.296                0.663329253       43.791738
9.297                0.664381266      43.6310621
9.298                0.665428528      43.4710288
9.299                0.666471057      43.3116337
9.3                  0.667508871      43.1528726
9.301                0.668541987       42.994741
9.302                0.669570425      42.8372348
9.303                0.670594201      42.6803496
9.304                0.671613335      42.5240814
9.305                0.672627844      42.3684259
9.306                0.673637746       42.213379
9.307                 0.67464306      42.0589367
9.308                0.675643804      41.9050949
9.309                0.676639995      41.7518496
9.31                 0.677631652      41.5991969
9.311                0.678618794      41.4471327
9.312                0.679601438      41.2956532
9.313                0.680579603      41.1447546
9.314                0.681553307      40.9944329
9.315                0.682522568      40.8446845
9.316                0.683487405      40.6955055
9.317                0.684447835      40.5468922
9.318                0.685403878      40.3988409
9.319                 0.68635555       40.251348
9.32                 0.687302871      40.1044098
9.321                0.688245859      39.9580226
9.322                0.689184531       39.812183
9.323                0.690118906      39.6668874
9.324                0.691049003      39.5221323
9.325                0.691974838      39.3779141
9.326                0.692896432      39.2342295
9.327                0.693813801       39.091075
9.328                0.694726963      38.9484472
9.329                0.695635937      38.8063428
9.33                 0.696540742      38.6647583
9.331                0.697441394      38.5236906
9.332                0.698337912      38.3831363
9.333                0.699230314      38.2430922
9.334                0.700118617      38.1035549
9.335                0.701002841      37.9645215
9.336                0.701883002      37.8259885
9.337                0.702759119       37.687953
9.338                0.703631209      37.5504117
9.339                0.704499291      37.4133616
9.34                 0.705363381      37.2767996
9.341                0.706223498      37.1407227
9.342                 0.70707966      37.0051277
9.343                0.707931883      36.8700118
9.344                0.708780187       36.735372
9.345                0.709624587      36.6012052
9.346                0.710465103      36.4675086
9.347                 0.71130175      36.3342792
9.348                0.712134548      36.2015142
9.349                0.712963512      36.0692106
9.35                 0.713788662      35.9373658
9.351                0.714610013      35.8059768
9.352                0.715427583      35.6750408
9.353                 0.71624139      35.5445551
9.354                0.717051451       35.414517
9.355                0.717857782      35.2849236
9.356                0.718660401      35.1557723
9.357                0.719459325      35.0270604
9.358                0.720254571      34.8987852
9.359                0.721046155      34.7709441
9.36                 0.721834096      34.6435344
9.361                0.722618409      34.5165535
9.362                0.723399111      34.3899989
9.363                 0.72417622       34.263868
9.364                0.724949751      34.1381582
9.365                0.725719722       34.012867
9.366                0.726486149      33.8879919
9.367                0.727249048      33.7635303
9.368                0.728008437      33.6394799
9.369                 0.72876433      33.5158381
9.37                 0.729516746      33.3926026
9.371                  0.7302657      33.2697708
9.372                0.731011208      33.1473404
9.373                0.731753287       33.025309
9.374                0.732491952      32.9036743
9.375                0.733227221      32.7824339
9.376                0.733959108      32.6615854
9.377                0.734687629      32.5411265
9.378                0.735412802       32.421055
9.379                0.736134641      32.3013685
9.38                 0.736853162      32.1820648
9.381                0.737568381      32.0631417
9.382                0.738280314      31.9445969
9.383                0.738988976      31.8264281
9.384                0.739694383      31.7086332
9.385                 0.74039655        31.59121
9.386                0.741095494      31.4741563
9.387                0.741791228        31.35747
9.388                0.742483768      31.2411489
9.389                0.743173131      31.1251909
9.39                  0.74385933      31.0095939
9.391                0.744542381      30.8943557
9.392                0.745222299      30.7794744
9.393                0.745899099      30.6649478
9.394                0.746572796      30.5507738
9.395                0.747243405      30.4369505
9.396                 0.74791094      30.3234759
