! TOUCHSTONE file generated by CST DESIGN STUDIO
! Date and time: Tue Feb  4 16:44:48 2025
! Project name: C:\Work\MatlabApps\UnitCellOptimizationMatlab\CST\unitcell.cst
! Tree item: Tasks\Sweep1\SPara1\S-Parameters
! Header version: 2024
! Port assignment regex: !\s*Touchstone port\s*([0-9]+)\s*=\s*(CST MWS port|CST DES external port|CST DES block port)\s*(.+)\s* \(\"(.*)\"\)(\s*mode\s*([0-9]+))?.*
! Touchstone port assignment:
! Touchstone port 1 = CST DES external port 1 ("")
# GHz S MA R 50
9                    0.928864169     -52.1545581
9.001                0.928663665      -52.225358
9.002                0.928462382       -52.29633
9.003                0.928260318     -52.3674747
9.004                 0.92805747     -52.4387927
9.005                0.927853833     -52.5102848
9.006                0.927649404     -52.5819514
9.007                 0.92744418     -52.6537932
9.008                0.927238157     -52.7258109
9.009                0.927031331      -52.798005
9.01                 0.926823698     -52.8703763
9.011                0.926615256     -52.9429252
9.012                   0.926406     -53.0156526
9.013                0.926195926     -53.0885589
9.014                0.925985032     -53.1616449
9.015                0.925773313     -53.2349113
9.016                0.925560765     -53.3083585
9.017                0.925347385     -53.3819874
9.018                0.925133169     -53.4557986
9.019                0.924918113     -53.5297926
9.02                 0.924702214     -53.6039703
9.021                0.924485467     -53.6783322
9.022                0.924267869      -53.752879
9.023                0.924049415     -53.8276114
9.024                0.923830103     -53.9025301
9.025                0.923609927     -53.9776357
9.026                0.923388885     -54.0529289
9.027                0.923166971     -54.1284104
9.028                0.922944183     -54.2040809
9.029                0.922720516      -54.279941
9.03                 0.922495967     -54.3559915
9.031                 0.92227053     -54.4322331
9.032                0.922044203     -54.5086664
9.033                0.921816981     -54.5852922
9.034                 0.92158886     -54.6621111
9.035                0.921359836     -54.7391239
9.036                0.921129904     -54.8163313
9.037                0.920899062     -54.8937339
9.038                0.920667304     -54.9713326
9.039                0.920434626     -55.0491279
9.04                 0.920201025     -55.1271207
9.041                0.919966495     -55.2053117
9.042                0.919731033     -55.2837016
9.043                0.919494635     -55.3622911
9.044                0.919257296      -55.441081
9.045                0.919019012      -55.520072
9.046                0.918779779     -55.5992649
9.047                0.918539592     -55.6786603
9.048                0.918298447     -55.7582591
9.049                0.918056339      -55.838062
9.05                 0.917813265     -55.9180697
9.051                0.917569219     -55.9982831
9.052                0.917324198     -56.0787028
9.053                0.917078197     -56.1593297
9.054                0.916831211     -56.2401645
9.055                0.916583237     -56.3212079
9.056                0.916334268     -56.4024609
9.057                0.916084302      -56.483924
9.058                0.915833333     -56.5655982
9.059                0.915581356     -56.6474842
9.06                 0.915328368     -56.7295829
9.061                0.915074363     -56.8118949
9.062                0.914819338     -56.8944211
9.063                0.914563286     -56.9771623
9.064                0.914306204     -57.0601193
9.065                0.914048087     -57.1432929
9.066                 0.91378893     -57.2266839
9.067                0.913528729     -57.3102932
9.068                0.913267478     -57.3941216
9.069                0.913005173     -57.4781698
9.07                 0.912741809     -57.5624387
9.071                0.912477382     -57.6469292
9.072                0.912211885     -57.7316421
9.073                0.911945315     -57.8165781
9.074                0.911677667     -57.9017383
9.075                0.911408935     -57.9871233
9.076                0.911139116     -58.0727341
9.077                0.910868202     -58.1585715
9.078                0.910596191     -58.2446364
9.079                0.910323076     -58.3309296
9.08                 0.910048853      -58.417452
9.081                0.909773517     -58.5042044
9.082                0.909497062     -58.5911878
9.083                0.909219484     -58.6784031
9.084                0.908940778      -58.765851
9.085                0.908660937     -58.8535325
9.086                0.908379958     -58.9414485
9.087                0.908097834     -59.0295998
9.088                0.907814561     -59.1179874
9.089                0.907530134     -59.2066122
9.09                 0.907244546      -59.295475
9.091                0.906957794     -59.3845769
9.092                0.906669871     -59.4739186
9.093                0.906380773     -59.5635012
9.094                0.906090493     -59.6533255
9.095                0.905799027     -59.7433925
9.096                0.905506369      -59.833703
9.097                0.905212514     -59.9242581
9.098                0.904917456     -60.0150587
9.099                 0.90462119     -60.1061057
9.1                  0.904323711     -60.1974001
9.101                0.904025012     -60.2889428
9.102                0.903725089     -60.3807348
9.103                0.903423935      -60.472777
9.104                0.903121545     -60.5650705
9.105                0.902817914     -60.6576161
9.106                0.902513036     -60.7504148
9.107                0.902206905     -60.8434677
9.108                0.901899516     -60.9367758
9.109                0.901590863     -61.0303399
9.11                  0.90128094     -61.1241611
9.111                0.900969741     -61.2182405
9.112                0.900657261     -61.3125789
9.113                0.900343494     -61.4071775
9.114                0.900028434     -61.5020371
9.115                0.899712075      -61.597159
9.116                0.899394412     -61.6925439
9.117                0.899075438     -61.7881931
9.118                0.898755148     -61.8841075
9.119                0.898433535     -61.9802881
9.12                 0.898110594      -62.076736
9.121                0.897786318     -62.1734523
9.122                0.897460702     -62.2704379
9.123                 0.89713374      -62.367694
9.124                0.896805425     -62.4652216
9.125                0.896475752     -62.5630218
9.126                0.896144715     -62.6610956
9.127                0.895812306     -62.7594441
9.128                0.895478521     -62.8580684
9.129                0.895143352     -62.9569696
9.13                 0.894806795     -63.0561487
9.131                0.894468841      -63.155607
9.132                0.894129487     -63.2553453
9.133                0.893788724      -63.355365
9.134                0.893446546      -63.455667
9.135                0.893102949     -63.5562525
9.136                0.892757924     -63.6571226
9.137                0.892411466     -63.7582784
9.138                0.892063568     -63.8597211
9.139                0.891714224     -63.9614519
9.14                 0.891363427     -64.0634717
9.141                0.891011172     -64.1657819
9.142                0.890657451     -64.2683835
9.143                0.890302258     -64.3712777
9.144                0.889945586     -64.4744656
9.145                0.889587429     -64.5779485
9.146                0.889227781     -64.6817275
9.147                0.888866634     -64.7858038
9.148                0.888503982     -64.8901786
9.149                0.888139819      -64.994853
9.15                 0.887774137     -65.0998283
9.151                0.887406931     -65.2051056
9.152                0.887038193     -65.3106862
9.153                0.886667916     -65.4165712
9.154                0.886296095      -65.522762
9.155                0.885922721     -65.6292597
9.156                0.885547788     -65.7360655
9.157                 0.88517129     -65.8431807
9.158                 0.88479322     -65.9506065
9.159                 0.88441357     -66.0583442
9.16                 0.884032334      -66.166395
9.161                0.883649504     -66.2747602
9.162                0.883265075     -66.3834411
9.163                0.882879038     -66.4924389
9.164                0.882491388     -66.6017548
9.165                0.882102116     -66.7113903
9.166                0.881711216     -66.8213464
9.167                0.881318681     -66.9316247
9.168                0.880924503     -67.0422263
9.169                0.880528676     -67.1531526
9.17                 0.880131193     -67.2644048
9.171                0.879732046     -67.3759844
9.172                0.879331228     -67.4878925
9.173                0.878928732     -67.6001306
9.174                0.878524551        -67.7127
9.175                0.878118677     -67.8256021
9.176                0.877711104     -67.9388381
9.177                0.877301823     -68.0524094
9.178                0.876890829     -68.1663175
9.179                0.876478112     -68.2805636
9.18                 0.876063667     -68.3951491
9.181                0.875647486     -68.5100755
9.182                 0.87522956     -68.6253441
9.183                0.874809884     -68.7409563
9.184                0.874388449     -68.8569135
9.185                0.873965249     -68.9732171
9.186                0.873540275     -69.0898685
9.187                 0.87311352     -69.2068692
9.188                0.872684977     -69.3242206
9.189                0.872254637     -69.4419241
9.19                 0.871822495     -69.5599811
9.191                0.871388542     -69.6783931
9.192                 0.87095277     -69.7971616
9.193                0.870515172      -69.916288
9.194                 0.87007574     -70.0357738
9.195                0.869634468     -70.1556204
9.196                0.869191346     -70.2758294
9.197                0.868746368     -70.3964022
9.198                0.868299525     -70.5173403
9.199                0.867850811     -70.6386453
9.2                  0.867400217     -70.7603186
9.201                0.866947736     -70.8823617
9.202                0.866493359     -71.0047762
9.203                 0.86603708     -71.1275636
9.204                0.865578891     -71.2507254
9.205                0.865118783     -71.3742633
9.206                0.864656749     -71.4981787
9.207                0.864192781     -71.6224731
9.208                0.863726871     -71.7471483
9.209                0.863259012     -71.8722057
9.21                 0.862789196     -71.9976469
9.211                0.862317414     -72.1234735
9.212                0.861843659     -72.2496871
9.213                0.861367923     -72.3762894
9.214                0.860890199     -72.5032818
9.215                0.860410477     -72.6306661
9.216                0.859928751     -72.7584439
9.217                0.859445013     -72.8866167
9.218                0.858959253     -73.0151863
9.219                0.858471466     -73.1441543
9.22                 0.857981642     -73.2735223
9.221                0.857489774     -73.4032921
9.222                0.856995853     -73.5334652
9.223                0.856499872     -73.6640434
9.224                0.856001823     -73.7950283
9.225                0.855501698     -73.9264217
9.226                0.854999488     -74.0582252
9.227                0.854495186     -74.1904406
9.228                0.853988784     -74.3230696
9.229                0.853480274     -74.4561139
9.23                 0.852969647     -74.5895752
9.231                0.852456897     -74.7234553
9.232                0.851942013     -74.8577559
9.233                 0.85142499     -74.9924788
9.234                0.850905819     -75.1276258
9.235                0.850384491     -75.2631987
9.236                0.849860998     -75.3991991
9.237                0.849335334      -75.535629
9.238                0.848807488       -75.67249
9.239                0.848277455     -75.8097841
9.24                 0.847745225     -75.9475131
9.241                0.847210791     -76.0856787
9.242                0.846674144     -76.2242828
9.243                0.846135276     -76.3633272
9.244                 0.84559418     -76.5028138
9.245                0.845050848     -76.6427445
9.246                0.844505271     -76.7831211
9.247                0.843957441     -76.9239455
9.248                0.843407351     -77.0652196
9.249                0.842854993     -77.2069452
9.25                 0.842300358     -77.3491243
9.251                0.841743439     -77.4917589
9.252                0.841184227     -77.6348507
9.253                0.840622716     -77.7784017
9.254                0.840058895     -77.9224139
9.255                0.839492759     -78.0668893
9.256                0.838924299     -78.2118297
9.257                0.838353507     -78.3572372
9.258                0.837780375     -78.5031136
9.259                0.837204895     -78.6494611
9.26                  0.83662706     -78.7962815
9.261                0.836046862      -78.943577
9.262                0.835464292     -79.0913494
9.263                0.834879343     -79.2396008
9.264                0.834292008     -79.3883333
9.265                0.833702278     -79.5375488
9.266                0.833110147     -79.6872495
9.267                0.832515605     -79.8374373
9.268                0.831918646     -79.9881144
9.269                0.831319261     -80.1392828
9.27                 0.830717444     -80.2909446
9.271                0.830113186     -80.4431019
9.272                 0.82950648     -80.5957568
9.273                0.828897319     -80.7489114
9.274                0.828285694     -80.9025678
9.275                0.827671599     -81.0567282
9.276                0.827055026     -81.2113947
9.277                0.826435967     -81.3665694
9.278                0.825814416     -81.5222546
9.279                0.825190364     -81.6784523
9.28                 0.824563805     -81.8351647
9.281                0.823934732     -81.9923941
9.282                0.823303136     -82.1501426
9.283                0.822669011     -82.3084125
9.284                0.822032349      -82.467206
9.285                0.821393145     -82.6265252
9.286                0.820751389     -82.7863725
9.287                0.820107076     -82.9467501
9.288                0.819460199     -83.1076601
9.289                 0.81881075      -83.269105
9.29                 0.818158723      -83.431087
9.291                0.817504111     -83.5936083
9.292                0.816846906     -83.7566714
9.293                0.816187104     -83.9202783
9.294                0.815524695     -84.0844316
9.295                0.814859675     -84.2491335
9.296                0.814192037     -84.4143863
9.297                0.813521773     -84.5801925
9.298                0.812848878     -84.7465543
9.299                0.812173346     -84.9134741
9.3                  0.811495169     -85.0809543
9.301                0.810814342     -85.2489974
9.302                0.810130858     -85.4176056
9.303                0.809444712     -85.5867815
9.304                0.808755898     -85.7565274
9.305                0.808064409     -85.9268457
9.306                0.807370239     -86.0977389
9.307                0.806673383     -86.2692095
9.308                0.805973835     -86.4412599
9.309                 0.80527159     -86.6138926
9.31                 0.804566641       -86.78711
9.311                0.803858984     -86.9609148
9.312                0.803148613     -87.1353093
9.313                0.802435522      -87.310296
9.314                0.801719706     -87.4858776
9.315                0.801001161     -87.6620565
9.316                0.800279881     -87.8388353
9.317                0.799555861     -88.0162166
9.318                0.798829097     -88.1942028
9.319                0.798099583     -88.3727967
9.32                 0.797367315     -88.5520007
9.321                0.796632288     -88.7318176
9.322                0.795894499     -88.9122498
9.323                0.795153942        -89.0933
9.324                0.794410613     -89.2749709
9.325                0.793664509     -89.4572651
9.326                0.792915624     -89.6401852
9.327                0.792163956      -89.823734
9.328                0.791409501      -90.007914
9.329                0.790652254      -90.192728
9.33                 0.789892212     -90.3781786
9.331                0.789129373     -90.5642687
9.332                0.788363732     -90.7510008
9.333                0.787595286     -90.9383778
9.334                0.786824033     -91.1264024
9.335                0.786049969     -91.3150772
9.336                0.785273091     -91.5044052
9.337                0.784493398      -91.694389
9.338                0.783710886     -91.8850315
9.339                0.782925554     -92.0763353
9.34                 0.782137398     -92.2683035
9.341                0.781346417     -92.4609387
9.342                0.780552609     -92.6542438
9.343                0.779755973     -92.8482216
9.344                0.778956506      -93.042875
9.345                0.778154207     -93.2382068
9.346                0.777349075       -93.43422
9.347                0.776541108     -93.6309173
9.348                0.775730307     -93.8283017
9.349                0.774916669     -94.0263761
9.35                 0.774100195     -94.2251435
9.351                0.773280884     -94.4246066
9.352                0.772458735     -94.6247685
9.353                0.771633749     -94.8256322
9.354                0.770805926     -95.0272005
9.355                0.769975265     -95.2294764
9.356                0.769141768      -95.432463
9.357                0.768305435     -95.6361632
9.358                0.767466267       -95.84058
9.359                0.766624264     -96.0457164
9.36                 0.765779429     -96.2515755
9.361                0.764931763     -96.4581602
9.362                0.764081266     -96.6654737
9.363                0.763227942      -96.873519
9.364                0.762371792      -97.082299
9.365                0.761512819      -97.291817
9.366                0.760651025      -97.502076
9.367                0.759786412     -97.7130791
9.368                0.758918984     -97.9248294
9.369                0.758048744       -98.13733
9.37                 0.757175695      -98.350584
9.371                0.756299842     -98.5645946
9.372                0.755421187     -98.7793649
9.373                0.754539735     -98.9948981
9.374                 0.75365549     -99.2111974
9.375                0.752768457     -99.4282658
9.376                0.751878641     -99.6461067
9.377                0.750986047     -99.8647231
9.378                0.750090681     -100.084118
9.379                0.749192547     -100.304296
9.38                 0.748291653     -100.525258
9.381                0.747388003     -100.747009
9.382                0.746481605     -100.969552
9.383                0.745572465      -101.19289
9.384                 0.74466059     -101.417025
9.385                0.743745988     -101.641963
9.386                0.742828666     -101.867705
9.387                0.741908632     -102.094255
9.388                0.740985894     -102.321617
9.389                0.740060461     -102.549793
9.39                 0.739132341     -102.778787
9.391                0.738201544     -103.008603
9.392                0.737268078     -103.239243
9.393                0.736331954     -103.470711
9.394                0.735393181      -103.70301
9.395                 0.73445177     -103.936144
9.396                0.733507732     -104.170116
