! TOUCHSTONE file generated by CST DESIGN STUDIO
! Date and time: Tue Feb  4 16:44:39 2025
! Project name: C:\Work\MatlabApps\UnitCellOptimizationMatlab\CST\unitcell.cst
! Tree item: Tasks\Sweep1\SPara1\S-Parameters
! Header version: 2024
! Port assignment regex: !\s*Touchstone port\s*([0-9]+)\s*=\s*(CST MWS port|CST DES external port|CST DES block port)\s*(.+)\s* \(\"(.*)\"\)(\s*mode\s*([0-9]+))?.*
! Touchstone port assignment:
! Touchstone port 1 = CST DES external port 1 ("")
# GHz S MA R 50
9                    0.477426274      71.8967537
9.001                0.479353758       71.575523
9.002                0.481275671      71.2565032
9.003                0.483191952      70.9396675
9.004                0.485102545      70.6249897
9.005                0.487007393      70.3124438
9.006                0.488906443      70.0020045
9.007                0.490799643      69.6936469
9.008                0.492686943      69.3873462
9.009                0.494568295      69.0830785
9.01                 0.496443653        68.78082
9.011                0.498312973      68.4805474
9.012                0.500176211      68.1822376
9.013                0.502033328      67.8858682
9.014                0.503884282      67.5914169
9.015                0.505729037       67.298862
9.016                0.507567556      67.0081819
9.017                0.509399805      66.7193555
9.018                 0.51122575      66.4323622
9.019                0.513045361      66.1471814
9.02                 0.514858605       65.863793
9.021                0.516665456      65.5821774
9.022                0.518465884      65.3023149
9.023                0.520259865      65.0241866
9.024                0.522047373      64.7477736
9.025                0.523828385      64.4730573
9.026                0.525602879      64.2000195
9.027                0.527370834      63.9286423
9.028                0.529132229      63.6589079
9.029                0.530887047      63.3907991
9.03                  0.53263527      63.1242987
9.031                0.534376881      62.8593898
9.032                0.536111866      62.5960559
9.033                 0.53784021      62.3342805
9.034                  0.5395619      62.0740478
9.035                0.541276924      61.8153417
9.036                0.542985271      61.5581468
9.037                0.544686932      61.3024477
9.038                0.546381896      61.0482292
9.039                0.548070156      60.7954764
9.04                 0.549751704      60.5441747
9.041                0.551426534      60.2943097
9.042                0.553094642       60.045867
9.043                0.554756021      59.7988327
9.044                0.556410668       59.553193
9.045                0.558058581      59.3089341
9.046                0.559699757      59.0660428
9.047                0.561334194      58.8245058
9.048                0.562961893        58.58431
9.049                0.564582853      58.3454425
9.05                 0.566197074      58.1078909
9.051                 0.56780456      57.8716424
9.052                0.569405311       57.636685
9.053                 0.57099933      57.4030063
9.054                0.572586622      57.1705945
9.055                 0.57416719      56.9394377
9.056                0.575741039      56.7095244
9.057                0.577308175      56.4808431
9.058                0.578868603      56.2533824
9.059                0.580422331      56.0271312
9.06                 0.581969365      55.8020785
9.061                0.583509712      55.5782134
9.062                0.585043382      55.3555252
9.063                0.586570383      55.1340035
9.064                0.588090725      54.9136376
9.065                0.589604416      54.6944174
9.066                0.591111468      54.4763328
9.067                 0.59261189      54.2593736
9.068                0.594105695      54.0435301
9.069                0.595592893      53.8287924
9.07                 0.597073497       53.615151
9.071                0.598547519      53.4025963
9.072                0.600014973       53.191119
9.073                0.601475871      52.9807098
9.074                0.602930227      52.7713595
9.075                0.604378055      52.5630592
9.076                0.605819369      52.3557999
9.077                0.607254185      52.1495729
9.078                0.608682517      51.9443693
9.079                0.610104381      51.7401807
9.08                 0.611519792      51.5369986
9.081                0.612928768      51.3348146
9.082                0.614331323      51.1336205
9.083                0.615727475       50.933408
9.084                 0.61711724      50.7341691
9.085                0.618500637      50.5358958
9.086                0.619877682      50.3385803
9.087                0.621248394      50.1422148
9.088                 0.62261279      49.9467916
9.089                0.623970888       49.752303
9.09                 0.625322708      49.5587417
9.091                0.626668267         49.3661
9.092                0.628007586      49.1743709
9.093                0.629340683      48.9835469
9.094                0.630667577      48.7936209
9.095                0.631988288      48.6045858
9.096                0.633302836      48.4164347
9.097                0.634611242      48.2291605
9.098                0.635913524      48.0427566
9.099                0.637209704       47.857216
9.1                  0.638499801      47.6725322
9.101                0.639783838      47.4886984
9.102                0.641061834      47.3057082
9.103                 0.64233381      47.1235551
9.104                0.643599788      46.9422327
9.105                0.644859789      46.7617346
9.106                0.646113834      46.5820546
9.107                0.647361944      46.4031866
9.108                0.648604142      46.2251243
9.109                0.649840449      46.0478617
9.11                 0.651070888      45.8713929
9.111                0.652295479      45.6957119
9.112                0.653514245      45.5208129
9.113                0.654727208        45.34669
9.114                 0.65593439      45.1733374
9.115                0.657135814      45.0007496
9.116                0.658331503      44.8289209
9.117                0.659521478      44.6578457
9.118                0.660705762      44.4875186
9.119                0.661884378      44.3179339
9.12                 0.663057348      44.1490865
9.121                0.664224696      43.9809709
9.122                0.665386443      43.8135819
9.123                0.666542613      43.6469142
9.124                 0.66769323      43.4809626
9.125                0.668838314       43.315722
9.126                0.669977891      43.1511873
9.127                0.671111982      42.9873536
9.128                0.672240611      42.8242158
9.129                  0.6733638       42.661769
9.13                 0.674481574      42.5000084
9.131                0.675593954       42.338929
9.132                0.676700965      42.1785261
9.133                0.677802629      42.0187951
9.134                0.678898969      41.8597311
9.135                0.679990009      41.7013295
9.136                0.681075772      41.5435858
9.137                0.682156281      41.3864954
9.138                0.683231559      41.2300537
9.139                 0.68430163      41.0742563
9.14                 0.685366516      40.9190988
9.141                0.686426241      40.7645767
9.142                0.687480828      40.6106858
9.143                0.688530299      40.4574217
9.144                 0.68957468      40.3047801
9.145                0.690613991      40.1527569
9.146                0.691648257      40.0013478
9.147                  0.6926775      39.8505487
9.148                0.693701744      39.7003555
9.149                0.694721012       39.550764
9.15                 0.695735326      39.4017703
9.151                 0.69674471      39.2533704
9.152                0.697749187      39.1055603
9.153                0.698748778       38.958336
9.154                0.699743509      38.8116937
9.155                  0.7007334      38.6656295
9.156                0.701718476      38.5201396
9.157                0.702698758      38.3752202
9.158                 0.70367427      38.2308675
9.159                0.704645034      38.0870778
9.16                 0.705611073      37.9438474
9.161                0.706572409      37.8011726
9.162                0.707529065      37.6590499
9.163                0.708481063      37.5174756
9.164                0.709428426      37.3764461
9.165                0.710371177       37.235958
9.166                0.711309337      37.0960077
9.167                0.712242929      36.9565917
9.168                0.713171975      36.8177066
9.169                0.714096497      36.6793489
9.17                 0.715016518      36.5415154
9.171                0.715932058      36.4042025
9.172                0.716843142       36.267407
9.173                0.717749789      36.1311256
9.174                0.718652022      35.9953551
9.175                0.719549864       35.860092
9.176                0.720443335      35.7253333
9.177                0.721332457      35.5910758
9.178                0.722217252      35.4573162
9.179                0.723097742      35.3240514
9.18                 0.723973947      35.1912783
9.181                 0.72484589      35.0589938
9.182                0.725713591      34.9271949
9.183                0.726577072      34.7958784
9.184                0.727436354      34.6650414
9.185                0.728291458      34.5346809
9.186                0.729142405       34.404794
9.187                0.729989216      34.2753775
9.188                0.730831912      34.1464288
9.189                0.731670513      34.0179447
9.19                 0.732505041      33.8899225
9.191                0.733335517      33.7623594
9.192                 0.73416196      33.6352524
9.193                0.734984391      33.5085988
9.194                 0.73580283      33.3823957
9.195                0.736617299      33.2566405
9.196                0.737427817      33.1313303
9.197                0.738234404      33.0064625
9.198                 0.73903708      32.8820343
9.199                0.739835866      32.7580431
9.2                  0.740630782      32.6344861
9.201                0.741421846      32.5113609
9.202                 0.74220908      32.3886646
9.203                0.742992503      32.2663948
9.204                0.743772134      32.1445489
9.205                0.744547992      32.0231242
9.206                0.745320099      31.9021183
9.207                0.746088471      31.7815287
9.208                 0.74685313      31.6613527
9.209                0.747614094       31.541588
9.21                 0.748371383      31.4222321
9.211                0.749125015      31.3032825
9.212                0.749875009      31.1847368
9.213                0.750621384      31.0665926
9.214                0.751364159      30.9488474
9.215                0.752103353       30.831499
9.216                0.752838984      30.7145449
9.217                0.753571071      30.5979829
9.218                0.754299633      30.4818105
9.219                0.755024687      30.3660256
9.22                 0.755746251      30.2506257
9.221                0.756464345      30.1356086
9.222                0.757178986      30.0209721
9.223                0.757890193      29.9067139
9.224                0.758597982      29.7928318
9.225                0.759302373      29.6793236
9.226                0.760003382      29.5661871
9.227                0.760701028      29.4534201
9.228                0.761395328      29.3410205
9.229                0.762086299       29.228986
9.23                  0.76277396      29.1173147
9.231                0.763458327      29.0060042
9.232                0.764139417      28.8950527
9.233                0.764817248      28.7844579
9.234                0.765491838      28.6742178
9.235                0.766163202      28.5643304
9.236                0.766831358      28.4547935
9.237                0.767496323      28.3456052
9.238                0.768158113      28.2367635
9.239                0.768816745      28.1282663
9.24                 0.769472236      28.0201117
9.241                0.770124602      27.9122977
9.242                 0.77077386      27.8048223
9.243                0.771420026      27.6976836
9.244                0.772063116      27.5908797
9.245                0.772703147      27.4844086
9.246                0.773340134      27.3782684
9.247                0.773974093      27.2724573
9.248                0.774605041      27.1669734
9.249                0.775232993      27.0618147
9.25                 0.775857966      26.9569794
9.251                0.776479974      26.8524658
9.252                0.777099033      26.7482719
9.253                0.777715159       26.644396
9.254                0.778328368      26.5408362
9.255                0.778938674      26.4375908
9.256                0.779546093      26.3346579
9.257                 0.78015064      26.2320358
9.258                0.780752331      26.1297228
9.259                0.781351179       26.027717
9.26                 0.781947201      25.9260169
9.261                0.782540411      25.8246205
9.262                0.783130824      25.7235263
9.263                0.783718454      25.6227325
9.264                0.784303317      25.5222374
9.265                0.784885426      25.4220395
9.266                0.785464797      25.3221368
9.267                0.786041443       25.222528
9.268                0.786615379      25.1232112
9.269                 0.78718662      25.0241849
9.27                 0.787755179      24.9254474
9.271                 0.78832107      24.8269971
9.272                0.788884308      24.7288325
9.273                0.789444906      24.6309519
9.274                0.790002879      24.5333537
9.275                0.790558239      24.4360364
9.276                0.791111002      24.3389984
9.277                 0.79166118      24.2422381
9.278                0.792208787      24.1457541
9.279                0.792753836      24.0495447
9.28                 0.793296341      23.9536085
9.281                0.793836316       23.857944
9.282                0.794373773      23.7625495
9.283                0.794908725      23.6674238
9.284                0.795441187      23.5725652
9.285                 0.79597117      23.4779723
9.286                0.796498688      23.3836436
9.287                0.797023753      23.2895776
9.288                0.797546379       23.195773
9.289                0.798066579      23.1022283
9.29                 0.798584364       23.008942
9.291                0.799099748      22.9159128
9.292                0.799612743      22.8231391
9.293                0.800123362      22.7306197
9.294                0.800631616      22.6383531
9.295                0.801137519      22.5463379
9.296                0.801641082      22.4545728
9.297                0.802142319      22.3630564
9.298                0.802641239      22.2717873
9.299                0.803137857      22.1807642
9.3                  0.803632184      22.0899857
9.301                0.804124232      21.9994505
9.302                0.804614012      21.9091572
9.303                0.805101536      21.8191047
9.304                0.805586817      21.7292914
9.305                0.806069866      21.6397162
9.306                0.806550694      21.5503777
9.307                0.807029312      21.4612747
9.308                0.807505734      21.3724058
9.309                0.807979968      21.2837699
9.31                 0.808452028      21.1953655
9.311                0.808921924      21.1071916
9.312                0.809389668      21.0192468
9.313                 0.80985527      20.9315298
9.314                0.810318742      20.8440395
9.315                0.810780095      20.7567746
9.316                0.811239339       20.669734
9.317                0.811696485      20.5829163
9.318                0.812151545      20.4963204
9.319                0.812604529       20.409945
9.32                 0.813055447      20.3237891
9.321                0.813504311      20.2378514
9.322                 0.81395113      20.1521307
9.323                0.814395916      20.0666258
9.324                0.814838679      19.9813356
9.325                0.815279429       19.896259
9.326                0.815718176      19.8113948
9.327                0.816154932      19.7267418
9.328                0.816589705      19.6422989
9.329                0.817022506       19.558065
9.33                 0.817453345      19.4740389
9.331                0.817882233      19.3902195
9.332                0.818309178      19.3066058
9.333                0.818734192      19.2231966
9.334                0.819157283      19.1399908
9.335                0.819578463      19.0569873
9.336                0.819997739      18.9741851
9.337                0.820415123       18.891583
9.338                0.820830624        18.80918
9.339                 0.82124425       18.726975
9.34                 0.821656013      18.6449669
9.341                0.822065921      18.5631548
9.342                0.822473983      18.4815375
9.343                0.822880209       18.400114
9.344                0.823284609      18.3188832
9.345                0.823687191      18.2378442
9.346                0.824087965      18.1569959
9.347                0.824486939      18.0763373
9.348                0.824884124      17.9958674
9.349                0.825279527      17.9155851
9.35                 0.825673158      17.8354895
9.351                0.826065026      17.7555795
9.352                0.826455139      17.6758542
9.353                0.826843507      17.5963126
9.354                0.827230139      17.5169536
9.355                0.827615042      17.4377764
9.356                0.827998225        17.35878
9.357                0.828379698      17.2799633
9.358                0.828759468      17.2013254
9.359                0.829137545      17.1228654
9.36                 0.829513936      17.0445824
9.361                0.829888651      16.9664753
9.362                0.830261697      16.8885432
9.363                0.830633082      16.8107852
9.364                0.831002816      16.7332004
9.365                0.831370905      16.6557878
9.366                 0.83173736      16.5785466
9.367                0.832102186      16.5014757
9.368                0.832465393      16.4245744
9.369                0.832826989      16.3478417
9.37                 0.833186981      16.2712766
9.371                0.833545378      16.1948784
9.372                0.833902186       16.118646
9.373                0.834257416      16.0425787
9.374                0.834611072      15.9666755
9.375                0.834963165      15.8909356
9.376                0.835313701       15.815358
9.377                0.835662688       15.739942
9.378                0.836010134      15.6646866
9.379                0.836356045      15.5895911
9.38                 0.836700431      15.5146545
9.381                0.837043297       15.439876
9.382                0.837384653      15.3652547
9.383                0.837724504      15.2907899
9.384                0.838062858      15.2164806
9.385                0.838399723      15.1423261
9.386                0.838735106      15.0683255
9.387                0.839069014       14.994478
9.388                0.839401454      14.9207828
9.389                0.839732433       14.847239
9.39                 0.840061959      14.7738459
9.391                0.840390038      14.7006026
9.392                0.840716678      14.6275084
9.393                0.841041885      14.5545624
9.394                0.841365667      14.4817639
9.395                0.841688029       14.409112
9.396                 0.84200898       14.336606
