! TOUCHSTONE file generated by CST DESIGN STUDIO
! Date and time: Tue Feb  4 16:44:38 2025
! Project name: C:\Work\MatlabApps\UnitCellOptimizationMatlab\CST\unitcell.cst
! Tree item: Tasks\Sweep1\SPara1\S-Parameters
! Header version: 2024
! Port assignment regex: !\s*Touchstone port\s*([0-9]+)\s*=\s*(CST MWS port|CST DES external port|CST DES block port)\s*(.+)\s* \(\"(.*)\"\)(\s*mode\s*([0-9]+))?.*
! Touchstone port assignment:
! Touchstone port 1 = CST DES external port 1 ("")
# GHz S MA R 50
9                    0.707930731      39.1617124
9.001                0.708979303      39.0103033
9.002                0.710022475      38.8595302
9.003                0.711060274      38.7093886
9.004                0.712092729      38.5598742
9.005                0.713119865      38.4109827
9.006                0.714141712        38.26271
9.007                0.715158295      38.1150518
9.008                0.716169642       37.968004
9.009                0.717175779      37.8215624
9.01                 0.718176734       37.675723
9.011                0.719172534      37.5304817
9.012                0.720163205      37.3858345
9.013                0.721148774      37.2417774
9.014                0.722129268      37.0983066
9.015                0.723104712      36.9554179
9.016                0.724075135      36.8131077
9.017                0.725040562      36.6713721
9.018                0.726001019      36.5302072
9.019                0.726956532      36.3896094
9.02                 0.727907128      36.2495748
9.021                0.728852834      36.1100997
9.022                0.729793673      35.9711805
9.023                0.730729674      35.8328136
9.024                0.731660861      35.6949953
9.025                 0.73258726       35.557722
9.026                0.733508897      35.4209902
9.027                0.734425797      35.2847964
9.028                0.735337986      35.1491371
9.029                0.736245489      35.0140088
9.03                 0.737148331      34.8794082
9.031                0.738046537      34.7453317
9.032                0.738940133       34.611776
9.033                0.739829143      34.4787378
9.034                0.740713592      34.3462137
9.035                0.741593505      34.2142006
9.036                0.742468907       34.082695
9.037                0.743339822      33.9516938
9.038                0.744206275      33.8211937
9.039                0.745068289      33.6911916
9.04                 0.745925889      33.5616843
9.041                  0.7467791      33.4326687
9.042                0.747627945      33.3041417
9.043                0.748472448      33.1761001
9.044                0.749312634       33.048541
9.045                0.750148525      32.9214613
9.046                0.750980145      32.7948579
9.047                0.751807518       32.668728
9.048                0.752630668      32.5430685
9.049                0.753449617      32.4178765
9.05                 0.754264389      32.2931491
9.051                0.755075006      32.1688835
9.052                0.755881493      32.0450766
9.053                0.756683871      31.9217257
9.054                0.757482164       31.798828
9.055                0.758276394      31.6763807
9.056                0.759066583      31.5543809
9.057                0.759852754       31.432826
9.058                 0.76063493      31.3117132
9.059                0.761413133      31.1910397
9.06                 0.762187384      31.0708029
9.061                0.762957706      30.9510001
9.062                0.763724121      30.8316287
9.063                 0.76448665      30.7126859
9.064                0.765245316      30.5941693
9.065                0.766000139      30.4760762
9.066                0.766751141      30.3584041
9.067                0.767498344      30.2411503
9.068                0.768241768      30.1243123
9.069                0.768981436      30.0078877
9.07                 0.769717367       29.891874
9.071                0.770449583      29.7762686
9.072                0.771178105      29.6610691
9.073                0.771902954       29.546273
9.074                0.772624149       29.431878
9.075                0.773341712      29.3178816
9.076                0.774055663      29.2042815
9.077                0.774766022      29.0910752
9.078                0.775472809      28.9782604
9.079                0.776176045      28.8658349
9.08                 0.776875749      28.7537962
9.081                0.777571941       28.642142
9.082                0.778264642      28.5308702
9.083                 0.77895387      28.4199783
9.084                0.779639645      28.3094642
9.085                0.780321986      28.1993257
9.086                0.781000914      28.0895605
9.087                0.781676446      27.9801663
9.088                0.782348603      27.8711411
9.089                0.783017403      27.7624827
9.09                 0.783682865      27.6541888
9.091                0.784345008      27.5462574
9.092                 0.78500385      27.4386864
9.093                0.785659411      27.3314735
9.094                0.786311708      27.2246168
9.095                0.786960761      27.1181141
9.096                0.787606587      27.0119634
9.097                0.788249204      26.9061626
9.098                0.788888631      26.8007098
9.099                0.789524886      26.6956028
9.1                  0.790157985      26.5908397
9.101                0.790787949      26.4864184
9.102                0.791414793       26.382337
9.103                0.792038535      26.2785936
9.104                0.792659193      26.1751862
9.105                0.793276785      26.0721127
9.106                0.793891327      25.9693714
9.107                0.794502837      25.8669603
9.108                0.795111332      25.7648775
9.109                0.795716828      25.6631211
9.11                 0.796319344      25.5616893
9.111                0.796918894      25.4605801
9.112                0.797515497      25.3597918
9.113                0.798109168      25.2593225
9.114                0.798699925      25.1591703
9.115                0.799287783      25.0593336
9.116                0.799872759      24.9598104
9.117                0.800454869       24.860599
9.118                0.801034129      24.7616976
9.119                0.801610555      24.6631044
9.12                 0.802184164      24.5648178
9.121                 0.80275497       24.466836
9.122                 0.80332299      24.3691571
9.123                 0.80388824      24.2717797
9.124                0.804450734      24.1747018
9.125                0.805010488      24.0779219
9.126                0.805567519      23.9814382
9.127                 0.80612184      23.8852491
9.128                0.806673467      23.7893529
9.129                0.807222415      23.6937481
9.13                   0.8077687      23.5984328
9.131                0.808312336      23.5034056
9.132                0.808853337      23.4086648
9.133                 0.80939172      23.3142088
9.134                0.809927497       23.220036
9.135                0.810460685      23.1261448
9.136                0.810991296      23.0325337
9.137                0.811519347       22.939201
9.138                 0.81204485      22.8461453
9.139                0.812567821       22.753365
9.14                 0.813088273      22.6608586
9.141                0.813606221      22.5686245
9.142                0.814121678      22.4766612
9.143                0.814634658      22.3849673
9.144                0.815145175      22.2935411
9.145                0.815653243      22.2023814
9.146                0.816158875      22.1114865
9.147                0.816662085       22.020855
9.148                0.817162886      21.9304854
9.149                0.817661292      21.8403764
9.15                 0.818157316      21.7505265
9.151                0.818650971      21.6609342
9.152                0.819142271      21.5715981
9.153                0.819631227      21.4825168
9.154                0.820117855       21.393689
9.155                0.820602165      21.3051131
9.156                0.821084172       21.216788
9.157                0.821563887       21.128712
9.158                0.822041324       21.040884
9.159                0.822516495      20.9533025
9.16                 0.822989412      20.8659663
9.161                0.823460089      20.7788738
9.162                0.823928537      20.6920239
9.163                0.824394768      20.6054152
9.164                0.824858795      20.5190464
9.165                 0.82532063      20.4329162
9.166                0.825780285      20.3470232
9.167                0.826237772      20.2613663
9.168                0.826693103       20.175944
9.169                 0.82714629      20.0907551
9.17                 0.827597344      20.0057985
9.171                0.828046277      19.9210727
9.172                0.828493101      19.8365765
9.173                0.828937827      19.7523088
9.174                0.829380467      19.6682683
9.175                0.829821032      19.5844536
9.176                0.830259534      19.5008637
9.177                0.830695983      19.4174973
9.178                0.831130392      19.3343532
9.179                 0.83156277      19.2514302
9.18                  0.83199313      19.1687271
9.181                0.832421481      19.0862427
9.182                0.832847836      19.0039759
9.183                0.833272205      18.9219254
9.184                0.833694598      18.8400901
9.185                0.834115026      18.7584689
9.186                0.834533501      18.6770605
9.187                0.834950032      18.5958639
9.188                0.835364631       18.514878
9.189                0.835777307      18.4341015
9.19                 0.836188071      18.3535334
9.191                0.836596933      18.2731725
9.192                0.837003904      18.1930178
9.193                0.837408993      18.1130681
9.194                0.837812212      18.0333224
9.195                0.838213569      17.9537795
9.196                0.838613076      17.8744383
9.197                0.839010741      17.7952979
9.198                0.839406575       17.716357
9.199                0.839800588      17.6376147
9.2                  0.840192789      17.5590699
9.201                0.840583188      17.4807216
9.202                0.840971795      17.4025686
9.203                0.841358619        17.32461
9.204                0.841743671      17.2468447
9.205                0.842126958      17.1692717
9.206                0.842508491      17.0918899
9.207                 0.84288828      17.0146984
9.208                0.843266332      16.9376962
9.209                0.843642659      16.8608822
9.21                 0.844017268      16.7842554
9.211                0.844390169      16.7078148
9.212                 0.84476137      16.6315595
9.213                0.845130882      16.5554885
9.214                0.845498713      16.4796007
9.215                0.845864872      16.4038953
9.216                0.846229367      16.3283713
9.217                0.846592207      16.2530276
9.218                0.846953402      16.1778634
9.219                 0.84731296      16.1028777
9.22                 0.847670889      16.0280695
9.221                0.848027198      15.9534379
9.222                0.848381896      15.8789821
9.223                 0.84873499      15.8047009
9.224                0.849086491      15.7305936
9.225                0.849436405      15.6566592
9.226                0.849784741      15.5828968
9.227                0.850131507      15.5093054
9.228                0.850476712      15.4358843
9.229                0.850820364      15.3626324
9.23                  0.85116247       15.289549
9.231                0.851503039       15.216633
9.232                 0.85184208      15.1438837
9.233                0.852179599      15.0713001
9.234                0.852515604      14.9988814
9.235                0.852850105      14.9266267
9.236                0.853183108      14.8545351
9.237                 0.85351462      14.7826058
9.238                0.853844651      14.7108379
9.239                0.854173208      14.6392306
9.24                 0.854500297      14.5677831
9.241                0.854825927      14.4964944
9.242                0.855150106      14.4253638
9.243                 0.85547284      14.3543904
9.244                0.855794138      14.2835734
9.245                0.856114006       14.212912
9.246                0.856432451      14.1424053
9.247                0.856749482      14.0720526
9.248                0.857065106       14.001853
9.249                0.857379329      13.9318058
9.25                 0.857692159        13.86191
9.251                0.858003603       13.792165
9.252                0.858313668        13.72257
9.253                 0.85862236      13.6531241
9.254                0.858929688      13.5838265
9.255                0.859235658      13.5146766
9.256                0.859540277      13.4456735
9.257                0.859843551      13.3768164
9.258                0.860145488      13.3081045
9.259                0.860446094      13.2395372
9.26                 0.860745376      13.1711137
9.261                0.861043341      13.1028331
9.262                0.861339996      13.0346948
9.263                0.861635346       12.966698
9.264                0.861929399      12.8988419
9.265                0.862222161      12.8311259
9.266                0.862513638      12.7635491
9.267                0.862803838      12.6961108
9.268                0.863092766      12.6288104
9.269                0.863380429      12.5616471
9.27                 0.863666833      12.4946201
9.271                0.863951984      12.4277288
9.272                0.864235889      12.3609725
9.273                0.864518554      12.2943504
9.274                0.864799985      12.2278618
9.275                0.865080188       12.161506
9.276                 0.86535917      12.0952823
9.277                0.865636936      12.0291901
9.278                0.865913492      11.9632286
9.279                0.866188845      11.8973971
9.28                    0.866463       11.831695
9.281                0.866735963      11.7661216
9.282                0.867007741      11.7006762
9.283                0.867278338      11.6353581
9.284                0.867547762      11.5701667
9.285                0.867816017      11.5051013
9.286                0.868083109      11.4401611
9.287                0.868349044      11.3753457
9.288                0.868613829      11.3106542
9.289                0.868877467      11.2460861
9.29                 0.869139965      11.1816407
9.291                0.869401329      11.1173173
9.292                0.869661564      11.0531154
9.293                0.869920676      10.9890342
9.294                0.870178669      10.9250731
9.295                 0.87043555      10.8612315
9.296                0.870691324      10.7975087
9.297                0.870945996      10.7339042
9.298                0.871199572      10.6704173
9.299                0.871452057      10.6070473
9.3                  0.871703455      10.5437937
9.301                0.871953773      10.4806559
9.302                0.872203016      10.4176331
9.303                0.872451189      10.3547249
9.304                0.872698296      10.2919306
9.305                0.872944343      10.2292495
9.306                0.873189336      10.1666812
9.307                0.873433279      10.1042249
9.308                0.873676176      10.0418801
9.309                0.873918035      9.97964627
9.31                 0.874158858      9.91752272
9.311                0.874398651      9.85550888
9.312                0.874637419      9.79360417
9.313                0.874875168      9.73180802
9.314                  0.8751119      9.67011984
9.315                0.875347623      9.60853905
9.316                0.875582339      9.54706508
9.317                0.875816055      9.48569735
9.318                0.876048775       9.4244353
9.319                0.876280503      9.36327836
9.32                 0.876511244      9.30222597
9.321                0.876741003      9.24127755
9.322                0.876969784      9.18043256
9.323                0.877197592      9.11969044
9.324                0.877424432      9.05905064
9.325                0.877650308      8.99851259
9.326                0.877875225      8.93807576
9.327                0.878099187      8.87773959
9.328                0.878322198      8.81750355
9.329                0.878544263      8.75736709
9.33                 0.878765387      8.69732967
9.331                0.878985573      8.63739076
9.332                0.879204827      8.57754982
9.333                0.879423151      8.51780632
9.334                0.879640552      8.45815973
9.335                0.879857032      8.39860953
9.336                0.880072597      8.33915518
9.337                 0.88028725      8.27979617
9.338                0.880500996      8.22053198
9.339                0.880713839      8.16136209
9.34                 0.880925782      8.10228598
9.341                0.881136831      8.04330315
9.342                0.881346989      7.98441307
9.343                0.881556259      7.92561525
9.344                0.881764648      7.86690917
9.345                0.881972157      7.80829434
9.346                0.882178792      7.74977024
9.347                0.882384556      7.69133639
9.348                0.882589453      7.63299227
9.349                0.882793488      7.57473741
9.35                 0.882996663       7.5165713
9.351                0.883198984      7.45849345
9.352                0.883400453      7.40050338
9.353                0.883601075      7.34260059
9.354                0.883800853       7.2847846
9.355                0.883999792      7.22705494
9.356                0.884197894      7.16941112
9.357                0.884395165      7.11185265
9.358                0.884591606      7.05437907
9.359                0.884787223       6.9969899
9.36                 0.884982019      6.93968467
9.361                0.885175997       6.8824629
9.362                0.885369162      6.82532413
9.363                0.885561516      6.76826789
9.364                0.885753064      6.71129372
9.365                0.885943808      6.65440115
9.366                0.886133753      6.59758973
9.367                0.886322902      6.54085899
9.368                0.886511258      6.48420847
9.369                0.886698826      6.42763773
9.37                 0.886885608      6.37114631
9.371                0.887071608      6.31473375
9.372                0.887256829      6.25839961
9.373                0.887441275      6.20214344
9.374                0.887624949       6.1459648
9.375                0.887807854      6.08986323
9.376                0.887989995      6.03383831
9.377                0.888171374      5.97788958
9.378                0.888351994      5.92201661
9.379                0.888531859      5.86621896
9.38                 0.888710972      5.81049619
9.381                0.888889336      5.75484788
9.382                0.889066955      5.69927359
9.383                0.889243832      5.64377289
9.384                0.889419969      5.58834535
9.385                0.889595371      5.53299055
9.386                 0.88977004      5.47770806
9.387                0.889943979      5.42249746
9.388                0.890117192      5.36735832
9.389                0.890289682      5.31229023
9.39                 0.890461451      5.25729277
9.391                0.890632503      5.20236551
9.392                0.890802841      5.14750805
9.393                0.890972468      5.09271998
9.394                0.891141386      5.03800087
9.395                  0.8913096      4.98335032
9.396                0.891477111      4.92876792
