! TOUCHSTONE file generated by CST DESIGN STUDIO
! Date and time: Tue Feb  4 12:41:20 2025
! Project name: C:\Work\MatlabApps\UnitCellOptimizationMatlab\CST\unitcell.cst
! Tree item: Tasks\Sweep1\SPara1\S-Parameters
! Header version: 2024
! Port assignment regex: !\s*Touchstone port\s*([0-9]+)\s*=\s*(CST MWS port|CST DES external port|CST DES block port)\s*(.+)\s* \(\"(.*)\"\)(\s*mode\s*([0-9]+))?.*
! Touchstone port assignment:
! Touchstone port 1 = CST DES external port 1 ("")
# GHz S MA R 50
9                    0.989736341     -71.8850323
9.001                0.989713336     -71.9898029
9.002                 0.98969026     -72.0948245
9.003                0.989667116      -72.200098
9.004                0.989643902     -72.3056241
9.005                0.989620618     -72.4114036
9.006                0.989597265     -72.5174372
9.007                0.989573841     -72.6237256
9.008                0.989550347     -72.7302697
9.009                0.989526783     -72.8370701
9.01                 0.989503149     -72.9441277
9.011                0.989479443     -73.0514433
9.012                0.989455667     -73.1590175
9.013                 0.98943182     -73.2668513
9.014                0.989407901     -73.3749452
9.015                0.989383911     -73.4833002
9.016                0.989359849      -73.591917
9.017                0.989335716     -73.7007964
9.018                0.989311511     -73.8099391
9.019                0.989287233      -73.919346
9.02                 0.989262884     -74.0290178
9.021                0.989238462     -74.1389554
9.022                0.989213967     -74.2491595
9.023                  0.9891894     -74.3596308
9.024                0.989164759     -74.4703703
9.025                0.989140046     -74.5813787
9.026                0.989115259     -74.6926568
9.027                0.989090399     -74.8042053
9.028                0.989065466     -74.9160252
9.029                0.989040458     -75.0281172
9.03                 0.989015377     -75.1404821
9.031                0.988990221     -75.2531207
9.032                0.988964991     -75.3660339
9.033                0.988939687     -75.4792223
9.034                0.988914309      -75.592687
9.035                0.988888855     -75.7064286
9.036                0.988863327      -75.820448
9.037                0.988837723      -75.934746
9.038                0.988812044     -76.0493235
9.039                 0.98878629     -76.1641812
9.04                 0.988760461       -76.27932
9.041                0.988734555     -76.3947407
9.042                0.988708574     -76.5104442
9.043                0.988682517     -76.6264312
9.044                0.988656384     -76.7427026
9.045                0.988630174     -76.8592593
9.046                0.988603888      -76.976102
9.047                0.988577525     -77.0932317
9.048                0.988551085     -77.2106491
9.049                0.988524568     -77.3283551
9.05                 0.988497975     -77.4463506
9.051                0.988471304     -77.5646364
9.052                0.988444555     -77.6832133
9.053                0.988417729     -77.8020822
9.054                0.988390826     -77.9212439
9.055                0.988363844     -78.0406994
9.056                0.988336785     -78.1604494
9.057                0.988309647     -78.2804948
9.058                0.988282431     -78.4008365
9.059                0.988255137     -78.5214753
9.06                 0.988227764     -78.6424121
9.061                0.988200312     -78.7636477
9.062                0.988172782     -78.8851831
9.063                0.988145172     -79.0070191
9.064                0.988117484     -79.1291565
9.065                0.988089716     -79.2515963
9.066                0.988061869     -79.3743393
9.067                0.988033942     -79.4973864
9.068                0.988005935     -79.6207384
9.069                0.987977849     -79.7443962
9.07                 0.987949683     -79.8683608
9.071                0.987921437      -79.992633
9.072                 0.98789311     -80.1172137
9.073                0.987864703     -80.2421037
9.074                0.987836216      -80.367304
9.075                0.987807648     -80.4928154
9.076                0.987778999     -80.6186388
9.077                 0.98775027     -80.7447752
9.078                 0.98772146     -80.8712254
9.079                0.987692568     -80.9979903
9.08                 0.987663596     -81.1250708
9.081                0.987634542     -81.2524678
9.082                0.987605407     -81.3801822
9.083                 0.98757619     -81.5082149
9.084                0.987546891     -81.6365668
9.085                0.987517511     -81.7652388
9.086                0.987488049     -81.8942318
9.087                0.987458505     -82.0235468
9.088                0.987428879     -82.1531846
9.089                 0.98739917      -82.283146
9.09                  0.98736938     -82.4134322
9.091                0.987339507     -82.5440439
9.092                0.987309551     -82.6749821
9.093                0.987279513     -82.8062476
9.094                0.987249393     -82.9378414
9.095                0.987219189     -83.0697645
9.096                0.987188903     -83.2020177
9.097                0.987158534     -83.3346019
9.098                0.987128081     -83.4675182
9.099                0.987097546     -83.6007673
9.1                  0.987066927     -83.7343502
9.101                0.987036225     -83.8682679
9.102                 0.98700544     -84.0025212
9.103                0.986974571     -84.1371111
9.104                0.986943619     -84.2720386
9.105                0.986912583     -84.4073045
9.106                0.986881464     -84.5429098
9.107                0.986850261     -84.6788554
9.108                0.986818974     -84.8151422
9.109                0.986787603     -84.9517712
9.11                 0.986756148     -85.0887433
9.111                0.986724609     -85.2260595
9.112                0.986692987     -85.3637206
9.113                 0.98666128     -85.5017277
9.114                0.986629489     -85.6400816
9.115                0.986597614     -85.7787833
9.116                0.986565654     -85.9178337
9.117                 0.98653361     -86.0572338
9.118                0.986501482     -86.1969845
9.119                 0.98646927     -86.3370867
9.12                 0.986436973     -86.4775414
9.121                0.986404592     -86.6183496
9.122                0.986372126     -86.7595122
9.123                0.986339576       -86.90103
9.124                0.986306941     -87.0429042
9.125                0.986274222     -87.1851355
9.126                0.986241418      -87.327725
9.127                 0.98620853     -87.4706736
9.128                0.986175557     -87.6139823
9.129                0.986142499     -87.7576519
9.13                 0.986109357     -87.9016835
9.131                 0.98607613      -88.046078
9.132                0.986042819     -88.1908363
9.133                0.986009422     -88.3359594
9.134                0.985975942     -88.4814483
9.135                0.985942376     -88.6273038
9.136                0.985908726      -88.773527
9.137                0.985874992     -88.9201187
9.138                0.985841173       -89.06708
9.139                0.985807269     -89.2144118
9.14                 0.985773281      -89.362115
9.141                0.985739209     -89.5101906
9.142                0.985705051     -89.6586395
9.143                 0.98567081     -89.8074627
9.144                0.985636484     -89.9566611
9.145                0.985602074     -90.1062357
9.146                0.985567579     -90.2561875
9.147                   0.985533     -90.4065173
9.148                0.985498338     -90.5572261
9.149                 0.98546359      -90.708315
9.15                 0.985428759     -90.8597847
9.151                0.985393844     -91.0116364
9.152                0.985358845     -91.1638708
9.153                0.985323762      -91.316489
9.154                0.985288595      -91.469492
9.155                0.985253345     -91.6228806
9.156                0.985218011     -91.7766558
9.157                0.985182593     -91.9308185
9.158                0.985147092     -92.0853698
9.159                0.985111507     -92.2403105
9.16                  0.98507584     -92.3956415
9.161                0.985040089     -92.5513639
9.162                0.985004255     -92.7074786
9.163                0.984968338     -92.8639865
9.164                0.984932339     -93.0208885
9.165                0.984896257     -93.1781856
9.166                0.984860092     -93.3358788
9.167                0.984823845     -93.4939688
9.168                0.984787516     -93.6524568
9.169                0.984751104     -93.8113436
9.17                 0.984714611     -93.9706302
9.171                0.984678036     -94.1303175
9.172                0.984641379     -94.2904064
9.173                0.984604641     -94.4508978
9.174                0.984567821     -94.6117928
9.175                 0.98453092     -94.7730921
9.176                0.984493938     -94.9347967
9.177                0.984456876     -95.0969077
9.178                0.984419733     -95.2594257
9.179                0.984382509     -95.4223519
9.18                 0.984345206     -95.5856871
9.181                0.984307822     -95.7494322
9.182                0.984270359     -95.9135882
9.183                0.984232816     -96.0781559
9.184                0.984195193     -96.2431363
9.185                0.984157492     -96.4085302
9.186                0.984119712     -96.5743386
9.187                0.984081853     -96.7405624
9.188                0.984043916     -96.9072025
9.189                  0.9840059     -97.0742598
9.19                 0.983967807     -97.2417351
9.191                0.983929636     -97.4096294
9.192                0.983891388     -97.5779436
9.193                0.983853062     -97.7466785
9.194                 0.98381466      -97.915835
9.195                0.983776182     -98.0854141
9.196                0.983737627     -98.2554166
9.197                0.983698996     -98.4258433
9.198                 0.98366029     -98.5966952
9.199                0.983621508     -98.7679732
9.2                  0.983582651      -98.939678
9.201                 0.98354372     -99.1118106
9.202                0.983504715     -99.2843718
9.203                0.983465635     -99.4573625
9.204                0.983426482     -99.6307835
9.205                0.983387256     -99.8046358
9.206                0.983347956       -99.97892
9.207                0.983308584     -100.153637
9.208                 0.98326914     -100.328788
9.209                0.983229624     -100.504374
9.21                 0.983190037     -100.680394
9.211                0.983150379     -100.856851
9.212                 0.98311065     -101.033746
9.213                0.983070851     -101.211078
9.214                0.983030982     -101.388848
9.215                0.982991044     -101.567059
9.216                0.982951037     -101.745709
9.217                0.982910961     -101.924801
9.218                0.982870818     -102.104335
9.219                0.982830606     -102.284311
9.22                 0.982790328     -102.464731
9.221                0.982749983     -102.645595
9.222                0.982709572     -102.826904
9.223                0.982669095      -103.00866
9.224                0.982628553     -103.190861
9.225                0.982587946     -103.373511
9.226                0.982547275     -103.556608
9.227                 0.98250654     -103.740154
9.228                0.982465743      -103.92415
9.229                0.982424882     -104.108597
9.23                  0.98238396     -104.293495
9.231                0.982342976     -104.478844
9.232                0.982301931     -104.664646
9.233                0.982260825     -104.850902
9.234                 0.98221966     -105.037612
9.235                0.982178435     -105.224776
9.236                0.982137152     -105.412396
9.237                0.982095811     -105.600472
9.238                0.982054412     -105.789005
9.239                0.982012957     -105.977996
9.24                 0.981971445     -106.167445
9.241                0.981929878     -106.357353
9.242                0.981888256      -106.54772
9.243                0.981846579     -106.738548
9.244                0.981804849     -106.929837
9.245                0.981763066     -107.121587
9.246                0.981721231     -107.313799
9.247                0.981679345     -107.506475
9.248                0.981637407     -107.699614
9.249                0.981595419     -107.893217
9.25                 0.981553382     -108.087284
9.251                0.981511296     -108.281817
9.252                0.981469162     -108.476816
9.253                0.981426981     -108.672282
9.254                0.981384753     -108.868214
9.255                 0.98134248     -109.064615
9.256                0.981300162     -109.261483
9.257                  0.9812578      -109.45882
9.258                0.981215394     -109.656627
9.259                0.981172946     -109.854904
9.26                 0.981130456     -110.053651
9.261                0.981087925     -110.252868
9.262                0.981045354     -110.452558
9.263                0.981002744     -110.652719
9.264                0.980960095     -110.853353
9.265                0.980917409      -111.05446
9.266                0.980874686      -111.25604
9.267                0.980831928     -111.458094
9.268                0.980789135     -111.660622
9.269                0.980746307     -111.863625
9.27                 0.980703447     -112.067104
9.271                0.980660555     -112.271058
9.272                0.980617631     -112.475489
9.273                0.980574677     -112.680395
9.274                0.980531694     -112.885779
9.275                0.980488683      -113.09164
9.276                0.980445644     -113.297979
9.277                0.980402579     -113.504796
9.278                0.980359489     -113.712091
9.279                0.980316374     -113.919866
9.28                 0.980273236     -114.128119
9.281                0.980230075     -114.336852
9.282                0.980186894     -114.546064
9.283                0.980143692     -114.755757
9.284                0.980100471      -114.96593
9.285                0.980057232     -115.176583
9.286                0.980013976     -115.387718
9.287                0.979970704     -115.599334
9.288                0.979927418     -115.811431
9.289                0.979884118      -116.02401
9.29                 0.979840805     -116.237071
9.291                0.979797481     -116.450614
9.292                0.979754146      -116.66464
9.293                0.979710803     -116.879148
9.294                0.979667451     -117.094138
9.295                0.979624093     -117.309612
9.296                 0.97958073     -117.525568
9.297                0.979537362     -117.742008
9.298                0.979493991     -117.958931
9.299                0.979450618     -118.176337
9.3                  0.979407244     -118.394227
9.301                0.979363871     -118.612601
9.302                  0.9793205     -118.831458
9.303                0.979277132     -119.050798
9.304                0.979233768     -119.270623
9.305                0.979190411     -119.490932
9.306                 0.97914706     -119.711724
9.307                0.979103717        -119.933
9.308                0.979060384      -120.15476
9.309                0.979017062     -120.377003
9.31                 0.978973753     -120.599731
9.311                0.978930457     -120.822942
9.312                0.978887176     -121.046637
9.313                0.978843912     -121.270815
9.314                0.978800665     -121.495477
9.315                0.978757438     -121.720622
9.316                0.978714231      -121.94625
9.317                0.978671046     -122.172361
9.318                0.978627885     -122.398956
9.319                0.978584749     -122.626033
9.32                 0.978541639     -122.853592
9.321                0.978498557     -123.081634
9.322                0.978455505     -123.310158
9.323                0.978412483     -123.539164
9.324                0.978369494     -123.768651
9.325                0.978326538      -123.99862
9.326                0.978283618      -124.22907
9.327                0.978240735     -124.460001
9.328                 0.97819789     -124.691412
9.329                0.978155085     -124.923303
9.33                 0.978112322     -125.155674
9.331                0.978069602     -125.388524
9.332                0.978026927     -125.621854
9.333                0.977984298     -125.855662
9.334                0.977941716     -126.089948
9.335                0.977899185     -126.324712
9.336                0.977856704     -126.559953
9.337                0.977814276     -126.795671
9.338                0.977771903     -127.031865
9.339                0.977729586     -127.268535
9.34                 0.977687326      -127.50568
9.341                0.977645126       -127.7433
9.342                0.977602987     -127.981394
9.343                0.977560911     -128.219962
9.344                0.977518899     -128.459003
9.345                0.977476954     -128.698516
9.346                0.977435076     -128.938501
9.347                0.977393268     -129.178956
9.348                0.977351532     -129.419882
9.349                0.977309868     -129.661278
9.35                  0.97726828     -129.903143
9.351                0.977226768     -130.145476
9.352                0.977185334     -130.388277
9.353                0.977143981     -130.631544
9.354                 0.97710271     -130.875277
9.355                0.977061522     -131.119475
9.356                0.977020421     -131.364137
9.357                0.976979406     -131.609263
9.358                0.976938481     -131.854852
9.359                0.976897647     -132.100902
9.36                 0.976856906     -132.347412
9.361                0.976816259     -132.594383
9.362                 0.97677571     -132.841812
9.363                0.976735258     -133.089699
9.364                0.976694907     -133.338043
9.365                0.976654659     -133.586843
9.366                0.976614514     -133.836098
9.367                0.976574476     -134.085807
9.368                0.976534545     -134.335968
9.369                0.976494724      -134.58658
9.37                 0.976455015     -134.837644
9.371                 0.97641542     -135.089156
9.372                 0.97637594     -135.341117
9.373                0.976336577     -135.593525
9.374                0.976297335     -135.846378
9.375                0.976258213     -136.099676
9.376                0.976219215     -136.353417
9.377                0.976180342       -136.6076
9.378                0.976141596     -136.862225
9.379                0.976102979     -137.117288
9.38                 0.976064494     -137.372789
9.381                0.976026142     -137.628728
9.382                0.975987924     -137.885101
9.383                0.975949844     -138.141909
9.384                0.975911903     -138.399149
9.385                0.975874103      -138.65682
9.386                0.975836446     -138.914921
9.387                0.975798934      -139.17345
9.388                0.975761569     -139.432406
9.389                0.975724354     -139.691786
9.39                 0.975687289     -139.951591
9.391                0.975650377     -140.211817
9.392                 0.97561362     -140.472463
9.393                0.975577021     -140.733528
9.394                 0.97554058     -140.995011
9.395                0.975504301     -141.256909
9.396                0.975468185      -141.51922
