! TOUCHSTONE file generated by CST DESIGN STUDIO
! Date and time: Tue Feb  4 12:41:21 2025
! Project name: C:\Work\MatlabApps\UnitCellOptimizationMatlab\CST\unitcell.cst
! Tree item: Tasks\Sweep1\SPara1\S-Parameters
! Header version: 2024
! Port assignment regex: !\s*Touchstone port\s*([0-9]+)\s*=\s*(CST MWS port|CST DES external port|CST DES block port)\s*(.+)\s* \(\"(.*)\"\)(\s*mode\s*([0-9]+))?.*
! Touchstone port assignment:
! Touchstone port 1 = CST DES external port 1 ("")
# GHz S MA R 50
9                    0.989933134     -70.9171397
9.001                0.989910931     -71.0198604
9.002                0.989888661     -71.1228264
9.003                0.989866324     -71.2260382
9.004                 0.98984392     -71.3294968
9.005                0.989821448     -71.4332028
9.006                0.989798908     -71.5371569
9.007                0.989776301       -71.64136
9.008                0.989753626     -71.7458128
9.009                0.989730883     -71.8505159
9.01                 0.989708071     -71.9554703
9.011                0.989685191     -72.0606765
9.012                0.989662242     -72.1661355
9.013                0.989639224     -72.2718478
9.014                0.989616138     -72.3778144
9.015                0.989592982      -72.484036
9.016                0.989569757     -72.5905132
9.017                0.989546462      -72.697247
9.018                0.989523098      -72.804238
9.019                0.989499663     -72.9114871
9.02                 0.989476159     -73.0189949
9.021                0.989452585     -73.1267623
9.022                 0.98942894     -73.2347901
9.023                0.989405225      -73.343079
9.024                0.989381439     -73.4516299
9.025                0.989357582     -73.5604434
9.026                0.989333654     -73.6695204
9.027                0.989309655     -73.7788617
9.028                0.989285585      -73.888468
9.029                0.989261443     -73.9983401
9.03                 0.989237229      -74.108479
9.031                0.989212944     -74.2188852
9.032                0.989188586     -74.3295597
9.033                0.989164157     -74.4405032
9.034                0.989139655     -74.5517165
9.035                 0.98911508     -74.6632005
9.036                0.989090433     -74.7749559
9.037                0.989065713     -74.8869835
9.038                 0.98904092     -74.9992842
9.039                0.989016054     -75.1118588
9.04                 0.988991114      -75.224708
9.041                0.988966101     -75.3378327
9.042                0.988941015     -75.4512338
9.043                0.988915854     -75.5649119
9.044                 0.98889062      -75.678868
9.045                0.988865312     -75.7931029
9.046                0.988839929     -75.9076174
9.047                0.988814472     -76.0224123
9.048                 0.98878894     -76.1374884
9.049                0.988763334     -76.2528466
9.05                 0.988737652     -76.3684877
9.051                0.988711896     -76.4844126
9.052                0.988686064      -76.600622
9.053                0.988660157     -76.7171169
9.054                0.988634175      -76.833898
9.055                0.988608117     -76.9509662
9.056                0.988581983     -77.0683224
9.057                0.988555773     -77.1859674
9.058                0.988529487      -77.303902
9.059                0.988503125      -77.422127
9.06                 0.988476686     -77.5406434
9.061                0.988450171     -77.6594521
9.062                0.988423579     -77.7785537
9.063                 0.98839691     -77.8979492
9.064                0.988370165     -78.0176396
9.065                0.988343342     -78.1376255
9.066                0.988316442     -78.2579079
9.067                0.988289464     -78.3784876
9.068                0.988262409     -78.4993656
9.069                0.988235276     -78.6205426
9.07                 0.988208066     -78.7420196
9.071                0.988180777     -78.8637974
9.072                0.988153411     -78.9858769
9.073                0.988125966      -79.108259
9.074                0.988098443     -79.2309445
9.075                0.988070841     -79.3539344
9.076                0.988043161     -79.4772294
9.077                0.988015402     -79.6008305
9.078                0.987987564     -79.7247386
9.079                0.987959647     -79.8489545
9.08                 0.987931651     -79.9734791
9.081                0.987903576     -80.0983134
9.082                0.987875421     -80.2234582
9.083                0.987847187     -80.3489144
9.084                0.987818873     -80.4746829
9.085                0.987790479     -80.6007646
9.086                0.987762006     -80.7271603
9.087                0.987733452     -80.8538711
9.088                0.987704819     -80.9808977
9.089                0.987676105     -81.1082411
9.09                 0.987647311     -81.2359022
9.091                0.987618436     -81.3638819
9.092                0.987589481     -81.4921811
9.093                0.987560446     -81.6208007
9.094                0.987531329     -81.7497416
9.095                0.987502132     -81.8790047
9.096                0.987472854      -82.008591
9.097                0.987443494     -82.1385013
9.098                0.987414054     -82.2687365
9.099                0.987384532     -82.3992976
9.1                  0.987354929     -82.5301855
9.101                0.987325245     -82.6614011
9.102                0.987295479     -82.7929454
9.103                0.987265631     -82.9248192
9.104                0.987235701     -83.0570234
9.105                 0.98720569      -83.189559
9.106                0.987175597      -83.322427
9.107                0.987145422     -83.4556282
9.108                0.987115165     -83.5891636
9.109                0.987084825      -83.723034
9.11                 0.987054404     -83.8572405
9.111                  0.9870239     -83.9917839
9.112                0.986993314     -84.1266652
9.113                0.986962646     -84.2618854
9.114                0.986931894     -84.3974453
9.115                0.986901061     -84.5333458
9.116                0.986870145      -84.669588
9.117                0.986839146     -84.8061728
9.118                0.986808064     -84.9431011
9.119                  0.9867769     -85.0803737
9.12                 0.986745652     -85.2179918
9.121                0.986714322     -85.3559562
9.122                0.986682909     -85.4942678
9.123                0.986651413     -85.6329277
9.124                0.986619833     -85.7719366
9.125                0.986588171     -85.9112957
9.126                0.986556425     -86.0510058
9.127                0.986524597     -86.1910679
9.128                0.986492685     -86.3314828
9.129                 0.98646069     -86.4722517
9.13                 0.986428612     -86.6133754
9.131                 0.98639645     -86.7548548
9.132                0.986364205      -86.896691
9.133                0.986331877     -87.0388848
9.134                0.986299465     -87.1814372
9.135                 0.98626697     -87.3243492
9.136                0.986234392     -87.4676217
9.137                 0.98620173     -87.6112557
9.138                0.986168985     -87.7552521
9.139                0.986136156     -87.8996119
9.14                 0.986103244      -88.044336
9.141                0.986070249     -88.1894254
9.142                 0.98603717      -88.334881
9.143                0.986004008     -88.4807037
9.144                0.985970763     -88.6268947
9.145                0.985937434     -88.7734547
9.146                0.985904022     -88.9203848
9.147                0.985870527     -89.0676858
9.148                0.985836948     -89.2153588
9.149                0.985803286     -89.3634048
9.15                 0.985769541     -89.5118246
9.151                0.985735713     -89.6606192
9.152                0.985701801     -89.8097896
9.153                0.985667807     -89.9593367
9.154                0.985633729     -90.1092615
9.155                0.985599569      -90.259565
9.156                0.985565325      -90.410248
9.157                0.985530999     -90.5613116
9.158                 0.98549659     -90.7127567
9.159                0.985462098     -90.8645842
9.16                 0.985427523     -91.0167951
9.161                0.985392866     -91.1693904
9.162                0.985358126      -91.322371
9.163                0.985323304     -91.4757379
9.164                  0.9852884      -91.629492
9.165                0.985253413     -91.7836342
9.166                0.985218344     -91.9381656
9.167                0.985183193      -92.093087
9.168                 0.98514796     -92.2483994
9.169                0.985112646     -92.4041038
9.17                 0.985077249     -92.5602011
9.171                0.985041771     -92.7166923
9.172                0.985006212     -92.8735782
9.173                0.984970571     -93.0308599
9.174                0.984934848     -93.1885383
9.175                0.984899045     -93.3466143
9.176                0.984863161     -93.5050888
9.177                0.984827196     -93.6639629
9.178                 0.98479115     -93.8232374
9.179                0.984755024     -93.9829133
9.18                 0.984718817     -94.1429915
9.181                0.984682531      -94.303473
9.182                0.984646164     -94.4643587
9.183                0.984609717     -94.6256494
9.184                0.984573191     -94.7873463
9.185                0.984536585     -94.9494501
9.186                  0.9844999     -95.1119618
9.187                0.984463136     -95.2748823
9.188                0.984426293     -95.4382126
9.189                0.984389372     -95.6019536
9.19                 0.984352371     -95.7661061
9.191                0.984315293     -95.9306712
9.192                0.984278137     -96.0956497
9.193                0.984240903     -96.2610425
9.194                0.984203591     -96.4268507
9.195                0.984166202     -96.5930749
9.196                0.984128736     -96.7597163
9.197                0.984091193     -96.9267756
9.198                0.984053573     -97.0942538
9.199                0.984015877     -97.2621518
9.2                  0.983978105     -97.4304705
9.201                0.983940258     -97.5992107
9.202                0.983902334     -97.7683734
9.203                0.983864336     -97.9379595
9.204                0.983826263     -98.1079698
9.205                0.983788115     -98.2784053
9.206                0.983749893     -98.4492667
9.207                0.983711597     -98.6205551
9.208                0.983673227     -98.7922712
9.209                0.983634784     -98.9644159
9.21                 0.983596268     -99.1369902
9.211                0.983557679     -99.3099949
9.212                0.983519018     -99.4834307
9.213                0.983480285     -99.6572987
9.214                0.983441481     -99.8315996
9.215                0.983402605     -100.006334
9.216                0.983363658     -100.181504
9.217                0.983324641     -100.357109
9.218                0.983285554      -100.53315
9.219                0.983246397     -100.709628
9.22                 0.983207171     -100.886545
9.221                0.983167875       -101.0639
9.222                0.983128512     -101.241695
9.223                 0.98308908      -101.41993
9.224                0.983049581     -101.598607
9.225                0.983010014     -101.777726
9.226                0.982970381     -101.957288
9.227                0.982930681     -102.137293
9.228                0.982890916     -102.317743
9.229                0.982851085     -102.498639
9.23                  0.98281119      -102.67998
9.231                0.982771229     -102.861769
9.232                0.982731206     -103.044005
9.233                0.982691118     -103.226689
9.234                0.982650968     -103.409823
9.235                0.982610755     -103.593407
9.236                0.982570481     -103.777441
9.237                0.982530145     -103.961927
9.238                0.982489748     -104.146866
9.239                0.982449291     -104.332257
9.24                 0.982408775     -104.518102
9.241                0.982368199     -104.704402
9.242                0.982327565     -104.891156
9.243                0.982286873     -105.078367
9.244                0.982246123     -105.266034
9.245                0.982205316     -105.454159
9.246                0.982164454     -105.642741
9.247                0.982123536     -105.831783
9.248                0.982082563     -106.021284
9.249                0.982041535     -106.211245
9.25                 0.982000454     -106.401666
9.251                 0.98195932     -106.592549
9.252                0.981918134     -106.783895
9.253                0.981876895     -106.975703
9.254                0.981835606     -107.167974
9.255                0.981794267      -107.36071
9.256                0.981752878      -107.55391
9.257                 0.98171144     -107.747576
9.258                0.981669954     -107.941707
9.259                 0.98162842     -108.136306
9.26                  0.98158684     -108.331371
9.261                0.981545213     -108.526904
9.262                0.981503541     -108.722906
9.263                0.981461825     -108.919376
9.264                0.981420065     -109.116316
9.265                0.981378262     -109.313726
9.266                0.981336417     -109.511607
9.267                0.981294531     -109.709958
9.268                0.981252604     -109.908782
9.269                0.981210638     -110.108078
9.27                 0.981168632     -110.307846
9.271                0.981126589     -110.508088
9.272                0.981084508     -110.708804
9.273                0.981042391     -110.909994
9.274                0.981000238     -111.111659
9.275                0.980958051     -111.313799
9.276                 0.98091583     -111.516415
9.277                0.980873577     -111.719507
9.278                0.980831291     -111.923076
9.279                0.980788975     -112.127121
9.28                 0.980746628     -112.331645
9.281                0.980704253     -112.536646
9.282                0.980661849     -112.742126
9.283                0.980619418     -112.948084
9.284                0.980576961     -113.154522
9.285                0.980534479     -113.361439
9.286                0.980491972     -113.568836
9.287                0.980449442     -113.776713
9.288                 0.98040689     -113.985071
9.289                0.980364317     -114.193909
9.29                 0.980321723     -114.403229
9.291                0.980279111     -114.613031
9.292                 0.98023648     -114.823314
9.293                0.980193833      -115.03408
9.294                0.980151169     -115.245328
9.295                0.980108491     -115.457059
9.296                0.980065799     -115.669273
9.297                0.980023094      -115.88197
9.298                0.979980378      -116.09515
9.299                0.979937652     -116.308815
9.3                  0.979894916     -116.522963
9.301                0.979852172     -116.737595
9.302                0.979809422     -116.952711
9.303                0.979766665     -117.168312
9.304                0.979723904     -117.384398
9.305                 0.97968114     -117.600968
9.306                0.979638374     -117.818023
9.307                0.979595606     -118.035564
9.308                0.979552839     -118.253589
9.309                0.979510074       -118.4721
9.31                 0.979467311     -118.691095
9.311                0.979424553     -118.910577
9.312                0.979381799     -119.130543
9.313                0.979339053     -119.350995
9.314                0.979296314     -119.571933
9.315                0.979253585     -119.793356
9.316                0.979210866     -120.015265
9.317                0.979168159     -120.237659
9.318                0.979125465     -120.460538
9.319                0.979082786     -120.683903
9.32                 0.979040123     -120.907753
9.321                0.978997477     -121.132089
9.322                0.978954849     -121.356909
9.323                0.978912242     -121.582215
9.324                0.978869656     -121.808005
9.325                0.978827094     -122.034281
9.326                0.978784555     -122.261041
9.327                0.978742042     -122.488286
9.328                0.978699557     -122.716014
9.329                  0.9786571     -122.944227
9.33                 0.978614673     -123.172924
9.331                0.978572278     -123.402105
9.332                0.978529916     -123.631769
9.333                0.978487588     -123.861916
9.334                0.978445297     -124.092546
9.335                0.978403043     -124.323658
9.336                0.978360829     -124.555253
9.337                0.978318655      -124.78733
9.338                0.978276523     -125.019888
9.339                0.978234435     -125.252928
9.34                 0.978192393     -125.486448
9.341                0.978150397     -125.720449
9.342                 0.97810845     -125.954929
9.343                0.978066554      -126.18989
9.344                0.978024709     -126.425329
9.345                0.977982917     -126.661247
9.346                0.977941181     -126.897644
9.347                0.977899501     -127.134518
9.348                0.977857879     -127.371869
9.349                0.977816318     -127.609697
9.35                 0.977774818     -127.848001
9.351                0.977733382      -128.08678
9.352                 0.97769201     -128.326034
9.353                0.977650705     -128.565762
9.354                0.977609469     -128.805964
9.355                0.977568303     -129.046639
9.356                0.977527209     -129.287787
9.357                0.977486188     -129.529405
9.358                0.977445243     -129.771495
9.359                0.977404375     -130.014055
9.36                 0.977363585     -130.257084
9.361                0.977322877     -130.500582
9.362                 0.97728225     -130.744548
9.363                0.977241708     -130.988981
9.364                0.977201252      -131.23388
9.365                0.977160884     -131.479244
9.366                0.977120606     -131.725073
9.367                0.977080419     -131.971366
9.368                0.977040325     -132.218121
9.369                0.977000326     -132.465338
9.37                 0.976960424     -132.713016
9.371                0.976920621     -132.961153
9.372                0.976880919      -133.20975
9.373                0.976841319     -133.458804
9.374                0.976801824     -133.708315
9.375                0.976762434     -133.958282
9.376                0.976723153     -134.208704
9.377                0.976683982     -134.459579
9.378                0.976644923     -134.710906
9.379                0.976605978     -134.962685
9.38                 0.976567149     -135.214914
9.381                0.976528437     -135.467592
9.382                0.976489845     -135.720718
9.383                0.976451374     -135.974291
9.384                0.976413027     -136.228308
9.385                0.976374805      -136.48277
9.386                 0.97633671     -136.737674
9.387                0.976298745      -136.99302
9.388                0.976260911     -137.248806
9.389                 0.97622321     -137.505031
9.39                 0.976185644     -137.761693
9.391                0.976148216     -138.018792
9.392                0.976110926     -138.276324
9.393                0.976073778      -138.53429
9.394                0.976036772     -138.792688
9.395                0.975999912     -139.051515
9.396                0.975963198     -139.310772
