! TOUCHSTONE file generated by CST DESIGN STUDIO
! Date and time: Tue Feb  4 12:41:08 2025
! Project name: C:\Work\MatlabApps\UnitCellOptimizationMatlab\CST\unitcell.cst
! Tree item: Tasks\Sweep1\SPara1\S-Parameters
! Header version: 2024
! Port assignment regex: !\s*Touchstone port\s*([0-9]+)\s*=\s*(CST MWS port|CST DES external port|CST DES block port)\s*(.+)\s* \(\"(.*)\"\)(\s*mode\s*([0-9]+))?.*
! Touchstone port assignment:
! Touchstone port 1 = CST DES external port 1 ("")
# GHz S MA R 50
9                    0.988126966     -79.3156121
9.001                0.988097411     -79.4372654
9.002                0.988067768     -79.5592179
9.003                0.988038037     -79.6814704
9.004                0.988008218     -79.8040237
9.005                0.987978311     -79.9268786
9.006                0.987948316     -80.0500362
9.007                0.987918232     -80.1734971
9.008                0.987888059     -80.2972623
9.009                0.987857798     -80.4213327
9.01                 0.987827448     -80.5457091
9.011                0.987797009     -80.6703923
9.012                0.987766481     -80.7953833
9.013                0.987735863     -80.9206829
9.014                0.987705155     -81.0462921
9.015                0.987674358     -81.1722115
9.016                0.987643471     -81.2984423
9.017                0.987612494     -81.4249851
9.018                0.987581427      -81.551841
9.019                0.987550269     -81.6790107
9.02                 0.987519021     -81.8064952
9.021                0.987487683     -81.9342954
9.022                0.987456253      -82.062412
9.023                0.987424733     -82.1908461
9.024                0.987393122     -82.3195985
9.025                0.987361419     -82.4486701
9.026                0.987329625     -82.5780618
9.027                 0.98729774     -82.7077745
9.028                0.987265763      -82.837809
9.029                0.987233694     -82.9681663
9.03                 0.987201534     -83.0988472
9.031                0.987169281     -83.2298527
9.032                0.987136936     -83.3611837
9.033                  0.9871045      -83.492841
9.034                 0.98707197     -83.6248256
9.035                0.987039348     -83.7571383
9.036                0.987006634       -83.88978
9.037                0.986973827     -84.0227517
9.038                0.986940927     -84.1560543
9.039                0.986907934     -84.2896887
9.04                 0.986874848     -84.4236557
9.041                0.986841669     -84.5579563
9.042                0.986808396     -84.6925914
9.043                 0.98677503     -84.8275619
9.044                0.986741571     -84.9628687
9.045                0.986708018     -85.0985128
9.046                0.986674371      -85.234495
9.047                0.986640631     -85.3708162
9.048                0.986606796     -85.5074774
9.049                0.986572868     -85.6444794
9.05                 0.986538845     -85.7818233
9.051                0.986504729     -85.9195099
9.052                0.986470518     -86.0575401
9.053                0.986436212     -86.1959149
9.054                0.986401813     -86.3346351
9.055                0.986367319     -86.4737017
9.056                 0.98633273     -86.6131157
9.057                0.986298046     -86.7528778
9.058                0.986263268     -86.8929891
9.059                0.986228395     -87.0334505
9.06                 0.986193428     -87.1742629
9.061                0.986158365     -87.3154272
9.062                0.986123207     -87.4569444
9.063                0.986087955     -87.5988153
9.064                0.986052607     -87.7410409
9.065                0.986017164     -87.8836222
9.066                0.985981626       -88.02656
9.067                0.985945993     -88.1698552
9.068                0.985910265     -88.3135089
9.069                0.985874441     -88.4575219
9.07                 0.985838522     -88.6018951
9.071                0.985802508     -88.7466296
9.072                0.985766398     -88.8917261
9.073                0.985730193     -89.0371857
9.074                0.985693892     -89.1830092
9.075                0.985657496     -89.3291977
9.076                0.985621004     -89.4757519
9.077                0.985584417     -89.6226729
9.078                0.985547735     -89.7699616
9.079                0.985510957     -89.9176189
9.08                 0.985474083     -90.0656457
9.081                0.985437114      -90.214043
9.082                 0.98540005     -90.3628117
9.083                 0.98536289     -90.5119527
9.084                0.985325635      -90.661467
9.085                0.985288284     -90.8113554
9.086                0.985250838     -90.9616189
9.087                0.985213296     -91.1122584
9.088                0.985175659     -91.2632749
9.089                0.985137927     -91.4146693
9.09                 0.985100099     -91.5664425
9.091                0.985062177     -91.7185954
9.092                0.985024159      -91.871129
9.093                0.984986045     -92.0240441
9.094                0.984947837     -92.1773417
9.095                0.984909534     -92.3310228
9.096                0.984871136     -92.4850882
9.097                0.984832643     -92.6395389
9.098                0.984794055     -92.7943757
9.099                0.984755372     -92.9495997
9.1                  0.984716594     -93.1052116
9.101                0.984677722     -93.2612126
9.102                0.984638756     -93.4176033
9.103                0.984599695     -93.5743849
9.104                 0.98456054     -93.7315581
9.105                0.984521291     -93.8891239
9.106                0.984481947     -94.0470833
9.107                 0.98444251     -94.2054371
9.108                0.984402978     -94.3641861
9.109                0.984363353     -94.5233315
9.11                 0.984323635      -94.682874
9.111                0.984283823     -94.8428145
9.112                0.984243917      -95.003154
9.113                0.984203919     -95.1638933
9.114                0.984163827     -95.3250335
9.115                0.984123643     -95.4865752
9.116                0.984083366     -95.6485195
9.117                0.984042996     -95.8108673
9.118                0.984002534     -95.9736194
9.119                0.983961979     -96.1367768
9.12                 0.983921333     -96.3003403
9.121                0.983880595     -96.4643107
9.122                0.983839765     -96.6286891
9.123                0.983798844     -96.7934763
9.124                0.983757832     -96.9586732
9.125                0.983716729     -97.1242805
9.126                0.983675534     -97.2902994
9.127                 0.98363425     -97.4567305
9.128                0.983592875     -97.6235747
9.129                 0.98355141     -97.7908331
9.13                 0.983509855     -97.9585063
9.131                 0.98346821     -98.1265953
9.132                0.983426476     -98.2951009
9.133                0.983384654      -98.464024
9.134                0.983342742     -98.6333655
9.135                0.983300742     -98.8031262
9.136                0.983258653     -98.9733069
9.137                0.983216477     -99.1439085
9.138                0.983174212     -99.3149319
9.139                0.983131861     -99.4863778
9.14                 0.983089423     -99.6582472
9.141                0.983046897     -99.8305409
9.142                0.983004286      -100.00326
9.143                0.982961588     -100.176404
9.144                0.982918805     -100.349976
9.145                0.982875936     -100.523975
9.146                0.982832982     -100.698402
9.147                0.982789943     -100.873259
9.148                 0.98274682     -101.048545
9.149                0.982703614     -101.224263
9.15                 0.982660323     -101.400412
9.151                 0.98261695     -101.576993
9.152                0.982573493     -101.754008
9.153                0.982529955     -101.931456
9.154                0.982486334      -102.10934
9.155                0.982442632     -102.287659
9.156                0.982398849     -102.466414
9.157                0.982354985     -102.645607
9.158                0.982311041     -102.825237
9.159                0.982267017     -103.005306
9.16                 0.982222914     -103.185814
9.161                0.982178732     -103.366763
9.162                0.982134471     -103.548152
9.163                0.982090133     -103.729983
9.164                0.982045717     -103.912257
9.165                0.982001225     -104.094974
9.166                0.981956656     -104.278134
9.167                0.981912011     -104.461739
9.168                0.981867291      -104.64579
9.169                0.981822496     -104.830286
9.17                 0.981777627     -105.015229
9.171                0.981732684      -105.20062
9.172                0.981687668     -105.386458
9.173                 0.98164258     -105.572746
9.174                0.981597419     -105.759483
9.175                0.981552188      -105.94667
9.176                0.981506885     -106.134308
9.177                0.981461512     -106.322397
9.178                 0.98141607     -106.510939
9.179                0.981370559     -106.699933
9.18                 0.981324979     -106.889381
9.181                0.981279332     -107.079283
9.182                0.981233618      -107.26964
9.183                0.981187837     -107.460452
9.184                0.981141991      -107.65172
9.185                 0.98109608     -107.843445
9.186                0.981050105     -108.035627
9.187                0.981004066     -108.228267
9.188                0.980957964     -108.421365
9.189                  0.9809118     -108.614922
9.19                 0.980865575     -108.808938
9.191                0.980819289     -109.003415
9.192                0.980772943     -109.198352
9.193                0.980726538     -109.393751
9.194                0.980680074     -109.589611
9.195                0.980633553     -109.785934
9.196                0.980586976     -109.982719
9.197                0.980540342     -110.179968
9.198                0.980493653     -110.377681
9.199                 0.98044691     -110.575858
9.2                  0.980400114       -110.7745
9.201                0.980353264     -110.973607
9.202                0.980306363      -111.17318
9.203                0.980259411     -111.373219
9.204                0.980212409     -111.573726
9.205                0.980165358     -111.774699
9.206                0.980118259      -111.97614
9.207                0.980071112     -112.178049
9.208                0.980023919     -112.380427
9.209                 0.97997668     -112.583273
9.21                 0.979929397     -112.786589
9.211                 0.97988207     -112.990375
9.212                0.979834701     -113.194631
9.213                 0.97978729     -113.399357
9.214                0.979739838     -113.604554
9.215                0.979692347     -113.810222
9.216                0.979644817     -114.016362
9.217                 0.97959725     -114.222973
9.218                0.979549646     -114.430057
9.219                0.979502006     -114.637614
9.22                 0.979454332     -114.845643
9.221                0.979406625     -115.054145
9.222                0.979358885     -115.263121
9.223                0.979311114      -115.47257
9.224                0.979263313     -115.682493
9.225                0.979215483     -115.892891
9.226                0.979167625     -116.103762
9.227                 0.97911974     -116.315109
9.228                 0.97907183      -116.52693
9.229                0.979023895     -116.739226
9.23                 0.978975937     -116.951998
9.231                0.978927957     -117.165244
9.232                0.978879956     -117.378967
9.233                0.978831936     -117.593165
9.234                0.978783897     -117.807839
9.235                0.978735841     -118.022989
9.236                0.978687769     -118.238615
9.237                0.978639682     -118.454717
9.238                0.978591582     -118.671295
9.239                0.978543469      -118.88835
9.24                 0.978495346     -119.105881
9.241                0.978447213     -119.323889
9.242                0.978399072     -119.542373
9.243                0.978350924     -119.761334
9.244                0.978302771     -119.980771
9.245                0.978254613     -120.200684
9.246                0.978206452     -120.421075
9.247                 0.97815829     -120.641941
9.248                0.978110128     -120.863284
9.249                0.978061967     -121.085104
9.25                 0.978013809     -121.307399
9.251                0.977965655     -121.530171
9.252                0.977917507     -121.753419
9.253                0.977869365     -121.977143
9.254                0.977821232     -122.201343
9.255                0.977773109     -122.426018
9.256                0.977724998     -122.651169
9.257                0.977676899     -122.876796
9.258                0.977628815     -123.102897
9.259                0.977580747     -123.329473
9.26                 0.977532696     -123.556524
9.261                0.977484665      -123.78405
9.262                0.977436654      -124.01205
9.263                0.977388665     -124.240523
9.264                0.977340699     -124.469471
9.265                 0.97729276     -124.698891
9.266                0.977244847     -124.928785
9.267                0.977196962     -125.159151
9.268                0.977149108      -125.38999
9.269                0.977101285     -125.621301
9.27                 0.977053496     -125.853083
9.271                0.977005742     -126.085336
9.272                0.976958025      -126.31806
9.273                0.976910346     -126.551255
9.274                0.976862708     -126.784919
9.275                0.976815111     -127.019053
9.276                0.976767558     -127.253655
9.277                 0.97672005     -127.488726
9.278                0.976672588     -127.724265
9.279                0.976625176     -127.960271
9.28                 0.976577814     -128.196744
9.281                0.976530505     -128.433682
9.282                0.976483249     -128.671087
9.283                 0.97643605     -128.908957
9.284                0.976388908      -129.14729
9.285                0.976341825     -129.386088
9.286                0.976294804     -129.625348
9.287                0.976247846     -129.865071
9.288                0.976200952     -130.105256
9.289                0.976154126     -130.345901
9.29                 0.976107368     -130.587007
9.291                0.976060681     -130.828572
9.292                0.976014066     -131.070595
9.293                0.975967525     -131.313076
9.294                0.975921061     -131.556015
9.295                0.975874674     -131.799409
9.296                0.975828368     -132.043259
9.297                0.975782144     -132.287563
9.298                0.975736003      -132.53232
9.299                0.975689948      -132.77753
9.3                  0.975643981     -133.023192
9.301                0.975598104     -133.269305
9.302                0.975552318     -133.515867
9.303                0.975506626     -133.762878
9.304                 0.97546103     -134.010336
9.305                0.975415532     -134.258241
9.306                0.975370133     -134.506592
9.307                0.975324835     -134.755388
9.308                0.975279642     -135.004626
9.309                0.975234554     -135.254307
9.31                 0.975189574      -135.50443
9.311                0.975144704     -135.754992
9.312                0.975099945     -136.005993
9.313                  0.9750553     -136.257432
9.314                0.975010772     -136.509307
9.315                0.974966361     -136.761617
9.316                0.974922071     -137.014361
9.317                0.974877902     -137.267538
9.318                0.974833858     -137.521146
9.319                0.974789941     -137.775183
9.32                 0.974746152      -138.02965
9.321                0.974702493     -138.284544
9.322                0.974658967     -138.539863
9.323                0.974615576     -138.795607
9.324                0.974572321     -139.051774
9.325                0.974529206     -139.308363
9.326                0.974486232     -139.565371
9.327                0.974443401     -139.822799
9.328                0.974400716     -140.080643
9.329                0.974358178     -140.338903
9.33                  0.97431579     -140.597576
9.331                0.974273554     -140.856662
9.332                0.974231472     -141.116159
9.333                0.974189546     -141.376065
9.334                0.974147778     -141.636378
9.335                0.974106171     -141.897097
9.336                0.974064727      -142.15822
9.337                0.974023447     -142.419746
9.338                0.973982335     -142.681672
9.339                0.973941391     -142.943997
9.34                 0.973900619     -143.206719
9.341                 0.97386002     -143.469837
9.342                0.973819597     -143.733347
9.343                0.973779352      -143.99725
9.344                0.973739287     -144.261542
9.345                0.973699405     -144.526222
9.346                0.973659706     -144.791288
9.347                0.973620194     -145.056738
9.348                0.973580871      -145.32257
9.349                0.973541739     -145.588782
9.35                   0.9735028     -145.855372
9.351                0.973464056     -146.122338
9.352                 0.97342551     -146.389678
9.353                0.973387163      -146.65739
9.354                0.973349018     -146.925472
9.355                0.973311077     -147.193922
9.356                0.973273342     -147.462737
9.357                0.973235815     -147.731915
9.358                0.973198498     -148.001455
9.359                0.973161395     -148.271354
9.36                 0.973124506      -148.54161
9.361                0.973087833      -148.81222
9.362                 0.97305138     -149.083182
9.363                0.973015148     -149.354495
9.364                0.972979139     -149.626155
9.365                0.972943356     -149.898161
9.366                  0.9729078      -150.17051
9.367                0.972872474     -150.443199
9.368                0.972837379     -150.716227
9.369                0.972802518      -150.98959
9.37                 0.972767894     -151.263287
9.371                0.972733507     -151.537315
9.372                0.972699361     -151.811672
9.373                0.972665456     -152.086354
9.374                0.972631796      -152.36136
9.375                0.972598383     -152.636687
9.376                0.972565217     -152.912333
9.377                0.972532303     -153.188294
9.378                 0.97249964     -153.464568
9.379                0.972467232     -153.741153
9.38                 0.972435081     -154.018046
9.381                0.972403188     -154.295244
9.382                0.972371556     -154.572745
9.383                0.972340186     -154.850546
9.384                0.972309081     -155.128644
9.385                0.972278243     -155.407036
9.386                0.972247672      -155.68572
9.387                0.972217372     -155.964693
9.388                0.972187345     -156.243952
9.389                0.972157591     -156.523495
9.39                 0.972128114     -156.803318
9.391                0.972098915     -157.083418
9.392                0.972069996     -157.363793
9.393                0.972041358      -157.64444
9.394                0.972013005     -157.925356
9.395                0.971984936     -158.206538
9.396                0.971957155     -158.487983
