! TOUCHSTONE file generated by CST DESIGN STUDIO
! Date and time: Tue Feb  4 12:41:17 2025
! Project name: C:\Work\MatlabApps\UnitCellOptimizationMatlab\CST\unitcell.cst
! Tree item: Tasks\Sweep1\SPara1\S-Parameters
! Header version: 2024
! Port assignment regex: !\s*Touchstone port\s*([0-9]+)\s*=\s*(CST MWS port|CST DES external port|CST DES block port)\s*(.+)\s* \(\"(.*)\"\)(\s*mode\s*([0-9]+))?.*
! Touchstone port assignment:
! Touchstone port 1 = CST DES external port 1 ("")
# GHz S MA R 50
9                    0.989332915     -73.8237507
9.001                0.989308273     -73.9327336
9.002                0.989283558     -74.0419797
9.003                0.989258768     -74.1514896
9.004                0.989233904     -74.2612643
9.005                0.989208966     -74.3713045
9.006                0.989183953     -74.4816109
9.007                0.989158866     -74.5921843
9.008                0.989133704     -74.7030256
9.009                0.989108466     -74.8141356
9.01                 0.989083154     -74.9255149
9.011                0.989057766     -75.0371645
9.012                0.989032302     -75.1490851
9.013                0.989006763     -75.2612776
9.014                0.988981148     -75.3737426
9.015                0.988955456     -75.4864812
9.016                0.988929689     -75.5994939
9.017                0.988903845     -75.7127817
9.018                0.988877924     -75.8263453
9.019                0.988851927     -75.9401857
9.02                 0.988825852     -76.0543035
9.021                0.988799701     -76.1686996
9.022                0.988773472     -76.2833748
9.023                0.988747166       -76.39833
9.024                0.988720782     -76.5135659
9.025                0.988694321     -76.6290834
9.026                0.988667781     -76.7448833
9.027                0.988641164     -76.8609664
9.028                0.988614468     -76.9773336
9.029                0.988587693     -77.0939857
9.03                  0.98856084     -77.2109236
9.031                0.988533909      -77.328148
9.032                0.988506898     -77.4456598
9.033                0.988479808     -77.5634598
9.034                 0.98845264     -77.6815489
9.035                0.988425391     -77.7999279
9.036                0.988398063     -77.9185977
9.037                0.988370656     -78.0375591
9.038                0.988343168      -78.156813
9.039                0.988315601     -78.2763602
9.04                 0.988287954     -78.3962015
9.041                0.988260226     -78.5163378
9.042                0.988232417       -78.63677
9.043                0.988204528     -78.7574989
9.044                0.988176559     -78.8785254
9.045                0.988148508     -78.9998503
9.046                0.988120376     -79.1214746
9.047                0.988092163      -79.243399
9.048                0.988063869     -79.3656244
9.049                0.988035493     -79.4881517
9.05                 0.988007036     -79.6109817
9.051                0.987978496     -79.7341154
9.052                0.987949875     -79.8575536
9.053                0.987921172     -79.9812972
9.054                0.987892387      -80.105347
9.055                0.987863519      -80.229704
9.056                0.987834568     -80.3543689
9.057                0.987805536     -80.4793427
9.058                 0.98777642     -80.6046263
9.059                0.987747222     -80.7302206
9.06                  0.98771794     -80.8561263
9.061                0.987688575     -80.9823445
9.062                0.987659127      -81.108876
9.063                0.987629596     -81.2357217
9.064                0.987599981     -81.3628825
9.065                0.987570283     -81.4903592
9.066                0.987540501     -81.6181528
9.067                0.987510635     -81.7462641
9.068                0.987480685     -81.8746942
9.069                 0.98745065     -82.0034437
9.07                 0.987420532     -82.1325138
9.071                0.987390329     -82.2619051
9.072                0.987360042     -82.3916188
9.073                 0.98732967     -82.5216555
9.074                0.987299214     -82.6520164
9.075                0.987268672     -82.7827022
9.076                0.987238046     -82.9137139
9.077                0.987207335     -83.0450524
9.078                0.987176539     -83.1767185
9.079                0.987145658     -83.3087133
9.08                 0.987114691     -83.4410375
9.081                0.987083639     -83.5736922
9.082                0.987052501     -83.7066783
9.083                0.987021278     -83.8399966
9.084                0.986989969      -83.973648
9.085                0.986958575     -84.1076336
9.086                0.986927094     -84.2419542
9.087                0.986895528     -84.3766107
9.088                0.986863876      -84.511604
9.089                0.986832137     -84.6469351
9.09                 0.986800313     -84.7826049
9.091                0.986768402     -84.9186143
9.092                0.986736405     -85.0549643
9.093                0.986704321     -85.1916557
9.094                0.986672151     -85.3286896
9.095                0.986639895     -85.4660667
9.096                0.986607552     -85.6037881
9.097                0.986575122     -85.7418547
9.098                0.986542606     -85.8802674
9.099                0.986510003     -86.0190271
9.1                  0.986477313     -86.1581348
9.101                0.986444536     -86.2975914
9.102                0.986411673     -86.4373978
9.103                0.986378722     -86.5775551
9.104                0.986345685      -86.718064
9.105                 0.98631256     -86.8589255
9.106                0.986279349     -87.0001407
9.107                 0.98624605     -87.1417103
9.108                0.986212664     -87.2836354
9.109                0.986179191     -87.4259169
9.11                 0.986145631     -87.5685558
9.111                0.986111983     -87.7115528
9.112                0.986078249     -87.8549091
9.113                0.986044427     -87.9986256
9.114                0.986010518     -88.1427031
9.115                0.985976521     -88.2871426
9.116                0.985942438     -88.4319451
9.117                0.985908267     -88.5771115
9.118                0.985874009     -88.7226427
9.119                0.985839663     -88.8685397
9.12                 0.985805231     -89.0148035
9.121                0.985770711     -89.1614349
9.122                0.985736103     -89.3084349
9.123                0.985701409     -89.4558045
9.124                0.985666627     -89.6035445
9.125                0.985631758      -89.751656
9.126                0.985596802     -89.9001399
9.127                0.985561759      -90.048997
9.128                0.985526629     -90.1982284
9.129                0.985491411     -90.3478351
9.13                 0.985456107     -90.4978178
9.131                0.985420716     -90.6481777
9.132                0.985385238     -90.7989155
9.133                0.985349672     -90.9500323
9.134                 0.98531402      -91.101529
9.135                0.985278282     -91.2534066
9.136                0.985242456     -91.4056659
9.137                0.985206544     -91.5583079
9.138                0.985170546     -91.7113336
9.139                0.985134461     -91.8647438
9.14                 0.985098289     -92.0185396
9.141                0.985062032     -92.1727219
9.142                0.985025688     -92.3272915
9.143                0.984989258     -92.4822495
9.144                0.984952742     -92.6375967
9.145                 0.98491614     -92.7933341
9.146                0.984879452     -92.9494627
9.147                0.984842678     -93.1059833
9.148                0.984805819     -93.2628969
9.149                0.984768875     -93.4202045
9.15                 0.984731845     -93.5779068
9.151                 0.98469473      -93.736005
9.152                 0.98465753     -93.8944998
9.153                0.984620244     -94.0533923
9.154                0.984582875     -94.2126833
9.155                 0.98454542     -94.3723737
9.156                0.984507881     -94.5324646
9.157                0.984470258     -94.6929568
9.158                 0.98443255     -94.8538512
9.159                0.984394759     -95.0151487
9.16                 0.984356884     -95.1768503
9.161                0.984318925     -95.3389568
9.162                0.984280883     -95.5014692
9.163                0.984242757     -95.6643885
9.164                0.984204549     -95.8277154
9.165                0.984166257     -95.9914509
9.166                0.984127883     -96.1555959
9.167                0.984089427     -96.3201513
9.168                0.984050888      -96.485118
9.169                0.984012268     -96.6504969
9.17                 0.983973565     -96.8162889
9.171                0.983934781     -96.9824949
9.172                0.983895916     -97.1491158
9.173                 0.98385697     -97.3161525
9.174                0.983817943     -97.4836058
9.175                0.983778836     -97.6514766
9.176                0.983739648     -97.8197659
9.177                0.983700381     -97.9884744
9.178                0.983661034     -98.1576031
9.179                0.983621607     -98.3271529
9.18                 0.983582101     -98.4971246
9.181                0.983542517     -98.6675191
9.182                0.983502854     -98.8383372
9.183                0.983463113     -99.0095798
9.184                0.983423294     -99.1812477
9.185                0.983383397     -99.3533419
9.186                0.983343424     -99.5258632
9.187                0.983303373     -99.6988124
9.188                0.983263246     -99.8721903
9.189                0.983223043     -100.045998
9.19                 0.983182763     -100.220236
9.191                0.983142409     -100.394905
9.192                0.983101979     -100.570007
9.193                0.983061475     -100.745541
9.194                0.983020896     -100.921509
9.195                0.982980244     -101.097912
9.196                0.982939518      -101.27475
9.197                0.982898719     -101.452024
9.198                0.982857847     -101.629735
9.199                0.982816903     -101.807884
9.2                  0.982775887     -101.986472
9.201                  0.9827348     -102.165499
9.202                0.982693642     -102.344966
9.203                0.982652413     -102.524874
9.204                0.982611115     -102.705224
9.205                0.982569747     -102.886017
9.206                0.982528309     -103.067253
9.207                0.982486803     -103.248933
9.208                 0.98244523     -103.431057
9.209                0.982403588     -103.613628
9.21                  0.98236188     -103.796644
9.211                0.982320104     -103.980108
9.212                0.982278263      -104.16402
9.213                0.982236357      -104.34838
9.214                0.982194385     -104.533189
9.215                0.982152349     -104.718449
9.216                0.982110249     -104.904159
9.217                0.982068086      -105.09032
9.218                 0.98202586     -105.276934
9.219                0.981983573     -105.464001
9.22                 0.981941223     -105.651521
9.221                0.981898813     -105.839495
9.222                0.981856342     -106.027925
9.223                0.981813812      -106.21681
9.224                0.981771223     -106.406151
9.225                0.981728575     -106.595949
9.226                 0.98168587     -106.786204
9.227                0.981643107     -106.976918
9.228                0.981600288     -107.168091
9.229                0.981557414     -107.359723
9.23                 0.981514484     -107.551816
9.231                  0.9814715     -107.744369
9.232                0.981428462     -107.937384
9.233                0.981385372      -108.13086
9.234                0.981342229     -108.324799
9.235                0.981299034     -108.519202
9.236                0.981255789     -108.714068
9.237                0.981212494     -108.909398
9.238                0.981169149     -109.105194
9.239                0.981125756     -109.301454
9.24                 0.981082316     -109.498181
9.241                0.981038828     -109.695375
9.242                0.980995295     -109.893035
9.243                0.980951716     -110.091163
9.244                0.980908093      -110.28976
9.245                0.980864426     -110.488825
9.246                0.980820716     -110.688359
9.247                0.980776964     -110.888363
9.248                0.980733172     -111.088837
9.249                0.980689339     -111.289781
9.25                 0.980645467     -111.491197
9.251                0.980601556     -111.693084
9.252                0.980557608     -111.895443
9.253                0.980513623     -112.098275
9.254                0.980469602      -112.30158
9.255                0.980425547     -112.505357
9.256                0.980381458     -112.709609
9.257                0.980337336     -112.914335
9.258                0.980293182     -113.119535
9.259                0.980248997      -113.32521
9.26                 0.980204783      -113.53136
9.261                0.980160539     -113.737986
9.262                0.980116268     -113.945088
9.263                0.980071969     -114.152666
9.264                0.980027645      -114.36072
9.265                0.979983296     -114.569252
9.266                0.979938923     -114.778261
9.267                0.979894527     -114.987747
9.268                 0.97985011     -115.197711
9.269                0.979805672     -115.408154
9.27                 0.979761215     -115.619074
9.271                0.979716739     -115.830474
9.272                0.979672246     -116.042352
9.273                0.979627737     -116.254709
9.274                0.979583214     -116.467545
9.275                0.979538676     -116.680861
9.276                0.979494125     -116.894657
9.277                0.979449563     -117.108932
9.278                0.979404991     -117.323688
9.279                 0.97936041     -117.538923
9.28                 0.979315821     -117.754639
9.281                0.979271225     -117.970836
9.282                0.979226624     -118.187513
9.283                0.979182018      -118.40467
9.284                 0.97913741     -118.622308
9.285                0.979092799     -118.840428
9.286                0.979048189     -119.059028
9.287                0.979003579     -119.278108
9.288                0.978958971      -119.49767
9.289                0.978914367     -119.717713
9.29                 0.978869768     -119.938237
9.291                0.978825175     -120.159242
9.292                0.978780589     -120.380727
9.293                0.978736012     -120.602694
9.294                0.978691445     -120.825142
9.295                 0.97864689      -121.04807
9.296                0.978602348     -121.271479
9.297                 0.97855782     -121.495369
9.298                0.978513308     -121.719739
9.299                0.978468813      -121.94459
9.3                  0.978424337     -122.169921
9.301                 0.97837988     -122.395731
9.302                0.978335445     -122.622022
9.303                0.978291033     -122.848793
9.304                0.978246646     -123.076043
9.305                0.978202284     -123.303773
9.306                 0.97815795     -123.531982
9.307                0.978113645     -123.760669
9.308                 0.97806937     -123.989835
9.309                0.978025127      -124.21948
9.31                 0.977980918     -124.449602
9.311                0.977936743     -124.680202
9.312                0.977892606      -124.91128
9.313                0.977848506     -125.142834
9.314                0.977804446     -125.374866
9.315                0.977760428     -125.607373
9.316                0.977716453     -125.840357
9.317                0.977672522     -126.073815
9.318                0.977628637     -126.307749
9.319                  0.9775848     -126.542158
9.32                 0.977541013     -126.777041
9.321                0.977497277     -127.012397
9.322                0.977453594     -127.248226
9.323                0.977409965     -127.484528
9.324                0.977366392     -127.721303
9.325                0.977322877     -127.958548
9.326                0.977279422     -128.196265
9.327                0.977236028     -128.434452
9.328                0.977192697     -128.673109
9.329                0.977149431     -128.912235
9.33                 0.977106231     -129.151829
9.331                  0.9770631     -129.391891
9.332                0.977020039     -129.632421
9.333                0.976977049     -129.873416
9.334                0.976934133     -130.114878
9.335                0.976891292     -130.356804
9.336                0.976848529     -130.599195
9.337                0.976805844     -130.842049
9.338                 0.97676324     -131.085366
9.339                0.976720719     -131.329144
9.34                 0.976678282     -131.573384
9.341                0.976635932     -131.818083
9.342                 0.97659367     -132.063242
9.343                0.976551497     -132.308859
9.344                0.976509417     -132.554933
9.345                 0.97646743     -132.801464
9.346                0.976425539     -133.048451
9.347                0.976383745     -133.295892
9.348                0.976342051     -133.543787
9.349                0.976300458     -133.792134
9.35                 0.976258969     -134.040932
9.351                0.976217584     -134.290181
9.352                0.976176307      -134.53988
9.353                0.976135138     -134.790026
9.354                0.976094081      -135.04062
9.355                0.976053136     -135.291659
9.356                0.976012306     -135.543144
9.357                0.975971593     -135.795072
9.358                0.975930999     -136.047442
9.359                0.975890526     -136.300254
9.36                 0.975850175     -136.553505
9.361                0.975809949     -136.807196
9.362                 0.97576985     -137.061323
9.363                0.975729879     -137.315887
9.364                0.975690039     -137.570885
9.365                0.975650332     -137.826317
9.366                0.975610759      -138.08218
9.367                0.975571324     -138.338475
9.368                0.975532026     -138.595198
9.369                 0.97549287     -138.852349
9.37                 0.975453856     -139.109927
9.371                0.975414988     -139.367929
9.372                0.975376266     -139.626354
9.373                0.975337693     -139.885201
9.374                 0.97529927     -140.144468
9.375                0.975261001     -140.404154
9.376                0.975222887     -140.664257
9.377                0.975184929     -140.924775
9.378                0.975147131     -141.185707
9.379                0.975109494     -141.447051
9.38                  0.97507202     -141.708805
9.381                0.975034712     -141.970968
9.382                 0.97499757     -142.233538
9.383                0.974960598     -142.496513
9.384                0.974923798     -142.759892
9.385                0.974887171     -143.023672
9.386                0.974850719     -143.287852
9.387                0.974814445      -143.55243
9.388                0.974778351     -143.817404
9.389                0.974742438     -144.082772
9.39                 0.974706709     -144.348532
9.391                0.974671166     -144.614683
9.392                0.974635811     -144.881222
9.393                0.974600645     -145.148147
9.394                0.974565672     -145.415457
9.395                0.974530893      -145.68315
9.396                 0.97449631     -145.951223
