! TOUCHSTONE file generated by CST DESIGN STUDIO
! Date and time: Tue Feb  4 12:41:11 2025
! Project name: C:\Work\MatlabApps\UnitCellOptimizationMatlab\CST\unitcell.cst
! Tree item: Tasks\Sweep1\SPara1\S-Parameters
! Header version: 2024
! Port assignment regex: !\s*Touchstone port\s*([0-9]+)\s*=\s*(CST MWS port|CST DES external port|CST DES block port)\s*(.+)\s* \(\"(.*)\"\)(\s*mode\s*([0-9]+))?.*
! Touchstone port assignment:
! Touchstone port 1 = CST DES external port 1 ("")
# GHz S MA R 50
9                    0.988512577     -77.6032499
9.001                0.988484598     -77.7208444
9.002                0.988456537     -77.8387265
9.003                0.988428392     -77.9568971
9.004                0.988400164      -78.075357
9.005                0.988371851      -78.194107
9.006                0.988343455      -78.313148
9.007                0.988314974     -78.4324808
9.008                 0.98828641     -78.5521062
9.009                 0.98825776     -78.6720252
9.01                 0.988229026     -78.7922384
9.011                0.988200207     -78.9127469
9.012                0.988171303     -79.0335514
9.013                0.988142314     -79.1546528
9.014                 0.98811324     -79.2760519
9.015                 0.98808408     -79.3977497
9.016                0.988054834     -79.5197469
9.017                0.988025503     -79.6420444
9.018                0.987996086      -79.764643
9.019                0.987966582     -79.8875437
9.02                 0.987936992     -80.0107473
9.021                0.987907316     -80.1342547
9.022                0.987877553     -80.2580667
9.023                0.987847704     -80.3821842
9.024                0.987817767      -80.506608
9.025                0.987787744     -80.6313391
9.026                0.987757633     -80.7563783
9.027                0.987727435     -80.8817264
9.028                0.987697149     -81.0073844
9.029                0.987666776     -81.1333532
9.03                 0.987636315     -81.2596335
9.031                0.987605765     -81.3862264
9.032                0.987575128     -81.5131326
9.033                0.987544403      -81.640353
9.034                0.987513589     -81.7678886
9.035                0.987482687     -81.8957402
9.036                0.987451696     -82.0239088
9.037                0.987420616     -82.1523951
9.038                0.987389448     -82.2812001
9.039                 0.98735819     -82.4103247
9.04                 0.987326843     -82.5397697
9.041                0.987295407     -82.6695361
9.042                0.987263882     -82.7996248
9.043                0.987232266     -82.9300366
9.044                0.987200562     -83.0607725
9.045                0.987168767     -83.1918333
9.046                0.987136883       -83.32322
9.047                0.987104908     -83.4549334
9.048                0.987072844     -83.5869745
9.049                0.987040689     -83.7193441
9.05                 0.987008444     -83.8520432
9.051                0.986976108     -83.9850726
9.052                0.986943682     -84.1184333
9.053                0.986911165     -84.2521263
9.054                0.986878557     -84.3861522
9.055                0.986845858     -84.5205122
9.056                0.986813068     -84.6552071
9.057                0.986780188     -84.7902379
9.058                0.986747216     -84.9256053
9.059                0.986714152     -85.0613104
9.06                 0.986680998     -85.1973541
9.061                0.986647752     -85.3337373
9.062                0.986614414     -85.4704608
9.063                0.986580985     -85.6075257
9.064                0.986547464     -85.7449328
9.065                0.986513851      -85.882683
9.066                0.986480147     -86.0207774
9.067                 0.98644635     -86.1592167
9.068                0.986412461     -86.2980019
9.069                0.986378481      -86.437134
9.07                 0.986344408     -86.5766138
9.071                0.986310243     -86.7164423
9.072                0.986275986     -86.8566204
9.073                0.986241636     -86.9971491
9.074                0.986207194     -87.1380292
9.075                 0.98617266     -87.2792617
9.076                0.986138033     -87.4208475
9.077                0.986103314     -87.5627875
9.078                0.986068502     -87.7050827
9.079                0.986033597      -87.847734
9.08                   0.9859986     -87.9907424
9.081                 0.98596351     -88.1341086
9.082                0.985928327     -88.2778338
9.083                0.985893052     -88.4219187
9.084                0.985857684     -88.5663644
9.085                0.985822223     -88.7111718
9.086                0.985786669     -88.8563417
9.087                0.985751022     -89.0018752
9.088                0.985715283     -89.1477732
9.089                0.985679451     -89.2940365
9.09                 0.985643525     -89.4406662
9.091                0.985607507     -89.5876631
9.092                0.985571396     -89.7350282
9.093                0.985535193     -89.8827624
9.094                0.985498896     -90.0308666
9.095                0.985462507     -90.1793418
9.096                0.985426025     -90.3281889
9.097                 0.98538945     -90.4774089
9.098                0.985352782     -90.6270026
9.099                0.985316021      -90.776971
9.1                  0.985279168      -90.927315
9.101                0.985242222     -91.0780356
9.102                0.985205183     -91.2291336
9.103                0.985168052     -91.3806101
9.104                0.985130829     -91.5324659
9.105                0.985093512      -91.684702
9.106                0.985056104     -91.8373192
9.107                0.985018603     -91.9903186
9.108                0.984981009      -92.143701
9.109                0.984943324     -92.2974674
9.11                 0.984905546     -92.4516187
9.111                0.984867676     -92.6061558
9.112                0.984829714     -92.7610796
9.113                 0.98479166     -92.9163911
9.114                0.984753514     -93.0720911
9.115                0.984715277     -93.2281807
9.116                0.984676947     -93.3846607
9.117                0.984638527      -93.541532
9.118                0.984600015     -93.6987956
9.119                0.984561411     -93.8564523
9.12                 0.984522716     -94.0145031
9.121                0.984483931     -94.1729489
9.122                0.984445054     -94.3317907
9.123                0.984406086     -94.4910292
9.124                0.984367028     -94.6506655
9.125                0.984327879     -94.8107004
9.126                 0.98428864     -94.9711349
9.127                 0.98424931     -95.1319698
9.128                0.984209891     -95.2932061
9.129                0.984170382     -95.4548446
9.13                 0.984130782     -95.6168863
9.131                0.984091094      -95.779332
9.132                0.984051315     -95.9421826
9.133                0.984011448     -96.1054392
9.134                0.983971492     -96.2691024
9.135                0.983931446     -96.4331733
9.136                0.983891313     -96.5976527
9.137                 0.98385109     -96.7625415
9.138                 0.98381078     -96.9278405
9.139                0.983770382     -97.0935508
9.14                 0.983729896      -97.259673
9.141                0.983689322     -97.4262082
9.142                0.983648661     -97.5931573
9.143                0.983607913     -97.7605209
9.144                0.983567078     -97.9283001
9.145                0.983526157     -98.0964958
9.146                 0.98348515     -98.2651087
9.147                0.983444056     -98.4341397
9.148                0.983402877     -98.6035897
9.149                0.983361613     -98.7734596
9.15                 0.983320263     -98.9437502
9.151                0.983278829     -99.1144623
9.152                 0.98323731     -99.2855968
9.153                0.983195707     -99.4571546
9.154                0.983154019     -99.6291365
9.155                0.983112249     -99.8015432
9.156                0.983070395     -99.9743758
9.157                0.983028458     -100.147635
9.158                0.982986439     -100.321321
9.159                0.982944337     -100.495436
9.16                 0.982902154      -100.66998
9.161                0.982859889     -100.844954
9.162                0.982817543     -101.020358
9.163                0.982775116     -101.196194
9.164                0.982732609     -101.372462
9.165                0.982690022     -101.549164
9.166                0.982647355     -101.726299
9.167                 0.98260461     -101.903869
9.168                0.982561785     -102.081874
9.169                0.982518882     -102.260316
9.17                 0.982475902     -102.439194
9.171                0.982432844     -102.618511
9.172                0.982389709     -102.798266
9.173                0.982346498     -102.978461
9.174                 0.98230321     -103.159095
9.175                0.982259847     -103.340171
9.176                0.982216409     -103.521688
9.177                0.982172897     -103.703647
9.178                 0.98212931      -103.88605
9.179                 0.98208565     -104.068896
9.18                 0.982041916     -104.252187
9.181                0.981998111     -104.435923
9.182                0.981954233     -104.620106
9.183                0.981910283     -104.804735
9.184                0.981866263     -104.989811
9.185                0.981822173     -105.175336
9.186                0.981778012     -105.361309
9.187                0.981733783     -105.547732
9.188                0.981689484     -105.734606
9.189                0.981645118      -105.92193
9.19                 0.981600685     -106.109706
9.191                0.981556184     -106.297934
9.192                0.981511618     -106.486615
9.193                0.981466985     -106.675749
9.194                0.981422288     -106.865338
9.195                0.981377527     -107.055381
9.196                0.981332702      -107.24588
9.197                0.981287814     -107.436836
9.198                0.981242864     -107.628247
9.199                0.981197852     -107.820117
9.2                   0.98115278     -108.012444
9.201                0.981107647      -108.20523
9.202                0.981062455     -108.398475
9.203                0.981017204     -108.592179
9.204                0.980971895     -108.786344
9.205                0.980926529      -108.98097
9.206                0.980881106     -109.176057
9.207                0.980835628     -109.371607
9.208                0.980790095     -109.567619
9.209                0.980744507     -109.764094
9.21                 0.980698867     -109.961032
9.211                0.980653173     -110.158435
9.212                0.980607428     -110.356302
9.213                0.980561632     -110.554635
9.214                0.980515786     -110.753433
9.215                0.980469891     -110.952697
9.216                0.980423947     -111.152428
9.217                0.980377956     -111.352626
9.218                0.980331919     -111.553292
9.219                0.980285835     -111.754425
9.22                 0.980239707     -111.956027
9.221                0.980193535     -112.158098
9.222                 0.98014732     -112.360639
9.223                0.980101063     -112.563649
9.224                0.980054764     -112.767129
9.225                0.980008426     -112.971079
9.226                0.979962048     -113.175501
9.227                0.979915633     -113.380394
9.228                 0.97986918     -113.585758
9.229                 0.97982269     -113.791595
9.23                 0.979776166     -113.997903
9.231                0.979729607     -114.204685
9.232                0.979683016     -114.411939
9.233                0.979636392     -114.619667
9.234                0.979589737     -114.827869
9.235                0.979543052     -115.036544
9.236                0.979496338     -115.245694
9.237                0.979449597     -115.455318
9.238                0.979402828     -115.665417
9.239                0.979356035     -115.875991
9.24                 0.979309216      -116.08704
9.241                0.979262374     -116.298564
9.242                0.979215511     -116.510564
9.243                0.979168626      -116.72304
9.244                0.979121721     -116.935992
9.245                0.979074797      -117.14942
9.246                0.979027856     -117.363325
9.247                0.978980899     -117.577706
9.248                0.978933927     -117.792563
9.249                 0.97888694     -118.007898
9.25                 0.978839942     -118.223709
9.251                0.978792932     -118.439998
9.252                0.978745911     -118.656763
9.253                0.978698882     -118.874006
9.254                0.978651846     -119.091726
9.255                0.978604803     -119.309923
9.256                0.978557755     -119.528598
9.257                0.978510704      -119.74775
9.258                 0.97846365     -119.967379
9.259                0.978416595     -120.187486
9.26                 0.978369541      -120.40807
9.261                0.978322489     -120.629131
9.262                 0.97827544     -120.850669
9.263                0.978228395     -121.072685
9.264                0.978181357     -121.295178
9.265                0.978134325     -121.518148
9.266                0.978087303     -121.741594
9.267                0.978040291     -121.965518
9.268                 0.97799329     -122.189918
9.269                0.977946303     -122.414794
9.27                  0.97789933     -122.640147
9.271                0.977852374     -122.865977
9.272                0.977805435     -123.092282
9.273                0.977758515     -123.319062
9.274                0.977711616     -123.546319
9.275                0.977664738      -123.77405
9.276                0.977617885     -124.002257
9.277                0.977571057     -124.230939
9.278                0.977524256     -124.460094
9.279                0.977477483     -124.689725
9.28                  0.97743074     -124.919828
9.281                0.977384029     -125.150406
9.282                0.977337351     -125.381456
9.283                0.977290707      -125.61298
9.284                  0.9772441     -125.844975
9.285                0.977197532     -126.077443
9.286                0.977151003     -126.310382
9.287                0.977104515     -126.543792
9.288                0.977058071     -126.777673
9.289                0.977011671     -127.012024
9.29                 0.976965318     -127.246845
9.291                0.976919012     -127.482135
9.292                0.976872757     -127.717894
9.293                0.976826554     -127.954121
9.294                0.976780403     -128.190815
9.295                0.976734308     -128.427976
9.296                 0.97668827     -128.665604
9.297                 0.97664229     -128.903697
9.298                0.976596371     -129.142256
9.299                0.976550514     -129.381279
9.3                  0.976504721     -129.620765
9.301                0.976458994     -129.860715
9.302                0.976413334     -130.101127
9.303                0.976367744     -130.342001
9.304                0.976322226     -130.583336
9.305                 0.97627678     -130.825131
9.306                 0.97623141     -131.067385
9.307                0.976186116     -131.310098
9.308                0.976140901     -131.553269
9.309                0.976095767     -131.796896
9.31                 0.976050715      -132.04098
9.311                0.976005748     -132.285518
9.312                0.975960867     -132.530511
9.313                0.975916074     -132.775957
9.314                0.975871372     -133.021856
9.315                0.975826761     -133.268206
9.316                0.975782245     -133.515006
9.317                0.975737825     -133.762256
9.318                0.975693503     -134.009955
9.319                0.975649281       -134.2581
9.32                 0.975605161     -134.506692
9.321                0.975561145     -134.755729
9.322                0.975517234     -135.005211
9.323                0.975473432     -135.255135
9.324                 0.97542974     -135.505501
9.325                0.975386159     -135.756308
9.326                0.975342693     -136.007555
9.327                0.975299342     -136.259239
9.328                 0.97525611     -136.511361
9.329                0.975212998     -136.763919
9.33                 0.975170007     -137.016911
9.331                0.975127141     -137.270336
9.332                0.975084402     -137.524194
9.333                 0.97504179     -137.778482
9.334                0.974999309     -138.033199
9.335                 0.97495696     -138.288344
9.336                0.974914746     -138.543916
9.337                0.974872669     -138.799912
9.338                 0.97483073     -139.056333
9.339                0.974788932     -139.313175
9.34                 0.974747277     -139.570438
9.341                0.974705766     -139.828121
9.342                0.974664403     -140.086221
9.343                0.974623189     -140.344737
9.344                0.974582127     -140.603667
9.345                0.974541218     -140.863011
9.346                0.974500464     -141.122766
9.347                0.974459868      -141.38293
9.348                0.974419432     -141.643503
9.349                0.974379158     -141.904482
9.35                 0.974339048     -142.165866
9.351                0.974299104     -142.427652
9.352                0.974259328      -142.68984
9.353                0.974219723     -142.952427
9.354                 0.97418029     -143.215412
9.355                0.974141032     -143.478792
9.356                0.974101951     -143.742567
9.357                0.974063049     -144.006734
9.358                0.974024328     -144.271291
9.359                 0.97398579     -144.536236
9.36                 0.973947438     -144.801568
9.361                0.973909273     -145.067284
9.362                0.973871298     -145.333382
9.363                0.973833515     -145.599862
9.364                0.973795925     -145.866719
9.365                0.973758532     -146.133954
9.366                0.973721337     -146.401562
9.367                0.973684342     -146.669543
9.368                 0.97364755     -146.937895
9.369                0.973610962     -147.206614
9.37                 0.973574581     -147.475699
9.371                0.973538409     -147.745149
9.372                0.973502447      -148.01496
9.373                0.973466699      -148.28513
9.374                0.973431166     -148.555658
9.375                 0.97339585      -148.82654
9.376                0.973360754     -149.097775
9.377                0.973325879     -149.369361
9.378                0.973291227     -149.641295
9.379                0.973256801     -149.913574
9.38                 0.973222603     -150.186197
9.381                0.973188635     -150.459161
9.382                0.973154898     -150.732463
9.383                0.973121396     -151.006102
9.384                0.973088129     -151.280074
9.385                  0.9730551     -151.554378
9.386                0.973022312     -151.829011
9.387                0.972989765     -152.103969
9.388                0.972957462     -152.379252
9.389                0.972925406     -152.654856
9.39                 0.972893598     -152.930778
9.391                 0.97286204     -153.207017
9.392                0.972830734     -153.483569
9.393                0.972799682     -153.760431
9.394                0.972768886     -154.037602
9.395                0.972738348     -154.315079
9.396                 0.97270807     -154.592858
