! TOUCHSTONE file generated by CST DESIGN STUDIO
! Date and time: Tue Feb  4 12:41:10 2025
! Project name: C:\Work\MatlabApps\UnitCellOptimizationMatlab\CST\unitcell.cst
! Tree item: Tasks\Sweep1\SPara1\S-Parameters
! Header version: 2024
! Port assignment regex: !\s*Touchstone port\s*([0-9]+)\s*=\s*(CST MWS port|CST DES external port|CST DES block port)\s*(.+)\s* \(\"(.*)\"\)(\s*mode\s*([0-9]+))?.*
! Touchstone port assignment:
! Touchstone port 1 = CST DES external port 1 ("")
# GHz S MA R 50
9                    0.988314656     -78.4867947
9.001                0.988285862      -78.606471
9.002                0.988256982     -78.7264408
9.003                0.988228017      -78.846705
9.004                0.988198967     -78.9672644
9.005                 0.98816983     -79.0881199
9.006                0.988140607     -79.2092723
9.007                0.988111297     -79.3307224
9.008                0.988081902     -79.4524712
9.009                0.988052419     -79.5745195
9.01                  0.98802285     -79.6968681
9.011                0.987993194     -79.8195179
9.012                 0.98796345     -79.9424697
9.013                 0.98793362     -80.0657245
9.014                0.987903702      -80.189283
9.015                0.987873696     -80.3131462
9.016                0.987843602     -80.4373149
9.017                0.987813421       -80.56179
9.018                0.987783151     -80.6865724
9.019                0.987752793     -80.8116628
9.02                 0.987722347     -80.9370623
9.021                0.987691812     -81.0627716
9.022                0.987661189     -81.1887917
9.023                0.987630476     -81.3151234
9.024                0.987599675     -81.4417676
9.025                0.987568784     -81.5687252
9.026                0.987537804     -81.6959971
9.027                0.987506735     -81.8235841
9.028                0.987475576     -81.9514871
9.029                0.987444328     -82.0797071
9.03                 0.987412989     -82.2082448
9.031                0.987381561     -82.3371013
9.032                0.987350042     -82.4662773
9.033                0.987318434     -82.5957739
9.034                0.987286734     -82.7255917
9.035                0.987254945     -82.8557319
9.036                0.987223064     -82.9861952
9.037                0.987191093     -83.1169825
9.038                0.987159031     -83.2480948
9.039                0.987126878      -83.379533
9.04                 0.987094634     -83.5112979
9.041                0.987062298     -83.6433905
9.042                0.987029871     -83.7758116
9.043                0.986997353     -83.9085621
9.044                0.986964743     -84.0416431
9.045                0.986932041     -84.1750553
9.046                0.986899248     -84.3087997
9.047                0.986866362     -84.4428771
9.048                0.986833385     -84.5772886
9.049                0.986800315     -84.7120349
9.05                 0.986767153     -84.8471171
9.051                0.986733899      -84.982536
9.052                0.986700552     -85.1182925
9.053                0.986667112     -85.2543876
9.054                0.986633581     -85.3908221
9.055                0.986599956     -85.5275971
9.056                0.986566238     -85.6647133
9.057                0.986532428     -85.8021717
9.058                0.986498525     -85.9399733
9.059                0.986464528     -86.0781189
9.06                 0.986430439     -86.2166095
9.061                0.986396256      -86.355446
9.062                 0.98636198     -86.4946293
9.063                 0.98632761     -86.6341604
9.064                0.986293148     -86.7740401
9.065                0.986258591     -86.9142694
9.066                0.986223941     -87.0548491
9.067                0.986189198     -87.1957804
9.068                0.986154361     -87.3370639
9.069                 0.98611943     -87.4787008
9.07                 0.986084405     -87.6206918
9.071                0.986049287      -87.763038
9.072                0.986014074     -87.9057402
9.073                0.985978768     -88.0487995
9.074                0.985943368     -88.1922166
9.075                0.985907874     -88.3359926
9.076                0.985872286     -88.4801283
9.077                0.985836603     -88.6246248
9.078                0.985800827     -88.7694828
9.079                0.985764957     -88.9147034
9.08                 0.985728992     -89.0602875
9.081                0.985692934     -89.2062361
9.082                0.985656781     -89.3525499
9.083                0.985620534       -89.49923
9.084                0.985584193     -89.6462774
9.085                0.985547758     -89.7936928
9.086                0.985511228     -89.9414773
9.087                0.985474605     -90.0896318
9.088                0.985437887     -90.2381572
9.089                0.985401075     -90.3870544
9.09                  0.98536417     -90.5363245
9.091                 0.98532717     -90.6859682
9.092                0.985290076     -90.8359865
9.093                0.985252887     -90.9863805
9.094                0.985215605     -91.1371509
9.095                0.985178229     -91.2882987
9.096                0.985140759     -91.4398248
9.097                0.985103195     -91.5917302
9.098                0.985065538     -91.7440158
9.099                0.985027786     -91.8966825
9.1                  0.984989941     -92.0497313
9.101                0.984952002      -92.203163
9.102                0.984913969     -92.3569786
9.103                0.984875843      -92.511179
9.104                0.984837623     -92.6657652
9.105                 0.98479931      -92.820738
9.106                0.984760904     -92.9760983
9.107                0.984722404     -93.1318472
9.108                0.984683812     -93.2879855
9.109                0.984645126     -93.4445141
9.11                 0.984606347     -93.6014339
9.111                0.984567476     -93.7587459
9.112                0.984528512      -93.916451
9.113                0.984489455     -94.0745501
9.114                0.984450305      -94.233044
9.115                0.984411064     -94.3919338
9.116                 0.98437173     -94.5512203
9.117                0.984332304     -94.7109044
9.118                0.984292786      -94.870987
9.119                0.984253176     -95.0314691
9.12                 0.984213475     -95.1923515
9.121                0.984173682     -95.3536351
9.122                0.984133797     -95.5153209
9.123                0.984093822     -95.6774097
9.124                0.984053755     -95.8399025
9.125                0.984013598     -96.0028001
9.126                 0.98397335     -96.1661034
9.127                0.983933012     -96.3298133
9.128                0.983892583     -96.4939307
9.129                0.983852065     -96.6584564
9.13                 0.983811456     -96.8233915
9.131                0.983770758     -96.9887367
9.132                 0.98372997     -97.1544929
9.133                0.983689093     -97.3206611
9.134                0.983648128      -97.487242
9.135                0.983607073     -97.6542366
9.136                 0.98356593     -97.8216457
9.137                0.983524699     -97.9894702
9.138                 0.98348338     -98.1577109
9.139                0.983441973     -98.3263688
9.14                 0.983400479     -98.4954447
9.141                0.983358897     -98.6649394
9.142                0.983317229     -98.8348538
9.143                0.983275474     -99.0051887
9.144                0.983233632      -99.175945
9.145                0.983191705     -99.3471236
9.146                0.983149692     -99.5187252
9.147                0.983107594     -99.6907508
9.148                 0.98306541     -99.8632011
9.149                0.983023142     -100.036077
9.15                 0.982980789     -100.209379
9.151                0.982938353     -100.383109
9.152                0.982895832     -100.557266
9.153                0.982853229     -100.731853
9.154                0.982810542     -100.906869
9.155                0.982767773     -101.082316
9.156                0.982724921     -101.258194
9.157                0.982681988     -101.434504
9.158                0.982638973     -101.611247
9.159                0.982595877     -101.788423
9.16                   0.9825527     -101.966035
9.161                0.982509444     -102.144081
9.162                0.982466107     -102.322564
9.163                0.982422691     -102.501483
9.164                0.982379197      -102.68084
9.165                0.982335623     -102.860635
9.166                0.982291972      -103.04087
9.167                0.982248243     -103.221544
9.168                0.982204437     -103.402659
9.169                0.982160555     -103.584216
9.17                 0.982116596     -103.766214
9.171                0.982072562     -103.948656
9.172                0.982028453     -104.131541
9.173                0.981984269      -104.31487
9.174                0.981940011     -104.498645
9.175                 0.98189568     -104.682865
9.176                0.981851275     -104.867532
9.177                0.981806798     -105.052646
9.178                 0.98176225     -105.238207
9.179                 0.98171763     -105.424218
9.18                 0.981672939     -105.610678
9.181                0.981628178     -105.797587
9.182                0.981583347     -105.984948
9.183                0.981538448     -106.172759
9.184                 0.98149348     -106.361023
9.185                0.981448445     -106.549739
9.186                0.981403342     -106.738909
9.187                0.981358173     -106.928533
9.188                0.981312939     -107.118611
9.189                0.981267639     -107.309144
9.19                 0.981222274     -107.500133
9.191                0.981176846     -107.691579
9.192                0.981131355     -107.883482
9.193                0.981085801     -108.075842
9.194                0.981040186     -108.268661
9.195                 0.98099451     -108.461938
9.196                0.980948773     -108.655675
9.197                0.980902977     -108.849872
9.198                0.980857123     -109.044529
9.199                 0.98081121     -109.239648
9.2                   0.98076524     -109.435228
9.201                0.980719214     -109.631271
9.202                0.980673131     -109.827776
9.203                0.980626994     -110.024745
9.204                0.980580803     -110.222177
9.205                0.980534559     -110.420074
9.206                0.980488263     -110.618436
9.207                0.980441914     -110.817262
9.208                0.980395515     -111.016555
9.209                0.980349067     -111.216314
9.21                 0.980302569      -111.41654
9.211                0.980256023     -111.617233
9.212                 0.98020943     -111.818393
9.213                0.980162791     -112.020022
9.214                0.980116106     -112.222119
9.215                0.980069376     -112.424685
9.216                0.980022604     -112.627721
9.217                0.979975788     -112.831226
9.218                0.979928931     -113.035202
9.219                0.979882034     -113.239648
9.22                 0.979835097     -113.444564
9.221                0.979788121     -113.649953
9.222                0.979741107     -113.855812
9.223                0.979694057     -114.062144
9.224                0.979646971     -114.268948
9.225                 0.97959985     -114.476225
9.226                0.979552696     -114.683974
9.227                0.979505509     -114.892197
9.228                0.979458291     -115.100893
9.229                0.979411043     -115.310063
9.23                 0.979363766     -115.519708
9.231                 0.97931646     -115.729826
9.232                0.979269127     -115.940419
9.233                0.979221768     -116.151487
9.234                0.979174385      -116.36303
9.235                0.979126978     -116.575048
9.236                0.979079549     -116.787541
9.237                0.979032098      -117.00051
9.238                0.978984627     -117.213955
9.239                0.978937137     -117.427876
9.24                  0.97888963     -117.642273
9.241                0.978842106     -117.857146
9.242                0.978794567     -118.072495
9.243                0.978747014     -118.288321
9.244                0.978699448     -118.504623
9.245                0.978651871     -118.721402
9.246                0.978604284     -118.938658
9.247                0.978556688     -119.156391
9.248                0.978509084       -119.3746
9.249                0.978461474     -119.593286
9.25                 0.978413859     -119.812449
9.251                 0.97836624     -120.032089
9.252                 0.97831862     -120.252206
9.253                0.978270998     -120.472799
9.254                0.978223377     -120.693869
9.255                0.978175757     -120.915416
9.256                0.978128141      -121.13744
9.257                 0.97808053     -121.359941
9.258                0.978032925     -121.582917
9.259                0.977985327     -121.806371
9.26                 0.977937739       -122.0303
9.261                 0.97789016     -122.254706
9.262                0.977842594     -122.479587
9.263                0.977795041     -122.704945
9.264                0.977747503     -122.930778
9.265                0.977699981     -123.157086
9.266                0.977652478      -123.38387
9.267                0.977604993     -123.611129
9.268                 0.97755753     -123.838862
9.269                0.977510089      -124.06707
9.27                 0.977462673     -124.295752
9.271                0.977415282     -124.524908
9.272                0.977367918     -124.754538
9.273                0.977320583      -124.98464
9.274                0.977273279     -125.215216
9.275                0.977226006     -125.446265
9.276                0.977178767     -125.677785
9.277                0.977131564     -125.909777
9.278                0.977084398     -126.142241
9.279                 0.97703727     -126.375176
9.28                 0.976990183     -126.608581
9.281                0.976943137     -126.842456
9.282                0.976896135     -127.076801
9.283                0.976849179     -127.311615
9.284                 0.97680227     -127.546897
9.285                 0.97675541     -127.782648
9.286                  0.9767086     -128.018866
9.287                0.976661843     -128.255551
9.288                 0.97661514     -128.492702
9.289                0.976568493     -128.730319
9.29                 0.976521903     -128.968401
9.291                0.976475373     -129.206948
9.292                0.976428904     -129.445959
9.293                0.976382498     -129.685432
9.294                0.976336157     -129.925368
9.295                0.976289883     -130.165766
9.296                0.976243678     -130.406625
9.297                0.976197543     -130.647944
9.298                 0.97615148     -130.889723
9.299                0.976105491      -131.13196
9.3                  0.976059579     -131.374655
9.301                0.976013744     -131.617807
9.302                0.975967989     -131.861416
9.303                0.975922316      -132.10548
9.304                0.975876726     -132.349998
9.305                0.975831223      -132.59497
9.306                0.975785806     -132.840394
9.307                0.975740479     -133.086271
9.308                0.975695244     -133.332598
9.309                0.975650102     -133.579374
9.31                 0.975605055       -133.8266
9.311                0.975560105     -134.074273
9.312                0.975515255     -134.322393
9.313                0.975470507     -134.570958
9.314                0.975425861     -134.819968
9.315                0.975381321     -135.069422
9.316                0.975336888     -135.319317
9.317                0.975292564     -135.569654
9.318                0.975248352     -135.820431
9.319                0.975204253     -136.071647
9.32                  0.97516027       -136.3233
9.321                0.975116404      -136.57539
9.322                0.975072658     -136.827914
9.323                0.975029033     -137.080873
9.324                0.974985532     -137.334264
9.325                0.974942157     -137.588086
9.326                0.974898909     -137.842338
9.327                0.974855792     -138.097019
9.328                0.974812806     -138.352126
9.329                0.974769955      -138.60766
9.33                  0.97472724     -138.863618
9.331                0.974684663     -139.119998
9.332                0.974642227       -139.3768
9.333                0.974599933     -139.634022
9.334                0.974557784     -139.891663
9.335                0.974515781      -140.14972
9.336                0.974473928     -140.408193
9.337                0.974432225     -140.667079
9.338                0.974390676     -140.926378
9.339                0.974349282     -141.186087
9.34                 0.974308045     -141.446205
9.341                0.974266968     -141.706731
9.342                0.974226053     -141.967662
9.343                0.974185302     -142.228996
9.344                0.974144716     -142.490733
9.345                0.974104299     -142.752871
9.346                0.974064052     -143.015407
9.347                0.974023978      -143.27834
9.348                0.973984078     -143.541667
9.349                0.973944355     -143.805388
9.35                 0.973904812     -144.069501
9.351                0.973865449     -144.334003
9.352                0.973826269     -144.598892
9.353                0.973787275     -144.864167
9.354                0.973748468     -145.129826
9.355                0.973709851     -145.395866
9.356                0.973671426     -145.662286
9.357                0.973633195     -145.929084
9.358                0.973595161     -146.196258
9.359                0.973557324     -146.463805
9.36                 0.973519688     -146.731724
9.361                0.973482255     -147.000012
9.362                0.973445027     -147.268667
9.363                0.973408005     -147.537688
9.364                0.973371192     -147.807072
9.365                0.973334591     -148.076816
9.366                0.973298203     -148.346919
9.367                 0.97326203     -148.617379
9.368                0.973226075     -148.888193
9.369                 0.97319034     -149.159358
9.37                 0.973154827     -149.430873
9.371                0.973119537     -149.702736
9.372                0.973084473     -149.974943
9.373                0.973049638     -150.247493
9.374                0.973015033     -150.520383
9.375                 0.97298066     -150.793611
9.376                0.972946521     -151.067175
9.377                0.972912619     -151.341071
9.378                0.972878956     -151.615298
9.379                0.972845533     -151.889852
9.38                 0.972812353     -152.164733
9.381                0.972779417     -152.439936
9.382                0.972746728     -152.715459
9.383                0.972714288     -152.991301
9.384                0.972682099     -153.267457
9.385                0.972650162     -153.543926
9.386                 0.97261848     -153.820706
9.387                0.972587055     -154.097792
9.388                0.972555889     -154.375183
9.389                0.972524983     -154.652877
9.39                 0.972494341     -154.930869
9.391                0.972463963     -155.209158
9.392                0.972433851     -155.487741
9.393                0.972404008     -155.766615
9.394                0.972374435     -156.045777
9.395                0.972345135     -156.325225
9.396                0.972316109     -156.604955
