! TOUCHSTONE file generated by CST DESIGN STUDIO
! Date and time: Tue Feb  4 14:18:29 2025
! Project name: C:\Work\MatlabApps\UnitCellOptimizationMatlab\CST\unitcell.cst
! Tree item: Tasks\Sweep1\SPara1\S-Parameters
! Header version: 2024
! Port assignment regex: !\s*Touchstone port\s*([0-9]+)\s*=\s*(CST MWS port|CST DES external port|CST DES block port)\s*(.+)\s* \(\"(.*)\"\)(\s*mode\s*([0-9]+))?.*
! Touchstone port assignment:
! Touchstone port 1 = CST DES external port 1 ("")
# GHz S MA R 50
9                    0.944918167     -64.4937284
9.001                0.944729757     -64.5948222
9.002                0.944540557     -64.6961756
9.003                0.944350566     -64.7977893
9.004                0.944159781     -64.8996644
9.005                0.943968199     -65.0018017
9.006                0.943775819     -65.1042021
9.007                0.943582638     -65.2068666
9.008                0.943388653      -65.309796
9.009                0.943193862     -65.4129913
9.01                 0.942998264     -65.5164533
9.011                0.942801854     -65.6201831
9.012                0.942604632     -65.7241816
9.013                0.942406595     -65.8284496
9.014                 0.94220774     -65.9329881
9.015                0.942008065     -66.0377981
9.016                0.941807567     -66.1428805
9.017                0.941606245     -66.2482362
9.018                0.941404095     -66.3538662
9.019                0.941201116     -66.4597715
9.02                 0.940997305     -66.5659529
9.021                 0.94079266     -66.6724116
9.022                0.940587179     -66.7791484
9.023                0.940380858     -66.8861643
9.024                0.940173696     -66.9934602
9.025                 0.93996569     -67.1010373
9.026                0.939756838     -67.2088963
9.027                0.939547137     -67.3170384
9.028                0.939336585     -67.4254646
9.029                0.939125181     -67.5341757
9.03                  0.93891292     -67.6431728
9.031                0.938699802      -67.752457
9.032                0.938485823     -67.8620291
9.033                0.938270981     -67.9718903
9.034                0.938055274     -68.0820415
9.035                  0.9378387     -68.1924838
9.036                0.937621256     -68.3032181
9.037                0.937402939     -68.4142455
9.038                0.937183748     -68.5255671
9.039                 0.93696368     -68.6371838
9.04                 0.936742732     -68.7490967
9.041                0.936520903     -68.8613069
9.042                 0.93629819     -68.9738153
9.043                 0.93607459     -69.0866231
9.044                0.935850101     -69.1997313
9.045                0.935624722     -69.3131409
9.046                0.935398448      -69.426853
9.047                0.935171279     -69.5408686
9.048                0.934943212     -69.6551889
9.049                0.934714244      -69.769815
9.05                 0.934484373     -69.8847478
9.051                0.934253597     -69.9999884
9.052                0.934021913     -70.1155381
9.053                0.933789319     -70.2313978
9.054                0.933555814     -70.3475686
9.055                0.933321393     -70.4640517
9.056                0.933086056     -70.5808481
9.057                0.932849799      -70.697959
9.058                0.932612621     -70.8153854
9.059                0.932374519     -70.9331286
9.06                 0.932135491     -71.0511895
9.061                0.931895534     -71.1695693
9.062                0.931654646     -71.2882692
9.063                0.931412826     -71.4072903
9.064                 0.93117007     -71.5266337
9.065                0.930926376     -71.6463006
9.066                0.930681742     -71.7662921
9.067                0.930436167     -71.8866093
9.068                0.930189646     -72.0072535
9.069                0.929942179     -72.1282257
9.07                 0.929693763     -72.2495271
9.071                0.929444396      -72.371159
9.072                0.929194075     -72.4931224
9.073                0.928942798     -72.6154186
9.074                0.928690564     -72.7380487
9.075                0.928437369      -72.861014
9.076                0.928183212     -72.9843155
9.077                 0.92792809     -73.1079546
9.078                0.927672001     -73.2319323
9.079                0.927414943     -73.3562499
9.08                 0.927156914     -73.4809087
9.081                0.926897911     -73.6059097
9.082                0.926637933     -73.7312543
9.083                0.926376977     -73.8569436
9.084                0.926115041      -73.982979
9.085                0.925852123     -74.1093615
9.086                0.925588221     -74.2360924
9.087                0.925323332     -74.3631731
9.088                0.925057455     -74.4906046
9.089                0.924790587     -74.6183884
9.09                 0.924522727     -74.7465255
9.091                0.924253872     -74.8750173
9.092                0.923984019     -75.0038651
9.093                0.923713168       -75.13307
9.094                0.923441316     -75.2626335
9.095                0.923168461     -75.3925566
9.096                  0.9228946     -75.5228408
9.097                0.922619733     -75.6534873
9.098                0.922343856     -75.7844974
9.099                0.922066968     -75.9158724
9.1                  0.921789067     -76.0476135
9.101                0.921510151     -76.1797221
9.102                0.921230218     -76.3121995
9.103                0.920949265     -76.4450471
9.104                0.920667292      -76.578266
9.105                0.920384295     -76.7118576
9.106                0.920100274     -76.8458233
9.107                0.919815226     -76.9801644
9.108                0.919529149     -77.1148822
9.109                0.919242042      -77.249978
9.11                 0.918953902     -77.3854533
9.111                0.918664729     -77.5213093
9.112                0.918374519     -77.6575473
9.113                0.918083271     -77.7941688
9.114                0.917790983     -77.9311752
9.115                0.917497655     -78.0685676
9.116                0.917203283     -78.2063477
9.117                0.916907866     -78.3445166
9.118                0.916611402     -78.4830758
9.119                 0.91631389     -78.6220267
9.12                 0.916015328     -78.7613707
9.121                0.915715714     -78.9011091
9.122                0.915415047     -79.0412433
9.123                0.915113325     -79.1817748
9.124                0.914810546      -79.322705
9.125                0.914506709     -79.4640352
9.126                0.914201812     -79.6057668
9.127                0.913895853     -79.7479014
9.128                0.913588832     -79.8904403
9.129                0.913280747     -80.0333849
9.13                 0.912971595     -80.1767367
9.131                0.912661376     -80.3204971
9.132                0.912350089     -80.4646676
9.133                0.912037731     -80.6092495
9.134                0.911724301     -80.7542444
9.135                0.911409799     -80.8996537
9.136                0.911094222     -81.0454789
9.137                0.910777569     -81.1917213
9.138                0.910459839     -81.3383826
9.139                0.910141032     -81.4854641
9.14                 0.909821144     -81.6329673
9.141                0.909500176     -81.7808938
9.142                0.909178126     -81.9292449
9.143                0.908854992     -82.0780222
9.144                0.908530775     -82.2272272
9.145                0.908205472     -82.3768614
9.146                0.907879082     -82.5269263
9.147                0.907551605     -82.6774233
9.148                 0.90722304      -82.828354
9.149                0.906893384     -82.9797199
9.15                 0.906562639     -83.1315226
9.151                0.906230801     -83.2837635
9.152                0.905897872     -83.4364441
9.153                0.905563849     -83.5895661
9.154                0.905228731     -83.7431308
9.155                0.904892519       -83.89714
9.156                0.904555211     -84.0515951
9.157                0.904216807     -84.2064976
9.158                0.903877306     -84.3618492
9.159                0.903536706     -84.5176513
9.16                 0.903195008     -84.6739055
9.161                0.902852211     -84.8306134
9.162                0.902508314     -84.9877766
9.163                0.902163317     -85.1453966
9.164                0.901817219      -85.303475
9.165                 0.90147002     -85.4620134
9.166                0.901121719     -85.6210133
9.167                0.900772316     -85.7804764
9.168                0.900421811     -85.9404042
9.169                0.900070203     -86.1007984
9.17                 0.899717492     -86.2616604
9.171                0.899363677      -86.422992
9.172                 0.89900876     -86.5847947
9.173                0.898652739     -86.7470701
9.174                0.898295614     -86.9098199
9.175                0.897937386     -87.0730456
9.176                0.897578054     -87.2367489
9.177                0.897217618     -87.4009314
9.178                0.896856078     -87.5655947
9.179                0.896493436     -87.7307404
9.18                 0.896129689     -87.8963702
9.181                 0.89576484     -88.0624858
9.182                0.895398888     -88.2290887
9.183                0.895031834     -88.3961805
9.184                0.894663677      -88.563763
9.185                0.894294419     -88.7318378
9.186                0.893924059     -88.9004065
9.187                0.893552598     -89.0694708
9.188                0.893180038     -89.2390323
9.189                0.892806377     -89.4090927
9.19                 0.892431618     -89.5796536
9.191                0.892055761     -89.7507168
9.192                0.891678806     -89.9222838
9.193                0.891300755     -90.0943564
9.194                0.890921608     -90.2669362
9.195                0.890541366     -90.4400249
9.196                 0.89016003     -90.6136242
9.197                0.889777602     -90.7877357
9.198                0.889394082     -90.9623612
9.199                0.889009472     -91.1375022
9.2                  0.888623772     -91.3131606
9.201                0.888236985      -91.489338
9.202                0.887849111      -91.666036
9.203                0.887460153     -91.8432564
9.204                 0.88707011     -92.0210008
9.205                0.886678986      -92.199271
9.206                0.886286781     -92.3780687
9.207                0.885893497     -92.5573955
9.208                0.885499137     -92.7372531
9.209                0.885103701     -92.9176433
9.21                 0.884707192     -93.0985678
9.211                0.884309611     -93.2800282
9.212                0.883910961     -93.4620263
9.213                0.883511244     -93.6445637
9.214                0.883110462     -93.8276423
9.215                0.882708617     -94.0112636
9.216                0.882305712     -94.1954294
9.217                0.881901748     -94.3801414
9.218                0.881496729     -94.5654014
9.219                0.881090657      -94.751211
9.22                 0.880683534     -94.9375719
9.221                0.880275363     -95.1244859
9.222                0.879866147     -95.3119547
9.223                0.879455888       -95.49998
9.224                0.879044591     -95.6885634
9.225                0.878632257     -95.8777068
9.226                 0.87821889     -96.0674119
9.227                0.877804492     -96.2576802
9.228                0.877389068     -96.4485137
9.229                 0.87697262     -96.6399139
9.23                 0.876555153     -96.8318826
9.231                0.876136668     -97.0244215
9.232                0.875717171     -97.2175323
9.233                0.875296664     -97.4112168
9.234                0.874875152     -97.6054766
9.235                0.874452638     -97.8003134
9.236                0.874029127      -97.995729
9.237                0.873604621     -98.1917251
9.238                0.873179126     -98.3883033
9.239                0.872752646     -98.5854654
9.24                 0.872325185     -98.7832131
9.241                0.871896747     -98.9815481
9.242                0.871467337      -99.180472
9.243                0.871036959     -99.3799866
9.244                0.870605619     -99.5800936
9.245                0.870173321     -99.7807947
9.246                0.869740069     -99.9820915
9.247                 0.86930587     -100.183986
9.248                0.868870728     -100.386479
9.249                0.868434648     -100.589573
9.25                 0.867997635      -100.79327
9.251                0.867559696     -100.997571
9.252                0.867120835     -101.202478
9.253                0.866681058     -101.407992
9.254                0.866240371     -101.614115
9.255                 0.86579878     -101.820849
9.256                0.865356291     -102.028196
9.257                0.864912909     -102.236157
9.258                0.864468642     -102.444734
9.259                0.864023494     -102.653928
9.26                 0.863577474     -102.863741
9.261                0.863130586     -103.074175
9.262                0.862682839     -103.285231
9.263                0.862234238     -103.496911
9.264                 0.86178479     -103.709217
9.265                0.861334503      -103.92215
9.266                0.860883384     -104.135712
9.267                 0.86043144     -104.349904
9.268                0.859978677     -104.564728
9.269                0.859525105     -104.780186
9.27                  0.85907073     -104.996279
9.271                0.858615559     -105.213009
9.272                0.858159602     -105.430378
9.273                0.857702865     -105.648386
9.274                0.857245358     -105.867035
9.275                0.856787087     -106.086328
9.276                0.856328062     -106.306265
9.277                0.855868292     -106.526848
9.278                0.855407784     -106.748079
9.279                0.854946547     -106.969959
9.28                 0.854484591      -107.19249
9.281                0.854021924     -107.415673
9.282                0.853558555      -107.63951
9.283                0.853094495     -107.864001
9.284                0.852629751     -108.089149
9.285                0.852164335     -108.314956
9.286                0.851698255     -108.541421
9.287                0.851231522     -108.768548
9.288                0.850764145     -108.996337
9.289                0.850296134      -109.22479
9.29                   0.8498275     -109.453908
9.291                0.849358254     -109.683693
9.292                0.848888405     -109.914146
9.293                0.848417965     -110.145268
9.294                0.847946945     -110.377061
9.295                0.847475354     -110.609526
9.296                0.847003205     -110.842665
9.297                0.846530509     -111.076478
9.298                0.846057278     -111.310967
9.299                0.845583522     -111.546134
9.3                  0.845109254      -111.78198
9.301                0.844634485     -112.018505
9.302                0.844159228     -112.255712
9.303                0.843683495     -112.493601
9.304                0.843207298     -112.732174
9.305                0.842730649     -112.971432
9.306                0.842253562     -113.211376
9.307                0.841776049     -113.452007
9.308                0.841298123     -113.693327
9.309                0.840819798     -113.935336
9.31                 0.840341086     -114.178036
9.311                0.839862001     -114.421428
9.312                0.839382556     -114.665514
9.313                0.838902766     -114.910293
9.314                0.838422645     -115.155767
9.315                0.837942206     -115.401938
9.316                0.837461463     -115.648806
9.317                0.836980432     -115.896372
9.318                0.836499126     -116.144638
9.319                0.836017561     -116.393603
9.32                 0.835535751      -116.64327
9.321                0.835053712      -116.89364
9.322                0.834571458     -117.144712
9.323                0.834089005     -117.396488
9.324                0.833606369     -117.648969
9.325                0.833123565     -117.902156
9.326                 0.83264061      -118.15605
9.327                0.832157519     -118.410651
9.328                0.831674308      -118.66596
9.329                0.831190994     -118.921978
9.33                 0.830707594     -119.178705
9.331                0.830224123     -119.436144
9.332                  0.8297406     -119.694293
9.333                0.829257041     -119.953154
9.334                0.828773463     -120.212728
9.335                0.828289885     -120.473014
9.336                0.827806322     -120.734015
9.337                0.827322793     -120.995729
9.338                0.826839317     -121.258159
9.339                 0.82635591     -121.521304
9.34                 0.825872591     -121.785164
9.341                 0.82538938     -122.049741
9.342                0.824906293     -122.315035
9.343                 0.82442335     -122.581046
9.344                 0.82394057     -122.847775
9.345                0.823457972     -123.115222
9.346                0.822975574     -123.383387
9.347                0.822493397     -123.652271
9.348                0.822011461     -123.921873
9.349                0.821529784     -124.192195
9.35                 0.821048386     -124.463236
9.351                0.820567288     -124.734997
9.352                 0.82008651     -125.007477
9.353                0.819606072     -125.280677
9.354                0.819125995     -125.554598
9.355                0.818646299     -125.829238
9.356                0.818167006     -126.104598
9.357                0.817688135     -126.380679
9.358                 0.81720971     -126.657479
9.359                 0.81673175     -126.934999
9.36                 0.816254277     -127.213239
9.361                0.815777313     -127.492199
9.362                 0.81530088     -127.771879
9.363                   0.814825     -128.052278
9.364                0.814349694     -128.333395
9.365                0.813874986     -128.615232
9.366                0.813400897     -128.897787
9.367                0.812927449     -129.181061
9.368                0.812454667     -129.465052
9.369                0.811982572     -129.749761
9.37                 0.811511188     -130.035186
9.371                0.811040537     -130.321328
9.372                0.810570643     -130.608186
9.373                 0.81010153     -130.895759
9.374                0.809633221     -131.184047
9.375                0.809165739     -131.473048
9.376                0.808699109     -131.762763
9.377                0.808233354     -132.053191
9.378                0.807768499     -132.344331
9.379                0.807304568     -132.636181
9.38                 0.806841586     -132.928742
9.381                0.806379575     -133.222012
9.382                0.805918563      -133.51599
9.383                0.805458572     -133.810676
9.384                0.804999629     -134.106068
9.385                0.804541757     -134.402165
9.386                0.804084983     -134.698966
9.387                0.803629331      -134.99647
9.388                0.803174827     -135.294676
9.389                0.802721496     -135.593582
9.39                 0.802269363     -135.893188
9.391                0.801818455     -136.193492
9.392                0.801368798     -136.494492
9.393                0.800920416     -136.796187
9.394                0.800473336     -137.098576
9.395                0.800027584     -137.401656
9.396                0.799583187     -137.705428
