! TOUCHSTONE file generated by CST DESIGN STUDIO
! Date and time: Tue Feb  4 14:18:21 2025
! Project name: C:\Work\MatlabApps\UnitCellOptimizationMatlab\CST\unitcell.cst
! Tree item: Tasks\Sweep1\SPara1\S-Parameters
! Header version: 2024
! Port assignment regex: !\s*Touchstone port\s*([0-9]+)\s*=\s*(CST MWS port|CST DES external port|CST DES block port)\s*(.+)\s* \(\"(.*)\"\)(\s*mode\s*([0-9]+))?.*
! Touchstone port assignment:
! Touchstone port 1 = CST DES external port 1 ("")
# GHz S MA R 50
9                     0.87022058     -109.820565
9.001                0.869744153     -110.073469
9.002                 0.86926621     -110.327178
9.003                 0.86878676     -110.581692
9.004                0.868305813     -110.837013
9.005                0.867823377     -111.093142
9.006                0.867339461     -111.350082
9.007                0.866854075     -111.607833
9.008                0.866367228     -111.866398
9.009                 0.86587893     -112.125776
9.01                 0.865389192     -112.385971
9.011                0.864898023     -112.646983
9.012                0.864405435     -112.908813
9.013                0.863911439     -113.171463
9.014                0.863416045     -113.434935
9.015                0.862919264     -113.699229
9.016                 0.86242111     -113.964347
9.017                0.861921592     -114.230291
9.018                0.861420725      -114.49706
9.019                0.860918519     -114.764657
9.02                 0.860414988     -115.033083
9.021                0.859910145     -115.302339
9.022                0.859404002     -115.572426
9.023                0.858896574     -115.843344
9.024                0.858387874     -116.115097
9.025                0.857877916     -116.387683
9.026                0.857366714     -116.661104
9.027                0.856854284     -116.935362
9.028                0.856340639     -117.210457
9.029                0.855825795      -117.48639
9.03                 0.855309767     -117.763162
9.031                0.854792571     -118.040774
9.032                0.854274224     -118.319227
9.033                 0.85375474     -118.598521
9.034                0.853234137     -118.878658
9.035                0.852712432     -119.159638
9.036                0.852189641     -119.441461
9.037                0.851665782     -119.724129
9.038                0.851140873     -120.007642
9.039                0.850614931     -120.292001
9.04                 0.850087975     -120.577206
9.041                0.849560024     -120.863257
9.042                0.849031095     -121.150156
9.043                 0.84850121     -121.437903
9.044                0.847970386     -121.726498
9.045                0.847438643     -122.015942
9.046                0.846906002     -122.306235
9.047                0.846372483     -122.597377
9.048                0.845838106     -122.889368
9.049                0.845302893     -123.182209
9.05                 0.844766865       -123.4759
9.051                0.844230042     -123.770442
9.052                0.843692448     -124.065833
9.053                0.843154104     -124.362075
9.054                0.842615032     -124.659168
9.055                0.842075256     -124.957111
9.056                0.841534797     -125.255904
9.057                0.840993681     -125.555547
9.058                0.840451929      -125.85604
9.059                0.839909567     -126.157383
9.06                 0.839366619     -126.459576
9.061                0.838823108     -126.762619
9.062                 0.83827906      -127.06651
9.063                  0.8377345      -127.37125
9.064                0.837189453     -127.676838
9.065                0.836643946     -127.983275
9.066                0.836098004     -128.290558
9.067                0.835551653     -128.598688
9.068                0.835004921     -128.907665
9.069                0.834457833     -129.217487
9.07                 0.833910418     -129.528153
9.071                0.833362703     -129.839664
9.072                0.832814716     -130.152018
9.073                0.832266484     -130.465214
9.074                0.831718037     -130.779252
9.075                0.831169403      -131.09413
9.076                0.830620611     -131.409848
9.077                 0.83007169     -131.726404
9.078                 0.82952267     -132.043797
9.079                 0.82897358     -132.362027
9.08                 0.828424452     -132.681091
9.081                0.827875314     -133.000989
9.082                0.827326199     -133.321719
9.083                0.826777137     -133.643279
9.084                0.826228158     -133.965669
9.085                0.825679296     -134.288887
9.086                0.825130581     -134.612931
9.087                0.824582046     -134.937799
9.088                0.824033723      -135.26349
9.089                0.823485644     -135.590002
9.09                 0.822937842     -135.917334
9.091                0.822390352     -136.245483
9.092                0.821843204     -136.574447
9.093                0.821296435     -136.904225
9.094                0.820750077     -137.234814
9.095                0.820204164     -137.566212
9.096                0.819658731     -137.898417
9.097                0.819113813     -138.231427
9.098                0.818569443      -138.56524
9.099                0.818025658     -138.899852
9.1                  0.817482493     -139.235262
9.101                0.816939982     -139.571467
9.102                0.816398163     -139.908465
9.103                 0.81585707     -140.246252
9.104                 0.81531674     -140.584826
9.105                0.814777209     -140.924185
9.106                0.814238513     -141.264325
9.107                0.813700691     -141.605244
9.108                0.813163777     -141.946938
9.109                 0.81262781     -142.289405
9.11                 0.812092827     -142.632641
9.111                0.811558866     -142.976644
9.112                0.811025963     -143.321409
9.113                0.810494157     -143.666934
9.114                0.809963486     -144.013215
9.115                0.809433987     -144.360249
9.116                  0.8089057     -144.708031
9.117                0.808378662      -145.05656
9.118                0.807852912      -145.40583
9.119                0.807328489     -145.755839
9.12                 0.806805432     -146.106581
9.121                 0.80628378     -146.458054
9.122                0.805763571     -146.810254
9.123                0.805244844     -147.163175
9.124                 0.80472764     -147.516816
9.125                0.804211997      -147.87117
9.126                0.803697955     -148.226233
9.127                0.803185554     -148.582003
9.128                0.802674832     -148.938473
9.129                 0.80216583      -149.29564
9.13                 0.801658587     -149.653499
9.131                0.801153144     -150.012045
9.132                0.800649539     -150.371274
9.133                0.800147813     -150.731181
9.134                0.799648006     -151.091761
9.135                0.799150158     -151.453009
9.136                0.798654308     -151.814921
9.137                0.798160497      -152.17749
9.138                0.797668764     -152.540712
9.139                0.797179149     -152.904582
9.14                 0.796691693     -153.269095
9.141                0.796206436     -153.634244
9.142                0.795723416     -154.000026
9.143                0.795242674     -154.366433
9.144                0.794764251     -154.733461
9.145                0.794288184     -155.101104
9.146                0.793814516     -155.469356
9.147                0.793343283     -155.838211
9.148                0.792874528     -156.207664
9.149                0.792408288     -156.577709
9.15                 0.791944603     -156.948339
9.151                0.791483513     -157.319548
9.152                0.791025057     -157.691331
9.153                0.790569273     -158.063681
9.154                0.790116201     -158.436592
9.155                0.789665879     -158.810058
9.156                0.789218347     -159.184071
9.157                0.788773641     -159.558626
9.158                0.788331802     -159.933716
9.159                0.787892866     -160.309334
9.16                 0.787456872     -160.685474
9.161                0.787023858     -161.062129
9.162                0.786593861     -161.439291
9.163                0.786166919     -161.816955
9.164                0.785743069     -162.195113
9.165                0.785322347     -162.573758
9.166                0.784904791     -162.952883
9.167                0.784490437     -163.332481
9.168                0.784079321     -163.712544
9.169                0.783671479     -164.093065
9.17                 0.783266947     -164.474038
9.171                0.782865761     -164.855454
9.172                0.782467955     -165.237305
9.173                0.782073564     -165.619586
9.174                0.781682623     -166.002287
9.175                0.781295167     -166.385401
9.176                0.780911229     -166.768921
9.177                0.780530843     -167.152839
9.178                0.780154042     -167.537147
9.179                0.779780859     -167.921836
9.18                 0.779411327       -168.3069
9.181                0.779045478     -168.692329
9.182                0.778683345     -169.078117
9.183                0.778324958     -169.464254
9.184                0.777970348     -169.850734
9.185                0.777619548     -170.237546
9.186                0.777272586     -170.624684
9.187                0.776929493      -171.01214
9.188                  0.7765903     -171.399903
9.189                0.776255033     -171.787967
9.19                 0.775923724     -172.176323
9.191                  0.7755964     -172.564962
9.192                0.775273088     -172.953876
9.193                0.774953817     -173.343056
9.194                0.774638613     -173.732494
9.195                0.774327503     -174.122181
9.196                0.774020514     -174.512108
9.197                 0.77371767     -174.902267
9.198                0.773418997     -175.292648
9.199                0.773124519     -175.683243
9.2                  0.772834262     -176.074044
9.201                0.772548248     -176.465041
9.202                0.772266501     -176.856225
9.203                0.771989043     -177.247588
9.204                0.771715897     -177.639121
9.205                0.771447085     -178.030814
9.206                0.771182627     -178.422658
9.207                0.770922545     -178.814645
9.208                0.770666858     -179.206765
9.209                0.770415586      -179.59901
9.21                 0.770168748      -179.99137
9.211                0.769926364      179.616163
9.212                0.769688449        179.2236
9.213                0.769455024      178.830949
9.214                0.769226103      178.438219
9.215                0.769001703       178.04542
9.216                0.768781841      177.652561
9.217                0.768566531       177.25965
9.218                0.768355788      176.866698
9.219                0.768149627      176.473713
9.22                  0.76794806      176.080704
9.221                0.767751101      175.687682
9.222                0.767558761      175.294655
9.223                0.767371054      174.901632
9.224                 0.76718799      174.508622
9.225                0.767009579      174.115636
9.226                0.766835832      173.722682
9.227                0.766666758      173.329769
9.228                0.766502366      172.936907
9.229                0.766342665      172.544105
9.23                 0.766187661      172.151372
9.231                0.766037363      171.758717
9.232                0.765891776       171.36615
9.233                0.765750907       170.97368
9.234                0.765614761      170.581316
9.235                0.765483343      170.189067
9.236                0.765356656      169.796943
9.237                0.765234705      169.404952
9.238                0.765117493      169.013104
9.239                0.765005021      168.621408
9.24                 0.764897292      168.229873
9.241                0.764794307      167.838508
9.242                0.764696066      167.447322
9.243                 0.76460257      167.056324
9.244                0.764513817      166.665523
9.245                0.764429808      166.274929
9.246                 0.76435054      165.884549
9.247                0.764276011      165.494394
9.248                0.764206218      165.104471
9.249                0.764141158       164.71479
9.25                 0.764080827       164.32536
9.251                 0.76402522      163.936189
9.252                0.763974332      163.547287
9.253                0.763928157      163.158661
9.254                 0.76388669      162.770321
9.255                0.763849923      162.382275
9.256                0.763817849      161.994532
9.257                 0.76379046        161.6071
9.258                0.763767748      161.219988
9.259                0.763749704      160.833205
9.26                 0.763736319      160.446758
9.261                0.763727581      160.060656
9.262                0.763723482      159.674908
9.263                0.763724009      159.289522
9.264                0.763729152      158.904506
9.265                0.763738897      158.519868
9.266                0.763753233      158.135617
9.267                0.763772147       157.75176
9.268                0.763795624      157.368305
9.269                0.763823651      156.985261
9.27                 0.763856213      156.602635
9.271                0.763893295      156.220436
9.272                0.763934881       155.83867
9.273                0.763980956      155.457347
9.274                0.764031503      155.076473
9.275                0.764086505      154.696055
9.276                0.764145945      154.316103
9.277                0.764209805      153.936623
9.278                0.764278067      153.557622
9.279                0.764350711      153.179108
9.28                  0.76442772      152.801089
9.281                0.764509073      152.423571
9.282                 0.76459475      152.046562
9.283                0.764684731      151.670068
9.284                0.764778996      151.294098
9.285                0.764877523      150.918657
9.286                 0.76498029      150.543753
9.287                0.765087277      150.169393
9.288                0.765198459      149.795583
9.289                0.765313816       149.42233
9.29                 0.765433323      149.049641
9.291                0.765556958      148.677522
9.292                0.765684696       148.30598
9.293                0.765816515      147.935021
9.294                0.765952388      147.564652
9.295                0.766092292      147.194878
9.296                0.766236202      146.825707
9.297                0.766384092      146.457143
9.298                0.766535937      146.089194
9.299                0.766691711      145.721865
9.3                  0.766851387      145.355162
9.301                 0.76701494       144.98909
9.302                0.767182342      144.623657
9.303                0.767353566      144.258866
9.304                0.767528585      143.894725
9.305                0.767707372      143.531238
9.306                0.767889898       143.16841
9.307                0.768076137      142.806248
9.308                0.768266059      142.444757
9.309                0.768459636      142.083941
9.31                  0.76865684      141.723806
9.311                0.768857641      141.364357
9.312                0.769062011      141.005599
9.313                 0.76926992      140.647536
9.314                0.769481338      140.290174
9.315                0.769696237      139.933518
9.316                0.769914587      139.577572
9.317                0.770136357       139.22234
9.318                0.770361517      138.867827
9.319                0.770590037      138.514038
9.32                 0.770821887      138.160977
9.321                0.771057036      137.808648
9.322                0.771295454      137.457056
9.323                0.771537109      137.106204
9.324                0.771781971      136.756097
9.325                0.772030009      136.406739
9.326                0.772281191      136.058133
9.327                0.772535487      135.710283
9.328                0.772792865      135.363193
9.329                0.773053294      135.016868
9.33                 0.773316742      134.671309
9.331                0.773583177      134.326522
9.332                0.773852569      133.982509
9.333                0.774124885      133.639273
9.334                0.774400095      133.296818
9.335                0.774678165      132.955148
9.336                0.774959064      132.614265
9.337                0.775242761      132.274173
9.338                0.775529224      131.934874
9.339                 0.77581842      131.596371
9.34                 0.776110319      131.258668
9.341                0.776404887      130.921766
9.342                0.776702094      130.585669
9.343                0.777001907       130.25038
9.344                0.777304294      129.915901
9.345                0.777609224      129.582234
9.346                0.777916664      129.249382
9.347                0.778226584      128.917347
9.348                 0.77853895      128.586131
9.349                0.778853732      128.255738
9.35                 0.779170897      127.926168
9.351                0.779490415      127.597424
9.352                0.779812252      127.269508
9.353                0.780136379      126.942422
9.354                0.780462762      126.616168
9.355                0.780791372      126.290747
9.356                0.781122176      125.966162
9.357                0.781455143      125.642414
9.358                0.781790241      125.319505
9.359                0.782127441      124.997435
9.36                  0.78246671      124.676208
9.361                0.782808018      124.355823
9.362                0.783151334      124.036283
9.363                0.783496626      123.717589
9.364                0.783843865      123.399742
9.365                 0.78419302      123.082744
9.366                 0.78454406      122.766594
9.367                0.784896955      122.451295
9.368                0.785251674      122.136848
9.369                0.785608188      121.823253
9.37                 0.785966466      121.510511
9.371                0.786326479      121.198623
9.372                0.786688197       120.88759
9.373                 0.78705159      120.577413
9.374                0.787416629      120.268091
9.375                0.787783284      119.959627
9.376                0.788151526       119.65202
9.377                0.788521327      119.345271
9.378                0.788892657      119.039381
9.379                0.789265487      118.734349
9.38                 0.789639788      118.430176
9.381                0.790015533      118.126863
9.382                0.790392694      117.824409
9.383                0.790771241      117.522815
9.384                0.791151146      117.222081
9.385                0.791532383      116.922207
9.386                0.791914923      116.623193
9.387                 0.79229874      116.325039
9.388                0.792683804      116.027746
9.389                 0.79307009      115.731312
9.39                  0.79345757      115.435738
9.391                0.793846218      115.141023
9.392                0.794236007      114.847168
9.393                0.794626911      114.554172
9.394                0.795018902      114.262034
9.395                0.795411956      113.970755
9.396                0.795806046      113.680334
