! TOUCHSTONE file generated by CST DESIGN STUDIO
! Date and time: Tue Feb  4 14:18:28 2025
! Project name: C:\Work\MatlabApps\UnitCellOptimizationMatlab\CST\unitcell.cst
! Tree item: Tasks\Sweep1\SPara1\S-Parameters
! Header version: 2024
! Port assignment regex: !\s*Touchstone port\s*([0-9]+)\s*=\s*(CST MWS port|CST DES external port|CST DES block port)\s*(.+)\s* \(\"(.*)\"\)(\s*mode\s*([0-9]+))?.*
! Touchstone port assignment:
! Touchstone port 1 = CST DES external port 1 ("")
# GHz S MA R 50
9                     0.93457762     -71.1172405
9.001                0.934345777     -71.2376505
9.002                0.934112864     -71.3583916
9.003                0.933878877      -71.479465
9.004                0.933643814     -71.6008718
9.005                0.933407673     -71.7226131
9.006                 0.93317045     -71.8446901
9.007                0.932932144     -71.9671041
9.008                 0.93269275     -72.0898561
9.009                0.932452268     -72.2129474
9.01                 0.932210693     -72.3363792
9.011                0.931968023     -72.4601525
9.012                0.931724256     -72.5842687
9.013                0.931479389     -72.7087289
9.014                0.931233418     -72.8335343
9.015                0.930986343     -72.9586862
9.016                0.930738159     -73.0841857
9.017                0.930488865      -73.210034
9.018                0.930238457     -73.3362324
9.019                0.929986933     -73.4627821
9.02                 0.929734291     -73.5896844
9.021                0.929480527     -73.7169404
9.022                 0.92922564     -73.8445514
9.023                0.928969626     -73.9725187
9.024                0.928712483     -74.1008434
9.025                0.928454208     -74.2295269
9.026                  0.9281948     -74.3585704
9.027                0.927934255     -74.4879752
9.028                 0.92767257     -74.6177425
9.029                0.927409744     -74.7478736
9.03                 0.927145774     -74.8783698
9.031                0.926880657     -75.0092324
9.032                 0.92661439     -75.1404626
9.033                0.926346972     -75.2720617
9.034                  0.9260784     -75.4040311
9.035                 0.92580867      -75.536372
9.036                0.925537782     -75.6690858
9.037                0.925265732     -75.8021737
9.038                0.924992518      -75.935637
9.039                0.924718138     -76.0694772
9.04                 0.924442589     -76.2036954
9.041                0.924165868     -76.3382931
9.042                0.923887974     -76.4732715
9.043                0.923608904      -76.608632
9.044                0.923328656      -76.744376
9.045                0.923047227     -76.8805048
9.046                0.922764615     -77.0170197
9.047                0.922480818     -77.1539221
9.048                0.922195833     -77.2912133
9.049                0.921909659     -77.4288948
9.05                 0.921622292     -77.5669679
9.051                0.921333731     -77.7054339
9.052                0.921043974     -77.8442943
9.053                0.920753017     -77.9835504
9.054                 0.92046086     -78.1232037
9.055                  0.9201675     -78.2632555
9.056                0.919872934     -78.4037071
9.057                0.919577161     -78.5445601
9.058                0.919280179     -78.6858159
9.059                0.918981984     -78.8274757
9.06                 0.918682577     -78.9695411
9.061                0.918381953     -79.1120135
9.062                0.918080112     -79.2548943
9.063                 0.91777705      -79.398185
9.064                0.917472767     -79.5418869
9.065                 0.91716726     -79.6860015
9.066                0.916860528     -79.8305303
9.067                0.916552567     -79.9754747
9.068                0.916243378     -80.1208362
9.069                0.915932956     -80.2666161
9.07                 0.915621302     -80.4128161
9.071                0.915308412     -80.5594375
9.072                0.914994285     -80.7064819
9.073                0.914678919     -80.8539506
9.074                0.914362313     -81.0018452
9.075                0.914044464     -81.1501673
9.076                0.913725372     -81.2989181
9.077                0.913405034     -81.4480994
9.078                0.913083448     -81.5977124
9.079                0.912760613     -81.7477589
9.08                 0.912436528     -81.8982402
9.081                 0.91211119     -82.0491579
9.082                0.911784599     -82.2005136
9.083                0.911456753     -82.3523086
9.084                0.911127649     -82.5045446
9.085                0.910797288     -82.6572231
9.086                0.910465667     -82.8103456
9.087                0.910132784     -82.9639137
9.088                 0.90979864     -83.1179289
9.089                0.909463231     -83.2723927
9.09                 0.909126557     -83.4273067
9.091                0.908788617     -83.5826725
9.092                 0.90844941     -83.7384916
9.093                0.908108933     -83.8947656
9.094                0.907767187     -84.0514961
9.095                 0.90742417     -84.2086846
9.096                 0.90707988     -84.3663327
9.097                0.906734317      -84.524442
9.098                 0.90638748     -84.6830141
9.099                0.906039367     -84.8420505
9.1                  0.905689978      -85.001553
9.101                0.905339312     -85.1615229
9.102                0.904987368     -85.3219621
9.103                0.904634145      -85.482872
9.104                0.904279642     -85.6442543
9.105                0.903923859     -85.8061106
9.106                0.903566795     -85.9684425
9.107                0.903208449     -86.1312516
9.108                0.902848821     -86.2945396
9.109                0.902487909      -86.458308
9.11                 0.902125714     -86.6225586
9.111                0.901762235      -86.787293
9.112                0.901397472     -86.9525127
9.113                0.901031423     -87.1182195
9.114                 0.90066409      -87.284415
9.115                0.900295471     -87.4511008
9.116                0.899925566     -87.6182786
9.117                0.899554375       -87.78595
9.118                0.899181897     -87.9541167
9.119                0.898808134     -88.1227805
9.12                 0.898433084     -88.2919428
9.121                0.898056748     -88.4616055
9.122                0.897679125     -88.6317701
9.123                0.897300217     -88.8024384
9.124                0.896920022     -88.9736121
9.125                0.896538541     -89.1452928
9.126                0.896155775     -89.3174821
9.127                0.895771724     -89.4901819
9.128                0.895386388     -89.6633938
9.129                0.894999767     -89.8371194
9.13                 0.894611862     -90.0113605
9.131                0.894222674     -90.1861188
9.132                0.893832203      -90.361396
9.133                 0.89344045     -90.5371937
9.134                0.893047416     -90.7135138
9.135                0.892653101     -90.8903579
9.136                0.892257506     -91.0677276
9.137                0.891860633     -91.2456248
9.138                0.891462481     -91.4240511
9.139                0.891063053     -91.6030083
9.14                  0.89066235     -91.7824981
9.141                0.890260372     -91.9625222
9.142                 0.88985712     -92.1430823
9.143                0.889452597     -92.3241802
9.144                0.889046804     -92.5058175
9.145                0.888639742     -92.6879961
9.146                0.888231412     -92.8707176
9.147                0.887821816     -93.0539838
9.148                0.887410956     -93.2377964
9.149                0.886998834     -93.4221571
9.15                 0.886585452     -93.6070677
9.151                0.886170811       -93.79253
9.152                0.885754913     -93.9785456
9.153                0.885337761     -94.1651163
9.154                0.884919356     -94.3522439
9.155                0.884499702       -94.53993
9.156                0.884078799     -94.7281765
9.157                0.883656652      -94.916985
9.158                0.883233261     -95.1063574
9.159                 0.88280863     -95.2962953
9.16                 0.882382761     -95.4868005
9.161                0.881955658     -95.6778748
9.162                0.881527322     -95.8695198
9.163                0.881097757     -96.0617374
9.164                0.880666966     -96.2545293
9.165                0.880234952     -96.4478972
9.166                0.879801718     -96.6418429
9.167                0.879367267     -96.8363681
9.168                0.878931603     -97.0314746
9.169                0.878494729     -97.2271641
9.17                 0.878056649     -97.4234383
9.171                0.877617366      -97.620299
9.172                0.877176885     -97.8177479
9.173                0.876735209     -98.0157868
9.174                0.876292341     -98.2144174
9.175                0.875848287     -98.4136415
9.176                 0.87540305     -98.6134607
9.177                0.874956635     -98.8138768
9.178                0.874509045     -99.0148916
9.179                0.874060286     -99.2165068
9.18                 0.873610361      -99.418724
9.181                0.873159277     -99.6215451
9.182                0.872707036     -99.8249717
9.183                0.872253645     -100.029006
9.184                0.871799109     -100.233648
9.185                0.871343431     -100.438902
9.186                0.870886619     -100.644768
9.187                0.870428676     -100.851248
9.188                0.869969609     -101.058344
9.189                0.869509423     -101.266057
9.19                 0.869048124      -101.47439
9.191                0.868585718     -101.683344
9.192                 0.86812221      -101.89292
9.193                0.867657607      -102.10312
9.194                0.867191914     -102.313947
9.195                0.866725139     -102.525401
9.196                0.866257287     -102.737485
9.197                0.865788366     -102.950199
9.198                0.865318381     -103.163546
9.199                 0.86484734     -103.377528
9.2                   0.86437525     -103.592145
9.201                0.863902117       -103.8074
9.202                0.863427949     -104.023295
9.203                0.862952753      -104.23983
9.204                0.862476537     -104.457008
9.205                0.861999308      -104.67483
9.206                0.861521074     -104.893298
9.207                0.861041843     -105.112413
9.208                0.860561623     -105.332177
9.209                0.860080422     -105.552592
9.21                 0.859598248     -105.773659
9.211                 0.85911511     -105.995379
9.212                0.858631017     -106.217755
9.213                0.858145976     -106.440788
9.214                0.857659998      -106.66448
9.215                 0.85717309     -106.888831
9.216                0.856685263     -107.113844
9.217                0.856196525      -107.33952
9.218                0.855706886     -107.565861
9.219                0.855216355     -107.792868
9.22                 0.854724943     -108.020543
9.221                0.854232659     -108.248886
9.222                0.853739513     -108.477901
9.223                0.853245515     -108.707587
9.224                0.852750676     -108.937947
9.225                0.852255007     -109.168982
9.226                0.851758518     -109.400693
9.227                0.851261219     -109.633083
9.228                0.850763123     -109.866151
9.229                0.850264239     -110.099901
9.23                  0.84976458     -110.334332
9.231                0.849264157     -110.569447
9.232                0.848762981     -110.805247
9.233                0.848261064     -111.041734
9.234                0.847758419     -111.278907
9.235                0.847255058      -111.51677
9.236                0.846750992     -111.755323
9.237                0.846246235     -111.994567
9.238                0.845740798     -112.234505
9.239                0.845234696     -112.475136
9.24                  0.84472794     -112.716463
9.241                0.844220544     -112.958486
9.242                0.843712521     -113.201208
9.243                0.843203885     -113.444628
9.244                 0.84269465     -113.688749
9.245                0.842184829     -113.933571
9.246                0.841674437     -114.179096
9.247                0.841163487     -114.425324
9.248                0.840651994     -114.672258
9.249                0.840139973     -114.919897
9.25                 0.839627438     -115.168244
9.251                0.839114404     -115.417299
9.252                0.838600887     -115.667063
9.253                0.838086902     -115.917538
9.254                0.837572464     -116.168723
9.255                0.837057588     -116.420622
9.256                0.836542292     -116.673233
9.257                 0.83602659     -116.926559
9.258                0.835510499       -117.1806
9.259                0.834994035     -117.435357
9.26                 0.834477216     -117.690831
9.261                0.833960057     -117.947024
9.262                0.833442575     -118.203935
9.263                0.832924789     -118.461566
9.264                0.832406714     -118.719917
9.265                0.831888369     -118.978989
9.266                0.831369772     -119.238784
9.267                0.830850939     -119.499301
9.268                 0.83033189     -119.760542
9.269                0.829812642     -120.022507
9.27                 0.829293214     -120.285197
9.271                0.828773625     -120.548612
9.272                0.828253894     -120.812754
9.273                0.827734038     -121.077622
9.274                0.827214079     -121.343218
9.275                0.826694034     -121.609541
9.276                0.826173924     -121.876593
9.277                0.825653769     -122.144373
9.278                0.825133587     -122.412883
9.279                  0.8246134     -122.682123
9.28                 0.824093228     -122.952093
9.281                0.823573092     -123.222793
9.282                0.823053011     -123.494225
9.283                0.822533007     -123.766387
9.284                0.822013102     -124.039281
9.285                0.821493315     -124.312907
9.286                0.820973669     -124.587265
9.287                0.820454186     -124.862355
9.288                0.819934887     -125.138177
9.289                0.819415794     -125.414732
9.29                 0.818896929     -125.692019
9.291                0.818378315     -125.970039
9.292                0.817859974     -126.248792
9.293                 0.81734193     -126.528277
9.294                0.816824204     -126.808495
9.295                0.816306821     -127.089445
9.296                0.815789803     -127.371128
9.297                0.815273174     -127.653544
9.298                0.814756957     -127.936691
9.299                0.814241176      -128.22057
9.3                  0.813725856     -128.505182
9.301                 0.81321102     -128.790524
9.302                0.812696693     -129.076598
9.303                0.812182899     -129.363402
9.304                0.811669663     -129.650937
9.305                 0.81115701     -129.939201
9.306                0.810644965     -130.228196
9.307                0.810133553     -130.517919
9.308                0.809622799      -130.80837
9.309                0.809112728     -131.099549
9.31                 0.808603368     -131.391455
9.311                0.808094743     -131.684088
9.312                0.807586879     -131.977447
9.313                0.807079802      -132.27153
9.314                 0.80657354     -132.566338
9.315                0.806068117     -132.861869
9.316                0.805563562     -133.158123
9.317                  0.8050599     -133.455098
9.318                0.804557159     -133.752794
9.319                0.804055365     -134.051209
9.32                 0.803554546     -134.350343
9.321                0.803054729     -134.650194
9.322                0.802555941     -134.950762
9.323                0.802058211     -135.252044
9.324                0.801561565      -135.55404
9.325                0.801066032     -135.856749
9.326                 0.80057164      -136.16017
9.327                0.800078417       -136.4643
9.328                0.799586391     -136.769138
9.329                 0.79909559     -137.074683
9.33                 0.798606043     -137.380934
9.331                0.798117779     -137.687888
9.332                0.797630825     -137.995545
9.333                0.797145212     -138.303902
9.334                0.796660968     -138.612958
9.335                0.796178122     -138.922711
9.336                0.795696702      -139.23316
9.337                0.795216739     -139.544301
9.338                0.794738262     -139.856134
9.339                0.794261299     -140.168657
9.34                 0.793785881     -140.481867
9.341                0.793312037     -140.795762
9.342                0.792839796     -141.110341
9.343                0.792369189       -141.4256
9.344                0.791900245     -141.741539
9.345                0.791432993     -142.058154
9.346                0.790967465     -142.375443
9.347                 0.79050369     -142.693404
9.348                0.790041697     -143.012034
9.349                0.789581517     -143.331331
9.35                  0.78912318     -143.651292
9.351                0.788666717     -143.971915
9.352                0.788212157     -144.293197
9.353                 0.78775953     -144.615136
9.354                0.787308868     -144.937728
9.355                  0.7868602      -145.26097
9.356                0.786413556     -145.584861
9.357                0.785968967     -145.909396
9.358                0.785526464     -146.234573
9.359                0.785086076     -146.560389
9.36                 0.784647834     -146.886841
9.361                0.784211768     -147.213925
9.362                0.783777909     -147.541638
9.363                0.783346288     -147.869978
9.364                0.782916933      -148.19894
9.365                0.782489876     -148.528522
9.366                0.782065148     -148.858719
9.367                0.781642777     -149.189529
9.368                0.781222795     -149.520947
9.369                0.780805232     -149.852971
9.37                 0.780390117     -150.185596
9.371                0.779977481     -150.518819
9.372                0.779567355     -150.852636
9.373                0.779159767     -151.187043
9.374                0.778754748     -151.522036
9.375                0.778352327     -151.857611
9.376                0.777952535     -152.193765
9.377                0.777555402     -152.530493
9.378                0.777160955      -152.86779
9.379                0.776769226     -153.205654
9.38                 0.776380244     -153.544079
9.381                0.775994038     -153.883061
9.382                0.775610636     -154.222596
9.383                0.775230069     -154.562679
9.384                0.774852365     -154.903306
9.385                0.774477553     -155.244473
9.386                0.774105662     -155.586174
9.387                 0.77373672     -155.928406
9.388                0.773370756     -156.271163
9.389                0.773007798      -156.61444
9.39                 0.772647874     -156.958234
9.391                0.772291012     -157.302538
9.392                 0.77193724     -157.647349
9.393                0.771586586      -157.99266
9.394                0.771239077     -158.338467
9.395                 0.77089474     -158.684765
9.396                0.770553603     -159.031549
