! TOUCHSTONE file generated by CST DESIGN STUDIO
! Date and time: Tue Feb  4 14:18:34 2025
! Project name: C:\Work\MatlabApps\UnitCellOptimizationMatlab\CST\unitcell.cst
! Tree item: Tasks\Sweep1\SPara1\S-Parameters
! Header version: 2024
! Port assignment regex: !\s*Touchstone port\s*([0-9]+)\s*=\s*(CST MWS port|CST DES external port|CST DES block port)\s*(.+)\s* \(\"(.*)\"\)(\s*mode\s*([0-9]+))?.*
! Touchstone port assignment:
! Touchstone port 1 = CST DES external port 1 ("")
# GHz S MA R 50
9                    0.965576776     -49.7042442
9.001                0.965474136     -49.7689009
9.002                0.965371158     -49.8336895
9.003                0.965267843     -49.8986105
9.004                0.965164191     -49.9636642
9.005                0.965060201     -50.0288512
9.006                0.964955873     -50.0941717
9.007                0.964851207     -50.1596264
9.008                0.964746201     -50.2252155
9.009                0.964640856     -50.2909396
9.01                 0.964535172      -50.356799
9.011                0.964429147     -50.4227942
9.012                0.964322782     -50.4889257
9.013                0.964216076     -50.5551939
9.014                0.964109028     -50.6215993
9.015                0.964001639     -50.6881422
9.016                0.963893908     -50.7548232
9.017                0.963785834     -50.8216426
9.018                0.963677417     -50.8886011
9.019                0.963568657     -50.9556989
9.02                 0.963459553     -51.0229366
9.021                0.963350105     -51.0903146
9.022                0.963240312     -51.1578334
9.023                0.963130174     -51.2254935
9.024                0.963019691     -51.2932953
9.025                0.962908861     -51.3612392
9.026                0.962797685     -51.4293258
9.027                0.962686162     -51.4975556
9.028                0.962574291      -51.565929
9.029                0.962462073     -51.6344464
9.03                 0.962349506     -51.7031084
9.031                0.962236591     -51.7719154
9.032                0.962123326      -51.840868
9.033                0.962009711     -51.9099666
9.034                0.961895746     -51.9792117
9.035                0.961781431     -52.0486037
9.036                0.961666764     -52.1181433
9.037                0.961551745     -52.1878308
9.038                0.961436375     -52.2576668
9.039                0.961320651     -52.3276518
9.04                 0.961204574     -52.3977862
9.041                0.961088143     -52.4680706
9.042                0.960971358     -52.5385054
9.043                0.960854219     -52.6090913
9.044                0.960736723     -52.6798286
9.045                0.960618872      -52.750718
9.046                0.960500665     -52.8217599
9.047                  0.9603821     -52.8929548
9.048                0.960263178     -52.9643032
9.049                0.960143898     -53.0358057
9.05                 0.960024259     -53.1074628
9.051                0.959904261     -53.1792751
9.052                0.959783903     -53.2512429
9.053                0.959663185      -53.323367
9.054                0.959542106     -53.3956477
9.055                0.959420665     -53.4680857
9.056                0.959298862     -53.5406815
9.057                0.959176697     -53.6134356
9.058                0.959054168     -53.6863485
9.059                0.958931275     -53.7594209
9.06                 0.958808018     -53.8326531
9.061                0.958684395     -53.9060459
9.062                0.958560407     -53.9795997
9.063                0.958436053     -54.0533152
9.064                0.958311331     -54.1271927
9.065                0.958186242      -54.201233
9.066                0.958060784     -54.2754365
9.067                0.957934958     -54.3498039
9.068                0.957808762     -54.4243357
9.069                0.957682195     -54.4990324
9.07                 0.957555258     -54.5738947
9.071                 0.95742795      -54.648923
9.072                0.957300269     -54.7241181
9.073                0.957172215     -54.7994803
9.074                0.957043787     -54.8750105
9.075                0.956914986      -54.950709
9.076                0.956785809     -55.0265765
9.077                0.956656257     -55.1026137
9.078                0.956526328      -55.178821
9.079                0.956396022      -55.255199
9.08                 0.956265338     -55.3317485
9.081                0.956134276     -55.4084698
9.082                0.956002835     -55.4853638
9.083                0.955871014     -55.5624309
9.084                0.955738812     -55.6396718
9.085                0.955606229      -55.717087
9.086                0.955473263     -55.7946772
9.087                0.955339914      -55.872443
9.088                0.955206182      -55.950385
9.089                0.955072066     -56.0285039
9.09                 0.954937564     -56.1068001
9.091                0.954802676     -56.1852745
9.092                0.954667401     -56.2639275
9.093                0.954531739     -56.3427599
9.094                0.954395689     -56.4217722
9.095                0.954259249     -56.5009651
9.096                 0.95412242     -56.5803392
9.097                0.953985199     -56.6598952
9.098                0.953847587     -56.7396337
9.099                0.953709583     -56.8195553
9.1                  0.953571186     -56.8996607
9.101                0.953432394     -56.9799505
9.102                0.953293208     -57.0604254
9.103                0.953153626     -57.1410861
9.104                0.953013647     -57.2219332
9.105                0.952873271     -57.3029674
9.106                0.952732496     -57.3841892
9.107                0.952591323     -57.4655995
9.108                0.952449749     -57.5471988
9.109                0.952307775     -57.6289879
9.11                 0.952165399     -57.7109674
9.111                 0.95202262     -57.7931379
9.112                0.951879438     -57.8755002
9.113                0.951735851      -57.958055
9.114                0.951591859     -58.0408029
9.115                 0.95144746     -58.1237446
9.116                0.951302654     -58.2068809
9.117                0.951157441     -58.2902123
9.118                0.951011818     -58.3737397
9.119                0.950865785     -58.4574636
9.12                 0.950719341     -58.5413849
9.121                0.950572486     -58.6255042
9.122                0.950425217     -58.7098222
9.123                0.950277535     -58.7943396
9.124                0.950129438     -58.8790572
9.125                0.949980926     -58.9639757
9.126                0.949831996     -59.0490957
9.127                0.949682649     -59.1344181
9.128                0.949532884     -59.2199435
9.129                0.949382698     -59.3056727
9.13                 0.949232092     -59.3916063
9.131                0.949081065     -59.4777453
9.132                0.948929614     -59.5640902
9.133                 0.94877774     -59.6506418
9.134                0.948625442     -59.7374009
9.135                0.948472717     -59.8243682
9.136                0.948319566     -59.9115444
9.137                0.948165987     -59.9989304
9.138                0.948011979     -60.0865269
9.139                0.947857541     -60.1743346
9.14                 0.947702672     -60.2623543
9.141                0.947547371     -60.3505867
9.142                0.947391637     -60.4390327
9.143                0.947235469     -60.5276931
9.144                0.947078865     -60.6165685
9.145                0.946921825     -60.7056598
9.146                0.946764348     -60.7949677
9.147                0.946606432     -60.8844931
9.148                0.946448076     -60.9742367
9.149                 0.94628928     -61.0641994
9.15                 0.946130042     -61.1543818
9.151                 0.94597036     -61.2447849
9.152                0.945810235     -61.3354094
9.153                0.945649664     -61.4262561
9.154                0.945488647     -61.5173259
9.155                0.945327182     -61.6086195
9.156                0.945165268     -61.7001378
9.157                0.945002905     -61.7918816
9.158                 0.94484009     -61.8838516
9.159                0.944676823     -61.9760488
9.16                 0.944513103      -62.068474
9.161                0.944348928      -62.161128
9.162                0.944184297     -62.2540116
9.163                 0.94401921     -62.3471257
9.164                0.943853664     -62.4404711
9.165                0.943687658     -62.5340487
9.166                0.943521193     -62.6278593
9.167                0.943354265     -62.7219037
9.168                0.943186874     -62.8161829
9.169                0.943019019     -62.9106977
9.17                 0.942850699     -63.0054489
9.171                0.942681911     -63.1004375
9.172                0.942512656     -63.1956643
9.173                0.942342931     -63.2911301
9.174                0.942172736     -63.3868359
9.175                 0.94200207     -63.4827825
9.176                 0.94183093     -63.5789708
9.177                0.941659315     -63.6754017
9.178                0.941487226     -63.7720761
9.179                0.941314659      -63.868995
9.18                 0.941141614     -63.9661591
9.181                 0.94096809     -64.0635695
9.182                0.940794085     -64.1612269
9.183                0.940619598     -64.2591324
9.184                0.940444627     -64.3572868
9.185                0.940269172     -64.4556911
9.186                0.940093231     -64.5543462
9.187                0.939916802      -64.653253
9.188                0.939739885     -64.7524124
9.189                0.939562478     -64.8518255
9.19                 0.939384579      -64.951493
9.191                0.939206188      -65.051416
9.192                0.939027303     -65.1515954
9.193                0.938847922     -65.2520322
9.194                0.938668045     -65.3527273
9.195                0.938487669     -65.4536817
9.196                0.938306794     -65.5548963
9.197                0.938125418     -65.6563722
9.198                0.937943539     -65.7581102
9.199                0.937761157     -65.8601114
9.2                   0.93757827     -65.9623767
9.201                0.937394877     -66.0649071
9.202                0.937210975     -66.1677037
9.203                0.937026565     -66.2707673
9.204                0.936841643     -66.3740991
9.205                 0.93665621     -66.4776999
9.206                0.936470263     -66.5815708
9.207                0.936283801     -66.6857129
9.208                0.936096823     -66.7901271
9.209                0.935909327     -66.8948144
9.21                 0.935721312     -66.9997759
9.211                0.935532776     -67.1050126
9.212                0.935343718     -67.2105256
9.213                0.935154137     -67.3163157
9.214                 0.93496403     -67.4223843
9.215                0.934773397     -67.5287321
9.216                0.934582236     -67.6353604
9.217                0.934390546     -67.7422701
9.218                0.934198325     -67.8494623
9.219                0.934005571     -67.9569381
9.22                 0.933812284     -68.0646986
9.221                0.933618461     -68.1727448
9.222                0.933424102     -68.2810778
9.223                0.933229204     -68.3896987
9.224                0.933033766     -68.4986086
9.225                0.932837788     -68.6078086
9.226                0.932641266     -68.7172998
9.227                  0.9324442     -68.8270832
9.228                0.932246589       -68.93716
9.229                 0.93204843     -69.0475314
9.23                 0.931849722     -69.1581984
9.231                0.931650464     -69.2691621
9.232                0.931450654     -69.3804238
9.233                0.931250291     -69.4919845
9.234                0.931049373     -69.6038454
9.235                0.930847899     -69.7160077
9.236                0.930645867     -69.8284724
9.237                0.930443275     -69.9412409
9.238                0.930240122     -70.0543141
9.239                0.930036407     -70.1676934
9.24                 0.929832127     -70.2813799
9.241                0.929627282     -70.3953748
9.242                 0.92942187     -70.5096793
9.243                0.929215889     -70.6242946
9.244                0.929009338      -70.739222
9.245                0.928802216     -70.8544626
9.246                0.928594519     -70.9700177
9.247                0.928386248     -71.0858885
9.248                0.928177401     -71.2020763
9.249                0.927967975     -71.3185824
9.25                  0.92775797      -71.435408
9.251                0.927547384     -71.5525543
9.252                0.927336215     -71.6700228
9.253                0.927124462     -71.7878146
9.254                0.926912123     -71.9059312
9.255                0.926699196     -72.0243738
9.256                0.926485681     -72.1431438
9.257                0.926271575     -72.2622424
9.258                0.926056877     -72.3816712
9.259                0.925841586     -72.5014315
9.26                 0.925625699     -72.6215246
9.261                0.925409216      -72.741952
9.262                0.925192134     -72.8627152
9.263                0.924974453     -72.9838155
9.264                 0.92475617     -73.1052544
9.265                0.924537284     -73.2270336
9.266                0.924317794     -73.3491544
9.267                0.924097698     -73.4716184
9.268                0.923876994     -73.5944272
9.269                0.923655681     -73.7175824
9.27                 0.923433757     -73.8410856
9.271                0.923211221     -73.9649386
9.272                0.922988072      -74.089143
9.273                0.922764307     -74.2137005
9.274                0.922539926      -74.338613
9.275                0.922314926     -74.4638824
9.276                0.922089307     -74.5895105
9.277                0.921863068     -74.7154993
9.278                0.921636205     -74.8418509
9.279                0.921408719     -74.9685674
9.28                 0.921180608      -75.095651
9.281                0.920951871     -75.2231039
9.282                0.920722506     -75.3509287
9.283                0.920492512     -75.4791278
9.284                0.920261888     -75.6077039
9.285                0.920030634     -75.7366599
9.286                0.919798748     -75.8659988
9.287                0.919566229     -75.9957238
9.288                0.919333077     -76.1258384
9.289                0.919099291     -76.2563463
9.29                 0.918864872     -76.3872516
9.291                0.918629819     -76.5185587
9.292                0.918394133     -76.6502725
9.293                0.918157814     -76.7823984
9.294                0.917920865     -76.9149424
9.295                0.917683288     -77.0479113
9.296                0.917445085     -77.1813127
9.297                0.917206261     -77.3151553
9.298                0.916966822     -77.4494491
9.299                0.916726776     -77.5842057
9.3                  0.916486133     -77.7194387
9.301                0.916244907     -77.8551642
9.302                0.916003117     -77.9914013
9.303                0.915760788     -78.1281733
9.304                0.915517954     -78.2655086
9.305                0.915274662     -78.4034426
9.306                0.915030975     -78.5420196
9.307                0.914786985     -78.6812962
9.308                 0.91454282     -78.8213464
9.309                0.914298668     -78.9622678
9.31                 0.914054808     -79.1041931
9.311                0.913811671     -79.2473064
9.312                0.913569933      -79.391871
9.313                0.913330713     -79.5382758
9.314                0.913095932     -79.6871188
9.315                0.912869087     -79.8393631
9.316                0.912656988     -79.9966514
9.317                0.912474053     -80.1619901
9.318                0.912354135     -80.3413823
9.319                 0.91238694     -80.5481623
9.32                 0.912833082     -80.8155533
9.321                0.914149142     -81.2278845
9.322                0.911102806     -81.6311213
9.323                0.909572837     -81.1519346
9.324                0.910478817     -81.0670927
9.325                0.910427307     -81.1533161
9.326                0.910177795     -81.2824339
9.327                0.909895791     -81.4243096
9.328                0.909611914     -81.5705856
9.329                0.909331341     -81.7185679
9.33                 0.909054187     -81.8672985
9.331                0.908779678     -82.0164221
9.332                 0.90850704     -82.1658119
9.333                0.908235661     -82.3154318
9.334                0.907965081      -82.465283
9.335                 0.90769496     -82.6153806
9.336                0.907425048     -82.7657445
9.337                0.907155155     -82.9163948
9.338                0.906885141     -83.0673506
9.339                0.906614896     -83.2186291
9.34                 0.906344335     -83.3702455
9.341                0.906073392     -83.5222133
9.342                0.905802014     -83.6745444
9.343                0.905530159     -83.8272492
9.344                0.905257791     -83.9803369
9.345                0.904984884     -84.1338159
9.346                0.904711413     -84.2876935
9.347                 0.90443736     -84.4419762
9.348                0.904162707       -84.59667
9.349                0.903887442     -84.7517804
9.35                 0.903611552     -84.9073124
9.351                0.903335028     -85.0632704
9.352                 0.90305786     -85.2196588
9.353                0.902780042     -85.3764815
9.354                0.902501567     -85.5337421
9.355                0.902222428     -85.6914442
9.356                0.901942622     -85.8495909
9.357                0.901662143     -86.0081854
9.358                0.901380988     -86.1672307
9.359                0.901099153     -86.3267294
9.36                 0.900816636     -86.4866845
9.361                0.900533432     -86.6470983
9.362                0.900249541     -86.8079736
9.363                0.899964959     -86.9693127
9.364                0.899679685     -87.1311179
9.365                0.899393717     -87.2933917
9.366                0.899107053     -87.4561361
9.367                0.898819692     -87.6193535
9.368                0.898531633      -87.783046
9.369                0.898242875     -87.9472157
9.37                 0.897953416     -88.1118647
9.371                0.897663256      -88.276995
9.372                0.897372393     -88.4426087
9.373                0.897080828     -88.6087077
9.374                 0.89678856      -88.775294
9.375                0.896495588     -88.9423696
9.376                0.896201912     -89.1099363
9.377                0.895907531     -89.2779961
9.378                0.895612445     -89.4465509
9.379                0.895316655     -89.6156025
9.38                 0.895020159     -89.7851529
9.381                0.894722959     -89.9552038
9.382                0.894425053     -90.1257571
9.383                0.894126443     -90.2968147
9.384                0.893827128     -90.4683783
9.385                0.893527109     -90.6404497
9.386                0.893226385     -90.8130309
9.387                0.892924958     -90.9861234
9.388                0.892622827     -91.1597293
9.389                0.892319993     -91.3338501
9.39                 0.892016457     -91.5084877
9.391                0.891712219      -91.683644
9.392                 0.89140728     -91.8593205
9.393                0.891101641     -92.0355192
9.394                0.890795301     -92.2122416
9.395                0.890488263     -92.3894897
9.396                0.890180527     -92.5672652
