! TOUCHSTONE file generated by CST DESIGN STUDIO
! Date and time: Tue Feb  4 14:18:25 2025
! Project name: C:\Work\MatlabApps\UnitCellOptimizationMatlab\CST\unitcell.cst
! Tree item: Tasks\Sweep1\SPara1\S-Parameters
! Header version: 2024
! Port assignment regex: !\s*Touchstone port\s*([0-9]+)\s*=\s*(CST MWS port|CST DES external port|CST DES block port)\s*(.+)\s* \(\"(.*)\"\)(\s*mode\s*([0-9]+))?.*
! Touchstone port assignment:
! Touchstone port 1 = CST DES external port 1 ("")
# GHz S MA R 50
9                    0.906829559     -87.8335186
9.001                0.906474737     -88.0080183
9.002                0.906118393     -88.1830609
9.003                0.905760524     -88.3586481
9.004                0.905401129     -88.5347818
9.005                0.905040204     -88.7114638
9.006                0.904677748     -88.8886959
9.007                0.904313758       -89.06648
9.008                0.903948231     -89.2448179
9.009                0.903581166     -89.4237115
9.01                 0.903212561     -89.6031625
9.011                0.902842412     -89.7831729
9.012                0.902470719     -89.9637444
9.013                0.902097479     -90.1448789
9.014                 0.90172269     -90.3265783
9.015                0.901346351     -90.5088445
9.016                 0.90096846     -90.6916791
9.017                0.900589015     -90.8750842
9.018                0.900208014     -91.0590616
9.019                0.899825456     -91.2436131
9.02                  0.89944134     -91.4287406
9.021                0.899055663     -91.6144459
9.022                0.898668425     -91.8007309
9.023                0.898279625     -91.9875975
9.024                0.897889261     -92.1750475
9.025                0.897497332     -92.3630828
9.026                0.897103837     -92.5517053
9.027                0.896708775     -92.7409168
9.028                0.896312146     -92.9307192
9.029                0.895913948     -93.1211143
9.03                 0.895514181     -93.3121041
9.031                0.895112844     -93.5036903
9.032                0.894709937     -93.6958749
9.033                0.894305459     -93.8886598
9.034                 0.89389941     -94.0820467
9.035                 0.89349179     -94.2760376
9.036                0.893082598     -94.4706343
9.037                0.892671835     -94.6658388
9.038                  0.8922595     -94.8616528
9.039                0.891845594     -95.0580782
9.04                 0.891430117     -95.2551169
9.041                0.891013068     -95.4527709
9.042                 0.89059445     -95.6510418
9.043                0.890174262     -95.8499316
9.044                0.889752504     -96.0494422
9.045                0.889329178     -96.2495754
9.046                0.888904284     -96.4503332
9.047                0.888477823     -96.6517172
9.048                0.888049797     -96.8537295
9.049                0.887620206     -97.0563718
9.05                 0.887189052      -97.259646
9.051                0.886756337     -97.4635539
9.052                0.886322061     -97.6680975
9.053                0.885886226     -97.8732786
9.054                0.885448834     -98.0790989
9.055                0.885009887     -98.2855604
9.056                0.884569387     -98.4926649
9.057                0.884127336     -98.7004142
9.058                0.883683737     -98.9088102
9.059                0.883238591     -99.1178546
9.06                 0.882791901     -99.3275494
9.061                0.882343669     -99.5378963
9.062                  0.8818939     -99.7488972
9.063                0.881442594     -99.9605538
9.064                0.880989756     -100.172868
9.065                0.880535388     -100.385842
9.066                0.880079494     -100.599476
9.067                0.879622077     -100.813774
9.068                0.879163141     -101.028737
9.069                0.878702689     -101.244366
9.07                 0.878240725     -101.460664
9.071                0.877777254     -101.677631
9.072                0.877312279     -101.895271
9.073                0.876845804     -102.113584
9.074                0.876377835     -102.332573
9.075                0.875908375     -102.552239
9.076                 0.87543743     -102.772584
9.077                0.874965004     -102.993609
9.078                0.874491102     -103.215317
9.079                 0.87401573      -103.43771
9.08                 0.873538893     -103.660788
9.081                0.873060595     -103.884553
9.082                0.872580844     -104.109008
9.083                0.872099645     -104.334154
9.084                0.871617004     -104.559993
9.085                0.871132927     -104.786526
9.086                 0.87064742     -105.013755
9.087                 0.87016049     -105.241682
9.088                0.869672144     -105.470308
9.089                0.869182389     -105.699635
9.09                 0.868691231     -105.929665
9.091                0.868198677     -106.160399
9.092                0.867704736     -106.391839
9.093                0.867209414     -106.623987
9.094                 0.86671272     -106.856843
9.095                0.866214661     -107.090411
9.096                0.865715246      -107.32469
9.097                0.865214483     -107.559684
9.098                 0.86471238     -107.795393
9.099                0.864208946     -108.031819
9.1                   0.86370419     -108.268963
9.101                0.863198121     -108.506828
9.102                0.862690748     -108.745414
9.103                 0.86218208     -108.984723
9.104                0.861672128     -109.224756
9.105                0.861160902     -109.465515
9.106                 0.86064841     -109.707002
9.107                0.860134665     -109.949218
9.108                0.859619675     -110.192164
9.109                0.859103452     -110.435841
9.11                 0.858586006     -110.680252
9.111                0.858067349     -110.925397
9.112                0.857547492     -111.171278
9.113                0.857026446     -111.417896
9.114                0.856504224     -111.665253
9.115                0.855980836     -111.913349
9.116                0.855456296     -112.162187
9.117                0.854930616     -112.411767
9.118                0.854403807     -112.662091
9.119                0.853875884      -112.91316
9.12                 0.853346859     -113.164975
9.121                0.852816745     -113.417537
9.122                0.852285555     -113.670848
9.123                0.851753304     -113.924909
9.124                0.851220006      -114.17972
9.125                0.850685674     -114.435284
9.126                0.850150323     -114.691601
9.127                0.849613967     -114.948672
9.128                0.849076622     -115.206498
9.129                0.848538302     -115.465081
9.13                 0.847999022     -115.724422
9.131                0.847458799     -115.984521
9.132                0.846917648     -116.245379
9.133                0.846375585     -116.506998
9.134                0.845832626     -116.769378
9.135                0.845288788      -117.03252
9.136                0.844744087     -117.296426
9.137                 0.84419854     -117.561095
9.138                0.843652166      -117.82653
9.139                 0.84310498      -118.09273
9.14                 0.842557001     -118.359697
9.141                0.842008246     -118.627431
9.142                0.841458734     -118.895933
9.143                0.840908484     -119.165204
9.144                0.840357513     -119.435245
9.145                0.839805842     -119.706055
9.146                0.839253488     -119.977637
9.147                0.838700471      -120.24999
9.148                0.838146812     -120.523115
9.149                0.837592529     -120.797012
9.15                 0.837037643     -121.071683
9.151                0.836482175     -121.347127
9.152                0.835926144     -121.623345
9.153                0.835369573     -121.900338
9.154                0.834812482     -122.178105
9.155                0.834254892     -122.456648
9.156                0.833696825     -122.735967
9.157                0.833138303     -123.016061
9.158                0.832579348     -123.296932
9.159                0.832019983     -123.578579
9.16                  0.83146023     -123.861003
9.161                0.830900112     -124.144204
9.162                0.830339651     -124.428181
9.163                0.829778873     -124.712936
9.164                0.829217799     -124.998468
9.165                0.828656455     -125.284777
9.166                0.828094864     -125.571864
9.167                 0.82753305     -125.859727
9.168                0.826971038     -126.148368
9.169                0.826408853     -126.437786
9.17                 0.825846521     -126.727981
9.171                0.825284065     -127.018952
9.172                0.824721513       -127.3107
9.173                 0.82415889     -127.603225
9.174                0.823596222     -127.896525
9.175                0.823033535       -128.1906
9.176                0.822470856     -128.485451
9.177                0.821908212     -128.781077
9.178                0.821345629     -129.077477
9.179                0.820783135     -129.374651
9.18                 0.820220758     -129.672598
9.181                0.819658525     -129.971318
9.182                0.819096465      -130.27081
9.183                0.818534605     -130.571073
9.184                0.817972974     -130.872107
9.185                  0.8174116     -131.173911
9.186                0.816850513     -131.476484
9.187                0.816289742     -131.779825
9.188                0.815729315     -132.083934
9.189                0.815169264     -132.388809
9.19                 0.814609616     -132.694449
9.191                0.814050403     -133.000854
9.192                0.813491654     -133.308022
9.193                  0.8129334     -133.615952
9.194                0.812375672     -133.924643
9.195                0.811818501     -134.234094
9.196                0.811261916     -134.544303
9.197                0.810705951      -134.85527
9.198                0.810150636     -135.166992
9.199                0.809596002     -135.479468
9.2                  0.809042083     -135.792698
9.201                0.808488909     -136.106678
9.202                0.807936513     -136.421408
9.203                0.807384927     -136.736887
9.204                0.806834184     -137.053111
9.205                0.806284317     -137.370081
9.206                0.805735359     -137.687793
9.207                0.805187342     -138.006246
9.208                0.804640301     -138.325438
9.209                0.804094268     -138.645367
9.21                 0.803549277     -138.966031
9.211                0.803005361     -139.287429
9.212                0.802462556     -139.609557
9.213                0.801920894     -139.932414
9.214                0.801380411     -140.255997
9.215                 0.80084114     -140.580305
9.216                0.800303115     -140.905334
9.217                0.799766373     -141.231083
9.218                0.799230946     -141.557549
9.219                0.798696871     -141.884729
9.22                 0.798164182     -142.212621
9.221                0.797632914     -142.541222
9.222                0.797103103      -142.87053
9.223                0.796574783     -143.200542
9.224                0.796047991     -143.531254
9.225                0.795522761     -143.862664
9.226                 0.79499913      -144.19477
9.227                0.794477133     -144.527568
9.228                0.793956806     -144.861054
9.229                0.793438185     -145.195227
9.23                 0.792921305     -145.530082
9.231                0.792406203     -145.865617
9.232                0.791892915     -146.201828
9.233                0.791381477     -146.538712
9.234                0.790871925     -146.876265
9.235                0.790364296     -147.214484
9.236                0.789858624     -147.553365
9.237                0.789354948     -147.892905
9.238                0.788853303       -148.2331
9.239                0.788353725     -148.573947
9.24                 0.787856251      -148.91544
9.241                0.787360917     -149.257578
9.242                 0.78686776     -149.600355
9.243                0.786376816     -149.943768
9.244                 0.78588812     -150.287813
9.245                0.785401711     -150.632485
9.246                0.784917623      -150.97778
9.247                0.784435894     -151.323695
9.248                0.783956559     -151.670224
9.249                0.783479654     -152.017364
9.25                 0.783005216     -152.365109
9.251                0.782533282     -152.713456
9.252                0.782063886       -153.0624
9.253                0.781597065     -153.411937
9.254                0.781132854     -153.762061
9.255                0.780671291     -154.112767
9.256                 0.78021241     -154.464052
9.257                0.779756246      -154.81591
9.258                0.779302837     -155.168336
9.259                0.778852216     -155.521325
9.26                 0.778404419     -155.874873
9.261                0.777959482     -156.228973
9.262                 0.77751744     -156.583621
9.263                0.777078327     -156.938812
9.264                0.776642178      -157.29454
9.265                0.776209028       -157.6508
9.266                0.775778912     -158.007586
9.267                0.775351863     -158.364893
9.268                0.774927916     -158.722715
9.269                0.774507105     -159.081047
9.27                 0.774089464     -159.439883
9.271                0.773675026     -159.799218
9.272                0.773263824     -160.159045
9.273                0.772855892     -160.519358
9.274                0.772451263     -160.880152
9.275                 0.77204997     -161.241421
9.276                0.771652045     -161.603158
9.277                 0.77125752     -161.965359
9.278                0.770866427     -162.328015
9.279                0.770478799     -162.691122
9.28                 0.770094666     -163.054672
9.281                0.769714061      -163.41866
9.282                0.769337014      -163.78308
9.283                0.768963555     -164.147924
9.284                0.768593716     -164.513186
9.285                0.768227527     -164.878861
9.286                0.767865017      -165.24494
9.287                0.767506216     -165.611418
9.288                0.767151153     -165.978288
9.289                0.766799858     -166.345542
9.29                 0.766452359     -166.713175
9.291                0.766108683      -167.08118
9.292                 0.76576886     -167.449549
9.293                0.765432917     -167.818275
9.294                0.765100881     -168.187352
9.295                0.764772779     -168.556772
9.296                0.764448638     -168.926529
9.297                0.764128483     -169.296615
9.298                0.763812341     -169.667023
9.299                0.763500238     -170.037746
9.3                  0.763192197     -170.408777
9.301                0.762888245     -170.780107
9.302                0.762588404     -171.151731
9.303                  0.7622927      -171.52364
9.304                0.762001155     -171.895827
9.305                0.761713793     -172.268285
9.306                0.761430637     -172.641005
9.307                0.761151708     -173.013981
9.308                0.760877028     -173.387205
9.309                0.760606619      -173.76067
9.31                 0.760340501     -174.134367
9.311                0.760078696     -174.508288
9.312                0.759821223     -174.882427
9.313                0.759568102     -175.256775
9.314                0.759319352     -175.631325
9.315                0.759074991     -176.006069
9.316                0.758835038     -176.380999
9.317                0.758599511     -176.756106
9.318                0.758368426     -177.131384
9.319                0.758141801     -177.506824
9.32                 0.757919652     -177.882418
9.321                0.757701995     -178.258159
9.322                0.757488845     -178.634037
9.323                0.757280217     -179.010046
9.324                0.757076125     -179.386177
9.325                0.756876583     -179.762422
9.326                0.756681605      179.861226
9.327                0.756491203      179.484777
9.328                0.756305389      179.108238
9.329                0.756124177      178.731618
9.33                 0.755947576      178.354924
9.331                0.755775597      177.978164
9.332                0.755608252      177.601348
9.333                0.755445549      177.224482
9.334                0.755287498      176.847575
9.335                0.755134108      176.470636
9.336                0.754985387      176.093673
9.337                0.754841342      175.716693
9.338                0.754701981      175.339706
9.339                 0.75456731      174.962718
9.34                 0.754437335      174.585739
9.341                0.754312063      174.208777
9.342                0.754191498       173.83184
9.343                0.754075644      173.454935
9.344                0.753964506      173.078073
9.345                0.753858086      172.701259
9.346                0.753756389      172.324504
9.347                0.753659416      171.947814
9.348                0.753567168      171.571199
9.349                0.753479649      171.194666
9.35                 0.753396857      170.818224
9.351                0.753318794       170.44188
9.352                 0.75324546      170.065643
9.353                0.753176852      169.689522
9.354                0.753112971      169.313523
9.355                0.753053814      168.937656
9.356                0.752999379      168.561928
9.357                0.752949663      168.186347
9.358                0.752904662      167.810922
9.359                0.752864373      167.435661
9.36                 0.752828792      167.060571
9.361                0.752797912      166.685661
9.362                0.752771729      166.310938
9.363                0.752750237      165.936411
9.364                 0.75273343      165.562087
9.365                0.752721299      165.187975
9.366                0.752713838      164.814082
9.367                0.752711039      164.440416
9.368                0.752712894      164.066984
9.369                0.752719392      163.693796
9.37                 0.752730525      163.320858
9.371                0.752746283      162.948178
9.372                0.752766655      162.575763
9.373                0.752791631      162.203623
9.374                0.752821199      161.831763
9.375                0.752855346      161.460192
9.376                0.752894061      161.088917
9.377                0.752937332      160.717946
9.378                0.752985143      160.347286
9.379                0.753037483      159.976944
9.38                 0.753094336      159.606929
9.381                0.753155689      159.237247
9.382                0.753221525      158.867905
9.383                 0.75329183      158.498912
9.384                0.753366587      158.130273
9.385                 0.75344578      157.761997
9.386                0.753529393       157.39409
9.387                0.753617408      157.026559
9.388                0.753709807      156.659412
9.389                0.753806573      156.292655
9.39                 0.753907686      155.926295
9.391                0.754013129       155.56034
9.392                0.754122882      155.194795
9.393                0.754236925      154.829669
9.394                0.754355238      154.464967
9.395                0.754477801      154.100696
9.396                0.754604594      153.736862
