! TOUCHSTONE file generated by CST DESIGN STUDIO
! Date and time: Tue Feb  4 14:18:36 2025
! Project name: C:\Work\MatlabApps\UnitCellOptimizationMatlab\CST\unitcell.cst
! Tree item: Tasks\Sweep1\SPara1\S-Parameters
! Header version: 2024
! Port assignment regex: !\s*Touchstone port\s*([0-9]+)\s*=\s*(CST MWS port|CST DES external port|CST DES block port)\s*(.+)\s* \(\"(.*)\"\)(\s*mode\s*([0-9]+))?.*
! Touchstone port assignment:
! Touchstone port 1 = CST DES external port 1 ("")
# GHz S MA R 50
9                     0.97003803     -46.0351039
9.001                 0.96995254     -46.0921983
9.002                0.969866819     -46.1494027
9.003                0.969780866     -46.2067176
9.004                 0.96969468     -46.2641432
9.005                0.969608262     -46.3216799
9.006                0.969521611     -46.3793281
9.007                0.969434727      -46.437088
9.008                0.969347609     -46.4949602
9.009                0.969260258     -46.5529449
9.01                 0.969172672     -46.6110424
9.011                0.969084851     -46.6692532
9.012                0.968996795     -46.7275775
9.013                0.968908504     -46.7860158
9.014                0.968819977     -46.8445684
9.015                0.968731214     -46.9032356
9.016                0.968642215     -46.9620179
9.017                0.968552978     -47.0209156
9.018                0.968463505      -47.079929
9.019                0.968373793     -47.1390585
9.02                 0.968283844     -47.1983046
9.021                0.968193656     -47.2576675
9.022                 0.96810323     -47.3171476
9.023                0.968012565     -47.3767454
9.024                 0.96792166     -47.4364612
9.025                0.967830515     -47.4962953
9.026                 0.96773913     -47.5562481
9.027                0.967647504     -47.6163201
9.028                0.967555637     -47.6765116
9.029                0.967463528     -47.7368229
9.03                 0.967371178     -47.7972546
9.031                0.967278585     -47.8578069
9.032                 0.96718575     -47.9184802
9.033                0.967092672      -47.979275
9.034                 0.96699935     -48.0401916
9.035                0.966905784     -48.1012304
9.036                0.966811974     -48.1623918
9.037                0.966717919     -48.2236763
9.038                0.966623619     -48.2850841
9.039                0.966529074     -48.3466158
9.04                 0.966434282     -48.4082717
9.041                0.966339244     -48.4700521
9.042                0.966243959     -48.5319576
9.043                0.966148426     -48.5939885
9.044                0.966052646     -48.6561453
9.045                0.965956618     -48.7184283
9.046                0.965860341     -48.7808379
9.047                0.965763815     -48.8433746
9.048                 0.96566704     -48.9060387
9.049                0.965570014     -48.9688308
9.05                 0.965472738     -49.0317512
9.051                0.965375212     -49.0948002
9.052                0.965277433     -49.1579785
9.053                0.965179403     -49.2212863
9.054                0.965081121     -49.2847241
9.055                0.964982586     -49.3482923
9.056                0.964883798     -49.4119914
9.057                0.964784756     -49.4758218
9.058                 0.96468546     -49.5397839
9.059                0.964585909     -49.6038781
9.06                 0.964486104      -49.668105
9.061                0.964386042     -49.7324648
9.062                0.964285725     -49.7969581
9.063                 0.96418515     -49.8615853
9.064                0.964084319     -49.9263468
9.065                 0.96398323     -49.9912432
9.066                0.963881883     -50.0562747
9.067                0.963780278      -50.121442
9.068                0.963678413     -50.1867453
9.069                0.963576289     -50.2521853
9.07                 0.963473904     -50.3177623
9.071                0.963371259     -50.3834768
9.072                0.963268353     -50.4493292
9.073                0.963165185     -50.5153201
9.074                0.963061755     -50.5814498
9.075                0.962958062     -50.6477189
9.076                0.962854106     -50.7141277
9.077                0.962749886     -50.7806769
9.078                0.962645401     -50.8473667
9.079                0.962540652     -50.9141978
9.08                 0.962435637     -50.9811705
9.081                0.962330356     -51.0482854
9.082                0.962224808      -51.115543
9.083                0.962118994     -51.1829436
9.084                0.962012911     -51.2504878
9.085                0.961906561     -51.3181761
9.086                0.961799941      -51.386009
9.087                0.961693052     -51.4539869
9.088                0.961585893     -51.5221103
9.089                0.961478464     -51.5903798
9.09                 0.961370763     -51.6587958
9.091                0.961262791     -51.7273588
9.092                0.961154546     -51.7960693
9.093                0.961046029     -51.8649278
9.094                0.960937237     -51.9339348
9.095                0.960828172     -52.0030908
9.096                0.960718832     -52.0723964
9.097                0.960609217     -52.1418519
9.098                0.960499325      -52.211458
9.099                0.960389157     -52.2812152
9.1                  0.960278712     -52.3511239
9.101                0.960167989     -52.4211847
9.102                0.960056987      -52.491398
9.103                0.959945707     -52.5617645
9.104                0.959834146     -52.6322846
9.105                0.959722305     -52.7029589
9.106                0.959610184     -52.7737878
9.107                 0.95949778      -52.844772
9.108                0.959385094     -52.9159119
9.109                0.959272125     -52.9872081
9.11                 0.959158873      -53.058661
9.111                0.959045336     -53.1302714
9.112                0.958931514     -53.2020396
9.113                0.958817407     -53.2739663
9.114                0.958703013     -53.3460519
9.115                0.958588332      -53.418297
9.116                0.958473363     -53.4907022
9.117                0.958358106     -53.5632681
9.118                 0.95824256     -53.6359951
9.119                0.958126724     -53.7088838
9.12                 0.958010598     -53.7819348
9.121                 0.95789418     -53.8551487
9.122                0.957777471     -53.9285259
9.123                0.957660468     -54.0020672
9.124                0.957543173     -54.0757729
9.125                0.957425583     -54.1496438
9.126                0.957307698     -54.2236804
9.127                0.957189518     -54.2978832
9.128                0.957071042     -54.3722528
9.129                0.956952268     -54.4467899
9.13                 0.956833197     -54.5214949
9.131                0.956713827     -54.5963685
9.132                0.956594158     -54.6714113
9.133                0.956474189     -54.7466238
9.134                0.956353919     -54.8220066
9.135                0.956233347     -54.8975604
9.136                0.956112473     -54.9732857
9.137                0.955991295     -55.0491831
9.138                0.955869814     -55.1252532
9.139                0.955748028     -55.2014967
9.14                 0.955625937     -55.2779141
9.141                0.955503539      -55.354506
9.142                0.955380834     -55.4312731
9.143                0.955257821      -55.508216
9.144                  0.9551345     -55.5853352
9.145                0.955010869     -55.6626314
9.146                0.954886927     -55.7401052
9.147                0.954762674     -55.8177573
9.148                0.954638109     -55.8955882
9.149                0.954513232     -55.9735987
9.15                  0.95438804     -56.0517892
9.151                0.954262534     -56.1301605
9.152                0.954136713     -56.2087132
9.153                0.954010575     -56.2874479
9.154                 0.95388412     -56.3663653
9.155                0.953757347      -56.445466
9.156                0.953630255     -56.5247507
9.157                0.953502844     -56.6042199
9.158                0.953375112     -56.6838745
9.159                0.953247058     -56.7637149
9.16                 0.953118682     -56.8437419
9.161                0.952989983     -56.9239562
9.162                0.952860959     -57.0043583
9.163                 0.95273161      -57.084949
9.164                0.952601936      -57.165729
9.165                0.952471934     -57.2466988
9.166                0.952341605     -57.3278592
9.167                0.952210946     -57.4092108
9.168                0.952079958     -57.4907544
9.169                 0.95194864     -57.5724906
9.17                  0.95181699       -57.65442
9.171                0.951685007     -57.7365435
9.172                0.951552691     -57.8188616
9.173                 0.95142004      -57.901375
9.174                0.951287054     -57.9840846
9.175                0.951153732     -58.0669908
9.176                0.951020072     -58.1500945
9.177                0.950886074     -58.2333964
9.178                0.950751737     -58.3168972
9.179                0.950617059     -58.4005975
9.18                 0.950482041     -58.4844981
9.181                 0.95034668     -58.5685997
9.182                0.950210975     -58.6529031
9.183                0.950074927     -58.7374088
9.184                0.949938533     -58.8221178
9.185                0.949801793     -58.9070306
9.186                0.949664705     -58.9921481
9.187                0.949527269     -59.0774709
9.188                0.949389484     -59.1629998
9.189                0.949251348     -59.2487355
9.19                 0.949112861     -59.3346788
9.191                0.948974022     -59.4208305
9.192                0.948834828     -59.5071912
9.193                0.948695281     -59.5937617
9.194                0.948555377     -59.6805428
9.195                0.948415117     -59.7675352
9.196                0.948274499     -59.8547397
9.197                0.948133522      -59.942157
9.198                0.947992185      -60.029788
9.199                0.947850487     -60.1176334
9.2                  0.947708426     -60.2056939
9.201                0.947566003     -60.2939703
9.202                0.947423215     -60.3824635
9.203                0.947280061     -60.4711741
9.204                0.947136541     -60.5601031
9.205                0.946992653     -60.6492511
9.206                0.946848396      -60.738619
9.207                0.946703769     -60.8282075
9.208                0.946558771     -60.9180175
9.209                0.946413401     -61.0080497
9.21                 0.946267657      -61.098305
9.211                0.946121539     -61.1887841
9.212                0.945975045     -61.2794879
9.213                0.945828174     -61.3704172
9.214                0.945680925     -61.4615728
9.215                0.945533296     -61.5529556
9.216                0.945385287     -61.6445663
9.217                0.945236897     -61.7364057
9.218                0.945088124     -61.8284748
9.219                0.944938966     -61.9207743
9.22                 0.944789424     -62.0133051
9.221                0.944639494      -62.106068
9.222                0.944489178     -62.1990638
9.223                0.944338472     -62.2922935
9.224                0.944187376     -62.3857578
9.225                0.944035889     -62.4794576
9.226                 0.94388401     -62.5733938
9.227                0.943731736     -62.6675672
9.228                0.943579068     -62.7619786
9.229                0.943426003     -62.8566291
9.23                 0.943272541     -62.9515194
9.231                 0.94311868     -63.0466503
9.232                0.942964419     -63.1420229
9.233                0.942809756     -63.2376379
9.234                0.942654691     -63.3334962
9.235                0.942499222     -63.4295988
9.236                0.942343348     -63.5259465
9.237                0.942187067     -63.6225402
9.238                0.942030379     -63.7193808
9.239                0.941873281     -63.8164692
9.24                 0.941715773     -63.9138064
9.241                0.941557854     -64.0113932
9.242                0.941399521     -64.1092305
9.243                0.941240774     -64.2073193
9.244                0.941081612     -64.3056604
9.245                0.940922032     -64.4042548
9.246                0.940762034     -64.5031035
9.247                0.940601617     -64.6022073
9.248                0.940440778     -64.7015673
9.249                0.940279517     -64.8011842
9.25                 0.940117833     -64.9010591
9.251                0.939955723     -65.0011929
9.252                0.939793187     -65.1015866
9.253                0.939630223     -65.2022411
9.254                 0.93946683     -65.3031573
9.255                0.939303007     -65.4043363
9.256                0.939138752      -65.505779
9.257                0.938974063     -65.6074863
9.258                0.938808939     -65.7094592
9.259                 0.93864338     -65.8116988
9.26                 0.938477383     -65.9142059
9.261                0.938310947     -66.0169816
9.262                0.938144071     -66.1200268
9.263                0.937976753     -66.2233426
9.264                0.937808992     -66.3269298
9.265                0.937640786     -66.4307897
9.266                0.937472134      -66.534923
9.267                0.937303035     -66.6393309
9.268                0.937133487     -66.7440143
9.269                0.936963489     -66.8489742
9.27                 0.936793039     -66.9542117
9.271                0.936622136     -67.0597278
9.272                0.936450778     -67.1655235
9.273                0.936278964     -67.2715998
9.274                0.936106693     -67.3779578
9.275                0.935933963     -67.4845985
9.276                0.935760772     -67.5915229
9.277                0.935587119     -67.6987321
9.278                0.935413003     -67.8062272
9.279                0.935238422     -67.9140091
9.28                 0.935063374     -68.0220789
9.281                0.934887859     -68.1304378
9.282                0.934711874     -68.2390867
9.283                0.934535419     -68.3480267
9.284                0.934358491     -68.4572589
9.285                0.934181089     -68.5667843
9.286                0.934003212     -68.6766041
9.287                0.933824858     -68.7867194
9.288                0.933646026     -68.8971311
9.289                0.933466714     -69.0078404
9.29                 0.933286921     -69.1188484
9.291                0.933106644     -69.2301563
9.292                0.932925884      -69.341765
9.293                0.932744637     -69.4536757
9.294                0.932562903     -69.5658895
9.295                 0.93238068     -69.6784075
9.296                0.932197967     -69.7912309
9.297                0.932014762     -69.9043607
9.298                0.931831063     -70.0177982
9.299                0.931646869     -70.1315443
9.3                  0.931462178     -70.2456003
9.301                0.931276989     -70.3599673
9.302                0.931091301     -70.4746464
9.303                0.930905111     -70.5896388
9.304                0.930718418     -70.7049457
9.305                0.930531222     -70.8205681
9.306                0.930343519     -70.9365073
9.307                0.930155309     -71.0527643
9.308                0.929966589     -71.1693405
9.309                 0.92977736     -71.2862369
9.31                 0.929587618     -71.4034547
9.311                0.929397363     -71.5209951
9.312                0.929206592     -71.6388593
9.313                0.929015305     -71.7570485
9.314                0.928823499     -71.8755638
9.315                0.928631173     -71.9944065
9.316                0.928438326     -72.1135778
9.317                0.928244957     -72.2330788
9.318                0.928051062     -72.3529107
9.319                0.927856641     -72.4730749
9.32                 0.927661693     -72.5935725
9.321                0.927466216     -72.7144046
9.322                0.927270208     -72.8355727
9.323                0.927073667     -72.9570777
9.324                0.926876593     -73.0789211
9.325                0.926678983     -73.2011041
9.326                0.926480836     -73.3236278
9.327                 0.92628215     -73.4464936
9.328                0.926082925     -73.5697026
9.329                0.925883158     -73.6932562
9.33                 0.925682847     -73.8171556
9.331                0.925481992      -73.941402
9.332                 0.92528059     -74.0659967
9.333                0.925078641      -74.190941
9.334                0.924876142     -74.3162362
9.335                0.924673092     -74.4418836
9.336                 0.92446949     -74.5678843
9.337                0.924265334     -74.6942398
9.338                0.924060622     -74.8209513
9.339                0.923855353     -74.9480201
9.34                 0.923649525     -75.0754475
9.341                0.923443137     -75.2032348
9.342                0.923236188     -75.3313833
9.343                0.923028675     -75.4598943
9.344                0.922820597     -75.5887692
9.345                0.922611954     -75.7180092
9.346                0.922402742     -75.8476158
9.347                0.922192961     -75.9775901
9.348                 0.92198261     -76.1079336
9.349                0.921771686     -76.2386476
9.35                 0.921560188     -76.3697333
9.351                0.921348115     -76.5011923
9.352                0.921135466     -76.6330258
9.353                0.920922238     -76.7652351
9.354                 0.92070843     -76.8978217
9.355                0.920494041     -77.0307869
9.356                 0.92027907      -77.164132
9.357                0.920063514     -77.2978585
9.358                0.919847373     -77.4319676
9.359                0.919630645     -77.5664609
9.36                 0.919413329     -77.7013396
9.361                0.919195423     -77.8366051
9.362                0.918976925     -77.9722589
9.363                0.918757835     -78.1083023
9.364                 0.91853815     -78.2447367
9.365                 0.91831787     -78.3815635
9.366                0.918096993     -78.5187842
9.367                0.917875518     -78.6564001
9.368                0.917653444     -78.7944127
9.369                0.917430768     -78.9328234
9.37                 0.917207489     -79.0716335
9.371                0.916983607     -79.2108446
9.372                 0.91675912      -79.350458
9.373                0.916534027     -79.4904752
9.374                0.916308326     -79.6308977
9.375                0.916082015     -79.7717267
9.376                0.915855095     -79.9129639
9.377                0.915627562     -80.0546107
9.378                0.915399417     -80.1966684
9.379                0.915170658     -80.3391386
9.38                 0.914941283     -80.4820228
9.381                0.914711291     -80.6253223
9.382                0.914480682     -80.7690386
9.383                0.914249453     -80.9131733
9.384                0.914017604     -81.0577278
9.385                0.913785133     -81.2027036
9.386                 0.91355204     -81.3481021
9.387                0.913318323     -81.4939249
9.388                0.913083981     -81.6401734
9.389                0.912849012     -81.7868491
9.39                 0.912613416     -81.9339535
9.391                0.912377192     -82.0814882
9.392                0.912140339     -82.2294546
9.393                0.911902854     -82.3778542
9.394                0.911664738     -82.5266886
9.395                 0.91142599     -82.6759592
9.396                0.911186607     -82.8256675
