! TOUCHSTONE file generated by CST DESIGN STUDIO
! Date and time: Tue Feb  4 17:33:44 2025
! Project name: C:\Work\MatlabApps\UnitCellOptimizationMatlab\CST\unitcell.cst
! Tree item: Tasks\Sweep1\SPara1\S-Parameters
! Header version: 2024
! Port assignment regex: !\s*Touchstone port\s*([0-9]+)\s*=\s*(CST MWS port|CST DES external port|CST DES block port)\s*(.+)\s* \(\"(.*)\"\)(\s*mode\s*([0-9]+))?.*
! Touchstone port assignment:
! Touchstone port 1 = CST DES external port 1 ("")
# GHz S MA R 50
9                    0.967522734      -71.973886
9.001                0.967472571     -72.0901136
9.002                0.967421934     -72.2066597
9.003                0.967370821     -72.3235254
9.004                0.967319229     -72.4407116
9.005                0.967267155     -72.5582194
9.006                0.967214598     -72.6760496
9.007                0.967161554     -72.7942034
9.008                 0.96710802     -72.9126817
9.009                0.967053995     -73.0314854
9.01                 0.966999475     -73.1506157
9.011                0.966944459     -73.2700735
9.012                0.966888943     -73.3898597
9.013                0.966832924     -73.5099755
9.014                0.966776401     -73.6304219
9.015                0.966719371     -73.7511998
9.016                 0.96666183     -73.8723102
9.017                0.966603777     -73.9937543
9.018                0.966545209     -74.1155329
9.019                0.966486123     -74.2376472
9.02                 0.966426517     -74.3600982
9.021                0.966366388     -74.4828868
9.022                0.966305733     -74.6060142
9.023                0.966244551     -74.7294813
9.024                0.966182837     -74.8532892
9.025                0.966120591      -74.977439
9.026                0.966057808     -75.1019316
9.027                0.965994488     -75.2267682
9.028                0.965930626     -75.3519497
9.029                0.965866221     -75.4774772
9.03                 0.965801269     -75.6033519
9.031                0.965735769     -75.7295746
9.032                0.965669718     -75.8561466
9.033                0.965603113     -75.9830688
9.034                0.965535952     -76.1103423
9.035                0.965468231     -76.2379682
9.036                0.965399949     -76.3659475
9.037                0.965331103     -76.4942813
9.038                0.965261691     -76.6229707
9.039                0.965191709     -76.7520168
9.04                 0.965121156     -76.8814206
9.041                0.965050028     -77.0111832
9.042                0.964978324     -77.1413058
9.043                 0.96490604     -77.2717893
9.044                0.964833175     -77.4026349
9.045                0.964759725     -77.5338436
9.046                0.964685689     -77.6654166
9.047                0.964611063     -77.7973549
9.048                0.964535845     -77.9296597
9.049                0.964460033      -78.062332
9.05                 0.964383624     -78.1953729
9.051                0.964306615     -78.3287836
9.052                0.964229005     -78.4625651
9.053                 0.96415079     -78.5967186
9.054                0.964071969     -78.7312451
9.055                0.963992538     -78.8661458
9.056                0.963912496     -79.0014218
9.057                0.963831839     -79.1370742
9.058                0.963750566     -79.2731042
9.059                0.963668673     -79.4095127
9.06                 0.963586159      -79.546301
9.061                0.963503021     -79.6834702
9.062                0.963419257     -79.8210215
9.063                0.963334864     -79.9589558
9.064                0.963249839     -80.0972745
9.065                0.963164181     -80.2359785
9.066                0.963077887     -80.3750691
9.067                0.962990954     -80.5145474
9.068                0.962903381     -80.6544144
9.069                0.962815165     -80.7946715
9.07                 0.962726303     -80.9353196
9.071                0.962636793       -81.07636
9.072                0.962546633     -81.2177937
9.073                 0.96245582      -81.359622
9.074                0.962364353      -81.501846
9.075                0.962272228     -81.6444668
9.076                0.962179444     -81.7874856
9.077                0.962085998     -81.9309036
9.078                0.961991889     -82.0747219
9.079                0.961897112     -82.2189416
9.08                 0.961801668      -82.363564
9.081                0.961705552     -82.5085901
9.082                0.961608763     -82.6540212
9.083                  0.9615113     -82.7998584
9.084                0.961413158     -82.9461029
9.085                0.961314337     -83.0927558
9.086                0.961214834     -83.2398184
9.087                0.961114647     -83.3872917
9.088                0.961013774      -83.535177
9.089                0.960912212     -83.6834755
9.09                  0.96080996     -83.8321882
9.091                0.960707015     -83.9813165
9.092                0.960603376     -84.1308614
9.093                0.960499039     -84.2808242
9.094                0.960394004      -84.431206
9.095                0.960288268      -84.582008
9.096                0.960181828     -84.7332314
9.097                0.960074684     -84.8848773
9.098                0.959966833     -85.0369471
9.099                0.959858272     -85.1894418
9.1                  0.959749001     -85.3423626
9.101                0.959639016     -85.4957108
9.102                0.959528317     -85.6494874
9.103                  0.9594169     -85.8036938
9.104                0.959304765     -85.9583311
9.105                0.959191909     -86.1134005
9.106                 0.95907833     -86.2689031
9.107                0.958964027     -86.4248402
9.108                0.958848997      -86.581213
9.109                 0.95873324     -86.7380227
9.11                 0.958616752     -86.8952704
9.111                0.958499533     -87.0529574
9.112                 0.95838158     -87.2110848
9.113                0.958262892     -87.3696539
9.114                0.958143466     -87.5286659
9.115                0.958023303     -87.6881219
9.116                0.957902398     -87.8480231
9.117                0.957780752     -88.0083708
9.118                0.957658362     -88.1691661
9.119                0.957535226     -88.3304103
9.12                 0.957411344     -88.4921045
9.121                0.957286713       -88.65425
9.122                0.957161333     -88.8168479
9.123                  0.9570352     -88.9798994
9.124                0.956908315     -89.1434058
9.125                0.956780675     -89.3073683
9.126                0.956652279     -89.4717879
9.127                0.956523125     -89.6366661
9.128                0.956393213     -89.8020038
9.129                 0.95626254     -89.9678024
9.13                 0.956131106     -90.1340631
9.131                0.955998909     -90.3007869
9.132                0.955865948     -90.4679752
9.133                0.955732222     -90.6356292
9.134                0.955597728     -90.8037499
9.135                0.955462467     -90.9723387
9.136                0.955326436     -91.1413967
9.137                0.955189636      -91.310925
9.138                0.955052064      -91.480925
9.139                0.954913719     -91.6513978
9.14                 0.954774601     -91.8223446
9.141                0.954634708     -91.9937665
9.142                 0.95449404     -92.1656648
9.143                0.954352595     -92.3380407
9.144                0.954210372     -92.5108952
9.145                0.954067371     -92.6842297
9.146                0.953923591     -92.8580453
9.147                 0.95377903     -93.0323432
9.148                0.953633689     -93.2071245
9.149                0.953487565     -93.3823905
9.15                 0.953340659     -93.5581423
9.151                 0.95319297     -93.7343811
9.152                0.953044497      -93.911108
9.153                 0.95289524     -94.0883243
9.154                0.952745197     -94.2660311
9.155                0.952594369     -94.4442296
9.156                0.952442754     -94.6229209
9.157                0.952290353     -94.8021062
9.158                0.952137164     -94.9817866
9.159                0.951983188     -95.1619634
9.16                 0.951828423     -95.3426376
9.161                0.951672871     -95.5238105
9.162                 0.95151653     -95.7054831
9.163                  0.9513594     -95.8876566
9.164                 0.95120148     -96.0703322
9.165                0.951042772      -96.253511
9.166                0.950883274     -96.4371942
9.167                0.950722987     -96.6213828
9.168                 0.95056191      -96.806078
9.169                0.950400043     -96.9912809
9.17                 0.950237387     -97.1769927
9.171                0.950073941     -97.3632145
9.172                0.949909706     -97.5499474
9.173                0.949744682     -97.7371924
9.174                0.949578869     -97.9249508
9.175                0.949412268     -98.1132236
9.176                0.949244878     -98.3020119
9.177                  0.9490767     -98.4913169
9.178                0.948907734     -98.6811395
9.179                0.948737981      -98.871481
9.18                 0.948567442     -99.0623423
9.181                0.948396116     -99.2537246
9.182                0.948224005     -99.4456289
9.183                0.948051109     -99.6380564
9.184                0.947877429      -99.831008
9.185                0.947702966     -100.024485
9.186                 0.94752772     -100.218488
9.187                0.947351692     -100.413018
9.188                0.947174883     -100.608077
9.189                0.946997295     -100.803665
9.19                 0.946818927     -100.999784
9.191                0.946639782     -101.196434
9.192                0.946459861     -101.393617
9.193                0.946279163     -101.591333
9.194                0.946097692     -101.789584
9.195                0.945915447      -101.98837
9.196                0.945732431     -102.187693
9.197                0.945548645     -102.387553
9.198                 0.94536409     -102.587952
9.199                0.945178768      -102.78889
9.2                   0.94499268     -102.990369
9.201                0.944805828     -103.192389
9.202                0.944618214     -103.394951
9.203                 0.94442984     -103.598057
9.204                0.944240707     -103.801707
9.205                0.944050817     -104.005902
9.206                0.943860172     -104.210643
9.207                0.943668775     -104.415931
9.208                0.943476627     -104.621767
9.209                 0.94328373     -104.828153
9.21                 0.943090087     -105.035087
9.211                0.942895699     -105.242573
9.212                 0.94270057     -105.450609
9.213                0.942504702     -105.659199
9.214                0.942308097     -105.868341
9.215                0.942110757     -106.078038
9.216                0.941912685     -106.288289
9.217                0.941713885     -106.499096
9.218                0.941514358      -106.71046
9.219                0.941314108     -106.922381
9.22                 0.941113137      -107.13486
9.221                0.940911449     -107.347898
9.222                0.940709045     -107.561496
9.223                0.940505931     -107.775655
9.224                0.940302108     -107.990375
9.225                0.940097579     -108.205657
9.226                0.939892349     -108.421501
9.227                0.939686421     -108.637909
9.228                0.939479797     -108.854882
9.229                0.939272482     -109.072419
9.23                  0.93906448     -109.290522
9.231                0.938855793     -109.509191
9.232                0.938646426     -109.728428
9.233                0.938436382     -109.948232
9.234                0.938225666     -110.168604
9.235                0.938014281     -110.389545
9.236                0.937802232     -110.611056
9.237                0.937589522     -110.833137
9.238                0.937376156     -111.055789
9.239                0.937162138     -111.279012
9.24                 0.936947473     -111.502807
9.241                0.936732165     -111.727175
9.242                0.936516218     -111.952116
9.243                0.936299638      -112.17763
9.244                0.936082429     -112.403719
9.245                0.935864595     -112.630382
9.246                0.935646142      -112.85762
9.247                0.935427074     -113.085434
9.248                0.935207398     -113.313824
9.249                0.934987117     -113.542791
9.25                 0.934766237     -113.772334
9.251                0.934544763     -114.002455
9.252                0.934322701     -114.233154
9.253                0.934100056     -114.464431
9.254                0.933876833     -114.696286
9.255                0.933653039     -114.928721
9.256                0.933428679     -115.161734
9.257                0.933203759     -115.395327
9.258                0.932978285     -115.629501
9.259                0.932752263     -115.864254
9.26                 0.932525698     -116.099588
9.261                0.932298598     -116.335502
9.262                0.932070967     -116.571998
9.263                0.931842814     -116.809074
9.264                0.931614143     -117.046733
9.265                0.931384962     -117.284972
9.266                0.931155277     -117.523794
9.267                0.930925096     -117.763197
9.268                0.930694423     -118.003183
9.269                0.930463268     -118.243751
9.27                 0.930231636     -118.484901
9.271                0.929999534     -118.726633
9.272                0.929766971     -118.968948
9.273                0.929533952     -119.211846
9.274                0.929300486     -119.455326
9.275                0.929066579     -119.699388
9.276                 0.92883224     -119.944033
9.277                0.928597476     -120.189261
9.278                0.928362294      -120.43507
9.279                0.928126703     -120.681463
9.28                 0.927890711     -120.928437
9.281                0.927654324     -121.175994
9.282                0.927417552     -121.424133
9.283                0.927180402     -121.672853
9.284                0.926942884     -121.922156
9.285                0.926705004     -122.172039
9.286                0.926466772     -122.422504
9.287                0.926228196      -122.67355
9.288                0.925989285     -122.925177
9.289                0.925750048     -123.177384
9.29                 0.925510492     -123.430172
9.291                0.925270628     -123.683539
9.292                0.925030464     -123.937485
9.293                 0.92479001     -124.192011
9.294                0.924549274     -124.447116
9.295                0.924308266     -124.702798
9.296                0.924066994     -124.959059
9.297                 0.92382547     -125.215897
9.298                0.923583701     -125.473311
9.299                0.923341699     -125.731302
9.3                  0.923099472     -125.989869
9.301                 0.92285703     -126.249011
9.302                0.922614383     -126.508728
9.303                0.922371542     -126.769019
9.304                0.922128516     -127.029883
9.305                0.921885315     -127.291319
9.306                 0.92164195     -127.553328
9.307                0.921398432     -127.815908
9.308                 0.92115477     -128.079058
9.309                0.920910975     -128.342779
9.31                 0.920667058     -128.607068
9.311                0.920423029     -128.871925
9.312                  0.9201789      -129.13735
9.313                0.919934681     -129.403341
9.314                0.919690382     -129.669897
9.315                0.919446016     -129.937018
9.316                0.919201594     -130.204703
9.317                0.918957126     -130.472951
9.318                0.918712623     -130.741759
9.319                0.918468098     -131.011129
9.32                 0.918223562     -131.281058
9.321                0.917979026     -131.551545
9.322                0.917734502      -131.82259
9.323                0.917490001     -132.094191
9.324                0.917245536     -132.366347
9.325                0.917001118     -132.639056
9.326                0.916756759     -132.912318
9.327                0.916512472     -133.186131
9.328                0.916268268     -133.460494
9.329                0.916024159     -133.735406
9.33                 0.915780159     -134.010865
9.331                0.915536278     -134.286869
9.332                 0.91529253     -134.563419
9.333                0.915048927     -134.840511
9.334                0.914805482     -135.118144
9.335                0.914562206     -135.396318
9.336                0.914319114      -135.67503
9.337                0.914076217     -135.954279
9.338                0.913833529     -136.234063
9.339                0.913591062     -136.514381
9.34                 0.913348829     -136.795231
9.341                0.913106844     -137.076612
9.342                0.912865119     -137.358521
9.343                0.912623668     -137.640956
9.344                0.912382503     -137.923917
9.345                0.912141638     -138.207401
9.346                0.911901087     -138.491407
9.347                0.911660862     -138.775932
9.348                0.911420978     -139.060974
9.349                0.911181447     -139.346533
9.35                 0.910942283     -139.632605
9.351                  0.9107035     -139.919188
9.352                0.910465112     -140.206282
9.353                0.910227131     -140.493883
9.354                0.909989573     -140.781989
9.355                0.909752449     -141.070599
9.356                0.909515776      -141.35971
9.357                0.909279566      -141.64932
9.358                0.909043832     -141.939427
9.359                0.908808591     -142.230028
9.36                 0.908573854     -142.521122
9.361                0.908339636     -142.812705
9.362                0.908105952     -143.104776
9.363                0.907872815     -143.397332
9.364                 0.90764024     -143.690371
9.365                 0.90740824      -143.98389
9.366                 0.90717683     -144.277887
9.367                0.906946024      -144.57236
9.368                0.906715836     -144.867304
9.369                0.906486281      -145.16272
9.37                 0.906257373     -145.458602
9.371                0.906029126     -145.754949
9.372                0.905801555     -146.051759
9.373                0.905574673     -146.349028
9.374                0.905348496     -146.646754
9.375                0.905123037     -146.944933
9.376                0.904898311     -147.243564
9.377                0.904674332     -147.542643
9.378                0.904451115     -147.842168
9.379                0.904228675     -148.142134
9.38                 0.904007025     -148.442541
9.381                0.903786179     -148.743384
9.382                0.903566154      -149.04466
9.383                0.903346961     -149.346367
9.384                0.903128618     -149.648502
9.385                0.902911136     -149.951061
9.386                0.902694532      -150.25404
9.387                0.902478819     -150.557438
9.388                0.902264011     -150.861251
9.389                0.902050124     -151.165476
9.39                 0.901837171     -151.470108
9.391                0.901625167     -151.775146
9.392                0.901414125     -152.080585
9.393                0.901204061     -152.386423
9.394                0.900994989     -152.692656
9.395                0.900786922      -152.99928
9.396                0.900579875     -153.306293
