! TOUCHSTONE file generated by CST DESIGN STUDIO
! Date and time: Tue Feb  4 17:33:40 2025
! Project name: C:\Work\MatlabApps\UnitCellOptimizationMatlab\CST\unitcell.cst
! Tree item: Tasks\Sweep1\SPara1\S-Parameters
! Header version: 2024
! Port assignment regex: !\s*Touchstone port\s*([0-9]+)\s*=\s*(CST MWS port|CST DES external port|CST DES block port)\s*(.+)\s* \(\"(.*)\"\)(\s*mode\s*([0-9]+))?.*
! Touchstone port assignment:
! Touchstone port 1 = CST DES external port 1 ("")
# GHz S MA R 50
9                    0.962476873     -79.4545883
9.001                0.962420936     -79.5907473
9.002                0.962364517     -79.7272963
9.003                0.962307612     -79.8642362
9.004                0.962250219     -80.0015684
9.005                0.962192334     -80.1392941
9.006                0.962133955     -80.2774144
9.007                0.962075078     -80.4159306
9.008                  0.9620157     -80.5548438
9.009                0.961955819     -80.6941552
9.01                 0.961895432     -80.8338662
9.011                0.961834535     -80.9739778
9.012                0.961773126     -81.1144913
9.013                0.961711201     -81.2554079
9.014                0.961648758     -81.3967289
9.015                0.961585793     -81.5384554
9.016                0.961522304     -81.6805886
9.017                0.961458288     -81.8231299
9.018                0.961393741     -81.9660804
9.019                0.961328661     -82.1094413
9.02                 0.961263044     -82.2532139
9.021                0.961196888     -82.3973993
9.022                 0.96113019     -82.5419989
9.023                0.961062947     -82.6870139
9.024                0.960995156     -82.8324454
9.025                0.960926813     -82.9782948
9.026                0.960857916     -83.1245632
9.027                0.960788462     -83.2712519
9.028                0.960718448     -83.4183621
9.029                0.960647871     -83.5658952
9.03                 0.960576728     -83.7138522
9.031                0.960505016     -83.8622345
9.032                0.960432732     -84.0110434
9.033                0.960359873     -84.1602799
9.034                0.960286437     -84.3099455
9.035                 0.96021242     -84.4600413
9.036                0.960137819     -84.6105686
9.037                0.960062632     -84.7615286
9.038                0.959986855     -84.9129227
9.039                0.959910487      -85.064752
9.04                 0.959833523     -85.2170178
9.041                0.959755961     -85.3697213
9.042                0.959677798     -85.5228638
9.043                0.959599031     -85.6764466
9.044                0.959519657      -85.830471
9.045                0.959439674      -85.984938
9.046                0.959359079     -86.1398492
9.047                0.959277868     -86.2952056
9.048                0.959196039     -86.4510085
9.049                 0.95911359     -86.6072593
9.05                 0.959030516     -86.7639591
9.051                0.958946817     -86.9211093
9.052                0.958862488      -87.078711
9.053                0.958777526     -87.2367656
9.054                 0.95869193     -87.3952743
9.055                0.958605697     -87.5542383
9.056                0.958518823      -87.713659
9.057                0.958431306     -87.8735376
9.058                0.958343143     -88.0338753
9.059                0.958254331     -88.1946734
9.06                 0.958164869     -88.3559332
9.061                0.958074752     -88.5176559
9.062                0.957983979     -88.6798428
9.063                0.957892547     -88.8424952
9.064                0.957800453     -89.0056143
9.065                0.957707694     -89.1692014
9.066                0.957614268     -89.3332577
9.067                0.957520172     -89.4977845
9.068                0.957425405      -89.662783
9.069                0.957329962     -89.8282546
9.07                 0.957233842     -89.9942004
9.071                0.957137041     -90.1606218
9.072                0.957039559     -90.3275199
9.073                0.956941391     -90.4948961
9.074                0.956842536     -90.6627515
9.075                0.956742991     -90.8310875
9.076                0.956642753     -90.9999053
9.077                0.956541821     -91.1692062
9.078                0.956440191     -91.3389913
9.079                0.956337862      -91.509262
9.08                 0.956234831     -91.6800194
9.081                0.956131096      -91.851265
9.082                0.956026654     -92.0229997
9.083                0.955921503     -92.1952251
9.084                 0.95581564     -92.3679421
9.085                0.955709065     -92.5411522
9.086                0.955601773     -92.7148565
9.087                0.955493764     -92.8890563
9.088                0.955385034     -93.0637528
9.089                0.955275582     -93.2389473
9.09                 0.955165406     -93.4146409
9.091                0.955054503     -93.5908349
9.092                0.954942872     -93.7675306
9.093                 0.95483051     -93.9447291
9.094                0.954717415     -94.1224316
9.095                0.954603585     -94.3006395
9.096                0.954489019     -94.4793538
9.097                0.954373714     -94.6585759
9.098                0.954257668     -94.8383069
9.099                 0.95414088      -95.018548
9.1                  0.954023347     -95.1993004
9.101                0.953905069     -95.3805654
9.102                0.953786042     -95.5623441
9.103                0.953666265     -95.7446378
9.104                0.953545737     -95.9274475
9.105                0.953424456     -96.1107746
9.106                0.953302419     -96.2946201
9.107                0.953179627     -96.4789853
9.108                0.953056076     -96.6638713
9.109                0.952931765     -96.8492794
9.11                 0.952806693     -97.0352106
9.111                0.952680858     -97.2216662
9.112                0.952554258     -97.4086473
9.113                0.952426893     -97.5961551
9.114                0.952298761     -97.7841907
9.115                0.952169861     -97.9727552
9.116                 0.95204019     -98.1618499
9.117                0.951909749     -98.3514757
9.118                0.951778535      -98.541634
9.119                0.951646547     -98.7323258
9.12                 0.951513785     -98.9235522
9.121                0.951380247     -99.1153143
9.122                0.951245932     -99.3076133
9.123                0.951110839     -99.5004502
9.124                0.950974967     -99.6938263
9.125                0.950838315     -99.8877424
9.126                0.950700882       -100.0822
9.127                0.950562668       -100.2772
9.128                0.950423671     -100.472743
9.129                0.950283891      -100.66883
9.13                 0.950143326     -100.865464
9.131                0.950001977     -101.062643
9.132                0.949859842     -101.260371
9.133                0.949716922     -101.458647
9.134                0.949573215     -101.657473
9.135                0.949428721      -101.85685
9.136                0.949283439     -102.056778
9.137                 0.94913737      -102.25726
9.138                0.948990512     -102.458295
9.139                0.948842866     -102.659885
9.14                 0.948694431     -102.862031
9.141                0.948545208     -103.064733
9.142                0.948395195     -103.267994
9.143                0.948244393     -103.471813
9.144                0.948092802     -103.676192
9.145                0.947940422     -103.881132
9.146                0.947787253     -104.086633
9.147                0.947633294     -104.292697
9.148                0.947478548     -104.499324
9.149                0.947323013     -104.706516
9.15                 0.947166689     -104.914273
9.151                0.947009578     -105.122597
9.152                 0.94685168     -105.331487
9.153                0.946692995     -105.540946
9.154                0.946533524     -105.750973
9.155                0.946373267     -105.961571
9.156                0.946212225     -106.172739
9.157                0.946050399     -106.384478
9.158                0.945887789      -106.59679
9.159                0.945724397     -106.809674
9.16                 0.945560224     -107.023133
9.161                 0.94539527     -107.237166
9.162                0.945229536     -107.451775
9.163                0.945063025     -107.666961
9.164                0.944895736     -107.882723
9.165                0.944727671     -108.099063
9.166                0.944558832     -108.315982
9.167                0.944389219      -108.53348
9.168                0.944218835     -108.751558
9.169                0.944047681     -108.970217
9.17                 0.943875759     -109.189458
9.171                 0.94370307      -109.40928
9.172                0.943529615     -109.629685
9.173                0.943355398     -109.850674
9.174                 0.94318042     -110.072247
9.175                0.943004682     -110.294405
9.176                0.942828187     -110.517148
9.177                0.942650937     -110.740477
9.178                0.942472935     -110.964393
9.179                0.942294182     -111.188895
9.18                 0.942114681     -111.413986
9.181                0.941934434     -111.639665
9.182                0.941753445     -111.865932
9.183                0.941571714     -112.092789
9.184                0.941389246     -112.320236
9.185                0.941206043     -112.548273
9.186                0.941022108     -112.776901
9.187                0.940837444     -113.006121
9.188                0.940652053     -113.235932
9.189                 0.94046594     -113.466335
9.19                 0.940279107     -113.697331
9.191                0.940091557     -113.928919
9.192                0.939903293     -114.161102
9.193                 0.93971432     -114.393877
9.194                0.939524641     -114.627247
9.195                0.939334259     -114.861212
9.196                0.939143178     -115.095771
9.197                0.938951402     -115.330925
9.198                0.938758935     -115.566675
9.199                 0.93856578      -115.80302
9.2                  0.938371943     -116.039961
9.201                0.938177426     -116.277498
9.202                0.937982234     -116.515631
9.203                0.937786372     -116.754361
9.204                0.937589844     -116.993688
9.205                0.937392654     -117.233611
9.206                0.937194808     -117.474131
9.207                0.936996309     -117.715248
9.208                0.936797162     -117.956963
9.209                0.936597373     -118.199275
9.21                 0.936396947     -118.442183
9.211                0.936195888      -118.68569
9.212                0.935994202     -118.929793
9.213                0.935791893     -119.174494
9.214                0.935588968     -119.419793
9.215                0.935385432     -119.665688
9.216                 0.93518129     -119.912181
9.217                0.934976548     -120.159271
9.218                0.934771212     -120.406958
9.219                0.934565287     -120.655242
9.22                  0.93435878     -120.904123
9.221                0.934151697       -121.1536
9.222                0.933944043     -121.403674
9.223                0.933735825     -121.654344
9.224                 0.93352705      -121.90561
9.225                0.933317723     -122.157471
9.226                0.933107852     -122.409928
9.227                0.932897442      -122.66298
9.228                0.932686501     -122.916627
9.229                0.932475036     -123.170868
9.23                 0.932263053     -123.425703
9.231                 0.93205056     -123.681131
9.232                0.931837563     -123.937153
9.233                 0.93162407     -124.193768
9.234                0.931410089     -124.450975
9.235                0.931195626     -124.708774
9.236                0.930980689     -124.967164
9.237                0.930765286     -125.226144
9.238                0.930549425     -125.485715
9.239                0.930333113     -125.745875
9.24                 0.930116359     -126.006624
9.241                0.929899171     -126.267962
9.242                0.929681555     -126.529887
9.243                0.929463522     -126.792399
9.244                0.929245079     -127.055496
9.245                0.929026235      -127.31918
9.246                0.928806998     -127.583448
9.247                0.928587377     -127.848299
9.248                0.928367381     -128.113734
9.249                0.928147018     -128.379751
9.25                 0.927926298     -128.646348
9.251                 0.92770523     -128.913526
9.252                0.927483822     -129.181284
9.253                0.927262084      -129.44962
9.254                0.927040026     -129.718533
9.255                0.926817657     -129.988022
9.256                0.926594986     -130.258086
9.257                0.926372023     -130.528725
9.258                0.926148778     -130.799937
9.259                0.925925261      -131.07172
9.26                 0.925701481     -131.344075
9.261                0.925477449     -131.616998
9.262                0.925253175      -131.89049
9.263                 0.92502867     -132.164549
9.264                0.924803942     -132.439174
9.265                0.924579004     -132.714363
9.266                0.924353865     -132.990115
9.267                0.924128536     -133.266429
9.268                0.923903028     -133.543302
9.269                0.923677352     -133.820735
9.27                 0.923451518     -134.098725
9.271                0.923225537      -134.37727
9.272                0.922999422      -134.65637
9.273                0.922773182     -134.936023
9.274                0.922546829     -135.216226
9.275                0.922320374     -135.496979
9.276                 0.92209383      -135.77828
9.277                0.921867207     -136.060126
9.278                0.921640517     -136.342517
9.279                0.921413771     -136.625451
9.28                 0.921186983     -136.908925
9.281                0.920960162     -137.192939
9.282                0.920733322     -137.477489
9.283                0.920506475     -137.762575
9.284                0.920279632     -138.048194
9.285                0.920052806     -138.334344
9.286                0.919826009     -138.621023
9.287                0.919599253      -138.90823
9.288                0.919372551     -139.195962
9.289                0.919145916     -139.484218
9.29                 0.918919359     -139.772994
9.291                0.918692894     -140.062289
9.292                0.918466534     -140.352101
9.293                 0.91824029     -140.642428
9.294                0.918014177     -140.933267
9.295                0.917788206     -141.224615
9.296                0.917562392     -141.516472
9.297                0.917336747     -141.808834
9.298                0.917111284     -142.101698
9.299                0.916886016     -142.395064
9.3                  0.916660957     -142.688927
9.301                0.916436121     -142.983286
9.302                0.916211519     -143.278138
9.303                0.915987167     -143.573481
9.304                0.915763077     -143.869311
9.305                0.915539262     -144.165627
9.306                0.915315738     -144.462426
9.307                0.915092516     -144.759704
9.308                0.914869612      -145.05746
9.309                0.914647038      -145.35569
9.31                 0.914424809     -145.654393
9.311                0.914202938     -145.953564
9.312                0.913981439     -146.253201
9.313                0.913760327     -146.553301
9.314                0.913539615     -146.853862
9.315                0.913319317      -147.15488
9.316                0.913099447     -147.456353
9.317                0.912880019     -147.758276
9.318                0.912661048     -148.060648
9.319                0.912442548     -148.363466
9.32                 0.912224533     -148.666725
9.321                0.912007016     -148.970424
9.322                0.911790013     -149.274558
9.323                0.911573537     -149.579125
9.324                0.911357603     -149.884121
9.325                0.911142225     -150.189543
9.326                0.910927417     -150.495388
9.327                0.910713195     -150.801652
9.328                0.910499571     -151.108332
9.329                0.910286561     -151.415425
9.33                 0.910074179     -151.722927
9.331                0.909862438     -152.030835
9.332                0.909651355     -152.339145
9.333                0.909440942     -152.647853
9.334                0.909231215     -152.956957
9.335                0.909022187     -153.266452
9.336                0.908813874     -153.576335
9.337                0.908606289     -153.886602
9.338                0.908399447      -154.19725
9.339                0.908193363     -154.508275
9.34                 0.907988049     -154.819672
9.341                0.907783522     -155.131439
9.342                0.907579795     -155.443571
9.343                0.907376883     -155.756065
9.344                0.907174799     -156.068917
9.345                0.906973559     -156.382123
9.346                0.906773176     -156.695678
9.347                0.906573664     -157.009579
9.348                0.906375039     -157.323823
9.349                0.906177313     -157.638404
9.35                 0.905980501     -157.953319
9.351                0.905784617     -158.268564
9.352                0.905589675     -158.584135
9.353                 0.90539569     -158.900027
9.354                0.905202674     -159.216237
9.355                0.905010643      -159.53276
9.356                0.904819609     -159.849592
9.357                0.904629587     -160.166728
9.358                0.904440591     -160.484166
9.359                0.904252633     -160.801899
9.36                 0.904065729     -161.119925
9.361                0.903879891     -161.438238
9.362                0.903695132     -161.756834
9.363                0.903511467     -162.075709
9.364                0.903328909     -162.394859
9.365                0.903147471     -162.714278
9.366                0.902967167     -163.033963
9.367                0.902788009     -163.353909
9.368                0.902610011     -163.674112
9.369                0.902433185     -163.994566
9.37                 0.902257546     -164.315268
9.371                0.902083105     -164.636213
9.372                0.901909875     -164.957396
9.373                0.901737869     -165.278813
9.374                  0.9015671     -165.600458
9.375                0.901397581     -165.922328
9.376                0.901229323     -166.244418
9.377                0.901062339     -166.566722
9.378                0.900896642     -166.889237
9.379                0.900732243     -167.211957
9.38                 0.900569155     -167.534878
9.381                0.900407389     -167.857995
9.382                0.900246957     -168.181303
9.383                0.900087872     -168.504797
9.384                0.899930144     -168.828473
9.385                0.899773785     -169.152325
9.386                0.899618807      -169.47635
9.387                0.899465221     -169.800541
9.388                0.899313039     -170.124894
9.389                 0.89916227     -170.449404
9.39                 0.899012926     -170.774066
9.391                0.898865019     -171.098875
9.392                0.898718557     -171.423827
9.393                0.898573554     -171.748916
9.394                0.898430017     -172.074137
9.395                0.898287959     -172.399486
9.396                0.898147389     -172.724957
