! TOUCHSTONE file generated by CST DESIGN STUDIO
! Date and time: Tue Feb  4 17:33:38 2025
! Project name: C:\Work\MatlabApps\UnitCellOptimizationMatlab\CST\unitcell.cst
! Tree item: Tasks\Sweep1\SPara1\S-Parameters
! Header version: 2024
! Port assignment regex: !\s*Touchstone port\s*([0-9]+)\s*=\s*(CST MWS port|CST DES external port|CST DES block port)\s*(.+)\s* \(\"(.*)\"\)(\s*mode\s*([0-9]+))?.*
! Touchstone port assignment:
! Touchstone port 1 = CST DES external port 1 ("")
# GHz S MA R 50
9                    0.959805409     -83.3268931
9.001                0.959754145     -83.4741676
9.002                0.959702308     -83.6218693
9.003                0.959649895     -83.7699994
9.004                0.959596902     -83.9185591
9.005                0.959543328     -84.0675496
9.006                 0.95948917     -84.2169724
9.007                0.959434425     -84.3668285
9.008                 0.95937909     -84.5171192
9.009                0.959323162     -84.6678459
9.01                  0.95926664     -84.8190098
9.011                0.959209519     -84.9706122
9.012                0.959151799     -85.1226543
9.013                0.959093475     -85.2751374
9.014                0.959034545     -85.4280627
9.015                0.958975007     -85.5814316
9.016                0.958914858     -85.7352453
9.017                0.958854094     -85.8895051
9.018                0.958792715     -86.0442122
9.019                0.958730716      -86.199368
9.02                 0.958668096     -86.3549736
9.021                0.958604851     -86.5110305
9.022                0.958540979     -86.6675398
9.023                0.958476478     -86.8245028
9.024                0.958411344     -86.9819209
9.025                0.958345575     -87.1397953
9.026                0.958279169     -87.2981272
9.027                0.958212123      -87.456918
9.028                0.958144435     -87.6161689
9.029                0.958076101     -87.7758812
9.03                 0.958007119     -87.9360562
9.031                0.957937487     -88.0966952
9.032                0.957867202     -88.2577994
9.033                0.957796261     -88.4193702
9.034                0.957724663     -88.5814088
9.035                0.957652404     -88.7439165
9.036                0.957579482     -88.9068946
9.037                0.957505895     -89.0703444
9.038                0.957431639     -89.2342671
9.039                0.957356714      -89.398664
9.04                 0.957281115     -89.5635365
9.041                 0.95720484     -89.7288857
9.042                0.957127888      -89.894713
9.043                0.957050256     -90.0610197
9.044                0.956971941     -90.2278069
9.045                 0.95689294     -90.3950761
9.046                0.956813253     -90.5628285
9.047                0.956732875     -90.7310653
9.048                0.956651805     -90.8997879
9.049                0.956570041     -91.0689975
9.05                 0.956487579     -91.2386954
9.051                0.956404418     -91.4088828
9.052                0.956320556     -91.5795611
9.053                 0.95623599     -91.7507314
9.054                0.956150718     -91.9223952
9.055                0.956064737     -92.0945536
9.056                0.955978046     -92.2672079
9.057                0.955890642     -92.4403593
9.058                0.955802522     -92.6140093
9.059                0.955713686     -92.7881589
9.06                  0.95562413     -92.9628095
9.061                0.955533853     -93.1379623
9.062                0.955442852     -93.3136185
9.063                0.955351125     -93.4897796
9.064                0.955258671     -93.6664466
9.065                0.955165486     -93.8436208
9.066                 0.95507157     -94.0213035
9.067                0.954976919      -94.199496
9.068                0.954881533     -94.3781994
9.069                0.954785408      -94.557415
9.07                 0.954688544     -94.7371441
9.071                0.954590938     -94.9173879
9.072                0.954492588     -95.0981476
9.073                0.954393492     -95.2794245
9.074                0.954293649     -95.4612197
9.075                0.954193057     -95.6435345
9.076                0.954091713     -95.8263702
9.077                0.953989617     -96.0097279
9.078                0.953886766     -96.1936088
9.079                0.953783158     -96.3780143
9.08                 0.953678793     -96.5629453
9.081                0.953573667     -96.7484033
9.082                0.953467781     -96.9343893
9.083                0.953361131     -97.1209046
9.084                0.953253716     -97.3079504
9.085                0.953145536     -97.4955278
9.086                0.953036588     -97.6836381
9.087                 0.95292687     -97.8722823
9.088                0.952816382     -98.0614617
9.089                0.952705122     -98.2511775
9.09                 0.952593089     -98.4414308
9.091                0.952480281     -98.6322228
9.092                0.952366696     -98.8235546
9.093                0.952252334     -99.0154274
9.094                0.952137194     -99.2078423
9.095                0.952021274     -99.4008005
9.096                0.951904572      -99.594303
9.097                0.951787088     -99.7883511
9.098                0.951668821     -99.9829459
9.099                 0.95154977     -100.178088
9.1                  0.951429933      -100.37378
9.101                 0.95130931     -100.570021
9.102                0.951187899     -100.766814
9.103                  0.9510657     -100.964158
9.104                0.950942712     -101.162056
9.105                0.950818934     -101.360508
9.106                0.950694365     -101.559516
9.107                0.950569004      -101.75908
9.108                0.950442851     -101.959202
9.109                0.950315906     -102.159882
9.11                 0.950188166     -102.361122
9.111                0.950059633     -102.562922
9.112                0.949930305     -102.765284
9.113                0.949800182     -102.968209
9.114                0.949669263     -103.171698
9.115                0.949537548     -103.375751
9.116                0.949405037      -103.58037
9.117                 0.94927173     -103.785556
9.118                0.949137625      -103.99131
9.119                0.949002724     -104.197632
9.12                 0.948867025     -104.404524
9.121                0.948730529     -104.611986
9.122                0.948593236      -104.82002
9.123                0.948455146     -105.028626
9.124                0.948316258     -105.237806
9.125                0.948176573      -105.44756
9.126                0.948036092      -105.65789
9.127                0.947894813     -105.868795
9.128                0.947752739     -106.080278
9.129                0.947609868     -106.292338
9.13                 0.947466201     -106.504977
9.131                0.947321739     -106.718196
9.132                0.947176483     -106.931995
9.133                0.947030433     -107.146376
9.134                0.946883588     -107.361338
9.135                0.946735952     -107.576884
9.136                0.946587523     -107.793013
9.137                0.946438303     -108.009727
9.138                0.946288292     -108.227026
9.139                0.946137492     -108.444911
9.14                 0.945985904     -108.663383
9.141                0.945833528     -108.882442
9.142                0.945680366      -109.10209
9.143                0.945526419     -109.322327
9.144                0.945371689     -109.543154
9.145                0.945216175     -109.764571
9.146                0.945059881     -109.986579
9.147                0.944902807     -110.209178
9.148                0.944744956      -110.43237
9.149                0.944586327     -110.656156
9.15                 0.944426924     -110.880535
9.151                0.944266748     -111.105508
9.152                0.944105801     -111.331076
9.153                0.943944085     -111.557239
9.154                0.943781601     -111.783999
9.155                0.943618352     -112.011355
9.156                0.943454339     -112.239308
9.157                0.943289566     -112.467859
9.158                0.943124034     -112.697007
9.159                0.942957745     -112.926755
9.16                 0.942790702     -113.157102
9.161                0.942622908     -113.388048
9.162                0.942454365     -113.619594
9.163                0.942285075      -113.85174
9.164                0.942115042     -114.084488
9.165                0.941944268     -114.317837
9.166                0.941772756     -114.551787
9.167                0.941600509     -114.786339
9.168                 0.94142753     -115.021494
9.169                0.941253822     -115.257251
9.17                 0.941079389     -115.493611
9.171                0.940904233     -115.730574
9.172                0.940728358     -115.968141
9.173                0.940551768     -116.206312
9.174                0.940374466     -116.445086
9.175                0.940196456     -116.684465
9.176                0.940017741     -116.924448
9.177                0.939838325     -117.165036
9.178                0.939658212     -117.406229
9.179                0.939477407     -117.648026
9.18                 0.939295912     -117.890428
9.181                0.939113733     -118.133436
9.182                0.938930873     -118.377048
9.183                0.938747337     -118.621266
9.184                 0.93856313     -118.866089
9.185                0.938378255     -119.111518
9.186                0.938192717     -119.357551
9.187                0.938006522      -119.60419
9.188                0.937819673     -119.851434
9.189                0.937632177     -120.099283
9.19                 0.937444037     -120.347737
9.191                0.937255258     -120.596797
9.192                0.937065847      -120.84646
9.193                0.936875808     -121.096729
9.194                0.936685146     -121.347602
9.195                0.936493868     -121.599079
9.196                0.936301978      -121.85116
9.197                0.936109482     -122.103845
9.198                0.935916386     -122.357133
9.199                0.935722695     -122.611025
9.2                  0.935528416     -122.865519
9.201                0.935333555     -123.120616
9.202                0.935138118     -123.376316
9.203                0.934942111     -123.632616
9.204                0.934745539     -123.889519
9.205                0.934548411     -124.147022
9.206                0.934350732     -124.405125
9.207                0.934152508     -124.663829
9.208                0.933953747     -124.923131
9.209                0.933754456     -125.183033
9.21                  0.93355464     -125.443533
9.211                0.933354308     -125.704631
9.212                0.933153466     -125.966325
9.213                0.932952122     -126.228617
9.214                0.932750282     -126.491503
9.215                0.932547954     -126.754985
9.216                0.932345147     -127.019061
9.217                0.932141866     -127.283731
9.218                0.931938121     -127.548993
9.219                0.931733918     -127.814848
9.22                 0.931529266     -128.081293
9.221                0.931324173     -128.348329
9.222                0.931118646     -128.615954
9.223                0.930912695     -128.884167
9.224                0.930706326     -129.152968
9.225                 0.93049955     -129.422355
9.226                0.930292373     -129.692328
9.227                0.930084805     -129.962885
9.228                0.929876855     -130.234025
9.229                0.929668531     -130.505748
9.23                 0.929459842     -130.778051
9.231                0.929250797     -131.050935
9.232                0.929041405     -131.324397
9.233                0.928831676     -131.598437
9.234                0.928621618     -131.873053
9.235                0.928411242     -132.148244
9.236                0.928200555     -132.424008
9.237                0.927989569     -132.700345
9.238                0.927778293     -132.977253
9.239                0.927566736      -133.25473
9.24                 0.927354909     -133.532776
9.241                0.927142821     -133.811388
9.242                0.926930482     -134.090565
9.243                0.926717903     -134.370306
9.244                0.926505093     -134.650608
9.245                0.926292064     -134.931472
9.246                0.926078825     -135.212894
9.247                0.925865387     -135.494873
9.248                0.925651761     -135.777407
9.249                0.925437957     -136.060495
9.25                 0.925223986     -136.344136
9.251                0.925009859     -136.628326
9.252                0.924795587     -136.913065
9.253                0.924581181      -137.19835
9.254                0.924366652      -137.48418
9.255                0.924152012     -137.770552
9.256                0.923937271     -138.057465
9.257                0.923722441     -138.344917
9.258                0.923507534     -138.632906
9.259                 0.92329256     -138.921429
9.26                 0.923077533     -139.210484
9.261                0.922862463     -139.500071
9.262                0.922647362     -139.790185
9.263                0.922432242     -140.080826
9.264                0.922217116      -140.37199
9.265                0.922001994     -140.663676
9.266                 0.92178689     -140.955881
9.267                0.921571815     -141.248603
9.268                0.921356781      -141.54184
9.269                0.921141802     -141.835589
9.27                 0.920926889     -142.129848
9.271                0.920712055     -142.424614
9.272                0.920497312     -142.719885
9.273                0.920282673     -143.015658
9.274                0.920068151     -143.311931
9.275                0.919853758     -143.608701
9.276                0.919639508     -143.905966
9.277                0.919425412     -144.203722
9.278                0.919211485     -144.501968
9.279                0.918997738     -144.800699
9.28                 0.918784186     -145.099915
9.281                 0.91857084     -145.399611
9.282                0.918357715     -145.699785
9.283                0.918144824     -146.000435
9.284                0.917932178     -146.301556
9.285                0.917719793     -146.603147
9.286                0.917507682     -146.905203
9.287                0.917295857     -147.207723
9.288                0.917084332     -147.510704
9.289                0.916873121     -147.814141
9.29                 0.916662237     -148.118032
9.291                0.916451694     -148.422375
9.292                0.916241505     -148.727164
9.293                0.916031685     -149.032399
9.294                0.915822246     -149.338074
9.295                0.915613203     -149.644188
9.296                0.915404568     -149.950735
9.297                0.915196357     -150.257715
9.298                0.914988582     -150.565122
9.299                0.914781259     -150.872953
9.3                  0.914574399     -151.181205
9.301                0.914368018     -151.489875
9.302                0.914162129     -151.798959
9.303                0.913956746     -152.108454
9.304                0.913751883     -152.418355
9.305                0.913547555     -152.728659
9.306                0.913343774     -153.039363
9.307                0.913140555     -153.350463
9.308                0.912937912     -153.661955
9.309                0.912735859     -153.973836
9.31                  0.91253441     -154.286101
9.311                0.912333578     -154.598747
9.312                0.912133379      -154.91177
9.313                0.911933825     -155.225167
9.314                0.911734931     -155.538932
9.315                0.911536711     -155.853063
9.316                0.911339179     -156.167556
9.317                0.911142348     -156.482406
9.318                0.910946233     -156.797609
9.319                0.910750848     -157.113161
9.32                 0.910556206     -157.429059
9.321                0.910362321     -157.745298
9.322                0.910169208     -158.061874
9.323                0.909976879     -158.378783
9.324                 0.90978535      -158.69602
9.325                0.909594633     -159.013582
9.326                0.909404743     -159.331464
9.327                0.909215693     -159.649662
9.328                0.909027497     -159.968171
9.329                0.908840168     -160.286988
9.33                  0.90865372     -160.606108
9.331                0.908468168     -160.925526
9.332                0.908283523     -161.245238
9.333                  0.9080998      -161.56524
9.334                0.907917013     -161.885528
9.335                0.907735173     -162.206095
9.336                0.907554296     -162.526939
9.337                0.907374394     -162.848055
9.338                0.907195481     -163.169438
9.339                0.907017569     -163.491083
9.34                 0.906840671     -163.812987
9.341                0.906664801     -164.135143
9.342                0.906489972     -164.457548
9.343                0.906316197     -164.780197
9.344                0.906143488     -165.103086
9.345                0.905971858     -165.426209
9.346                 0.90580132     -165.749561
9.347                0.905631886     -166.073139
9.348                 0.90546357     -166.396936
9.349                0.905296382      -166.72095
9.35                 0.905130337     -167.045173
9.351                0.904965446     -167.369603
9.352                0.904801721     -167.694233
9.353                0.904639174      -168.01906
9.354                0.904477818     -168.344077
9.355                0.904317664     -168.669281
9.356                0.904158724     -168.994665
9.357                0.904001009     -169.320227
9.358                0.903844533     -169.645959
9.359                0.903689305     -169.971858
9.36                 0.903535338     -170.297918
9.361                0.903382642     -170.624134
9.362                0.903231229     -170.950502
9.363                0.903081111     -171.277015
9.364                0.902932297      -171.60367
9.365                0.902784799     -171.930462
9.366                0.902638628     -172.257384
9.367                0.902493793     -172.584432
9.368                0.902350307       -172.9116
9.369                0.902208179     -173.238885
9.37                 0.902067419      -173.56628
9.371                0.901928037      -173.89378
9.372                0.901790044     -174.221381
9.373                 0.90165345     -174.549077
9.374                0.901518264     -174.876863
9.375                0.901384496     -175.204733
9.376                0.901252155     -175.532683
9.377                 0.90112125     -175.860707
9.378                0.900991792     -176.188801
9.379                0.900863788     -176.516958
9.38                 0.900737249     -176.845175
9.381                0.900612183     -177.173444
9.382                0.900488597     -177.501762
9.383                0.900366502     -177.830123
9.384                0.900245905     -178.158522
9.385                0.900126815     -178.486953
9.386                 0.90000924     -178.815412
9.387                0.899893187     -179.143893
9.388                0.899778664     -179.472391
9.389                 0.89966568       -179.8009
9.39                 0.899554241      179.870584
9.391                0.899444355      179.542068
9.392                0.899336029      179.213555
9.393                0.899229271      178.885052
9.394                0.899124086      178.556563
9.395                0.899020482      178.228094
9.396                0.898918465      177.899651
