! TOUCHSTONE file generated by CST DESIGN STUDIO
! Date and time: Tue Feb  4 18:13:23 2025
! Project name: C:\Work\MatlabApps\UnitCellOptimizationMatlab\CST\unitcell.cst
! Tree item: Tasks\Sweep1\SPara1\S-Parameters
! Header version: 2024
! Port assignment regex: !\s*Touchstone port\s*([0-9]+)\s*=\s*(CST MWS port|CST DES external port|CST DES block port)\s*(.+)\s* \(\"(.*)\"\)(\s*mode\s*([0-9]+))?.*
! Touchstone port assignment:
! Touchstone port 1 = CST DES external port 1 ("")
# GHz S MA R 50
9                    0.941626195     -72.8068521
9.001                 0.94147269     -72.9209319
9.002                0.941318683     -73.0353089
9.003                0.941164173      -73.149984
9.004                0.941009159     -73.2649582
9.005                0.940853639     -73.3802325
9.006                0.940697611     -73.4958078
9.007                0.940541075     -73.6116852
9.008                0.940384028     -73.7278656
9.009                 0.94022647     -73.8443501
9.01                 0.940068399     -73.9611395
9.011                0.939909814      -74.078235
9.012                0.939750714     -74.1956375
9.013                0.939591096     -74.3133481
9.014                 0.93943096     -74.4313676
9.015                0.939270305     -74.5496972
9.016                0.939109128     -74.6683379
9.017                0.938947429     -74.7872906
9.018                0.938785206     -74.9065565
9.019                0.938622458     -75.0261364
9.02                 0.938459183     -75.1460314
9.021                0.938295381     -75.2662426
9.022                0.938131049      -75.386771
9.023                0.937966187     -75.5076177
9.024                0.937800793     -75.6287835
9.025                0.937634866     -75.7502697
9.026                0.937468405     -75.8720772
9.027                0.937301407     -75.9942071
9.028                0.937133873     -76.1166604
9.029                  0.9369658     -76.2394382
9.03                 0.936797187     -76.3625416
9.031                0.936628033     -76.4859715
9.032                0.936458337      -76.609729
9.033                0.936288097     -76.7338153
9.034                0.936117312     -76.8582313
9.035                0.935945981     -76.9829782
9.036                0.935774102      -77.108057
9.037                0.935601674     -77.2334688
9.038                0.935428697     -77.3592146
9.039                0.935255167     -77.4852956
9.04                 0.935081086     -77.6117128
9.041                 0.93490645     -77.7384673
9.042                 0.93473126     -77.8655602
9.043                0.934555513     -77.9929925
9.044                0.934379208     -78.1207654
9.045                0.934202345       -78.24888
9.046                0.934024921     -78.3773374
9.047                0.933846936     -78.5061387
9.048                0.933668389     -78.6352849
9.049                0.933489278     -78.7647771
9.05                 0.933309602     -78.8946166
9.051                0.933129361     -79.0248044
9.052                0.932948552     -79.1553416
9.053                0.932767174     -79.2862293
9.054                0.932585227     -79.4174686
9.055                0.932402709     -79.5490608
9.056                 0.93221962     -79.6810068
9.057                0.932035957     -79.8133078
9.058                0.931851721      -79.945965
9.059                0.931666909     -80.0789795
9.06                 0.931481521     -80.2123525
9.061                0.931295555     -80.3460849
9.062                0.931109011     -80.4801781
9.063                0.930921887     -80.6146332
9.064                0.930734182     -80.7494512
9.065                0.930545896     -80.8846334
9.066                0.930357027     -81.0201808
9.067                0.930167574     -81.1560947
9.068                0.929977537     -81.2923762
9.069                0.929786913     -81.4290265
9.07                 0.929595702     -81.5660467
9.071                0.929403904     -81.7034379
9.072                0.929211517     -81.8412014
9.073                 0.92901854     -81.9793384
9.074                0.928824972     -82.1178499
9.075                0.928630812     -82.2567372
9.076                 0.92843606     -82.3960014
9.077                0.928240714     -82.5356437
9.078                0.928044774     -82.6756653
9.079                0.927848238     -82.8160674
9.08                 0.927651106     -82.9568511
9.081                0.927453377     -83.0980177
9.082                 0.92725505     -83.2395683
9.083                0.927056124     -83.3815042
9.084                0.926856598     -83.5238264
9.085                0.926656472     -83.6665363
9.086                0.926455744     -83.8096349
9.087                0.926254415     -83.9531236
9.088                0.926052483     -84.0970035
9.089                0.925849947     -84.2412757
9.09                 0.925646807     -84.3859416
9.091                0.925443062     -84.5310024
9.092                0.925238711     -84.6764591
9.093                0.925033753     -84.8223131
9.094                0.924828189     -84.9685655
9.095                0.924622017     -85.1152176
9.096                0.924415236     -85.2622706
9.097                0.924207847     -85.4097257
9.098                0.923999848     -85.5575841
9.099                0.923791239      -85.705847
9.1                  0.923582019     -85.8545157
9.101                0.923372188     -86.0035915
9.102                0.923161745     -86.1530754
9.103                 0.92295069     -86.3029687
9.104                0.922739022     -86.4532728
9.105                0.922526741     -86.6039887
9.106                0.922313847     -86.7551178
9.107                0.922100338     -86.9066612
9.108                0.921886215     -87.0586203
9.109                0.921671477     -87.2109962
9.11                 0.921456124     -87.3637902
9.111                0.921240155     -87.5170035
9.112                 0.92102357     -87.6706374
9.113                0.920806369      -87.824693
9.114                0.920588552     -87.9791717
9.115                0.920370119     -88.1340747
9.116                0.920151068     -88.2894033
9.117                  0.9199314     -88.4451586
9.118                0.919711115      -88.601342
9.119                0.919490213     -88.7579546
9.12                 0.919268693     -88.9149977
9.121                0.919046556     -89.0724727
9.122                0.918823801     -89.2303806
9.123                0.918600428     -89.3887228
9.124                0.918376438     -89.5475006
9.125                 0.91815183     -89.7067152
9.126                0.917926604     -89.8663677
9.127                0.917700761     -90.0264596
9.128                  0.9174743      -90.186992
9.129                0.917247222     -90.3479662
9.13                 0.917019526     -90.5093835
9.131                0.916791213     -90.6712451
9.132                0.916562284     -90.8335522
9.133                0.916332738     -90.9963062
9.134                0.916102576     -91.1595083
9.135                0.915871797     -91.3231596
9.136                0.915640403     -91.4872616
9.137                0.915408393     -91.6518155
9.138                0.915175769     -91.8168224
9.139                 0.91494253     -91.9822837
9.14                 0.914708677     -92.1482006
9.141                 0.91447421     -92.3145744
9.142                 0.91423913     -92.4814063
9.143                0.914003438     -92.6486976
9.144                0.913767133     -92.8164496
9.145                0.913530218     -92.9846634
9.146                0.913292691     -93.1533404
9.147                0.913054555     -93.3224819
9.148                0.912815809     -93.4920889
9.149                0.912576455     -93.6621629
9.15                 0.912336494      -93.832705
9.151                0.912095925     -94.0037166
9.152                0.911854751     -94.1751988
9.153                0.911612971     -94.3471529
9.154                0.911370588     -94.5195802
9.155                0.911127601     -94.6924818
9.156                0.910884013     -94.8658591
9.157                0.910639823     -95.0397133
9.158                0.910395034     -95.2140457
9.159                0.910149645     -95.3888574
9.16                  0.90990366     -95.5641497
9.161                0.909657078     -95.7399239
9.162                  0.9094099     -95.9161812
9.163                 0.90916213     -96.0929227
9.164                0.908913767     -96.2701499
9.165                0.908664813     -96.4478638
9.166                0.908415269     -96.6260657
9.167                0.908165138     -96.8047568
9.168                 0.90791442     -96.9839384
9.169                0.907663117     -97.1636117
9.17                 0.907411231     -97.3437779
9.171                0.907158763     -97.5244382
9.172                0.906905715     -97.7055938
9.173                 0.90665209      -97.887246
9.174                0.906397888     -98.0693959
9.175                0.906143112     -98.2520448
9.176                0.905887763     -98.4351938
9.177                0.905631843     -98.6188442
9.178                0.905375355     -98.8029971
9.179                0.905118301     -98.9876537
9.18                 0.904860682     -99.1728153
9.181                0.904602501      -99.358483
9.182                 0.90434376     -99.5446581
9.183                0.904084462     -99.7313415
9.184                0.903824608     -99.9185347
9.185                0.903564201     -100.106239
9.186                0.903303243     -100.294455
9.187                0.903041737     -100.483184
9.188                0.902779685     -100.672427
9.189                0.902517091     -100.862186
9.19                 0.902253956     -101.052462
9.191                0.901990283     -101.243255
9.192                0.901726075     -101.434567
9.193                0.901461336     -101.626399
9.194                0.901196066     -101.818753
9.195                0.900930271     -102.011628
9.196                0.900663952     -102.205027
9.197                0.900397113     -102.398951
9.198                0.900129757       -102.5934
9.199                0.899861886     -102.788376
9.2                  0.899593505      -102.98388
9.201                0.899324616     -103.179913
9.202                0.899055223     -103.376476
9.203                0.898785329      -103.57357
9.204                0.898514938     -103.771196
9.205                0.898244053     -103.969355
9.206                0.897972677     -104.168049
9.207                0.897700815     -104.367278
9.208                 0.89742847     -104.567043
9.209                0.897155646     -104.767346
9.21                 0.896882347     -104.968188
9.211                0.896608577     -105.169569
9.212                0.896334339      -105.37149
9.213                0.896059638     -105.573953
9.214                0.895784477     -105.776959
9.215                0.895508862     -105.980508
9.216                0.895232796     -106.184602
9.217                0.894956283     -106.389241
9.218                0.894679329     -106.594427
9.219                0.894401937      -106.80016
9.22                 0.894124112     -107.006442
9.221                0.893845858     -107.213273
9.222                 0.89356718     -107.420654
9.223                0.893288084     -107.628587
9.224                0.893008573     -107.837072
9.225                0.892728653      -108.04611
9.226                0.892448329     -108.255702
9.227                0.892167605     -108.465849
9.228                0.891886487     -108.676551
9.229                 0.89160498     -108.887811
9.23                 0.891323088     -109.099628
9.231                0.891040819     -109.312003
9.232                0.890758176     -109.524937
9.233                0.890475166     -109.738432
9.234                0.890191794     -109.952487
9.235                0.889908065     -110.167104
9.236                0.889623986     -110.382284
9.237                0.889339561     -110.598027
9.238                0.889054798     -110.814334
9.239                0.888769701     -111.031206
9.24                 0.888484278     -111.248643
9.241                0.888198533     -111.466647
9.242                0.887912473     -111.685218
9.243                0.887626105     -111.904357
9.244                0.887339435     -112.124064
9.245                0.887052469      -112.34434
9.246                0.886765214     -112.565187
9.247                0.886477675     -112.786604
9.248                0.886189861     -113.008592
9.249                0.885901778     -113.231152
9.25                 0.885613432     -113.454284
9.251                 0.88532483      -113.67799
9.252                 0.88503598     -113.902269
9.253                0.884746888     -114.127123
9.254                0.884457562     -114.352552
9.255                0.884168009     -114.578556
9.256                0.883878236     -114.805136
9.257                0.883588251     -115.032292
9.258                0.883298061     -115.260026
9.259                0.883007674     -115.488337
9.26                 0.882717097     -115.717226
9.261                0.882426338     -115.946694
9.262                0.882135405     -116.176741
9.263                0.881844306     -116.407367
9.264                0.881553049     -116.638573
9.265                0.881261642     -116.870359
9.266                0.880970093     -117.102726
9.267                 0.88067841     -117.335673
9.268                0.880386602     -117.569203
9.269                0.880094678     -117.803314
9.27                 0.879802645     -118.038006
9.271                0.879510513     -118.273282
9.272                 0.87921829      -118.50914
9.273                0.878925984      -118.74558
9.274                0.878633606     -118.982604
9.275                0.878341163     -119.220211
9.276                0.878048664     -119.458402
9.277                 0.87775612     -119.697177
9.278                0.877463539     -119.936536
9.279                 0.87717093     -120.176478
9.28                 0.876878303     -120.417005
9.281                0.876585667     -120.658117
9.282                0.876293032     -120.899813
9.283                0.876000408     -121.142093
9.284                0.875707804     -121.384958
9.285                 0.87541523     -121.628408
9.286                0.875122696     -121.872442
9.287                0.874830212     -122.117061
9.288                0.874537789     -122.362265
9.289                0.874245435     -122.608053
9.29                 0.873953162     -122.854426
9.291                 0.87366098     -123.101383
9.292                  0.8733689     -123.348925
9.293                0.873076931     -123.597051
9.294                0.872785085     -123.845761
9.295                0.872493372     -124.095055
9.296                0.872201803     -124.344932
9.297                0.871910389     -124.595393
9.298                0.871619141     -124.846438
9.299                0.871328069     -125.098065
9.3                  0.871037186     -125.350275
9.301                0.870746501     -125.603067
9.302                0.870456027     -125.856441
9.303                0.870165775     -126.110397
9.304                0.869875756     -126.364934
9.305                0.869585982     -126.620052
9.306                0.869296464      -126.87575
9.307                0.869007215     -127.132028
9.308                0.868718245     -127.388886
9.309                0.868429567     -127.646323
9.31                 0.868141193     -127.904338
9.311                0.867853134     -128.162931
9.312                0.867565403     -128.422101
9.313                0.867278012     -128.681848
9.314                0.866990973     -128.942171
9.315                0.866704299     -129.203069
9.316                0.866418001     -129.464542
9.317                0.866132093     -129.726588
9.318                0.865846587     -129.989208
9.319                0.865561495       -130.2524
9.32                 0.865276831     -130.516164
9.321                0.864992606     -130.780499
9.322                0.864708835     -131.045403
9.323                0.864425529     -131.310876
9.324                0.864142702     -131.576918
9.325                0.863860366     -131.843526
9.326                0.863578536     -132.110701
9.327                0.863297223     -132.378441
9.328                0.863016442     -132.646745
9.329                0.862736206     -132.915612
9.33                 0.862456527     -133.185041
9.331                 0.86217742     -133.455031
9.332                0.861898898     -133.725581
9.333                0.861620974     -133.996689
9.334                0.861343662     -134.268354
9.335                0.861066976     -134.540576
9.336                 0.86079093     -134.813352
9.337                0.860515537     -135.086682
9.338                0.860240811     -135.360564
9.339                0.859966767     -135.634996
9.34                 0.859693417     -135.909979
9.341                0.859420776     -136.185509
9.342                0.859148859     -136.461585
9.343                0.858877678     -136.738207
9.344                 0.85860725     -137.015372
9.345                0.858337586      -137.29308
9.346                0.858068703     -137.571327
9.347                0.857800613     -137.850114
9.348                0.857533332     -138.129437
9.349                0.857266874     -138.409296
9.35                 0.857001254     -138.689689
9.351                0.856736485     -138.970613
9.352                0.856472582     -139.252068
9.353                0.856209559     -139.534052
9.354                0.855947433     -139.816562
9.355                0.855686216     -140.099596
9.356                0.855425923     -140.383154
9.357                 0.85516657     -140.667232
9.358                 0.85490817     -140.951829
9.359                0.854650739     -141.236943
9.36                 0.854394292     -141.522572
9.361                0.854138842     -141.808713
9.362                0.853884405     -142.095365
9.363                0.853630996     -142.382526
9.364                0.853378629     -142.670193
9.365                0.853127319     -142.958364
9.366                0.852877081     -143.247037
9.367                 0.85262793      -143.53621
9.368                0.852379881      -143.82588
9.369                0.852132948     -144.116045
9.37                 0.851887147     -144.406702
9.371                0.851642493      -144.69785
9.372                0.851398999     -144.989485
9.373                0.851156682     -145.281605
9.374                0.850915555     -145.574209
9.375                0.850675635     -145.867292
9.376                0.850436935     -146.160853
9.377                 0.85019947     -146.454889
9.378                0.849963256     -146.749397
9.379                0.849728307     -147.044375
9.38                 0.849494639      -147.33982
9.381                0.849262265     -147.635728
9.382                0.849031201     -147.932099
9.383                0.848801461     -148.228928
9.384                 0.84857306     -148.526212
9.385                0.848346013     -148.823949
9.386                0.848120335     -149.122136
9.387                 0.84789604      -149.42077
9.388                0.847673143     -149.719848
9.389                0.847451658     -150.019367
9.39                 0.847231601     -150.319324
9.391                0.847012985     -150.619715
9.392                0.846795825     -150.920538
9.393                0.846580135      -151.22179
9.394                0.846365931     -151.523466
9.395                0.846153225     -151.825565
9.396                0.845942033     -152.128083
