! TOUCHSTONE file generated by CST DESIGN STUDIO
! Date and time: Tue Feb  4 18:13:17 2025
! Project name: C:\Work\MatlabApps\UnitCellOptimizationMatlab\CST\unitcell.cst
! Tree item: Tasks\Sweep1\SPara1\S-Parameters
! Header version: 2024
! Port assignment regex: !\s*Touchstone port\s*([0-9]+)\s*=\s*(CST MWS port|CST DES external port|CST DES block port)\s*(.+)\s* \(\"(.*)\"\)(\s*mode\s*([0-9]+))?.*
! Touchstone port assignment:
! Touchstone port 1 = CST DES external port 1 ("")
# GHz S MA R 50
9                    0.928565703     -88.8284722
9.001                 0.92835958     -88.9865694
9.002                0.928152844     -89.1451053
9.003                0.927945495     -89.3040811
9.004                0.927737533     -89.4634981
9.005                0.927528959     -89.6233576
9.006                 0.92731977     -89.7836608
9.007                0.927109968     -89.9444091
9.008                0.926899552     -90.1056038
9.009                0.926688522     -90.2672461
9.01                 0.926476878     -90.4293373
9.011                 0.92626462     -90.5918787
9.012                0.926051747     -90.7548716
9.013                 0.92583826     -90.9183172
9.014                0.925624158     -91.0822169
9.015                0.925409442      -91.246572
9.016                0.925194112     -91.4113837
9.017                0.924978167     -91.5766533
9.018                0.924761607     -91.7423822
9.019                0.924544434     -91.9085715
9.02                 0.924326646     -92.0752227
9.021                0.924108245     -92.2423369
9.022                 0.92388923     -92.4099154
9.023                0.923669602     -92.5779597
9.024                 0.92344936     -92.7464708
9.025                0.923228505     -92.9154502
9.026                0.923007038     -93.0848991
9.027                0.922784959     -93.2548188
9.028                0.922562268     -93.4252106
9.029                0.922338966     -93.5960757
9.03                 0.922115052     -93.7674155
9.031                0.921890528     -93.9392312
9.032                0.921665395     -94.1115241
9.033                0.921439652     -94.2842955
9.034                  0.9212133     -94.4575467
9.035                 0.92098634     -94.6312789
9.036                0.920758773     -94.8054934
9.037                0.920530599     -94.9801916
9.038                0.920301819     -95.1553746
9.039                0.920072433     -95.3310437
9.04                 0.919842444     -95.5072003
9.041                0.919611851     -95.6838456
9.042                0.919380655     -95.8609808
9.043                0.919148858     -96.0386073
9.044                 0.91891646     -96.2167262
9.045                0.918683462     -96.3953389
9.046                0.918449866     -96.5744466
9.047                0.918215672     -96.7540505
9.048                0.917980881      -96.934152
9.049                0.917745496     -97.1147522
9.05                 0.917509516     -97.2958525
9.051                0.917272944     -97.4774541
9.052                0.917035781     -97.6595581
9.053                0.916798027      -97.842166
9.054                0.916559685     -98.0252788
9.055                0.916320756     -98.2088979
9.056                 0.91608124     -98.3930244
9.057                0.915841141     -98.5776597
9.058                0.915600459     -98.7628049
9.059                0.915359196     -98.9484612
9.06                 0.915117354       -99.13463
9.061                0.914874935     -99.3213123
9.062                0.914631939     -99.5085095
9.063                 0.91438837     -99.6962226
9.064                0.914144229      -99.884453
9.065                0.913899517     -100.073202
9.066                0.913654237      -100.26247
9.067                0.913408392      -100.45226
9.068                0.913161982     -100.642571
9.069                 0.91291501     -100.833405
9.07                 0.912667478     -101.024764
9.071                0.912419389     -101.216649
9.072                0.912170744      -101.40906
9.073                0.911921547     -101.601999
9.074                0.911671799     -101.795467
9.075                0.911421503     -101.989466
9.076                0.911170662     -102.183995
9.077                0.910919277     -102.379058
9.078                0.910667352     -102.574653
9.079                 0.91041489     -102.770784
9.08                 0.910161892     -102.967451
9.081                0.909908362     -103.164654
9.082                0.909654303     -103.362396
9.083                0.909399718     -103.560677
9.084                0.909144609     -103.759499
9.085                0.908888979     -103.958862
9.086                0.908632832     -104.158767
9.087                0.908376171     -104.359217
9.088                0.908118999     -104.560211
9.089                0.907861319      -104.76175
9.09                 0.907603135     -104.963837
9.091                 0.90734445     -105.166472
9.092                0.907085267     -105.369655
9.093                 0.90682559     -105.573389
9.094                0.906565423     -105.777673
9.095                0.906304769      -105.98251
9.096                0.906043632       -106.1879
9.097                0.905782016     -106.393844
9.098                0.905519924     -106.600343
9.099                0.905257361     -106.807398
9.1                   0.90499433      -107.01501
9.101                0.904730836     -107.223181
9.102                0.904466883      -107.43191
9.103                0.904202474       -107.6412
9.104                0.903937615      -107.85105
9.105                0.903672308     -108.061462
9.106                 0.90340656     -108.272437
9.107                0.903140374     -108.483976
9.108                0.902873755      -108.69608
9.109                0.902606708     -108.908749
9.11                 0.902339236     -109.121984
9.111                0.902071346     -109.335787
9.112                0.901803041     -109.550158
9.113                0.901534327     -109.765098
9.114                0.901265209     -109.980608
9.115                0.900995692     -110.196689
9.116                 0.90072578     -110.413342
9.117                0.900455479     -110.630566
9.118                0.900184795     -110.848364
9.119                0.899913732     -111.066736
9.12                 0.899642297     -111.285683
9.121                0.899370494     -111.505205
9.122                 0.89909833     -111.725304
9.123                0.898825809      -111.94598
9.124                0.898552938     -112.167233
9.125                0.898279723     -112.389065
9.126                0.898006169     -112.611476
9.127                0.897732282     -112.834467
9.128                0.897458069     -113.058039
9.129                0.897183535     -113.282191
9.13                 0.896908688     -113.506926
9.131                0.896633532     -113.732243
9.132                0.896358075     -113.958143
9.133                0.896082323     -114.184628
9.134                0.895806282     -114.411696
9.135                 0.89552996     -114.639349
9.136                0.895253362     -114.867588
9.137                0.894976497     -115.096413
9.138                 0.89469937     -115.325824
9.139                0.894421988     -115.555823
9.14                 0.894144359     -115.786409
9.141                 0.89386649     -116.017583
9.142                0.893588388     -116.249346
9.143                 0.89331006     -116.481698
9.144                0.893031513     -116.714639
9.145                0.892752756      -116.94817
9.146                0.892473796     -117.182291
9.147                 0.89219464     -117.417003
9.148                0.891915296     -117.652306
9.149                0.891635772       -117.8882
9.15                 0.891356075     -118.124686
9.151                0.891076215     -118.361764
9.152                0.890796198     -118.599435
9.153                0.890516034     -118.837697
9.154                0.890235729     -119.076553
9.155                0.889955294     -119.316002
9.156                0.889674735     -119.556044
9.157                0.889394062      -119.79668
9.158                0.889113283      -120.03791
9.159                0.888832407     -120.279733
9.16                 0.888551443      -120.52215
9.161                0.888270399     -120.765162
9.162                0.887989285     -121.008768
9.163                0.887708109     -121.252968
9.164                0.887426881     -121.497762
9.165                0.887145609     -121.743151
9.166                0.886864304     -121.989135
9.167                0.886582974     -122.235713
9.168                0.886301629     -122.482885
9.169                0.886020279     -122.730651
9.17                 0.885738933     -122.979012
9.171                  0.8854576     -123.227968
9.172                0.885176292     -123.477517
9.173                0.884895017      -123.72766
9.174                0.884613785     -123.978398
9.175                0.884332608     -124.229728
9.176                0.884051494     -124.481653
9.177                0.883770455      -124.73417
9.178                  0.8834895     -124.987281
9.179                0.883208639     -125.240984
9.18                 0.882927885     -125.495279
9.181                0.882647246     -125.750167
9.182                0.882366734     -126.005646
9.183                0.882086359     -126.261717
9.184                0.881806133     -126.518379
9.185                0.881526065     -126.775631
9.186                0.881246168     -127.033473
9.187                0.880966453     -127.291905
9.188                 0.88068693     -127.550926
9.189                 0.88040761     -127.810536
9.19                 0.880128506     -128.070734
9.191                0.879849628     -128.331519
9.192                0.879570988     -128.592891
9.193                0.879292598     -128.854849
9.194                0.879014469     -129.117393
9.195                0.878736613     -129.380521
9.196                0.878459042     -129.644234
9.197                0.878181767      -129.90853
9.198                0.877904802     -130.173409
9.199                0.877628157     -130.438869
9.2                  0.877351844     -130.704911
9.201                0.877075877     -130.971533
9.202                0.876800267     -131.238734
9.203                0.876525027     -131.506513
9.204                0.876250169      -131.77487
9.205                0.875975706     -132.043803
9.206                0.875701649     -132.313312
9.207                0.875428013     -132.583395
9.208                0.875154809     -132.854052
9.209                 0.87488205      -133.12528
9.21                 0.874609749      -133.39708
9.211                0.874337919      -133.66945
9.212                0.874066574     -133.942389
9.213                0.873795725     -134.215895
9.214                0.873525386     -134.489967
9.215                 0.87325557     -134.764605
9.216                0.872986291     -135.039806
9.217                0.872717562      -135.31557
9.218                0.872449396     -135.591895
9.219                0.872181806     -135.868779
9.22                 0.871914806     -136.146222
9.221                 0.87164841     -136.424222
9.222                 0.87138263     -136.702776
9.223                0.871117482     -136.981885
9.224                0.870852977     -137.261545
9.225                0.870589131     -137.541756
9.226                0.870325956     -137.822517
9.227                0.870063467     -138.103824
9.228                0.869801678     -138.385677
9.229                0.869540602     -138.668074
9.23                 0.869280253     -138.951013
9.231                0.869020646     -139.234492
9.232                0.868761794     -139.518509
9.233                0.868503711     -139.803064
9.234                0.868246413     -140.088153
9.235                0.867989912     -140.373775
9.236                0.867734223     -140.659927
9.237                 0.86747936     -140.946609
9.238                0.867225337     -141.233817
9.239                 0.86697217      -141.52155
9.24                 0.866719871     -141.809805
9.241                0.866468456     -142.098581
9.242                0.866217938     -142.387876
9.243                0.865968333     -142.677686
9.244                0.865719655     -142.968011
9.245                0.865471917     -143.258847
9.246                0.865225135     -143.550192
9.247                0.864979323     -143.842045
9.248                0.864734495     -144.134402
9.249                0.864490667     -144.427261
9.25                 0.864247851     -144.720619
9.251                0.864006064     -145.014476
9.252                 0.86376532     -145.308826
9.253                0.863525632     -145.603669
9.254                0.863287016     -145.899002
9.255                0.863049487     -146.194821
9.256                0.862813058     -146.491125
9.257                0.862577744     -146.787911
9.258                 0.86234356     -147.085175
9.259                 0.86211052     -147.382916
9.26                  0.86187864     -147.681129
9.261                0.861647932     -147.979814
9.262                0.861418413     -148.278966
9.263                0.861190096     -148.578582
9.264                0.860962996     -148.878661
9.265                0.860737127     -149.179198
9.266                0.860512504     -149.480191
9.267                0.860289141     -149.781637
9.268                0.860067053     -150.083532
9.269                0.859846253     -150.385874
9.27                 0.859626757      -150.68866
9.271                0.859408579     -150.991886
9.272                0.859191732     -151.295548
9.273                0.858976232     -151.599645
9.274                0.858762091     -151.904172
9.275                0.858549325     -152.209126
9.276                0.858337948     -152.514504
9.277                0.858127973     -152.820302
9.278                0.857919415     -153.126518
9.279                0.857712288     -153.433147
9.28                 0.857506605     -153.740186
9.281                0.857302381     -154.047631
9.282                0.857099629      -154.35548
9.283                0.856898363     -154.663727
9.284                0.856698596     -154.972371
9.285                0.856500343     -155.281407
9.286                0.856303617     -155.590831
9.287                0.856108431      -155.90064
9.288                  0.8559148     -156.210829
9.289                0.855722735     -156.521396
9.29                 0.855532251     -156.832336
9.291                0.855343361     -157.143646
9.292                0.855156077     -157.455321
9.293                0.854970414     -157.767358
9.294                0.854786383     -158.079753
9.295                0.854603998     -158.392501
9.296                0.854423272     -158.705599
9.297                0.854244217     -159.019043
9.298                0.854066846     -159.332828
9.299                0.853891172     -159.646951
9.3                  0.853717206     -159.961408
9.301                0.853544961     -160.276193
9.302                 0.85337445     -160.591304
9.303                0.853205685     -160.906735
9.304                0.853038677     -161.222484
9.305                0.852873438     -161.538544
9.306                0.852709981     -161.854912
9.307                0.852548316     -162.171584
9.308                0.852388457     -162.488556
9.309                0.852230413     -162.805822
9.31                 0.852074196     -163.123379
9.311                0.851919818     -163.441222
9.312                 0.85176729     -163.759346
9.313                0.851616622     -164.077748
9.314                0.851467826     -164.396422
9.315                0.851320912     -164.715365
9.316                 0.85117589      -165.03457
9.317                0.851032772     -165.354035
9.318                0.850891567     -165.673754
9.319                0.850752286     -165.993723
9.32                 0.850614939     -166.313936
9.321                0.850479535      -166.63439
9.322                0.850346085     -166.955079
9.323                0.850214597     -167.275999
9.324                0.850085082     -167.597146
9.325                0.849957549     -167.918513
9.326                0.849832006     -168.240097
9.327                0.849708463     -168.561893
9.328                 0.84958693     -168.883896
9.329                0.849467413       -169.2061
9.33                 0.849349922     -169.528502
9.331                0.849234466     -169.851096
9.332                0.849121053     -170.173877
9.333                0.849009689      -170.49684
9.334                0.848900385     -170.819981
9.335                0.848793147     -171.143295
9.336                0.848687982     -171.466775
9.337                0.848584899     -171.790418
9.338                0.848483904     -172.114219
9.339                0.848385004     -172.438172
9.34                 0.848288207     -172.762272
9.341                0.848193518     -173.086515
9.342                0.848100946     -173.410894
9.343                0.848010495     -173.735406
9.344                0.847922172     -174.060045
9.345                0.847835983     -174.384805
9.346                0.847751934     -174.709682
9.347                0.847670031     -175.034671
9.348                0.847590278     -175.359766
9.349                0.847512681     -175.684963
9.35                 0.847437246     -176.010255
9.351                0.847363977     -176.335639
9.352                0.847292878     -176.661108
9.353                0.847223955     -176.986657
9.354                0.847157212     -177.312282
9.355                0.847092652     -177.637977
9.356                 0.84703028     -177.963737
9.357                0.846970099     -178.289556
9.358                0.846912113      -178.61543
9.359                0.846856326     -178.941353
9.36                  0.84680274      -179.26732
9.361                0.846751359     -179.593325
9.362                0.846702185     -179.919364
9.363                0.846655221       179.75457
9.364                0.846610469       179.42848
9.365                0.846567932      179.102373
9.366                0.846527611      178.776253
9.367                0.846489508      178.450127
9.368                0.846453626      178.123999
9.369                0.846419964      177.797874
9.37                 0.846388525      177.471758
9.371                 0.84635931      177.145657
9.372                0.846332318      176.819574
9.373                0.846307552      176.493516
9.374                0.846285011      176.167488
9.375                0.846264696      175.841496
9.376                0.846246606      175.515543
9.377                0.846230742      175.189637
9.378                0.846217103      174.863781
9.379                0.846205688      174.537981
9.38                 0.846196497      174.212243
9.381                0.846189529      173.886571
9.382                0.846184783      173.560972
9.383                0.846182257      173.235449
9.384                0.846181949      172.910009
9.385                0.846183859      172.584656
9.386                0.846187984      172.259396
9.387                0.846194321      171.934233
9.388                 0.84620287      171.609174
9.389                0.846213626      171.284223
9.39                 0.846226588      170.959386
9.391                0.846241752      170.634667
9.392                0.846259116      170.310072
9.393                0.846278676      169.985605
9.394                0.846300429      169.661273
9.395                0.846324371      169.337079
9.396                0.846350498       169.01303
