! TOUCHSTONE file generated by CST DESIGN STUDIO
! Date and time: Tue Feb  4 18:13:30 2025
! Project name: C:\Work\MatlabApps\UnitCellOptimizationMatlab\CST\unitcell.cst
! Tree item: Tasks\Sweep1\SPara1\S-Parameters
! Header version: 2024
! Port assignment regex: !\s*Touchstone port\s*([0-9]+)\s*=\s*(CST MWS port|CST DES external port|CST DES block port)\s*(.+)\s* \(\"(.*)\"\)(\s*mode\s*([0-9]+))?.*
! Touchstone port assignment:
! Touchstone port 1 = CST DES external port 1 ("")
# GHz S MA R 50
9                    0.957921107     -53.6491104
9.001                0.957834496     -53.7193169
9.002                0.957747614     -53.7896779
9.003                 0.95766046     -53.8601941
9.004                0.957573031     -53.9308658
9.005                0.957485329     -54.0016935
9.006                0.957397351     -54.0726778
9.007                0.957309097     -54.1438192
9.008                0.957220566     -54.2151181
9.009                0.957131757      -54.286575
9.01                 0.957042669     -54.3581905
9.011                  0.9569533     -54.4299649
9.012                0.956863651      -54.501899
9.013                 0.95677372      -54.573993
9.014                0.956683506     -54.6462476
9.015                0.956593008     -54.7186632
9.016                0.956502226     -54.7912404
9.017                0.956411158     -54.8639797
9.018                0.956319803     -54.9368815
9.019                 0.95622816     -55.0099465
9.02                 0.956136229      -55.083175
9.021                0.956044009     -55.1565677
9.022                0.955951497     -55.2301251
9.023                0.955858694     -55.3038476
9.024                0.955765599     -55.3777358
9.025                 0.95567221     -55.4517902
9.026                0.955578527     -55.5260114
9.027                0.955484548     -55.6003999
9.028                0.955390272     -55.6749562
9.029                0.955295699     -55.7496808
9.03                 0.955200827     -55.8245743
9.031                0.955105656     -55.8996373
9.032                0.955010185     -55.9748702
9.033                0.954914411     -56.0502736
9.034                0.954818336     -56.1258481
9.035                0.954721956     -56.2015942
9.036                0.954625272     -56.2775124
9.037                0.954528282     -56.3536033
9.038                0.954430986     -56.4298674
9.039                0.954333382     -56.5063054
9.04                 0.954235469     -56.5829177
9.041                0.954137246     -56.6597049
9.042                0.954038713     -56.7366676
9.043                0.953939867     -56.8138064
9.044                0.953840709     -56.8911217
9.045                0.953741236     -56.9686142
9.046                0.953641449     -57.0462845
9.047                0.953541345     -57.1241331
9.048                0.953440924     -57.2021605
9.049                0.953340185     -57.2803674
9.05                 0.953239127     -57.3587544
9.051                0.953137748     -57.4373219
9.052                0.953036047     -57.5160707
9.053                0.952934024     -57.5950012
9.054                0.952831678     -57.6741141
9.055                0.952729007     -57.7534099
9.056                0.952626009     -57.8328893
9.057                0.952522685     -57.9125529
9.058                0.952419033     -57.9924011
9.059                0.952315052     -58.0724347
9.06                  0.95221074     -58.1526542
9.061                0.952106097     -58.2330602
9.062                0.952001122     -58.3136534
9.063                0.951895813     -58.3944343
9.064                 0.95179017     -58.4754036
9.065                 0.95168419     -58.5565618
9.066                0.951577874     -58.6379095
9.067                 0.95147122     -58.7194474
9.068                0.951364226     -58.8011762
9.069                0.951256892     -58.8830963
9.07                 0.951149217     -58.9652085
9.071                0.951041199     -59.0475134
9.072                0.950932837     -59.1300115
9.073                0.950824131     -59.2127035
9.074                0.950715078     -59.2955901
9.075                0.950605678     -59.3786719
9.076                 0.95049593     -59.4619495
9.077                0.950385833     -59.5454235
9.078                0.950275384     -59.6290946
9.079                0.950164584     -59.7129635
9.08                 0.950053431     -59.7970307
9.081                0.949941923     -59.8812969
9.082                0.949830061     -59.9657629
9.083                0.949717841     -60.0504291
9.084                0.949605264     -60.1352963
9.085                0.949492328     -60.2203652
9.086                0.949379032     -60.3056363
9.087                0.949265375     -60.3911104
9.088                0.949151355     -60.4767881
9.089                0.949036972     -60.5626701
9.09                 0.948922224      -60.648757
9.091                0.948807109     -60.7350496
9.092                0.948691627     -60.8215485
9.093                0.948575777     -60.9082543
9.094                0.948459557     -60.9951678
9.095                0.948342966     -61.0822896
9.096                0.948226003     -61.1696204
9.097                0.948108667     -61.2571609
9.098                0.947990956     -61.3449118
9.099                0.947872869     -61.4328738
9.1                  0.947754406     -61.5210475
9.101                0.947635563     -61.6094337
9.102                0.947516342     -61.6980331
9.103                0.947396739     -61.7868463
9.104                0.947276755     -61.8758741
9.105                0.947156387     -61.9651172
9.106                0.947035635     -62.0545763
9.107                0.946914497      -62.144252
9.108                0.946792972     -62.2341452
9.109                0.946671059     -62.3242565
9.11                 0.946548757     -62.4145866
9.111                0.946426063     -62.5051362
9.112                0.946302978     -62.5959062
9.113                0.946179499     -62.6868972
9.114                0.946055625     -62.7781099
9.115                0.945931356      -62.869545
9.116                 0.94580669     -62.9612034
9.117                0.945681625     -63.0530857
9.118                0.945556161     -63.1451927
9.119                0.945430295     -63.2375252
9.12                 0.945304027     -63.3300838
9.121                0.945177356     -63.4228693
9.122                 0.94505028     -63.5158825
9.123                0.944922798     -63.6091241
9.124                0.944794908     -63.7025948
9.125                 0.94466661     -63.7962955
9.126                0.944537901     -63.8902269
9.127                0.944408782     -63.9843898
9.128                0.944279249     -64.0787848
9.129                0.944149303     -64.1734129
9.13                 0.944018941     -64.2682747
9.131                0.943888163     -64.3633711
9.132                0.943756967     -64.4587027
9.133                0.943625352     -64.5542705
9.134                0.943493316     -64.6500752
9.135                0.943360859     -64.7461175
9.136                0.943227978     -64.8423982
9.137                0.943094673     -64.9389182
9.138                0.942960942     -65.0356783
9.139                0.942826784     -65.1326791
9.14                 0.942692197     -65.2299216
9.141                 0.94255718     -65.3274066
9.142                0.942421733     -65.4251347
9.143                0.942285853      -65.523107
9.144                0.942149539      -65.621324
9.145                 0.94201279     -65.7197868
9.146                0.941875604      -65.818496
9.147                0.941737981     -65.9174525
9.148                0.941599918     -66.0166572
9.149                0.941461415     -66.1161108
9.15                  0.94132247     -66.2158142
9.151                0.941183082     -66.3157682
9.152                0.941043249     -66.4159736
9.153                 0.94090297     -66.5164314
9.154                0.940762244     -66.6171422
9.155                 0.94062107      -66.718107
9.156                0.940479445     -66.8193266
9.157                0.940337369     -66.9208019
9.158                 0.94019484     -67.0225336
9.159                0.940051857     -67.1245228
9.16                 0.939908419     -67.2267701
9.161                0.939764524     -67.3292765
9.162                 0.93962017     -67.4320429
9.163                0.939475358       -67.53507
9.164                0.939330084     -67.6383588
9.165                0.939184348     -67.7419102
9.166                0.939038148      -67.845725
9.167                0.938891483      -67.949804
9.168                0.938744352     -68.0541483
9.169                0.938596754     -68.1587586
9.17                 0.938448686     -68.2636358
9.171                0.938300147     -68.3687809
9.172                0.938151137     -68.4741947
9.173                0.938001654     -68.5798781
9.174                0.937851696      -68.685832
9.175                0.937701262     -68.7920573
9.176                 0.93755035      -68.898555
9.177                 0.93739896     -69.0053259
9.178                 0.93724709     -69.1123709
9.179                0.937094738      -69.219691
9.18                 0.936941904      -69.327287
9.181                0.936788585     -69.4351599
9.182                0.936634781     -69.5433106
9.183                 0.93648049     -69.6517401
9.184                0.936325711     -69.7604492
9.185                0.936170442     -69.8694389
9.186                0.936014681     -69.9787102
9.187                0.935858429     -70.0882639
9.188                0.935701682      -70.198101
9.189                0.935544441     -70.3082224
9.19                 0.935386703     -70.4186291
9.191                0.935228467     -70.5293221
9.192                0.935069732     -70.6403023
9.193                0.934910496     -70.7515706
9.194                0.934750758      -70.863128
9.195                0.934590517     -70.9749755
9.196                0.934429772     -71.0871141
9.197                 0.93426852     -71.1995446
9.198                0.934106761     -71.3122681
9.199                0.933944493     -71.4252855
9.2                  0.933781714     -71.5385979
9.201                0.933618425     -71.6522062
9.202                0.933454623     -71.7661114
9.203                0.933290306     -71.8803144
9.204                0.933125474     -71.9948163
9.205                0.932960125      -72.109618
9.206                0.932794258     -72.2247206
9.207                0.932627872     -72.3401251
9.208                0.932460964     -72.4558324
9.209                0.932293534     -72.5718435
9.21                 0.932125581     -72.6881595
9.211                0.931957103     -72.8047814
9.212                0.931788099     -72.9217101
9.213                0.931618568     -73.0389468
9.214                0.931448507     -73.1564924
9.215                0.931277916     -73.2743479
9.216                0.931106794     -73.3925144
9.217                 0.93093514     -73.5109929
9.218                0.930762951     -73.6297844
9.219                0.930590227       -73.74889
9.22                 0.930416966     -73.8683107
9.221                0.930243167     -73.9880476
9.222                0.930068829     -74.1081016
9.223                0.929893951     -74.2284739
9.224                0.929718531     -74.3491654
9.225                0.929542567     -74.4701773
9.226                 0.92936606     -74.5915106
9.227                0.929189007     -74.7131664
9.228                0.929011407     -74.8351457
9.229                0.928833258     -74.9574496
9.23                 0.928654561     -75.0800791
9.231                0.928475313     -75.2030354
9.232                0.928295513     -75.3263194
9.233                 0.92811516     -75.4499324
9.234                0.927934253     -75.5738753
9.235                 0.92775279     -75.6981492
9.236                 0.92757077     -75.8227553
9.237                0.927388193     -75.9476946
9.238                0.927205056     -76.0729682
9.239                0.927021359     -76.1985772
9.24                 0.926837101     -76.3245228
9.241                 0.92665228     -76.4508059
9.242                0.926466895     -76.5774278
9.243                0.926280945     -76.7043895
9.244                0.926094428     -76.8316921
9.245                0.925907345     -76.9593367
9.246                0.925719692     -77.0873246
9.247                0.925531471     -77.2156567
9.248                0.925342678     -77.3443342
9.249                0.925153314     -77.4733583
9.25                 0.924963376       -77.60273
9.251                0.924772864     -77.7324505
9.252                0.924581778     -77.8625209
9.253                0.924390115     -77.9929424
9.254                0.924197874     -78.1237161
9.255                0.924005055     -78.2548432
9.256                0.923811657     -78.3863247
9.257                0.923617678     -78.5181618
9.258                0.923423117     -78.6503558
9.259                0.923227974     -78.7829077
9.26                 0.923032248     -78.9158187
9.261                0.922835936     -79.0490899
9.262                0.922639039     -79.1827226
9.263                0.922441556     -79.3167179
9.264                0.922243485     -79.4510769
9.265                0.922044825     -79.5858008
9.266                0.921845576     -79.7208908
9.267                0.921645736     -79.8563481
9.268                0.921445305     -79.9921739
9.269                0.921244282     -80.1283693
9.27                 0.921042665     -80.2649355
9.271                0.920840455     -80.4018737
9.272                0.920637649      -80.539185
9.273                0.920434248     -80.6768708
9.274                 0.92023025     -80.8149321
9.275                0.920025654     -80.9533703
9.276                 0.91982046     -81.0921863
9.277                0.919614667     -81.2313816
9.278                0.919408275     -81.3709572
9.279                0.919201281     -81.5109144
9.28                 0.918993686     -81.6512544
9.281                0.918785489     -81.7919785
9.282                0.918576688     -81.9330877
9.283                0.918367284     -82.0745833
9.284                0.918157276     -82.2164667
9.285                0.917946663     -82.3587388
9.286                0.917735443     -82.5014011
9.287                0.917523618     -82.6444547
9.288                0.917311185     -82.7879009
9.289                0.917098145     -82.9317408
9.29                 0.916884497     -83.0759758
9.291                0.916670239      -83.220607
9.292                0.916455372     -83.3656356
9.293                0.916239896      -83.511063
9.294                0.916023808     -83.6568904
9.295                 0.91580711     -83.8031189
9.296                  0.9155898       -83.94975
9.297                0.915371879     -84.0967847
9.298                0.915153345     -84.2442243
9.299                0.914934198     -84.3920702
9.3                  0.914714437     -84.5403235
9.301                0.914494063     -84.6889855
9.302                0.914273075     -84.8380575
9.303                0.914051473     -84.9875406
9.304                0.913829256     -85.1374363
9.305                0.913606424     -85.2877457
9.306                0.913382976     -85.4384701
9.307                0.913158913     -85.5896108
9.308                0.912934235     -85.7411691
9.309                 0.91270894     -85.8931461
9.31                 0.912483029     -86.0455432
9.311                0.912256501     -86.1983617
9.312                0.912029357     -86.3516027
9.313                0.911801597     -86.5052677
9.314                0.911573219     -86.6593579
9.315                0.911344225     -86.8138745
9.316                0.911114614     -86.9688188
9.317                0.910884386     -87.1241921
9.318                0.910653541     -87.2799958
9.319                 0.91042208      -87.436231
9.32                 0.910190001     -87.5928991
9.321                0.909957306     -87.7500013
9.322                0.909723994     -87.9075389
9.323                0.909490066     -88.0655133
9.324                0.909255522     -88.2239256
9.325                0.909020361     -88.3827773
9.326                0.908784585     -88.5420695
9.327                0.908548193     -88.7018037
9.328                0.908311186     -88.8619809
9.329                0.908073564     -89.0226027
9.33                 0.907835327     -89.1836702
9.331                0.907596476     -89.3451847
9.332                0.907357011     -89.5071476
9.333                0.907116933     -89.6695601
9.334                0.906876242     -89.8324236
9.335                0.906634938     -89.9957392
9.336                0.906393023     -90.1595084
9.337                0.906150496     -90.3237325
9.338                0.905907359     -90.4884126
9.339                0.905663612     -90.6535501
9.34                 0.905419255     -90.8191464
9.341                 0.90517429     -90.9852026
9.342                0.904928717     -91.1517202
9.343                0.904682537     -91.3187003
9.344                 0.90443575     -91.4861444
9.345                0.904188359     -91.6540536
9.346                0.903940362     -91.8224294
9.347                0.903691762     -91.9912729
9.348                 0.90344256     -92.1605855
9.349                0.903192756     -92.3303685
9.35                 0.902942351     -92.5006231
9.351                0.902691347     -92.6713508
9.352                0.902439744     -92.8425526
9.353                0.902187545     -93.0142301
9.354                0.901934749     -93.1863843
9.355                0.901681359     -93.3590168
9.356                0.901427375     -93.5321286
9.357                  0.9011728     -93.7057211
9.358                0.900917633     -93.8797957
9.359                0.900661877     -94.0543535
9.36                 0.900405534     -94.2293959
9.361                0.900148604     -94.4049242
9.362                 0.89989109     -94.5809396
9.363                0.899632992     -94.7574435
9.364                0.899374313      -94.934437
9.365                0.899115054     -95.1119215
9.366                0.898855217     -95.2898983
9.367                0.898594804     -95.4683686
9.368                0.898333816     -95.6473337
9.369                0.898072256     -95.8267949
9.37                 0.897810125     -96.0067535
9.371                0.897547425     -96.1872106
9.372                0.897284159     -96.3681676
9.373                0.897020328     -96.5496257
9.374                0.896755934     -96.7315863
9.375                0.896490981     -96.9140504
9.376                0.896225469     -97.0970195
9.377                0.895959401     -97.2804948
9.378                 0.89569278     -97.4644774
9.379                0.895425608     -97.6489687
9.38                 0.895157888     -97.8339699
9.381                0.894889621     -98.0194822
9.382                0.894620811     -98.2055068
9.383                 0.89435146     -98.3920451
9.384                 0.89408157     -98.5790981
9.385                0.893811145     -98.7666673
9.386                0.893540187     -98.9547537
9.387                0.893268699     -99.1433585
9.388                0.892996683     -99.3324831
9.389                0.892724144     -99.5221286
9.39                 0.892451083     -99.7122962
9.391                0.892177504     -99.9029871
9.392                0.891903411     -100.094203
9.393                0.891628805     -100.285944
9.394                0.891353691     -100.478212
9.395                0.891078071     -100.671008
9.396                 0.89080195     -100.864333
