! TOUCHSTONE file generated by CST DESIGN STUDIO
! Date and time: Tue Feb  4 18:13:24 2025
! Project name: C:\Work\MatlabApps\UnitCellOptimizationMatlab\CST\unitcell.cst
! Tree item: Tasks\Sweep1\SPara1\S-Parameters
! Header version: 2024
! Port assignment regex: !\s*Touchstone port\s*([0-9]+)\s*=\s*(CST MWS port|CST DES external port|CST DES block port)\s*(.+)\s* \(\"(.*)\"\)(\s*mode\s*([0-9]+))?.*
! Touchstone port assignment:
! Touchstone port 1 = CST DES external port 1 ("")
# GHz S MA R 50
9                    0.946001322     -67.6539323
9.001                0.945866151      -67.755065
9.002                0.945730538     -67.8564521
9.003                0.945594482     -67.9580945
9.004                0.945457981      -68.059993
9.005                0.945321034     -68.1621484
9.006                 0.94518364     -68.2645617
9.007                0.945045796     -68.3672336
9.008                0.944907503     -68.4701649
9.009                0.944768758     -68.5733567
9.01                  0.94462956     -68.6768096
9.011                0.944489908     -68.7805246
9.012                  0.9443498     -68.8845026
9.013                0.944209234     -68.9887443
9.014                0.944068211     -69.0932507
9.015                0.943926727     -69.1980226
9.016                0.943784782      -69.303061
9.017                0.943642375     -69.4083666
9.018                0.943499503     -69.5139404
9.019                0.943356167     -69.6197832
9.02                 0.943212363      -69.725896
9.021                0.943068091     -69.8322795
9.022                0.942923349     -69.9389348
9.023                0.942778137     -70.0458627
9.024                0.942632452     -70.1530641
9.025                0.942486293       -70.26054
9.026                0.942339659     -70.3682911
9.027                0.942192549     -70.4763184
9.028                0.942044961     -70.5846228
9.029                0.941896893     -70.6932053
9.03                 0.941748344     -70.8020668
9.031                0.941599314     -70.9112081
9.032                  0.9414498     -71.0206301
9.033                0.941299801     -71.1303339
9.034                0.941149316     -71.2403203
9.035                0.940998343     -71.3505903
9.036                0.940846881     -71.4611448
9.037                0.940694928     -71.5719847
9.038                0.940542484      -71.683111
9.039                0.940389547     -71.7945246
9.04                 0.940236114     -71.9062264
9.041                0.940082186     -72.0182175
9.042                0.939927761     -72.1304987
9.043                0.939772836      -72.243071
9.044                0.939617412     -72.3559353
9.045                0.939461486     -72.4690927
9.046                0.939305057      -72.582544
9.047                0.939148124     -72.6962903
9.048                0.938990685     -72.8103325
9.049                0.938832739     -72.9246716
9.05                 0.938674284     -73.0393086
9.051                 0.93851532     -73.1542443
9.052                0.938355845     -73.2694799
9.053                0.938195857     -73.3850163
9.054                0.938035355     -73.5008545
9.055                0.937874338     -73.6169954
9.056                0.937712805     -73.7334401
9.057                0.937550753     -73.8501895
9.058                0.937388182     -73.9672447
9.059                 0.93722509     -74.0846066
9.06                 0.937061477     -74.2022762
9.061                 0.93689734     -74.3202547
9.062                0.936732678     -74.4385429
9.063                 0.93656749     -74.5571418
9.064                0.936401775     -74.6760526
9.065                0.936235531     -74.7952762
9.066                0.936068757     -74.9148135
9.067                0.935901451     -75.0346658
9.068                0.935733613     -75.1548339
9.069                0.935565241     -75.2753189
9.07                 0.935396333     -75.3961219
9.071                0.935226889     -75.5172439
9.072                0.935056907     -75.6386858
9.073                0.934886385     -75.7604488
9.074                0.934715323     -75.8825339
9.075                0.934543719     -76.0049422
9.076                0.934371571     -76.1276746
9.077                 0.93419888     -76.2507323
9.078                0.934025642     -76.3741163
9.079                0.933851858     -76.4978276
9.08                 0.933677525     -76.6218674
9.081                0.933502643     -76.7462366
9.082                 0.93332721     -76.8709364
9.083                0.933151224     -76.9959678
9.084                0.932974686     -77.1213319
9.085                0.932797593     -77.2470298
9.086                0.932619944     -77.3730625
9.087                0.932441738     -77.4994312
9.088                0.932262974     -77.6261368
9.089                 0.93208365     -77.7531805
9.09                 0.931903765     -77.8805635
9.091                0.931723319     -78.0082867
9.092                 0.93154231     -78.1363512
9.093                0.931360736     -78.2647583
9.094                0.931178597     -78.3935089
9.095                0.930995892     -78.5226042
9.096                0.930812618     -78.6520452
9.097                0.930628776     -78.7818332
9.098                0.930444363     -78.9119691
9.099                0.930259379     -79.0424542
9.1                  0.930073823     -79.1732894
9.101                0.929887694     -79.3044761
9.102                0.929700989     -79.4360151
9.103                0.929513709     -79.5679078
9.104                0.929325853     -79.7001552
9.105                0.929137418     -79.8327585
9.106                0.928948404     -79.9657187
9.107                 0.92875881     -80.0990371
9.108                0.928568635     -80.2327147
9.109                0.928377878     -80.3667527
9.11                 0.928186538     -80.5011522
9.111                0.927994613     -80.6359145
9.112                0.927802103     -80.7710405
9.113                0.927609007     -80.9065316
9.114                0.927415324     -81.0423887
9.115                0.927221052     -81.1786132
9.116                0.927026191     -81.3152061
9.117                 0.92683074     -81.4521686
9.118                0.926634698     -81.5895019
9.119                0.926438064     -81.7272071
9.12                 0.926240837     -81.8652855
9.121                0.926043016     -82.0037381
9.122                  0.9258446     -82.1425661
9.123                0.925645588     -82.2817707
9.124                 0.92544598     -82.4213532
9.125                0.925245774     -82.5613146
9.126                 0.92504497     -82.7016562
9.127                0.924843567     -82.8423791
9.128                0.924641564     -82.9834846
9.129                 0.92443896     -83.1249737
9.13                 0.924235755     -83.2668478
9.131                0.924031947     -83.4091079
9.132                0.923827537     -83.5517554
9.133                0.923622523     -83.6947913
9.134                0.923416904     -83.8382169
9.135                 0.92321068     -83.9820334
9.136                 0.92300385      -84.126242
9.137                0.922796413     -84.2708439
9.138                0.922588369     -84.4158402
9.139                0.922379717     -84.5612323
9.14                 0.922170457     -84.7070213
9.141                0.921960588     -84.8532084
9.142                0.921750109     -84.9997949
9.143                0.921539019     -85.1467819
9.144                0.921327319     -85.2941707
9.145                0.921115007     -85.4419625
9.146                0.920902084     -85.5901585
9.147                0.920688548       -85.73876
9.148                0.920474399     -85.8877681
9.149                0.920259637     -86.0371841
9.15                 0.920044261     -86.1870092
9.151                0.919828271     -86.3372447
9.152                0.919611666     -86.4878917
9.153                0.919394447     -86.6389516
9.154                0.919176612     -86.7904255
9.155                0.918958161     -86.9423146
9.156                0.918739095     -87.0946203
9.157                0.918519412     -87.2473438
9.158                0.918299113     -87.4004862
9.159                0.918078197     -87.5540489
9.16                 0.917856664     -87.7080331
9.161                0.917634514     -87.8624399
9.162                0.917411747     -88.0172707
9.163                0.917188362     -88.1725268
9.164                 0.91696436     -88.3282093
9.165                 0.91673974     -88.4843194
9.166                0.916514502     -88.6408586
9.167                0.916288647     -88.7978279
9.168                0.916062174     -88.9552287
9.169                0.915835083     -89.1130621
9.17                 0.915607374     -89.2713296
9.171                0.915379047     -89.4300322
9.172                0.915150103     -89.5891713
9.173                0.914920542      -89.748748
9.174                0.914690363     -89.9087638
9.175                0.914459567     -90.0692197
9.176                0.914228154     -90.2301172
9.177                0.913996125     -90.3914573
9.178                0.913763479     -90.5532414
9.179                0.913530216     -90.7154708
9.18                 0.913296338     -90.8781467
9.181                0.913061845     -91.0412703
9.182                0.912826736     -91.2048429
9.183                0.912591013     -91.3688658
9.184                0.912354676     -91.5333402
9.185                0.912117725     -91.6982674
9.186                0.911880161     -91.8636486
9.187                0.911641984     -92.0294851
9.188                0.911403195     -92.1957782
9.189                0.911163794      -92.362529
9.19                 0.910923783     -92.5297389
9.191                0.910683161     -92.6974092
9.192                0.910441931      -92.865541
9.193                0.910200091     -93.0341356
9.194                0.909957644     -93.2031943
9.195                 0.90971459     -93.3727184
9.196                0.909470929      -93.542709
9.197                0.909226664     -93.7131674
9.198                0.908981794      -93.884095
9.199                0.908736321     -94.0554929
9.2                  0.908490245     -94.2273623
9.201                0.908243569     -94.3997046
9.202                0.907996292      -94.572521
9.203                0.907748416     -94.7458127
9.204                0.907499943      -94.919581
9.205                0.907250872     -95.0938271
9.206                0.907001207     -95.2685522
9.207                0.906750947     -95.4437577
9.208                0.906500095     -95.6194446
9.209                0.906248652     -95.7956143
9.21                 0.905996619     -95.9722681
9.211                0.905743997      -96.149407
9.212                0.905490789     -96.3270325
9.213                0.905236995     -96.5051456
9.214                0.904982617     -96.6837476
9.215                0.904727658     -96.8628398
9.216                0.904472118     -97.0424233
9.217                   0.904216     -97.2224995
9.218                0.903959305     -97.4030694
9.219                0.903702035     -97.5841344
9.22                 0.903444192     -97.7656955
9.221                0.903185778     -97.9477541
9.222                0.902926795     -98.1303114
9.223                0.902667245     -98.3133685
9.224                 0.90240713     -98.4969267
9.225                0.902146452     -98.6809871
9.226                0.901885213     -98.8655509
9.227                0.901623416     -99.0506194
9.228                0.901361063     -99.2361936
9.229                0.901098156     -99.4222749
9.23                 0.900834698     -99.6088644
9.231                0.900570691     -99.7959632
9.232                0.900306137     -99.9835725
9.233                 0.90004104     -100.171694
9.234                0.899775401     -100.360327
9.235                0.899509224     -100.549475
9.236                0.899242511     -100.739138
9.237                0.898975265     -100.929318
9.238                0.898707489     -101.120015
9.239                0.898439185      -101.31123
9.24                 0.898170357     -101.502965
9.241                0.897901008     -101.695222
9.242                 0.89763114        -101.888
9.243                0.897360758     -102.081301
9.244                0.897089863     -102.275127
9.245                0.896818459     -102.469477
9.246                0.896546551     -102.664355
9.247                 0.89627414      -102.85976
9.248                 0.89600123     -103.055693
9.249                0.895727826     -103.252157
9.25                 0.895453929     -103.449151
9.251                0.895179545     -103.646677
9.252                0.894904677     -103.844736
9.253                0.894629328     -104.043329
9.254                0.894353503     -104.242457
9.255                0.894077205     -104.442122
9.256                0.893800437     -104.642323
9.257                0.893523205     -104.843063
9.258                0.893245513     -105.044342
9.259                0.892967363     -105.246161
9.26                 0.892688762     -105.448522
9.261                0.892409712     -105.651425
9.262                0.892130218     -105.854871
9.263                0.891850285     -106.058862
9.264                0.891569917     -106.263398
9.265                0.891289119      -106.46848
9.266                0.891007895     -106.674109
9.267                 0.89072625     -106.880287
9.268                0.890444189     -107.087014
9.269                0.890161717     -107.294291
9.27                 0.889878838     -107.502118
9.271                0.889595557     -107.710498
9.272                0.889311881     -107.919431
9.273                0.889027813     -108.128917
9.274                0.888743358     -108.338959
9.275                0.888458524     -108.549555
9.276                0.888173313     -108.760708
9.277                0.887887733     -108.972419
9.278                0.887601788     -109.184688
9.279                0.887315485     -109.397515
9.28                 0.887028828     -109.610903
9.281                0.886741824     -109.824851
9.282                0.886454478     -110.039361
9.283                0.886166796     -110.254433
9.284                0.885878784     -110.470068
9.285                0.885590449     -110.686267
9.286                0.885301796      -110.90303
9.287                0.885012832     -111.120359
9.288                0.884723563     -111.338254
9.289                0.884433994     -111.556717
9.29                 0.884144134     -111.775746
9.291                0.883853988     -111.995344
9.292                0.883563563     -112.215511
9.293                0.883272865     -112.436248
9.294                0.882981902     -112.657555
9.295                 0.88269068     -112.879434
9.296                0.882399206     -113.101884
9.297                0.882107487     -113.324906
9.298                0.881815531     -113.548501
9.299                0.881523344      -113.77267
9.3                  0.881230933     -113.997413
9.301                0.880938307     -114.222731
9.302                0.880645473     -114.448624
9.303                0.880352437     -114.675093
9.304                0.880059209     -114.902138
9.305                0.879765795      -115.12976
9.306                0.879472202      -115.35796
9.307                0.879178441     -115.586737
9.308                0.878884517     -115.816093
9.309                0.878590439     -116.046028
9.31                 0.878296215     -116.276542
9.311                0.878001854     -116.507636
9.312                0.877707364     -116.739309
9.313                0.877412752     -116.971564
9.314                0.877118029     -117.204399
9.315                0.876823201     -117.437816
9.316                0.876528278     -117.671814
9.317                0.876233269     -117.906394
9.318                0.875938182     -118.141556
9.319                0.875643027     -118.377301
9.32                 0.875347812     -118.613628
9.321                0.875052546     -118.850539
9.322                0.874757239     -119.088033
9.323                0.874461899      -119.32611
9.324                0.874166537     -119.564772
9.325                0.873871162     -119.804017
9.326                0.873575782     -120.043846
9.327                0.873280408     -120.284259
9.328                 0.87298505     -120.525257
9.329                0.872689717     -120.766839
9.33                 0.872394419     -121.009005
9.331                0.872099167     -121.251757
9.332                0.871803969     -121.495092
9.333                0.871508837     -121.739013
9.334                 0.87121378     -121.983518
9.335                0.870918809     -122.228607
9.336                0.870623935     -122.474282
9.337                0.870329167      -122.72054
9.338                0.870034516     -122.967383
9.339                0.869739993     -123.214811
9.34                 0.869445609     -123.462823
9.341                0.869151375     -123.711418
9.342                0.868857301     -123.960598
9.343                0.868563398     -124.210361
9.344                0.868269678     -124.460708
9.345                0.867976152     -124.711638
9.346                0.867682831     -124.963151
9.347                0.867389726     -125.215246
9.348                0.867096848     -125.467924
9.349                 0.86680421     -125.721184
9.35                 0.866511823     -125.975026
9.351                0.866219698     -126.229449
9.352                0.865927848     -126.484453
9.353                0.865636283     -126.740037
9.354                0.865345017     -126.996201
9.355                0.865054061     -127.252945
9.356                0.864763426     -127.510267
9.357                0.864473126     -127.768168
9.358                0.864183172     -128.026647
9.359                0.863893577     -128.285704
9.36                 0.863604354     -128.545337
9.361                0.863315514     -128.805546
9.362                 0.86302707      -129.06633
9.363                0.862739034     -129.327689
9.364                0.862451421     -129.589622
9.365                0.862164241     -129.852129
9.366                0.861877509     -130.115208
9.367                0.861591236     -130.378858
9.368                0.861305437     -130.643079
9.369                0.861020123     -130.907871
9.37                 0.860735309     -131.173231
9.371                0.860451007     -131.439159
9.372                 0.86016723     -131.705655
9.373                0.859883993     -131.972717
9.374                0.859601308     -132.240344
9.375                0.859319188     -132.508536
9.376                0.859037648     -132.777291
9.377                0.858756701     -133.046607
9.378                 0.85847636     -133.316485
9.379                0.858196639     -133.586923
9.38                 0.857917553     -133.857919
9.381                0.857639114     -134.129472
9.382                0.857361337     -134.401582
9.383                0.857084236     -134.674247
9.384                0.856807824     -134.947466
9.385                0.856532116     -135.221236
9.386                0.856257126     -135.495558
9.387                0.855982868     -135.770429
9.388                0.855709356     -136.045849
9.389                0.855436605     -136.321815
9.39                 0.855164628     -136.598326
9.391                 0.85489344     -136.875381
9.392                0.854623056     -137.152978
9.393                 0.85435349     -137.431116
9.394                0.854084756     -137.709793
9.395                0.853816869     -137.989007
9.396                0.853549844     -138.268756
