! TOUCHSTONE file generated by CST DESIGN STUDIO
! Date and time: Tue Feb  4 18:13:26 2025
! Project name: C:\Work\MatlabApps\UnitCellOptimizationMatlab\CST\unitcell.cst
! Tree item: Tasks\Sweep1\SPara1\S-Parameters
! Header version: 2024
! Port assignment regex: !\s*Touchstone port\s*([0-9]+)\s*=\s*(CST MWS port|CST DES external port|CST DES block port)\s*(.+)\s* \(\"(.*)\"\)(\s*mode\s*([0-9]+))?.*
! Touchstone port assignment:
! Touchstone port 1 = CST DES external port 1 ("")
# GHz S MA R 50
9                    0.950210951     -62.7254025
9.001                0.950093325     -62.8149063
9.002                0.949975319     -62.9046263
9.003                0.949856929     -62.9945634
9.004                0.949738155     -63.0847181
9.005                0.949618996     -63.1750912
9.006                 0.94949945     -63.2656834
9.007                0.949379516     -63.3564954
9.008                0.949259194      -63.447528
9.009                 0.94913848     -63.5387818
9.01                 0.949017375     -63.6302576
9.011                0.948895877     -63.7219561
9.012                0.948773985     -63.8138781
9.013                0.948651698     -63.9060242
9.014                0.948529013     -63.9983952
9.015                 0.94840593     -64.0909919
9.016                0.948282448      -64.183815
9.017                0.948158565     -64.2768651
9.018                 0.94803428     -64.3701432
9.019                0.947909592     -64.4636498
9.02                   0.9477845     -64.5573859
9.021                0.947659001      -64.651352
9.022                0.947533095      -64.745549
9.023                0.947406781     -64.8399776
9.024                0.947280056     -64.9346386
9.025                0.947152921     -65.0295328
9.026                0.947025373     -65.1246609
9.027                0.946897411     -65.2200236
9.028                0.946769035     -65.3156218
9.029                0.946640241     -65.4114563
9.03                  0.94651103     -65.5075277
9.031                  0.9463814     -65.6038369
9.032                 0.94625135     -65.7003847
9.033                0.946120877     -65.7971719
9.034                0.945989982     -65.8941991
9.035                0.945858662     -65.9914673
9.036                0.945726917     -66.0889772
9.037                0.945594744     -66.1867296
9.038                0.945462143     -66.2847254
9.039                0.945329112     -66.3829652
9.04                  0.94519565       -66.48145
9.041                0.945061755     -66.5801804
9.042                0.944927427     -66.6791574
9.043                0.944792664     -66.7783818
9.044                0.944657463     -66.8778543
9.045                0.944521826     -66.9775757
9.046                0.944385748      -67.077547
9.047                 0.94424923     -67.1777688
9.048                0.944112271     -67.2782421
9.049                0.943974868     -67.3789677
9.05                  0.94383702     -67.4799464
9.051                0.943698726      -67.581179
9.052                0.943559985     -67.6826664
9.053                0.943420795     -67.7844094
9.054                0.943281154     -67.8864088
9.055                0.943141063     -67.9886656
9.056                0.943000518     -68.0911805
9.057                0.942859519     -68.1939543
9.058                0.942718065     -68.2969881
9.059                0.942576153     -68.4002825
9.06                 0.942433783     -68.5038385
9.061                0.942290954      -68.607657
9.062                0.942147663     -68.7117387
9.063                 0.94200391     -68.8160846
9.064                0.941859693     -68.9206956
9.065                 0.94171501     -69.0255724
9.066                0.941569861      -69.130716
9.067                0.941424244     -69.2361273
9.068                0.941278157     -69.3418072
9.069                  0.9411316     -69.4477565
9.07                 0.940984571     -69.5539761
9.071                0.940837068     -69.6604669
9.072                 0.94068909     -69.7672298
9.073                0.940540636     -69.8742657
9.074                0.940391704     -69.9815756
9.075                0.940242293     -70.0891602
9.076                0.940092401     -70.1970206
9.077                0.939942028     -70.3051576
9.078                0.939791172     -70.4135721
9.079                0.939639831     -70.5222651
9.08                 0.939488004     -70.6312374
9.081                0.939335689       -70.74049
9.082                0.939182886     -70.8500239
9.083                0.939029593     -70.9598399
9.084                0.938875808     -71.0699389
9.085                0.938721531     -71.1803219
9.086                0.938566759     -71.2909899
9.087                0.938411491     -71.4019438
9.088                0.938255727     -71.5131845
9.089                0.938099464     -71.6247129
9.09                 0.937942702     -71.7365301
9.091                0.937785438     -71.8486369
9.092                0.937627672     -71.9610343
9.093                0.937469402     -72.0737232
9.094                0.937310626     -72.1867048
9.095                0.937151345     -72.2999797
9.096                0.936991555     -72.4135492
9.097                0.936831256     -72.5274141
9.098                0.936670446     -72.6415753
9.099                0.936509124      -72.756034
9.1                  0.936347289     -72.8707909
9.101                0.936184939     -72.9858472
9.102                0.936022073     -73.1012038
9.103                0.935858689     -73.2168617
9.104                0.935694787     -73.3328219
9.105                0.935530365     -73.4490853
9.106                0.935365421      -73.565653
9.107                0.935199954      -73.682526
9.108                0.935033963     -73.7997052
9.109                0.934867446     -73.9171918
9.11                 0.934700403     -74.0349865
9.111                0.934532832     -74.1530906
9.112                0.934364731      -74.271505
9.113                0.934196099     -74.3902306
9.114                0.934026935     -74.5092687
9.115                0.933857238       -74.62862
9.116                0.933687006     -74.7482858
9.117                0.933516238     -74.8682669
9.118                0.933344932     -74.9885645
9.119                0.933173088     -75.1091795
9.12                 0.933000704     -75.2301131
9.121                0.932827778     -75.3513662
9.122                 0.93265431     -75.4729398
9.123                0.932480299     -75.5948351
9.124                0.932305742     -75.7170531
9.125                0.932130639     -75.8395948
9.126                0.931954988     -75.9624613
9.127                0.931778788     -76.0856536
9.128                0.931602039     -76.2091728
9.129                0.931424737       -76.33302
9.13                 0.931246883     -76.4571962
9.131                0.931068476     -76.5817025
9.132                0.930889513       -76.70654
9.133                0.930709994     -76.8317096
9.134                0.930529917     -76.9572126
9.135                0.930349282       -77.08305
9.136                0.930168086     -77.2092229
9.137                 0.92998633     -77.3357323
9.138                0.929804011     -77.4625794
9.139                0.929621128     -77.5897652
9.14                 0.929437681     -77.7172909
9.141                0.929253668     -77.8451575
9.142                0.929069087     -77.9733661
9.143                0.928883939     -78.1019178
9.144                0.928698221     -78.2308138
9.145                0.928511932     -78.3600551
9.146                0.928325072     -78.4896429
9.147                 0.92813764     -78.6195782
9.148                0.927949633     -78.7498622
9.149                0.927761051      -78.880496
9.15                 0.927571893     -79.0114807
9.151                0.927382158     -79.1428175
9.152                0.927191845     -79.2745075
9.153                0.927000952     -79.4065517
9.154                0.926809479     -79.5389514
9.155                0.926617424     -79.6717077
9.156                0.926424787     -79.8048216
9.157                0.926231567     -79.9382944
9.158                0.926037762     -80.0721272
9.159                0.925843371     -80.2063211
9.16                 0.925648394     -80.3408773
9.161                0.925452829     -80.4757969
9.162                0.925256676     -80.6110811
9.163                0.925059933     -80.7467311
9.164                0.924862599     -80.8827479
9.165                0.924664675     -81.0191328
9.166                0.924466158     -81.1558869
9.167                0.924267047     -81.2930114
9.168                0.924067343     -81.4305075
9.169                0.923867044     -81.5683762
9.17                 0.923666148     -81.7066189
9.171                0.923464656     -81.8452366
9.172                0.923262566     -81.9842306
9.173                0.923059878      -82.123602
9.174                0.922856591      -82.263352
9.175                0.922652703     -82.4034818
9.176                0.922448214     -82.5439926
9.177                0.922243124     -82.6848856
9.178                0.922037431     -82.8261619
9.179                0.921831136     -82.9678227
9.18                 0.921624236     -83.1098693
9.181                0.921416731     -83.2523029
9.182                0.921208621     -83.3951246
9.183                0.920999906     -83.5383356
9.184                0.920790583     -83.6819372
9.185                0.920580653     -83.8259305
9.186                0.920370115     -83.9703168
9.187                0.920158968     -84.1150973
9.188                0.919947212     -84.2602732
9.189                0.919734846     -84.4058456
9.19                  0.91952187     -84.5518159
9.191                0.919308283     -84.6981852
9.192                0.919094085     -84.8449548
9.193                0.918879274     -84.9921258
9.194                0.918663851     -85.1396995
9.195                0.918447815     -85.2876772
9.196                0.918231166       -85.43606
9.197                0.918013902     -85.5848492
9.198                0.917796025      -85.734046
9.199                0.917577533     -85.8836516
9.2                  0.917358426     -86.0336673
9.201                0.917138703     -86.1840943
9.202                0.916918365     -86.3349339
9.203                0.916697411     -86.4861872
9.204                 0.91647584     -86.6378556
9.205                0.916253653     -86.7899402
9.206                0.916030849     -86.9424424
9.207                0.915807429     -87.0953633
9.208                0.915583391     -87.2487041
9.209                0.915358735     -87.4024663
9.21                 0.915133463     -87.5566509
9.211                0.914907572     -87.7112592
9.212                0.914681064     -87.8662926
9.213                0.914453938     -88.0217521
9.214                0.914226194     -88.1776392
9.215                0.913997833      -88.333955
9.216                0.913768853     -88.4907008
9.217                0.913539256     -88.6478779
9.218                0.913309041     -88.8054875
9.219                0.913078209     -88.9635308
9.22                 0.912846759     -89.1220092
9.221                0.912614691     -89.2809238
9.222                0.912382007      -89.440276
9.223                0.912148705      -89.600067
9.224                0.911914787     -89.7602981
9.225                0.911680252     -89.9209704
9.226                0.911445101     -90.0820854
9.227                0.911209334     -90.2436442
9.228                0.910972951     -90.4056481
9.229                0.910735954     -90.5680984
9.23                 0.910498341     -90.7309963
9.231                0.910260115     -90.8943431
9.232                0.910021274     -91.0581401
9.233                0.909781821     -91.2223885
9.234                0.909541754     -91.3870895
9.235                0.909301075     -91.5522446
9.236                0.909059785     -91.7178548
9.237                0.908817884     -91.8839215
9.238                0.908575373      -92.050446
9.239                0.908332252     -92.2174294
9.24                 0.908088522     -92.3848731
9.241                0.907844185     -92.5527783
9.242                 0.90759924     -92.7211464
9.243                0.907353689     -92.8899784
9.244                0.907107533     -93.0592758
9.245                0.906860772     -93.2290397
9.246                0.906613408     -93.3992715
9.247                0.906365441     -93.5699724
9.248                0.906116873     -93.7411435
9.249                0.905867705     -93.9127863
9.25                 0.905617937      -94.084902
9.251                0.905367572     -94.2574917
9.252                0.905116609     -94.4305568
9.253                0.904865052     -94.6040985
9.254                0.904612899     -94.7781181
9.255                0.904360154     -94.9526168
9.256                0.904106818     -95.1275959
9.257                0.903852891     -95.3030565
9.258                0.903598376         -95.479
9.259                0.903343273     -95.6554277
9.26                 0.903087585     -95.8323406
9.261                0.902831313     -96.0097401
9.262                0.902574459     -96.1876274
9.263                0.902317024     -96.3660038
9.264                 0.90205901     -96.5448705
9.265                0.901800419     -96.7242286
9.266                0.901541253     -96.9040795
9.267                0.901281513     -97.0844244
9.268                0.901021202     -97.2652644
9.269                0.900760321     -97.4466009
9.27                 0.900498873      -97.628435
9.271                0.900236859     -97.8107679
9.272                0.899974282     -97.9936009
9.273                0.899711144     -98.1769351
9.274                0.899447448     -98.3607719
9.275                0.899183194     -98.5451123
9.276                0.898918386     -98.7299575
9.277                0.898653027     -98.9153089
9.278                0.898387117     -99.1011675
9.279                0.898120661     -99.2875346
9.28                 0.897853661     -99.4744113
9.281                0.897586118     -99.6617989
9.282                0.897318037     -99.8496984
9.283                0.897049418     -100.038111
9.284                0.896780267     -100.227038
9.285                0.896510584     -100.416481
9.286                0.896240373      -100.60644
9.287                0.895969637     -100.796917
9.288                0.895698379     -100.987913
9.289                0.895426602     -101.179429
9.29                 0.895154309     -101.371467
9.291                0.894881504     -101.564027
9.292                0.894608188      -101.75711
9.293                0.894334367     -101.950719
9.294                0.894060042     -102.144852
9.295                0.893785219     -102.339513
9.296                0.893509899     -102.534702
9.297                0.893234086      -102.73042
9.298                0.892957785     -102.926669
9.299                0.892680998     -103.123448
9.3                   0.89240373      -103.32076
9.301                0.892125985     -103.518606
9.302                0.891847765     -103.716986
9.303                0.891569076     -103.915902
9.304                 0.89128992     -104.115354
9.305                0.891010303     -104.315345
9.306                0.890730228     -104.515874
9.307                0.890449699     -104.716943
9.308                0.890168721     -104.918553
9.309                0.889887298     -105.120704
9.31                 0.889605435     -105.323399
9.311                0.889323135     -105.526638
9.312                0.889040404     -105.730422
9.313                0.888757246     -105.934751
9.314                0.888473665     -106.139628
9.315                0.888189667     -106.345052
9.316                0.887905256     -106.551026
9.317                0.887620437     -106.757549
9.318                0.887335215     -106.964624
9.319                0.887049596      -107.17225
9.32                 0.886763583     -107.380428
9.321                0.886477183     -107.589161
9.322                0.886190401     -107.798448
9.323                0.885903242      -108.00829
9.324                0.885615711     -108.218689
9.325                0.885327814     -108.429645
9.326                0.885039557     -108.641159
9.327                0.884750944     -108.853233
9.328                0.884461983     -109.065866
9.329                0.884172678      -109.27906
9.33                 0.883883035     -109.492816
9.331                0.883593061     -109.707134
9.332                0.883302762     -109.922015
9.333                0.883012143     -110.137461
9.334                 0.88272121     -110.353471
9.335                0.882429971     -110.570047
9.336                0.882138431     -110.787189
9.337                0.881846597     -111.004899
9.338                0.881554475     -111.223176
9.339                0.881262072     -111.442022
9.34                 0.880969394     -111.661438
9.341                0.880676449     -111.881423
9.342                0.880383243      -112.10198
9.343                0.880089783     -112.323108
9.344                0.879796076     -112.544808
9.345                0.879502129     -112.767081
9.346                0.879207949     -112.989928
9.347                0.878913544     -113.213348
9.348                0.878618921     -113.437344
9.349                0.878324087     -113.661915
9.35                  0.87802905     -113.887062
9.351                0.877733818     -114.112785
9.352                0.877438397     -114.339086
9.353                0.877142796     -114.565964
9.354                0.876847023      -114.79342
9.355                0.876551086     -115.021455
9.356                0.876254993      -115.25007
9.357                0.875958751     -115.479264
9.358                0.875662369     -115.709038
9.359                0.875365855     -115.939393
9.36                 0.875069218     -116.170329
9.361                0.874772466     -116.401847
9.362                0.874475608     -116.633947
9.363                0.874178651     -116.866629
9.364                0.873881606     -117.099893
9.365                0.873584481     -117.333741
9.366                0.873287284     -117.568172
9.367                0.872990025     -117.803188
9.368                0.872692713     -118.038787
9.369                0.872395356      -118.27497
9.37                 0.872097965     -118.511738
9.371                0.871800548     -118.749091
9.372                0.871503115     -118.987029
9.373                0.871205675     -119.225553
9.374                0.870908239     -119.464662
9.375                0.870610815     -119.704357
9.376                0.870313414     -119.944637
9.377                0.870016045     -120.185504
9.378                0.869718718     -120.426957
9.379                0.869421444     -120.668996
9.38                 0.869124232     -120.911621
9.381                0.868827092     -121.154833
9.382                0.868530036     -121.398631
9.383                0.868233074     -121.643016
9.384                0.867936215     -121.887987
9.385                 0.86763947     -122.133545
9.386                0.867342851     -122.379689
9.387                0.867046368     -122.626419
9.388                0.866750031     -122.873736
9.389                0.866453852     -123.121638
9.39                 0.866157841     -123.370127
9.391                 0.86586201     -123.619201
9.392                0.865566371     -123.868862
9.393                0.865270933     -124.119107
9.394                0.864975709     -124.369938
9.395                0.864680709     -124.621354
9.396                0.864385946     -124.873355
