! TOUCHSTONE file generated by CST DESIGN STUDIO
! Date and time: Tue Feb  4 13:00:56 2025
! Project name: C:\Work\MatlabApps\UnitCellOptimizationMatlab\CST\unitcell.cst
! Tree item: Tasks\Sweep1\SPara1\S-Parameters
! Header version: 2024
! Port assignment regex: !\s*Touchstone port\s*([0-9]+)\s*=\s*(CST MWS port|CST DES external port|CST DES block port)\s*(.+)\s* \(\"(.*)\"\)(\s*mode\s*([0-9]+))?.*
! Touchstone port assignment:
! Touchstone port 1 = CST DES external port 1 ("")
# GHz S MA R 50
9                    0.989131555     -77.7769556
9.001                0.989105089     -77.8944945
9.002                0.989078543     -78.0123197
9.003                0.989051919      -78.130432
9.004                0.989025215     -78.2488323
9.005                0.988998433     -78.3675215
9.006                0.988971571     -78.4865002
9.007                0.988944629     -78.6057695
9.008                0.988917608       -78.72533
9.009                0.988890506     -78.8451827
9.01                 0.988863325     -78.9653284
9.011                0.988836063     -79.0857678
9.012                0.988808721      -79.206502
9.013                0.988781299     -79.3275316
9.014                0.988753796     -79.4488576
9.015                0.988726212     -79.5704808
9.016                0.988698547      -79.692402
9.017                0.988670801      -79.814622
9.018                0.988642974     -79.9371419
9.019                0.988615065     -80.0599623
9.02                 0.988587075     -80.1830841
9.021                0.988559003     -80.3065082
9.022                 0.98853085     -80.4302355
9.023                0.988502614     -80.5542668
9.024                0.988474296     -80.6786029
9.025                0.988445896     -80.8032448
9.026                0.988417414     -80.9281933
9.027                0.988388849     -81.0534492
9.028                0.988360201     -81.1790134
9.029                 0.98833147     -81.3048868
9.03                 0.988302657     -81.4310703
9.031                0.988273761     -81.5575647
9.032                0.988244781     -81.6843708
9.033                0.988215718     -81.8114897
9.034                0.988186571     -81.9389221
9.035                0.988157341     -82.0666689
9.036                0.988128027      -82.194731
9.037                0.988098629     -82.3231092
9.038                0.988069148     -82.4518045
9.039                0.988039582     -82.5808177
9.04                 0.988009932     -82.7101498
9.041                0.987980198     -82.8398015
9.042                0.987950379     -82.9697738
9.043                0.987920476     -83.1000676
9.044                0.987890488     -83.2306837
9.045                0.987860415     -83.3616231
9.046                0.987830257     -83.4928865
9.047                0.987800015      -83.624475
9.048                0.987769687     -83.7563894
9.049                0.987739274     -83.8886306
9.05                 0.987708776     -84.0211995
9.051                0.987678192     -84.1540969
9.052                0.987647523     -84.2873239
9.053                0.987616768     -84.4208812
9.054                0.987585927     -84.5547698
9.055                0.987555001     -84.6889906
9.056                0.987523989     -84.8235445
9.057                0.987492891     -84.9584323
9.058                0.987461707      -85.093655
9.059                0.987430436     -85.2292135
9.06                  0.98739908     -85.3651086
9.061                0.987367637     -85.5013414
9.062                0.987336108     -85.6379126
9.063                0.987304492     -85.7748233
9.064                 0.98727279     -85.9120742
9.065                0.987241001     -86.0496664
9.066                0.987209125     -86.1876006
9.067                0.987177163     -86.3258779
9.068                0.987145114     -86.4644992
9.069                0.987112978     -86.6034652
9.07                 0.987080755     -86.7427771
9.071                0.987048445     -86.8824356
9.072                0.987016048     -87.0224417
9.073                0.986983564     -87.1627963
9.074                0.986950993     -87.3035003
9.075                0.986918335     -87.4445546
9.076                0.986885589     -87.5859601
9.077                0.986852756     -87.7277178
9.078                0.986819836     -87.8698286
9.079                0.986786829     -88.0122933
9.08                 0.986753734      -88.155113
9.081                0.986720552     -88.2982884
9.082                0.986687282     -88.4418206
9.083                0.986653925     -88.5857104
9.084                 0.98662048     -88.7299588
9.085                0.986586948     -88.8745667
9.086                0.986553329     -89.0195349
9.087                0.986519622     -89.1648645
9.088                0.986485827     -89.3105563
9.089                0.986451945     -89.4566113
9.09                 0.986417975     -89.6030303
9.091                0.986383918     -89.7498143
9.092                0.986349773     -89.8969642
9.093                0.986315541     -90.0444809
9.094                0.986281221     -90.1923654
9.095                0.986246814     -90.3406185
9.096                0.986212319     -90.4892411
9.097                0.986177737     -90.6382343
9.098                0.986143067     -90.7875989
9.099                 0.98610831     -90.9373357
9.1                  0.986073466     -91.0874459
9.101                0.986038534     -91.2379301
9.102                0.986003515     -91.3887895
9.103                0.985968408     -91.5400248
9.104                0.985933215      -91.691637
9.105                0.985897934      -91.843627
9.106                0.985862566     -91.9959957
9.107                0.985827112     -92.1487441
9.108                 0.98579157      -92.301873
9.109                0.985755941     -92.4553833
9.11                 0.985720226      -92.609276
9.111                0.985684423      -92.763552
9.112                0.985648534     -92.9182122
9.113                0.985612559     -93.0732575
9.114                0.985576497     -93.2286888
9.115                0.985540348     -93.3845069
9.116                0.985504113     -93.5407129
9.117                0.985467792     -93.6973076
9.118                0.985431385     -93.8542919
9.119                0.985394892     -94.0116668
9.12                 0.985358313      -94.169433
9.121                0.985321648     -94.3275916
9.122                0.985284898     -94.4861433
9.123                0.985248062     -94.6450892
9.124                 0.98521114     -94.8044301
9.125                0.985174134     -94.9641669
9.126                0.985137042     -95.1243004
9.127                0.985099865     -95.2848317
9.128                0.985062604     -95.4457615
9.129                0.985025258     -95.6070907
9.13                 0.984987827     -95.7688203
9.131                0.984950312     -95.9309512
9.132                0.984912713     -96.0934841
9.133                 0.98487503       -96.25642
9.134                0.984837263     -96.4197598
9.135                0.984799413     -96.5835043
9.136                0.984761479     -96.7476544
9.137                0.984723462     -96.9122111
9.138                0.984685362      -97.077175
9.139                 0.98464718     -97.2425472
9.14                 0.984608914     -97.4083285
9.141                0.984570567     -97.5745197
9.142                0.984532137     -97.7411217
9.143                0.984493625     -97.9081354
9.144                0.984455032     -98.0755616
9.145                0.984416358     -98.2434011
9.146                0.984377602     -98.4116549
9.147                0.984338765     -98.5803238
9.148                0.984299848     -98.7494085
9.149                0.984260851     -98.9189101
9.15                 0.984221773     -99.0888292
9.151                0.984182616     -99.2591667
9.152                0.984143379     -99.4299235
9.153                0.984104063     -99.6011004
9.154                0.984064668     -99.7726981
9.155                0.984025194     -99.9447177
9.156                0.983985642      -100.11716
9.157                0.983946012     -100.290025
9.158                0.983906305     -100.463315
9.159                 0.98386652     -100.637029
9.16                 0.983826658      -100.81117
9.161                 0.98378672     -100.985737
9.162                0.983746706     -101.160731
9.163                0.983706615     -101.336154
9.164                0.983666449     -101.512005
9.165                0.983626208     -101.688287
9.166                0.983585892     -101.864999
9.167                0.983545502     -102.042142
9.168                0.983505038     -102.219717
9.169                  0.9834645     -102.397725
9.17                 0.983423889     -102.576167
9.171                0.983383205     -102.755043
9.172                0.983342449     -102.934354
9.173                0.983301622     -103.114101
9.174                0.983260722     -103.294285
9.175                0.983219752     -103.474906
9.176                0.983178711     -103.655966
9.177                  0.9831376     -103.837464
9.178                 0.98309642     -104.019402
9.179                 0.98305517      -104.20178
9.18                 0.983013852     -104.384599
9.181                0.982972465     -104.567859
9.182                0.982931011     -104.751563
9.183                 0.98288949     -104.935709
9.184                0.982847903     -105.120299
9.185                0.982806249     -105.305334
9.186                0.982764529     -105.490814
9.187                0.982722745     -105.676739
9.188                0.982680896     -105.863111
9.189                0.982638984     -106.049931
9.19                 0.982597008     -106.237198
9.191                0.982554969     -106.424914
9.192                0.982512868     -106.613079
9.193                0.982470706     -106.801694
9.194                0.982428482     -106.990759
9.195                0.982386199     -107.180275
9.196                0.982343856     -107.370243
9.197                0.982301453     -107.560663
9.198                0.982258992     -107.751537
9.199                0.982216474     -107.942863
9.2                  0.982173898     -108.134644
9.201                0.982131266     -108.326879
9.202                0.982088578      -108.51957
9.203                0.982045835     -108.712717
9.204                0.982003037      -108.90632
9.205                0.981960186     -109.100379
9.206                0.981917282     -109.294897
9.207                0.981874325     -109.489872
9.208                0.981831317     -109.685306
9.209                0.981788258     -109.881199
9.21                 0.981745149     -110.077552
9.211                0.981701991     -110.274365
9.212                0.981658785     -110.471638
9.213                 0.98161553     -110.669373
9.214                0.981572229     -110.867569
9.215                0.981528881     -111.066227
9.216                0.981485488     -111.265348
9.217                0.981442051     -111.464932
9.218                 0.98139857     -111.664979
9.219                0.981355046      -111.86549
9.22                  0.98131148     -112.066465
9.221                0.981267873     -112.267905
9.222                0.981224226     -112.469811
9.223                0.981180539     -112.672181
9.224                0.981136814     -112.875018
9.225                0.981093051     -113.078321
9.226                0.981049251     -113.282091
9.227                0.981005416     -113.486328
9.228                0.980961546     -113.691032
9.229                0.980917641     -113.896204
9.23                 0.980873704     -114.101844
9.231                0.980829735     -114.307953
9.232                0.980785735      -114.51453
9.233                0.980741705     -114.721576
9.234                0.980697645     -114.929092
9.235                0.980653558     -115.137077
9.236                0.980609444     -115.345532
9.237                0.980565303     -115.554458
9.238                0.980521138     -115.763853
9.239                0.980476948     -115.973719
9.24                 0.980432736     -116.184057
9.241                0.980388502     -116.394865
9.242                0.980344247     -116.606144
9.243                0.980299973     -116.817895
9.244                 0.98025568     -117.030117
9.245                0.980211369     -117.242812
9.246                0.980167043     -117.455978
9.247                0.980122701     -117.669616
9.248                0.980078344     -117.883727
9.249                0.980033975      -118.09831
9.25                 0.979989595     -118.313365
9.251                0.979945203     -118.528893
9.252                0.979900803     -118.744893
9.253                0.979856394     -118.961366
9.254                0.979811978     -119.178312
9.255                0.979767556     -119.395731
9.256                 0.97972313     -119.613622
9.257                0.979678701     -119.831987
9.258                0.979634269     -120.050824
9.259                0.979589837     -120.270134
9.26                 0.979545405     -120.489916
9.261                0.979500975     -120.710172
9.262                0.979456548       -120.9309
9.263                0.979412126       -121.1521
9.264                0.979367709     -121.373774
9.265                0.979323299     -121.595919
9.266                0.979278898     -121.818538
9.267                0.979234506     -122.041628
9.268                0.979190125      -122.26519
9.269                0.979145757     -122.489224
9.27                 0.979101402      -122.71373
9.271                0.979057063     -122.938708
9.272                 0.97901274     -123.164157
9.273                0.978968435     -123.390077
9.274                 0.97892415     -123.616468
9.275                0.978879886     -123.843329
9.276                0.978835644     -124.070661
9.277                0.978791425     -124.298463
9.278                0.978747232     -124.526735
9.279                0.978703066     -124.755477
9.28                 0.978658928     -124.984687
9.281                0.978614819     -125.214367
9.282                0.978570742     -125.444515
9.283                0.978526698     -125.675131
9.284                0.978482688     -125.906215
9.285                0.978438713     -126.137766
9.286                0.978394776     -126.369784
9.287                0.978350878     -126.602269
9.288                 0.97830702     -126.835219
9.289                0.978263204     -127.068635
9.29                 0.978219432     -127.302517
9.291                0.978175706     -127.536862
9.292                0.978132026     -127.771672
9.293                0.978088394     -128.006945
9.294                0.978044813     -128.242681
9.295                0.978001283      -128.47888
9.296                0.977957807      -128.71554
9.297                0.977914386     -128.952661
9.298                0.977871022     -129.190243
9.299                0.977827716     -129.428284
9.3                   0.97778447     -129.666785
9.301                0.977741285     -129.905744
9.302                0.977698165     -130.145161
9.303                0.977655109     -130.385035
9.304                0.977612121     -130.625366
9.305                0.977569201     -130.866151
9.306                0.977526351     -131.107392
9.307                0.977483574     -131.349087
9.308                 0.97744087     -131.591234
9.309                0.977398242     -131.833834
9.31                 0.977355692     -132.076886
9.311                 0.97731322     -132.320388
9.312                 0.97727083      -132.56434
9.313                0.977228523      -132.80874
9.314                  0.9771863     -133.053589
9.315                0.977144163     -133.298884
9.316                0.977102115     -133.544625
9.317                0.977060157     -133.790811
9.318                0.977018291     -134.037442
9.319                0.976976519     -134.284514
9.32                 0.976934842     -134.532029
9.321                0.976893262     -134.779985
9.322                0.976851782      -135.02838
9.323                0.976810403     -135.277214
9.324                0.976769128     -135.526485
9.325                0.976727957     -135.776192
9.326                0.976686893     -136.026335
9.327                0.976645938     -136.276911
9.328                0.976605093      -136.52792
9.329                0.976564361      -136.77936
9.33                 0.976523744     -137.031231
9.331                0.976483243     -137.283531
9.332                 0.97644286     -137.536258
9.333                0.976402598     -137.789412
9.334                0.976362457      -138.04299
9.335                0.976322441     -138.296992
9.336                0.976282551     -138.551416
9.337                0.976242789     -138.806262
9.338                0.976203157     -139.061526
9.339                0.976163657     -139.317209
9.34                 0.976124291     -139.573307
9.341                 0.97608506     -139.829821
9.342                0.976045968     -140.086749
9.343                0.976007015     -140.344088
9.344                0.975968204     -140.601838
9.345                0.975929537     -140.859997
9.346                0.975891016     -141.118563
9.347                0.975852642     -141.377534
9.348                0.975814418      -141.63691
9.349                0.975776346     -141.896687
9.35                 0.975738428     -142.156866
9.351                0.975700665     -142.417443
9.352                 0.97566306     -142.678418
9.353                0.975625614     -142.939788
9.354                0.975588331     -143.201552
9.355                0.975551211     -143.463708
9.356                0.975514256     -143.726254
9.357                 0.97547747     -143.989188
9.358                0.975440853     -144.252509
9.359                0.975404407     -144.516214
9.36                 0.975368136     -144.780302
9.361                 0.97533204      -145.04477
9.362                0.975296122     -145.309618
9.363                0.975260383     -145.574842
9.364                0.975224827     -145.840441
9.365                0.975189453     -146.106413
9.366                0.975154266     -146.372756
9.367                0.975119266     -146.639468
9.368                0.975084456     -146.906546
9.369                0.975049837      -147.17399
9.37                 0.975015413     -147.441795
9.371                0.974981183     -147.709961
9.372                0.974947152     -147.978485
9.373                0.974913319     -148.247366
9.374                0.974879689       -148.5166
9.375                0.974846262     -148.786186
9.376                 0.97481304     -149.056121
9.377                0.974780026     -149.326403
9.378                0.974747221     -149.597031
9.379                0.974714628     -149.868001
9.38                 0.974682248     -150.139311
9.381                0.974650083     -150.410959
9.382                0.974618135     -150.682942
9.383                0.974586406     -150.955259
9.384                0.974554899     -151.227907
9.385                0.974523614     -151.500882
9.386                0.974492554     -151.774184
9.387                0.974461721     -152.047809
9.388                0.974431117     -152.321755
9.389                0.974400743     -152.596019
9.39                 0.974370601       -152.8706
9.391                0.974340694     -153.145493
9.392                0.974311023     -153.420698
9.393                 0.97428159      -153.69621
9.394                0.974252396     -153.972028
9.395                0.974223445     -154.248149
9.396                0.974194737      -154.52457
