! TOUCHSTONE file generated by CST DESIGN STUDIO
! Date and time: Tue Feb  4 13:01:00 2025
! Project name: C:\Work\MatlabApps\UnitCellOptimizationMatlab\CST\unitcell.cst
! Tree item: Tasks\Sweep1\SPara1\S-Parameters
! Header version: 2024
! Port assignment regex: !\s*Touchstone port\s*([0-9]+)\s*=\s*(CST MWS port|CST DES external port|CST DES block port)\s*(.+)\s* \(\"(.*)\"\)(\s*mode\s*([0-9]+))?.*
! Touchstone port assignment:
! Touchstone port 1 = CST DES external port 1 ("")
# GHz S MA R 50
9                    0.989674095     -75.2297119
9.001                0.989649787      -75.341387
9.002                0.989625407     -75.4533318
9.003                0.989600955     -75.5655472
9.004                0.989576431     -75.6780341
9.005                0.989551834     -75.7907931
9.006                0.989527164      -75.903825
9.007                0.989502422     -76.0171308
9.008                0.989477606     -76.1307111
9.009                0.989452717     -76.2445668
9.01                 0.989427755     -76.3586986
9.011                 0.98940272     -76.4731075
9.012                 0.98937761     -76.5877941
9.013                0.989352427     -76.7027594
9.014                 0.98932717      -76.818004
9.015                0.989301839     -76.9335289
9.016                0.989276434     -77.0493348
9.017                0.989250954     -77.1654226
9.018                0.989225399      -77.281793
9.019                 0.98919977     -77.3984469
9.02                 0.989174065     -77.5153852
9.021                0.989148286     -77.6326086
9.022                0.989122432     -77.7501179
9.023                0.989096502     -77.8679141
9.024                0.989070496     -77.9859978
9.025                0.989044415     -78.1043701
9.026                0.989018258     -78.2230316
9.027                0.988992025     -78.3419832
9.028                0.988965716     -78.4612258
9.029                0.988939331     -78.5807601
9.03                 0.988912869     -78.7005871
9.031                0.988886331     -78.8207076
9.032                0.988859716     -78.9411224
9.033                0.988833024     -79.0618323
9.034                0.988806255     -79.1828383
9.035                0.988779409     -79.3041411
9.036                0.988752486     -79.4257416
9.037                0.988725485     -79.5476406
9.038                0.988698407     -79.6698391
9.039                0.988671251     -79.7923378
9.04                 0.988644017     -79.9151377
9.041                0.988616706     -80.0382395
9.042                0.988589316     -80.1616441
9.043                0.988561848     -80.2853525
9.044                0.988534302     -80.4093654
9.045                0.988506677     -80.5336837
9.046                0.988478973     -80.6583083
9.047                0.988451191       -80.78324
9.048                 0.98842333     -80.9084798
9.049                 0.98839539     -81.0340284
9.05                 0.988367371     -81.1598868
9.051                0.988339272     -81.2860559
9.052                0.988311094     -81.4125364
9.053                0.988282837     -81.5393294
9.054                  0.9882545     -81.6664356
9.055                0.988226083     -81.7938559
9.056                0.988197587     -81.9215912
9.057                 0.98816901     -82.0496425
9.058                0.988140354     -82.1780105
9.059                0.988111617     -82.3066962
9.06                   0.9880828     -82.4357004
9.061                0.988053903     -82.5650241
9.062                0.988024925      -82.694668
9.063                0.987995866     -82.8246332
9.064                0.987966727     -82.9549205
9.065                0.987937507     -83.0855308
9.066                0.987908206      -83.216465
9.067                0.987878824      -83.347724
9.068                0.987849361     -83.4793086
9.069                0.987819817     -83.6112198
9.07                 0.987790191     -83.7434585
9.071                0.987760484     -83.8760255
9.072                0.987730696     -84.0089218
9.073                0.987700826     -84.1421483
9.074                0.987670874     -84.2757058
9.075                0.987640841     -84.4095953
9.076                0.987610725     -84.5438177
9.077                0.987580528     -84.6783739
9.078                0.987550249     -84.8132647
9.079                0.987519888     -84.9484912
9.08                 0.987489445     -85.0840541
9.081                0.987458919     -85.2199545
9.082                0.987428311     -85.3561931
9.083                0.987397621      -85.492771
9.084                0.987366849     -85.6296891
9.085                0.987335994     -85.7669481
9.086                0.987305056     -85.9045492
9.087                0.987274036     -86.0424931
9.088                0.987242933     -86.1807808
9.089                0.987211748     -86.3194133
9.09                  0.98718048     -86.4583913
9.091                0.987149129     -86.5977159
9.092                0.987117695      -86.737388
9.093                0.987086178     -86.8774084
9.094                0.987054579     -87.0177781
9.095                0.987022896      -87.158498
9.096                0.986991131     -87.2995691
9.097                0.986959282     -87.4409922
9.098                0.986927351     -87.5827683
9.099                0.986895336     -87.7248983
9.1                  0.986863238      -87.867383
9.101                0.986831057     -88.0102236
9.102                0.986798793     -88.1534207
9.103                0.986766446     -88.2969755
9.104                0.986734015     -88.4408887
9.105                0.986701502     -88.5851614
9.106                0.986668905     -88.7297944
9.107                0.986636225     -88.8747887
9.108                0.986603462     -89.0201452
9.109                0.986570615     -89.1658648
9.11                 0.986537686     -89.3119485
9.111                0.986504673     -89.4583971
9.112                0.986471577     -89.6052116
9.113                0.986438398     -89.7523929
9.114                0.986405135     -89.8999419
9.115                 0.98637179     -90.0478596
9.116                0.986338361     -90.1961469
9.117                 0.98630485     -90.3448047
9.118                0.986271255     -90.4938339
9.119                0.986237578     -90.6432355
9.12                 0.986203817     -90.7930103
9.121                0.986169973     -90.9431594
9.122                0.986136047     -91.0936835
9.123                0.986102038     -91.2445837
9.124                0.986067946     -91.3958609
9.125                0.986033771     -91.5475159
9.126                0.985999514     -91.6995497
9.127                0.985965174     -91.8519633
9.128                0.985930751     -92.0047575
9.129                0.985896246     -92.1579333
9.13                 0.985861659     -92.3114915
9.131                0.985826989     -92.4654331
9.132                0.985792237      -92.619759
9.133                0.985757403     -92.7744702
9.134                0.985722487     -92.9295675
9.135                0.985687489     -93.0850518
9.136                0.985652409     -93.2409241
9.137                0.985617248     -93.3971853
9.138                0.985582005     -93.5538363
9.139                 0.98554668      -93.710878
9.14                 0.985511274     -93.8683112
9.141                0.985475787      -94.026137
9.142                0.985440218     -94.1843562
9.143                0.985404569     -94.3429698
9.144                0.985368839     -94.5019785
9.145                0.985333028     -94.6613834
9.146                0.985297136     -94.8211853
9.147                0.985261164     -94.9813851
9.148                0.985225112     -95.1419838
9.149                 0.98518898     -95.3029821
9.15                 0.985152767     -95.4643811
9.151                0.985116475     -95.6261816
9.152                0.985080103     -95.7883845
9.153                0.985043652     -95.9509907
9.154                0.985007122      -96.114001
9.155                0.984970513     -96.2774164
9.156                0.984933825     -96.4412378
9.157                0.984897058     -96.6054659
9.158                0.984860213     -96.7701018
9.159                0.984823289     -96.9351462
9.16                 0.984786288     -97.1006001
9.161                0.984749208     -97.2664644
9.162                0.984712052     -97.4327398
9.163                0.984674818     -97.5994272
9.164                0.984637506     -97.7665276
9.165                0.984600118     -97.9340418
9.166                0.984562654     -98.1019706
9.167                0.984525113      -98.270315
9.168                0.984487496     -98.4390756
9.169                0.984449804     -98.6082535
9.17                 0.984412035     -98.7778495
9.171                0.984374192     -98.9478644
9.172                0.984336274      -99.118299
9.173                0.984298281     -99.2891542
9.174                0.984260213     -99.4604308
9.175                0.984222072     -99.6321297
9.176                0.984183857     -99.8042516
9.177                0.984145569     -99.9767975
9.178                0.984107207     -100.149768
9.179                0.984068773     -100.323164
9.18                 0.984030266     -100.496987
9.181                0.983991687     -100.671237
9.182                0.983953037     -100.845914
9.183                0.983914315     -101.021021
9.184                0.983875523     -101.196557
9.185                0.983836659     -101.372523
9.186                0.983797726     -101.548921
9.187                0.983758722     -101.725751
9.188                0.983719649     -101.903013
9.189                0.983680507     -102.080709
9.19                 0.983641297      -102.25884
9.191                0.983602018     -102.437405
9.192                0.983562671     -102.616406
9.193                0.983523257     -102.795844
9.194                0.983483777      -102.97572
9.195                0.983444229     -103.156033
9.196                0.983404616     -103.336785
9.197                0.983364937     -103.517977
9.198                0.983325192      -103.69961
9.199                0.983285384     -103.881683
9.2                  0.983245511     -104.064198
9.201                0.983205574     -104.247156
9.202                0.983165574     -104.430557
9.203                0.983125512     -104.614402
9.204                0.983085387     -104.798692
9.205                0.983045201     -104.983427
9.206                0.983004953     -105.168609
9.207                0.982964645     -105.354237
9.208                0.982924277     -105.540312
9.209                0.982883849     -105.726836
9.21                 0.982843363     -105.913808
9.211                0.982802818      -106.10123
9.212                0.982762216     -106.289103
9.213                0.982721556     -106.477426
9.214                0.982680839       -106.6662
9.215                0.982640067     -106.855427
9.216                0.982599239     -107.045106
9.217                0.982558357     -107.235238
9.218                 0.98251742     -107.425825
9.219                 0.98247643     -107.616866
9.22                 0.982435387     -107.808363
9.221                0.982394292     -108.000315
9.222                0.982353145     -108.192723
9.223                0.982311948     -108.385589
9.224                  0.9822707     -108.578912
9.225                0.982229403     -108.772693
9.226                0.982188057     -108.966933
9.227                0.982146663     -109.161632
9.228                0.982105221     -109.356791
9.229                0.982063733     -109.552411
9.23                 0.982022199     -109.748491
9.231                 0.98198062     -109.945033
9.232                0.981938997     -110.142036
9.233                0.981897329     -110.339502
9.234                0.981855619     -110.537431
9.235                0.981813867     -110.735823
9.236                0.981772074     -110.934679
9.237                 0.98173024        -111.134
9.238                0.981688367     -111.333785
9.239                0.981646454     -111.534036
9.24                 0.981604504     -111.734752
9.241                0.981562516     -111.935935
9.242                0.981520492     -112.137584
9.243                0.981478433     -112.339701
9.244                0.981436339     -112.542284
9.245                0.981394211     -112.745336
9.246                0.981352051     -112.948855
9.247                0.981309858     -113.152844
9.248                0.981267635     -113.357301
9.249                0.981225381     -113.562228
9.25                 0.981183099     -113.767624
9.251                0.981140788      -113.97349
9.252                0.981098449     -114.179827
9.253                0.981056085     -114.386635
9.254                0.981013695     -114.593913
9.255                 0.98097128     -114.801663
9.256                0.980928843     -115.009884
9.257                0.980886383     -115.218577
9.258                0.980843901     -115.427742
9.259                0.980801399      -115.63738
9.26                 0.980758878      -115.84749
9.261                0.980716339     -116.058073
9.262                0.980673782     -116.269129
9.263                 0.98063121     -116.480659
9.264                0.980588622     -116.692661
9.265                 0.98054602     -116.905138
9.266                0.980503405     -117.118088
9.267                0.980460778     -117.331513
9.268                0.980418141     -117.545411
9.269                0.980375494     -117.759784
9.27                 0.980332839     -117.974631
9.271                0.980290177     -118.189953
9.272                0.980247508     -118.405749
9.273                0.980204834      -118.62202
9.274                0.980162157     -118.838766
9.275                0.980119477     -119.055987
9.276                0.980076795     -119.273682
9.277                0.980034114     -119.491853
9.278                0.979991433     -119.710498
9.279                0.979948755     -119.929618
9.28                  0.97990608     -120.149213
9.281                 0.97986341     -120.369284
9.282                0.979820746     -120.589829
9.283                0.979778089     -120.810848
9.284                0.979735441     -121.032343
9.285                0.979692803     -121.254312
9.286                0.979650176     -121.476756
9.287                0.979607561     -121.699674
9.288                 0.97956496     -121.923067
9.289                0.979522375     -122.146934
9.29                 0.979479806     -122.371275
9.291                0.979437254      -122.59609
9.292                0.979394722     -122.821379
9.293                0.979352211     -123.047141
9.294                0.979309721     -123.273377
9.295                0.979267255     -123.500085
9.296                0.979224814     -123.727267
9.297                0.979182399     -123.954921
9.298                0.979140011     -124.183048
9.299                0.979097653     -124.411646
9.3                  0.979055325     -124.640717
9.301                0.979013029     -124.870258
9.302                0.978970767     -125.100271
9.303                0.978928539     -125.330755
9.304                0.978886348     -125.561709
9.305                0.978844195     -125.793132
9.306                0.978802081     -126.025026
9.307                0.978760009     -126.257388
9.308                0.978717978      -126.49022
9.309                0.978675992     -126.723519
9.31                 0.978634051     -126.957287
9.311                0.978592158     -127.191521
9.312                0.978550313     -127.426223
9.313                0.978508518      -127.66139
9.314                0.978466775     -127.897024
9.315                0.978425086     -128.133122
9.316                0.978383452     -128.369686
9.317                0.978341874     -128.606713
9.318                0.978300355     -128.844203
9.319                0.978258895     -129.082157
9.32                 0.978217497     -129.320572
9.321                0.978176163     -129.559449
9.322                0.978134893     -129.798787
9.323                 0.97809369     -130.038584
9.324                0.978052555     -130.278841
9.325                 0.97801149     -130.519557
9.326                0.977970496     -130.760731
9.327                0.977929576     -131.002361
9.328                0.977888731     -131.244448
9.329                0.977847962      -131.48699
9.33                 0.977807272     -131.729987
9.331                0.977766662     -131.973437
9.332                0.977726134     -132.217341
9.333                 0.97768569     -132.461696
9.334                0.977645331     -132.706502
9.335                0.977605059     -132.951759
9.336                0.977564876     -133.197465
9.337                0.977524784     -133.443618
9.338                0.977484785     -133.690219
9.339                 0.97744488     -133.937267
9.34                 0.977405071     -134.184759
9.341                0.977365359     -134.432696
9.342                0.977325748     -134.681075
9.343                0.977286238     -134.929897
9.344                0.977246832     -135.179159
9.345                0.977207531     -135.428861
9.346                0.977168336     -135.679002
9.347                0.977129251      -135.92958
9.348                0.977090276     -136.180594
9.349                0.977051414     -136.432043
9.35                 0.977012667     -136.683926
9.351                0.976974036     -136.936241
9.352                0.976935523     -137.188987
9.353                 0.97689713     -137.442163
9.354                0.976858859     -137.695768
9.355                0.976820712       -137.9498
9.356                 0.97678269     -138.204258
9.357                0.976744797      -138.45914
9.358                0.976707032     -138.714445
9.359                0.976669399     -138.970172
9.36                   0.9766319     -139.226319
9.361                0.976594536     -139.482885
9.362                0.976557309     -139.739868
9.363                 0.97652022     -139.997267
9.364                0.976483273      -140.25508
9.365                0.976446469     -140.513305
9.366                 0.97640981     -140.771942
9.367                0.976373297     -141.030987
9.368                0.976336933     -141.290441
9.369                 0.97630072     -141.550301
9.37                 0.976264659     -141.810565
9.371                0.976228753     -142.071233
9.372                0.976193003     -142.332301
9.373                0.976157412     -142.593769
9.374                0.976121981     -142.855634
9.375                0.976086712     -143.117895
9.376                0.976051607      -143.38055
9.377                0.976016668     -143.643598
9.378                0.975981898     -143.907035
9.379                0.975947297     -144.170862
9.38                 0.975912868     -144.435075
9.381                0.975878614     -144.699673
9.382                0.975844535     -144.964653
9.383                0.975810633     -145.230015
9.384                0.975776912     -145.495755
9.385                0.975743372     -145.761873
9.386                0.975710016     -146.028365
9.387                0.975676845      -146.29523
9.388                0.975643861     -146.562466
9.389                0.975611067     -146.830071
9.39                 0.975578464     -147.098042
9.391                0.975546054     -147.366378
9.392                 0.97551384     -147.635076
9.393                0.975481822     -147.904134
9.394                0.975450004     -148.173551
9.395                0.975418386     -148.443323
9.396                0.975386971     -148.713449
