! TOUCHSTONE file generated by CST DESIGN STUDIO
! Date and time: Tue Feb  4 13:01:08 2025
! Project name: C:\Work\MatlabApps\UnitCellOptimizationMatlab\CST\unitcell.cst
! Tree item: Tasks\Sweep1\SPara1\S-Parameters
! Header version: 2024
! Port assignment regex: !\s*Touchstone port\s*([0-9]+)\s*=\s*(CST MWS port|CST DES external port|CST DES block port)\s*(.+)\s* \(\"(.*)\"\)(\s*mode\s*([0-9]+))?.*
! Touchstone port assignment:
! Touchstone port 1 = CST DES external port 1 ("")
# GHz S MA R 50
9                     0.99057785     -70.7357438
9.001                0.990557245     -70.8376813
9.002                0.990536577      -70.939861
9.003                0.990515848     -71.0422834
9.004                0.990495056     -71.1449494
9.005                0.990474202     -71.2478597
9.006                0.990453286      -71.351015
9.007                0.990432307     -71.4544161
9.008                0.990411265     -71.5580636
9.009                 0.99039016     -71.6619584
9.01                 0.990368992     -71.7661011
9.011                0.990347761     -71.8704926
9.012                0.990326466     -71.9751335
9.013                0.990305108     -72.0800245
9.014                0.990283686     -72.1851666
9.015                  0.9902622     -72.2905603
9.016                 0.99024065     -72.3962065
9.017                0.990219035     -72.5021058
9.018                0.990197357     -72.6082591
9.019                0.990175614     -72.7146672
9.02                 0.990153806     -72.8213307
9.021                0.990131933     -72.9282504
9.022                0.990109995     -73.0354271
9.023                0.990087992     -73.1428616
9.024                0.990065924     -73.2505546
9.025                0.990043791     -73.3585069
9.026                0.990021591     -73.4667193
9.027                0.989999326     -73.5751926
9.028                0.989976996     -73.6839274
9.029                0.989954599     -73.7929247
9.03                 0.989932135     -73.9021851
9.031                0.989909606     -74.0117095
9.032                 0.98988701     -74.1214987
9.033                0.989864347     -74.2315534
9.034                0.989841617     -74.3418743
9.035                0.989818821     -74.4524624
9.036                0.989795957     -74.5633184
9.037                0.989773026     -74.6744431
9.038                0.989750027     -74.7858373
9.039                0.989726961     -74.8975018
9.04                 0.989703828     -75.0094373
9.041                0.989680626     -75.1216448
9.042                0.989657356     -75.2341249
9.043                0.989634019     -75.3468785
9.044                0.989610613     -75.4599064
9.045                0.989587138     -75.5732095
9.046                0.989563595     -75.6867884
9.047                0.989539983     -75.8006441
9.048                0.989516302     -75.9147774
9.049                0.989492552      -76.029189
9.05                 0.989468733     -76.1438798
9.051                0.989444845     -76.2588506
9.052                0.989420887     -76.3741022
9.053                 0.98939686     -76.4896355
9.054                0.989372763     -76.6054512
9.055                0.989348596     -76.7215503
9.056                0.989324359     -76.8379335
9.057                0.989300052     -76.9546017
9.058                0.989275674     -77.0715557
9.059                0.989251227     -77.1887963
9.06                 0.989226708     -77.3063244
9.061                0.989202119     -77.4241408
9.062                0.989177459     -77.5422464
9.063                0.989152728      -77.660642
9.064                0.989127926     -77.7793284
9.065                0.989103053     -77.8983065
9.066                0.989078108     -78.0175771
9.067                0.989053092     -78.1371412
9.068                0.989028004     -78.2569995
9.069                0.989002845     -78.3771528
9.07                 0.988977613     -78.4976021
9.071                 0.98895231     -78.6183483
9.072                0.988926935     -78.7393921
9.073                0.988901487     -78.8607344
9.074                0.988875967     -78.9823761
9.075                0.988850374     -79.1043181
9.076                0.988824709     -79.2265611
9.077                0.988798971     -79.3491062
9.078                 0.98877316     -79.4719541
9.079                0.988747276     -79.5951058
9.08                 0.988721319      -79.718562
9.081                0.988695289     -79.8423238
9.082                0.988669186     -79.9663918
9.083                0.988643009     -80.0907671
9.084                0.988616759     -80.2154505
9.085                0.988590434     -80.3404429
9.086                0.988564037     -80.4657452
9.087                0.988537565     -80.5913582
9.088                0.988511019     -80.7172828
9.089                0.988484399       -80.84352
9.09                 0.988457705     -80.9700705
9.091                0.988430937     -81.0969354
9.092                0.988404094     -81.2241155
9.093                0.988377177     -81.3516116
9.094                0.988350185     -81.4794247
9.095                0.988323119     -81.6075557
9.096                0.988295978     -81.7360055
9.097                0.988268762      -81.864775
9.098                 0.98824147      -81.993865
9.099                0.988214104     -82.1232764
9.1                  0.988186663     -82.2530103
9.101                0.988159146     -82.3830674
9.102                0.988131554     -82.5134487
9.103                0.988103887     -82.6441551
9.104                0.988076144     -82.7751876
9.105                0.988048326     -82.9065469
9.106                0.988020432      -83.038234
9.107                0.987992462     -83.1702498
9.108                0.987964416     -83.3025953
9.109                0.987936295     -83.4352714
9.11                 0.987908097     -83.5682789
9.111                0.987879824     -83.7016188
9.112                0.987851474     -83.8352921
9.113                0.987823048     -83.9692995
9.114                0.987794546     -84.1036421
9.115                0.987765968     -84.2383207
9.116                0.987737313     -84.3733364
9.117                0.987708582     -84.5086899
9.118                0.987679774     -84.6443823
9.119                 0.98765089     -84.7804145
9.12                 0.987621929     -84.9167873
9.121                0.987592892     -85.0535018
9.122                0.987563778     -85.1905588
9.123                0.987534587     -85.3279592
9.124                 0.98750532     -85.4657041
9.125                0.987475976     -85.6037943
9.126                0.987446554     -85.7422307
9.127                0.987417056     -85.8810144
9.128                0.987387481     -86.0201462
9.129                 0.98735783      -86.159627
9.13                 0.987328101     -86.2994578
9.131                0.987298295     -86.4396396
9.132                0.987268412     -86.5801732
9.133                0.987238452     -86.7210597
9.134                0.987208415     -86.8622999
9.135                0.987178301     -87.0038947
9.136                0.987148109     -87.1458452
9.137                0.987117841     -87.2881522
9.138                0.987087496     -87.4308167
9.139                0.987057073     -87.5738397
9.14                 0.987026573      -87.717222
9.141                0.986995996     -87.8609647
9.142                0.986965342     -88.0050686
9.143                0.986934611     -88.1495347
9.144                0.986903803     -88.2943639
9.145                0.986872918     -88.4395572
9.146                0.986841955     -88.5851156
9.147                0.986810916     -88.7310399
9.148                0.986779799     -88.8773311
9.149                0.986748606     -89.0239902
9.15                 0.986717335     -89.1710181
9.151                0.986685987     -89.3184157
9.152                0.986654563     -89.4661839
9.153                0.986623061     -89.6143238
9.154                0.986591483     -89.7628363
9.155                0.986559828     -89.9117223
9.156                0.986528096     -90.0609827
9.157                0.986496288     -90.2106185
9.158                0.986464402     -90.3606307
9.159                 0.98643244     -90.5110201
9.16                 0.986400402     -90.6617878
9.161                0.986368287     -90.8129346
9.162                0.986336096     -90.9644615
9.163                0.986303828     -91.1163695
9.164                0.986271484     -91.2686594
9.165                0.986239064     -91.4213323
9.166                0.986206568      -91.574389
9.167                0.986173995     -91.7278305
9.168                0.986141347     -91.8816578
9.169                0.986108623     -92.0358717
9.17                 0.986075823     -92.1904733
9.171                0.986042948     -92.3454634
9.172                0.986009997      -92.500843
9.173                 0.98597697      -92.656613
9.174                0.985943869     -92.8127743
9.175                0.985910692      -92.969328
9.176                 0.98587744     -93.1262748
9.177                0.985844113     -93.2836159
9.178                0.985810711     -93.4413519
9.179                0.985777235      -93.599484
9.18                 0.985743684     -93.7580131
9.181                0.985710059       -93.91694
9.182                0.985676359     -94.0762656
9.183                0.985642585      -94.235991
9.184                0.985608738      -94.396117
9.185                0.985574817     -94.5566446
9.186                0.985540822     -94.7175746
9.187                0.985506753      -94.878908
9.188                0.985472612     -95.0406457
9.189                0.985438397     -95.2027886
9.19                  0.98540411     -95.3653377
9.191                 0.98536975     -95.5282938
9.192                0.985335317     -95.6916579
9.193                0.985300812     -95.8554308
9.194                0.985266235     -96.0196134
9.195                0.985231586     -96.1842068
9.196                0.985196866     -96.3492117
9.197                0.985162074     -96.5146291
9.198                0.985127211     -96.6804598
9.199                0.985092277     -96.8467048
9.2                  0.985057272     -97.0133649
9.201                0.985022197     -97.1804411
9.202                0.984987051     -97.3479342
9.203                0.984951836     -97.5158451
9.204                0.984916551     -97.6841747
9.205                0.984881196     -97.8529239
9.206                0.984845773     -98.0220936
9.207                 0.98481028     -98.1916845
9.208                0.984774719     -98.3616977
9.209                0.984739089     -98.5321339
9.21                 0.984703392     -98.7029941
9.211                0.984667627      -98.874279
9.212                0.984631794     -99.0459897
9.213                0.984595894     -99.2181268
9.214                0.984559928     -99.3906913
9.215                0.984523895      -99.563684
9.216                0.984487796     -99.7371058
9.217                0.984451631     -99.9109574
9.218                0.984415401      -100.08524
9.219                0.984379106     -100.259954
9.22                 0.984342746       -100.4351
9.221                0.984306321      -100.61068
9.222                0.984269833     -100.786694
9.223                0.984233281     -100.963142
9.224                0.984196666     -101.140027
9.225                0.984159988     -101.317347
9.226                0.984123248     -101.495106
9.227                0.984086445     -101.673302
9.228                0.984049581     -101.851937
9.229                0.984012656     -102.031012
9.23                  0.98397567     -102.210528
9.231                0.983938624     -102.390484
9.232                0.983901518     -102.570883
9.233                0.983864352     -102.751725
9.234                0.983827127      -102.93301
9.235                0.983789844      -103.11474
9.236                0.983752503     -103.296915
9.237                0.983715104     -103.479536
9.238                0.983677648     -103.662604
9.239                0.983640136     -103.846119
9.24                 0.983602567     -104.030082
9.241                0.983564943     -104.214494
9.242                0.983527264     -104.399355
9.243                 0.98348953     -104.584668
9.244                0.983451742     -104.770431
9.245                  0.9834139     -104.956646
9.246                0.983376006     -105.143313
9.247                0.983338059     -105.330434
9.248                 0.98330006     -105.518008
9.249                 0.98326201     -105.706038
9.25                  0.98322391     -105.894522
9.251                0.983185759     -106.083462
9.252                0.983147559     -106.272859
9.253                 0.98310931     -106.462714
9.254                0.983071012     -106.653026
9.255                0.983032667     -106.843797
9.256                0.982994274     -107.035027
9.257                0.982955836     -107.226717
9.258                0.982917351     -107.418868
9.259                0.982878821      -107.61148
9.26                 0.982840247     -107.804553
9.261                0.982801629     -107.998089
9.262                0.982762968     -108.192088
9.263                0.982724264      -108.38655
9.264                0.982685519     -108.581477
9.265                0.982646733     -108.776868
9.266                0.982607906     -108.972724
9.267                0.982569039     -109.169047
9.268                0.982530134     -109.365836
9.269                 0.98249119     -109.563092
9.27                 0.982452209     -109.760815
9.271                0.982413192     -109.959006
9.272                0.982374138     -110.157666
9.273                 0.98233505     -110.356795
9.274                0.982295927     -110.556394
9.275                 0.98225677     -110.756463
9.276                0.982217581     -110.957002
9.277                 0.98217836     -111.158012
9.278                0.982139107     -111.359494
9.279                0.982099825     -111.561448
9.28                 0.982060513     -111.763874
9.281                0.982021172     -111.966773
9.282                0.981981804     -112.170145
9.283                0.981942408     -112.373991
9.284                0.981902987     -112.578311
9.285                0.981863541     -112.783106
9.286                 0.98182407     -112.988376
9.287                0.981784576     -113.194121
9.288                 0.98174506     -113.400341
9.289                0.981705522     -113.607038
9.29                 0.981665964     -113.814211
9.291                0.981626386     -114.021861
9.292                0.981586789     -114.229988
9.293                0.981547175     -114.438592
9.294                0.981507544     -114.647674
9.295                0.981467897     -114.857234
9.296                0.981428236     -115.067272
9.297                0.981388561     -115.277788
9.298                0.981348873     -115.488784
9.299                0.981309173     -115.700258
9.3                  0.981269463     -115.912212
9.301                0.981229743     -116.124646
9.302                0.981190015     -116.337559
9.303                0.981150279     -116.550952
9.304                0.981110537     -116.764825
9.305                0.981070789     -116.979178
9.306                0.981031037     -117.194012
9.307                0.980991282     -117.409327
9.308                0.980951525     -117.625122
9.309                0.980911767     -117.841398
9.31                 0.980872009     -118.058156
9.311                0.980832252     -118.275394
9.312                0.980792498     -118.493114
9.313                0.980752748     -118.711314
9.314                0.980713002     -118.929997
9.315                0.980673263      -119.14916
9.316                0.980633531     -119.368805
9.317                0.980593807     -119.588932
9.318                0.980554093      -119.80954
9.319                0.980514389     -120.030629
9.32                 0.980474698       -120.2522
9.321                 0.98043502     -120.474252
9.322                0.980395357     -120.696786
9.323                0.980355709     -120.919801
9.324                0.980316079     -121.143297
9.325                0.980276467     -121.367274
9.326                0.980236875     -121.591732
9.327                0.980197304     -121.816672
9.328                0.980157755     -122.042091
9.329                0.980118229     -122.267992
9.33                 0.980078729     -122.494373
9.331                0.980039255     -122.721234
9.332                0.979999808     -122.948575
9.333                0.979960391     -123.176396
9.334                0.979921004     -123.404697
9.335                0.979881649     -123.633477
9.336                0.979842326     -123.862736
9.337                0.979803039     -124.092474
9.338                0.979763787     -124.322691
9.339                0.979724573     -124.553385
9.34                 0.979685398     -124.784558
9.341                0.979646263     -125.016208
9.342                0.979607169     -125.248335
9.343                0.979568119     -125.480939
9.344                0.979529113      -125.71402
9.345                0.979490154     -125.947576
9.346                0.979451242     -126.181608
9.347                0.979412379     -126.416115
9.348                0.979373567     -126.651097
9.349                0.979334807     -126.886553
9.35                   0.9792961     -127.122483
9.351                0.979257449     -127.358885
9.352                0.979218854     -127.595761
9.353                0.979180317     -127.833108
9.354                0.979141841     -128.070927
9.355                0.979103425     -128.309216
9.356                0.979065073     -128.547976
9.357                0.979026785     -128.787206
9.358                0.978988563     -129.026905
9.359                0.978950409     -129.267072
9.36                 0.978912324     -129.507706
9.361                 0.97887431     -129.748808
9.362                0.978836368     -129.990375
9.363                0.978798501     -130.232409
9.364                 0.97876071     -130.474907
9.365                0.978722996     -130.717869
9.366                0.978685361     -130.961294
9.367                0.978647807     -131.205181
9.368                0.978610335      -131.44953
9.369                0.978572947     -131.694339
9.37                 0.978535646     -131.939609
9.371                0.978498431     -132.185337
9.372                0.978461306     -132.431523
9.373                0.978424272     -132.678166
9.374                 0.97838733     -132.925265
9.375                0.978350483     -133.172819
9.376                0.978313732     -133.420827
9.377                0.978277078     -133.669288
9.378                0.978240524     -133.918201
9.379                0.978204071     -134.167565
9.38                 0.978167721     -134.417379
9.381                0.978131476     -134.667642
9.382                0.978095338     -134.918352
9.383                0.978059307     -135.169509
9.384                0.978023387     -135.421111
9.385                0.977987579     -135.673157
9.386                0.977951884     -135.925646
9.387                0.977916304     -136.178577
9.388                0.977880842     -136.431949
9.389                0.977845499     -136.685759
9.39                 0.977810276     -136.940007
9.391                0.977775176     -137.194692
9.392                0.977740201     -137.449812
9.393                0.977705351     -137.705366
9.394                 0.97767063     -137.961353
9.395                0.977636038      -138.21777
9.396                0.977601578     -138.474618
