! TOUCHSTONE file generated by CST DESIGN STUDIO
! Date and time: Tue Feb  4 13:01:03 2025
! Project name: C:\Work\MatlabApps\UnitCellOptimizationMatlab\CST\unitcell.cst
! Tree item: Tasks\Sweep1\SPara1\S-Parameters
! Header version: 2024
! Port assignment regex: !\s*Touchstone port\s*([0-9]+)\s*=\s*(CST MWS port|CST DES external port|CST DES block port)\s*(.+)\s* \(\"(.*)\"\)(\s*mode\s*([0-9]+))?.*
! Touchstone port assignment:
! Touchstone port 1 = CST DES external port 1 ("")
# GHz S MA R 50
9                     0.99004166     -73.4437017
9.001                0.990018931     -73.5514161
9.002                0.989996133     -73.6593889
9.003                0.989973267     -73.7676211
9.004                0.989950331     -73.8761132
9.005                0.989927326     -73.9848662
9.006                0.989904252     -74.0938807
9.007                0.989881109     -74.2031575
9.008                0.989857896     -74.3126975
9.009                0.989834613     -74.4225014
9.01                  0.98981126     -74.5325699
9.011                0.989787837     -74.6429038
9.012                0.989764344      -74.753504
9.013                 0.98974078     -74.8643713
9.014                0.989717145     -74.9755063
9.015                 0.98969344     -75.0869099
9.016                0.989669664     -75.1985829
9.017                0.989645817      -75.310526
9.018                0.989621899     -75.4227402
9.019                0.989597909     -75.5352261
9.02                 0.989573848     -75.6479845
9.021                0.989549715     -75.7610163
9.022                 0.98952551     -75.8743223
9.023                0.989501234     -75.9879032
9.024                0.989476885       -76.10176
9.025                0.989452464     -76.2158932
9.026                 0.98942797     -76.3303039
9.027                0.989403404     -76.4449928
9.028                0.989378765     -76.5599607
9.029                0.989354053     -76.6752084
9.03                 0.989329268     -76.7907368
9.031                 0.98930441     -76.9065466
9.032                0.989279478     -77.0226387
9.033                0.989254473     -77.1390139
9.034                0.989229394      -77.255673
9.035                0.989204242     -77.3726169
9.036                0.989179015     -77.4898463
9.037                0.989153715     -77.6073622
9.038                 0.98912834     -77.7251653
9.039                0.989102891     -77.8432565
9.04                 0.989077368     -77.9616366
9.041                0.989051769     -78.0803064
9.042                0.989026096     -78.1992668
9.043                0.989000348     -78.3185187
9.044                0.988974525     -78.4380628
9.045                0.988948627        -78.5579
9.046                0.988922654     -78.6780311
9.047                0.988896604     -78.7984571
9.048                 0.98887048     -78.9191787
9.049                0.988844279     -79.0401968
9.05                 0.988818003     -79.1615123
9.051                0.988791651     -79.2831259
9.052                0.988765222     -79.4050386
9.053                0.988738718     -79.5272512
9.054                0.988712136     -79.6497646
9.055                0.988685479     -79.7725797
9.056                0.988658745     -79.8956972
9.057                0.988631933      -80.019118
9.058                0.988605045     -80.1428431
9.059                 0.98857808     -80.2668733
9.06                 0.988551038     -80.3912095
9.061                0.988523919     -80.5158524
9.062                0.988496722     -80.6408031
9.063                0.988469448     -80.7660623
9.064                0.988442096      -80.891631
9.065                0.988414666       -81.01751
9.066                0.988387158     -81.1437002
9.067                0.988359573     -81.2702025
9.068                0.988331909     -81.3970177
9.069                0.988304168     -81.5241467
9.07                 0.988276347     -81.6515905
9.071                0.988248449     -81.7793499
9.072                0.988220472     -81.9074258
9.073                0.988192416      -82.035819
9.074                0.988164282     -82.1645305
9.075                0.988136069     -82.2935612
9.076                0.988107777     -82.4229119
9.077                0.988079406     -82.5525835
9.078                0.988050956      -82.682577
9.079                0.988022426     -82.8128932
9.08                 0.987993818      -82.943533
9.081                0.987965129     -83.0744973
9.082                0.987936362     -83.2057871
9.083                0.987907515     -83.3374032
9.084                0.987878588     -83.4693465
9.085                0.987849581     -83.6016179
9.086                0.987820495     -83.7342183
9.087                0.987791329     -83.8671487
9.088                0.987762083     -84.0004099
9.089                0.987732756     -84.1340028
9.09                  0.98770335     -84.2679284
9.091                0.987673863     -84.4021876
9.092                0.987644296     -84.5367812
9.093                0.987614649     -84.6717102
9.094                0.987584922     -84.8069755
9.095                0.987555114      -84.942578
9.096                0.987525225     -85.0785187
9.097                0.987495256     -85.2147983
9.098                0.987465206     -85.3514179
9.099                0.987435075     -85.4883784
9.1                  0.987404864     -85.6256807
9.101                0.987374572     -85.7633256
9.102                0.987344199     -85.9013142
9.103                0.987313745     -86.0396473
9.104                 0.98728321     -86.1783259
9.105                0.987252594     -86.3173509
9.106                0.987221897     -86.4567231
9.107                0.987191119     -86.5964436
9.108                 0.98716026     -86.7365133
9.109                 0.98712932      -86.876933
9.11                 0.987098298     -87.0177037
9.111                0.987067196     -87.1588264
9.112                0.987036012     -87.3003019
9.113                0.987004747     -87.4421311
9.114                  0.9869734     -87.5843151
9.115                0.986941973     -87.7268547
9.116                0.986910464     -87.8697508
9.117                0.986878874     -88.0130045
9.118                0.986847202     -88.1566165
9.119                0.986815449     -88.3005879
9.12                 0.986783615     -88.4449196
9.121                  0.9867517     -88.5896124
9.122                0.986719703     -88.7346674
9.123                0.986687625     -88.8800854
9.124                0.986655466     -89.0258675
9.125                0.986623225     -89.1720144
9.126                0.986590904     -89.3185272
9.127                0.986558501     -89.4654068
9.128                0.986526016      -89.612654
9.129                0.986493451     -89.7602699
9.13                 0.986460804     -89.9082554
9.131                0.986428077     -90.0566113
9.132                0.986395268     -90.2053387
9.133                0.986362378     -90.3544385
9.134                0.986329407     -90.5039115
9.135                0.986296355     -90.6537587
9.136                0.986263223     -90.8039811
9.137                0.986230009     -90.9545795
9.138                0.986196715      -91.105555
9.139                 0.98616334     -91.2569083
9.14                 0.986129884     -91.4086405
9.141                0.986096348     -91.5607525
9.142                0.986062731     -91.7132452
9.143                0.986029034     -91.8661195
9.144                0.985995256     -92.0193764
9.145                0.985961399     -92.1730168
9.146                0.985927461     -92.3270415
9.147                0.985893443     -92.4814516
9.148                0.985859344     -92.6362479
9.149                0.985825166     -92.7914314
9.15                 0.985790909      -92.947003
9.151                0.985756571     -93.1029636
9.152                0.985722154     -93.2593141
9.153                0.985687658     -93.4160554
9.154                0.985653082     -93.5731885
9.155                0.985618427     -93.7307143
9.156                0.985583693     -93.8886337
9.157                 0.98554888     -94.0469476
9.158                0.985513989     -94.2056569
9.159                0.985479018     -94.3647625
9.16                 0.985443969     -94.5242653
9.161                0.985408842     -94.6841663
9.162                0.985373637     -94.8444664
9.163                0.985338354     -95.0051663
9.164                0.985302993     -95.1662672
9.165                0.985267554     -95.3277698
9.166                0.985232037      -95.489675
9.167                0.985196444     -95.6519838
9.168                0.985160773      -95.814697
9.169                0.985125026     -95.9778156
9.17                 0.985089201     -96.1413404
9.171                  0.9850533     -96.3052723
9.172                0.985017323     -96.4696123
9.173                 0.98498127     -96.6343611
9.174                0.984945141     -96.7995198
9.175                0.984908936      -96.965089
9.176                0.984872656     -97.1310699
9.177                0.984836301     -97.2974631
9.178                0.984799871     -97.4642697
9.179                0.984763366     -97.6314904
9.18                 0.984726786     -97.7991261
9.181                0.984690133     -97.9671778
9.182                0.984653406     -98.1356462
9.183                0.984616605     -98.3045322
9.184                 0.98457973     -98.4738368
9.185                0.984542783     -98.6435607
9.186                0.984505763     -98.8137047
9.187                 0.98446867     -98.9842699
9.188                0.984431505     -99.1552569
9.189                0.984394268     -99.3266666
9.19                  0.98435696        -99.4985
9.191                 0.98431958     -99.6707577
9.192                 0.98428213     -99.8434408
9.193                0.984244609      -100.01655
9.194                0.984207018     -100.190086
9.195                0.984169357      -100.36405
9.196                0.984131626     -100.538442
9.197                0.984093826     -100.713264
9.198                0.984055957     -100.888515
9.199                 0.98401802     -101.064198
9.2                  0.983980015     -101.240313
9.201                0.983941942      -101.41686
9.202                0.983903802     -101.593841
9.203                0.983865595     -101.771256
9.204                0.983827321     -101.949105
9.205                0.983788982     -102.127391
9.206                0.983750576     -102.306113
9.207                0.983712106     -102.485273
9.208                0.983673571      -102.66487
9.209                0.983634971     -102.844907
9.21                 0.983596308     -103.025383
9.211                0.983557581     -103.206299
9.212                0.983518791     -103.387656
9.213                0.983479938     -103.569456
9.214                0.983441024     -103.751698
9.215                0.983402048     -103.934383
9.216                0.983363011     -104.117513
9.217                0.983323913     -104.301087
9.218                0.983284756     -104.485107
9.219                0.983245538     -104.669573
9.22                 0.983206262     -104.854486
9.221                0.983166928     -105.039846
9.222                0.983127535     -105.225655
9.223                0.983088085     -105.411913
9.224                0.983048579     -105.598621
9.225                0.983009016     -105.785779
9.226                0.982969397     -105.973388
9.227                0.982929724      -106.16145
9.228                0.982889995     -106.349963
9.229                0.982850213      -106.53893
9.23                 0.982810378      -106.72835
9.231                 0.98277049     -106.918225
9.232                 0.98273055     -107.108554
9.233                0.982690559      -107.29934
9.234                0.982650516     -107.490581
9.235                0.982610424      -107.68228
9.236                0.982570282     -107.874435
9.237                0.982530091     -108.067049
9.238                0.982489853     -108.260122
9.239                0.982449566     -108.453654
9.24                 0.982409233     -108.647646
9.241                0.982368854     -108.842098
9.242                 0.98232843     -109.037011
9.243                0.982287961     -109.232386
9.244                0.982247448     -109.428223
9.245                0.982206892     -109.624522
9.246                0.982166293     -109.821285
9.247                0.982125653     -110.018511
9.248                0.982084972     -110.216202
9.249                0.982044251     -110.414357
9.25                 0.982003491     -110.612977
9.251                0.981962692     -110.812063
9.252                0.981921855     -111.011616
9.253                0.981880982     -111.211635
9.254                0.981840072     -111.412121
9.255                0.981799127     -111.613074
9.256                0.981758148     -111.814496
9.257                0.981717135     -112.016386
9.258                0.981676089     -112.218745
9.259                0.981635012     -112.421573
9.26                 0.981593903     -112.624871
9.261                0.981552765     -112.828639
9.262                0.981511597     -113.032877
9.263                0.981470401     -113.237586
9.264                0.981429178     -113.442767
9.265                0.981387928     -113.648419
9.266                0.981346653     -113.854543
9.267                0.981305354     -114.061139
9.268                 0.98126403     -114.268208
9.269                0.981222685      -114.47575
9.27                 0.981181317     -114.683765
9.271                0.981139929     -114.892254
9.272                0.981098521     -115.101216
9.273                0.981057095     -115.310653
9.274                0.981015651     -115.520563
9.275                0.980974191     -115.730949
9.276                0.980932715     -115.941809
9.277                0.980891224     -116.153144
9.278                 0.98084972     -116.364955
9.279                0.980808204     -116.577241
9.28                 0.980766676     -116.790002
9.281                0.980725139      -117.00324
9.282                0.980683592     -117.216953
9.283                0.980642037     -117.431143
9.284                0.980600475     -117.645809
9.285                0.980558908     -117.860951
9.286                0.980517336      -118.07657
9.287                0.980475761     -118.292666
9.288                0.980434183     -118.509238
9.289                0.980392605     -118.726287
9.29                 0.980351026     -118.943813
9.291                0.980309449     -119.161816
9.292                0.980267874     -119.380296
9.293                0.980226303     -119.599253
9.294                0.980184737     -119.818687
9.295                0.980143177     -120.038598
9.296                0.980101624     -120.258986
9.297                 0.98006008     -120.479851
9.298                0.980018546     -120.701193
9.299                0.979977023     -120.923011
9.3                  0.979935513     -121.145307
9.301                0.979894017     -121.368079
9.302                0.979852535     -121.591328
9.303                0.979811071     -121.815053
9.304                0.979769623     -122.039255
9.305                0.979728195     -122.263933
9.306                0.979686788     -122.489087
9.307                0.979645402     -122.714717
9.308                0.979604039     -122.940822
9.309                0.979562701     -123.167404
9.31                 0.979521389      -123.39446
9.311                0.979480104     -123.621991
9.312                0.979438848     -123.849997
9.313                0.979397622     -124.078478
9.314                0.979356427     -124.307433
9.315                0.979315266     -124.536862
9.316                0.979274139     -124.766764
9.317                0.979233048      -124.99714
9.318                0.979191994     -125.227988
9.319                0.979150979     -125.459309
9.32                 0.979110005     -125.691103
9.321                0.979069073     -125.923368
9.322                0.979028183     -126.156104
9.323                0.978987339     -126.389311
9.324                0.978946541     -126.622989
9.325                0.978905791     -126.857137
9.326                0.978865091     -127.091754
9.327                0.978824442     -127.326841
9.328                0.978783845     -127.562395
9.329                0.978743302     -127.798418
9.33                 0.978702815     -128.034908
9.331                0.978662386     -128.271865
9.332                0.978622015     -128.509288
9.333                0.978581705     -128.747177
9.334                0.978541458     -128.985531
9.335                0.978501274     -129.224349
9.336                0.978461155      -129.46363
9.337                0.978421103     -129.703375
9.338                0.978381121     -129.943582
9.339                0.978341208      -130.18425
9.34                 0.978301368      -130.42538
9.341                0.978261601     -130.666969
9.342                 0.97822191     -130.909018
9.343                0.978182296     -131.151525
9.344                0.978142761      -131.39449
9.345                0.978103306     -131.637911
9.346                0.978063933     -131.881789
9.347                0.978024645     -132.126122
9.348                0.977985442     -132.370909
9.349                0.977946326     -132.616149
9.35                   0.9779073     -132.861841
9.351                0.977868364     -133.107985
9.352                0.977829522      -133.35458
9.353                0.977790773     -133.601623
9.354                0.977752121     -133.849116
9.355                0.977713567     -134.097055
9.356                0.977675113     -134.345441
9.357                 0.97763676     -134.594272
9.358                 0.97759851     -134.843548
9.359                0.977560366     -135.093266
9.36                 0.977522329     -135.343426
9.361                  0.9774844     -135.594027
9.362                0.977446582     -135.845068
9.363                0.977408877     -136.096547
9.364                0.977371286     -136.348463
9.365                0.977333811     -136.600815
9.366                0.977296453     -136.853601
9.367                0.977259216     -137.106821
9.368                  0.9772221     -137.360473
9.369                0.977185108     -137.614556
9.37                 0.977148241     -137.869068
9.371                0.977111502     -138.124008
9.372                0.977074891     -138.379375
9.373                0.977038412     -138.635167
9.374                0.977002065     -138.891383
9.375                0.976965853     -139.148021
9.376                0.976929777      -139.40508
9.377                 0.97689384     -139.662558
9.378                0.976858044     -139.920454
9.379                 0.97682239     -140.178766
9.38                  0.97678688     -140.437493
9.381                0.976751516     -140.696634
9.382                0.976716299     -140.956185
9.383                0.976681233     -141.216147
9.384                0.976646319     -141.476517
9.385                0.976611558     -141.737294
9.386                0.976576953     -141.998475
9.387                0.976542505      -142.26006
9.388                0.976508216     -142.522046
9.389                0.976474089     -142.784432
9.39                 0.976440125     -143.047215
9.391                0.976406326     -143.310395
9.392                0.976372695     -143.573969
9.393                0.976339232     -143.837936
9.394                 0.97630594     -144.102293
9.395                 0.97627282     -144.367039
9.396                0.976239876     -144.632171
