! TOUCHSTONE file generated by CST DESIGN STUDIO
! Date and time: Tue Feb  4 17:43:47 2025
! Project name: C:\Work\MatlabApps\UnitCellOptimizationMatlab\CST\unitcell.cst
! Tree item: Tasks\Sweep1\SPara1\S-Parameters
! Header version: 2024
! Port assignment regex: !\s*Touchstone port\s*([0-9]+)\s*=\s*(CST MWS port|CST DES external port|CST DES block port)\s*(.+)\s* \(\"(.*)\"\)(\s*mode\s*([0-9]+))?.*
! Touchstone port assignment:
! Touchstone port 1 = CST DES external port 1 ("")
# GHz S MA R 50
9                     0.97321821     -83.5354061
9.001                0.973183579     -83.6817016
9.002                0.973148481     -83.8284074
9.003                0.973112914     -83.9755245
9.004                0.973076877     -84.1230543
9.005                0.973040366     -84.2709978
9.006                0.973003381     -84.4193563
9.007                0.972965919      -84.568131
9.008                0.972927976     -84.7173231
9.009                0.972889553     -84.8669338
9.01                 0.972850645     -85.0169642
9.011                0.972811251     -85.1674156
9.012                0.972771368     -85.3182891
9.013                0.972730995     -85.4695861
9.014                 0.97269013     -85.6213076
9.015                0.972648769     -85.7734548
9.016                0.972606911     -85.9260291
9.017                0.972564554     -86.0790315
9.018                0.972521695     -86.2324634
9.019                0.972478332     -86.3863258
9.02                 0.972434464       -86.54062
9.021                0.972390087     -86.6953472
9.022                  0.9723452     -86.8505087
9.023                  0.9722998     -87.0061055
9.024                0.972253886      -87.162139
9.025                0.972207455     -87.3186103
9.026                0.972160505     -87.4755207
9.027                0.972113034     -87.6328713
9.028                0.972065039     -87.7906634
9.029                0.972016519     -87.9488982
9.03                 0.971967471     -88.1075769
9.031                0.971917894     -88.2667006
9.032                0.971867784     -88.4262707
9.033                0.971817141     -88.5862883
9.034                0.971765961     -88.7467546
9.035                0.971714243     -88.9076708
9.036                0.971661984     -89.0690382
9.037                0.971609183      -89.230858
9.038                0.971555838     -89.3931313
9.039                0.971501945     -89.5558594
9.04                 0.971447504     -89.7190434
9.041                0.971392512     -89.8826847
9.042                0.971336967     -90.0467843
9.043                0.971280867     -90.2113436
9.044                0.971224209     -90.3763636
9.045                0.971166993     -90.5418457
9.046                0.971109215      -90.707791
9.047                0.971050875     -90.8742007
9.048                0.970991968      -91.041076
9.049                0.970932495     -91.2084182
9.05                 0.970872452     -91.3762283
9.051                0.970811838     -91.5445078
9.052                0.970750651     -91.7132576
9.053                0.970688889      -91.882479
9.054                0.970626549     -92.0521733
9.055                 0.97056363     -92.2223416
9.056                 0.97050013     -92.3929851
9.057                0.970436047     -92.5641049
9.058                0.970371379     -92.7357024
9.059                0.970306125     -92.9077786
9.06                 0.970240281     -93.0803348
9.061                0.970173847     -93.2533721
9.062                 0.97010682     -93.4268918
9.063                0.970039199     -93.6008949
9.064                0.969970982     -93.7753828
9.065                0.969902167     -93.9503565
9.066                0.969832752     -94.1258172
9.067                0.969762736     -94.3017661
9.068                0.969692116     -94.4782044
9.069                 0.96962089     -94.6551332
9.07                 0.969549058     -94.8325538
9.071                0.969476618     -95.0104671
9.072                0.969403567     -95.1888746
9.073                0.969329903     -95.3677771
9.074                0.969255626     -95.5471761
9.075                0.969180734     -95.7270724
9.076                0.969105225     -95.9074675
9.077                0.969029097     -96.0883622
9.078                0.968952348     -96.2697579
9.079                0.968874978     -96.4516556
9.08                 0.968796984     -96.6340565
9.081                0.968718365     -96.8169617
9.082                0.968639119     -97.0003724
9.083                0.968559246     -97.1842895
9.084                0.968478742     -97.3687144
9.085                0.968397608      -97.553648
9.086                0.968315841     -97.7390915
9.087                 0.96823344      -97.925046
9.088                0.968150404     -98.1115126
9.089                0.968066731     -98.2984924
9.09                  0.96798242     -98.4859865
9.091                 0.96789747     -98.6739959
9.092                0.967811879     -98.8625218
9.093                0.967725645     -99.0515653
9.094                0.967638769     -99.2411273
9.095                0.967551247      -99.431209
9.096                 0.96746308     -99.6218114
9.097                0.967374266     -99.8129357
9.098                0.967284804     -100.004583
9.099                0.967194693     -100.196754
9.1                  0.967103931      -100.38945
9.101                0.967012518     -100.582671
9.102                0.966920452      -100.77642
9.103                0.966827733     -100.970697
9.104                0.966734359     -101.165503
9.105                 0.96664033     -101.360839
9.106                0.966545644     -101.556706
9.107                0.966450301     -101.753105
9.108                  0.9663543     -101.950037
9.109                0.966257639     -102.147503
9.11                 0.966160319     -102.345504
9.111                0.966062338     -102.544041
9.112                0.965963696     -102.743115
9.113                0.965864391     -102.942727
9.114                0.965764424     -103.142877
9.115                0.965663793     -103.343568
9.116                0.965562498     -103.544799
9.117                0.965460539     -103.746572
9.118                0.965357914     -103.948887
9.119                0.965254624     -104.151746
9.12                 0.965150667     -104.355149
9.121                0.965046044     -104.559097
9.122                0.964940754     -104.763592
9.123                0.964834796     -104.968633
9.124                0.964728171     -105.174223
9.125                0.964620878     -105.380361
9.126                0.964512916     -105.587048
9.127                0.964404287     -105.794286
9.128                0.964294988     -106.002076
9.129                0.964185021     -106.210417
9.13                 0.964074385     -106.419311
9.131                0.963963081     -106.628759
9.132                0.963851107     -106.838762
9.133                0.963738465      -107.04932
9.134                0.963625154     -107.260433
9.135                0.963511175     -107.472104
9.136                0.963396528     -107.684332
9.137                0.963281212     -107.897118
9.138                0.963165228     -108.110464
9.139                0.963048577     -108.324369
9.14                 0.962931259     -108.538834
9.141                0.962813274     -108.753861
9.142                0.962694622     -108.969449
9.143                0.962575305       -109.1856
9.144                0.962455323     -109.402314
9.145                0.962334676     -109.619591
9.146                0.962213365     -109.837434
9.147                0.962091391     -110.055841
9.148                0.961968754     -110.274814
9.149                0.961845455     -110.494353
9.15                 0.961721496     -110.714459
9.151                0.961596877     -110.935132
9.152                0.961471598     -111.156373
9.153                0.961345662     -111.378183
9.154                0.961219069     -111.600562
9.155                 0.96109182      -111.82351
9.156                0.960963917     -112.047028
9.157                 0.96083536     -112.271117
9.158                0.960706151     -112.495777
9.159                0.960576291     -112.721008
9.16                 0.960445782     -112.946812
9.161                0.960314625     -113.173187
9.162                0.960182822     -113.400136
9.163                0.960050373     -113.627658
9.164                0.959917282     -113.855753
9.165                 0.95978355     -114.084422
9.166                0.959649177     -114.313665
9.167                0.959514167     -114.543483
9.168                0.959378521     -114.773876
9.169                 0.95924224     -115.004844
9.17                 0.959105328     -115.236388
9.171                0.958967786     -115.468508
9.172                0.958829615     -115.701203
9.173                0.958690819     -115.934475
9.174                  0.9585514     -116.168324
9.175                0.958411359     -116.402749
9.176                  0.9582707     -116.637751
9.177                0.958129424     -116.873331
9.178                0.957987535     -117.109487
9.179                0.957845034     -117.346221
9.18                 0.957701925     -117.583533
9.181                 0.95755821     -117.821422
9.182                0.957413892     -118.059888
9.183                0.957268973     -118.298933
9.184                0.957123458     -118.538555
9.185                0.956977347     -118.778755
9.186                0.956830646     -119.019533
9.187                0.956683356     -119.260889
9.188                0.956535482     -119.502822
9.189                0.956387026     -119.745334
9.19                 0.956237991     -119.988422
9.191                0.956088381     -120.232089
9.192                  0.9559382     -120.476332
9.193                0.955787451     -120.721154
9.194                0.955636137     -120.966552
9.195                0.955484263     -121.212527
9.196                0.955331832     -121.459079
9.197                0.955178848     -121.706207
9.198                0.955025315     -121.953912
9.199                0.954871236     -122.202192
9.2                  0.954716617     -122.451049
9.201                 0.95456146     -122.700481
9.202                0.954405771     -122.950488
9.203                0.954249553     -123.201069
9.204                0.954092812     -123.452225
9.205                 0.95393555     -123.703955
9.206                0.953777773     -123.956259
9.207                0.953619486     -124.209135
9.208                0.953460693     -124.462585
9.209                0.953301398     -124.716606
9.21                 0.953141608     -124.971199
9.211                0.952981325     -125.226363
9.212                0.952820557     -125.482097
9.213                0.952659307     -125.738402
9.214                 0.95249758     -125.995276
9.215                0.952335382     -126.252718
9.216                0.952172719     -126.510728
9.217                0.952009595     -126.769306
9.218                0.951846016      -127.02845
9.219                0.951681987     -127.288161
9.22                 0.951517515     -127.548436
9.221                0.951352604     -127.809275
9.222                0.951187261     -128.070678
9.223                0.951021491     -128.332644
9.224                  0.9508553     -128.595172
9.225                0.950688695      -128.85826
9.226                0.950521681     -129.121908
9.227                0.950354264     -129.386116
9.228                0.950186451     -129.650881
9.229                0.950018248     -129.916204
9.23                 0.949849661     -130.182082
9.231                0.949680697     -130.448516
9.232                0.949511362     -130.715503
9.233                0.949341664     -130.983043
9.234                0.949171608     -131.251135
9.235                0.949001201     -131.519777
9.236                 0.94883045     -131.788968
9.237                0.948659363     -132.058708
9.238                0.948487946     -132.328994
9.239                0.948316206     -132.599826
9.24                 0.948144151     -132.871202
9.241                0.947971788     -133.143121
9.242                0.947799123     -133.415581
9.243                0.947626165     -133.688582
9.244                 0.94745292     -133.962121
9.245                0.947279397     -134.236197
9.246                0.947105603      -134.51081
9.247                0.946931546     -134.785956
9.248                0.946757234     -135.061635
9.249                0.946582673     -135.337846
9.25                 0.946407873     -135.614585
9.251                0.946232841     -135.891853
9.252                0.946057586     -136.169647
9.253                0.945882114     -136.447966
9.254                0.945706436     -136.726807
9.255                0.945530559      -137.00617
9.256                 0.94535449     -137.286051
9.257                 0.94517824     -137.566451
9.258                0.945001816     -137.847366
9.259                0.944825226     -138.128794
9.26                  0.94464848     -138.410735
9.261                0.944471587     -138.693185
9.262                0.944294554     -138.976144
9.263                0.944117391     -139.259609
9.264                0.943940106     -139.543577
9.265                0.943762709     -139.828047
9.266                0.943585209     -140.113018
9.267                0.943407615     -140.398486
9.268                0.943229936     -140.684449
9.269                0.943052181     -140.970906
9.27                 0.942874359     -141.257854
9.271                0.942696481     -141.545291
9.272                0.942518554     -141.833214
9.273                 0.94234059     -142.121622
9.274                0.942162597     -142.410512
9.275                0.941984584     -142.699881
9.276                0.941806563     -142.989728
9.277                0.941628541     -143.280049
9.278                 0.94145053     -143.570843
9.279                0.941272539     -143.862107
9.28                 0.941094577     -144.153837
9.281                0.940916655     -144.446033
9.282                0.940738783     -144.738691
9.283                 0.94056097     -145.031808
9.284                0.940383227     -145.325382
9.285                0.940205565      -145.61941
9.286                0.940027992      -145.91389
9.287                 0.93985052     -146.208819
9.288                0.939673158     -146.504193
9.289                0.939495918     -146.800011
9.29                 0.939318808     -147.096269
9.291                0.939141841     -147.392964
9.292                0.938965026     -147.690094
9.293                0.938788373     -147.987655
9.294                0.938611894     -148.285645
9.295                0.938435598     -148.584061
9.296                0.938259497     -148.882899
9.297                  0.9380836     -149.182157
9.298                 0.93790792     -149.481832
9.299                0.937732465     -149.781919
9.3                  0.937557248     -150.082417
9.301                0.937382279     -150.383322
9.302                0.937207568      -150.68463
9.303                0.937033127      -150.98634
9.304                0.936858966     -151.288446
9.305                0.936685097     -151.590946
9.306                0.936511529     -151.893838
9.307                0.936338274     -152.197116
9.308                0.936165344     -152.500778
9.309                0.935992748     -152.804821
9.31                 0.935820498     -153.109241
9.311                0.935648605     -153.414034
9.312                0.935477079     -153.719198
9.313                0.935305933     -154.024728
9.314                0.935135176      -154.33062
9.315                 0.93496482     -154.636873
9.316                0.934794876     -154.943481
9.317                0.934625355     -155.250441
9.318                0.934456268     -155.557749
9.319                0.934287626     -155.865403
9.32                  0.93411944     -156.173397
9.321                0.933951721     -156.481728
9.322                 0.93378448     -156.790393
9.323                0.933617728     -157.099388
9.324                0.933451477     -157.408708
9.325                0.933285737      -157.71835
9.326                0.933120519      -158.02831
9.327                0.932955835     -158.338585
9.328                0.932791695     -158.649169
9.329                 0.93262811      -158.96006
9.33                 0.932465092     -159.271253
9.331                0.932302651     -159.582744
9.332                0.932140798     -159.894529
9.333                0.931979544     -160.206604
9.334                  0.9318189     -160.518965
9.335                0.931658877     -160.831608
9.336                0.931499486     -161.144529
9.337                0.931340737     -161.457723
9.338                0.931182642     -161.771187
9.339                 0.93102521     -162.084916
9.34                 0.930868454     -162.398905
9.341                0.930712383     -162.713152
9.342                0.930557008      -163.02765
9.343                0.930402341     -163.342397
9.344                 0.93024839     -163.657388
9.345                0.930095168     -163.972618
9.346                0.929942684     -164.288083
9.347                0.929790949     -164.603778
9.348                0.929639973       -164.9197
9.349                0.929489767     -165.235844
9.35                 0.929340341     -165.552205
9.351                0.929191705     -165.868779
9.352                 0.92904387     -166.185561
9.353                0.928896846     -166.502548
9.354                0.928750642     -166.819734
9.355                0.928605269     -167.137114
9.356                0.928460737     -167.454686
9.357                0.928317056     -167.772443
9.358                0.928174236     -168.090381
9.359                0.928032285     -168.408495
9.36                 0.927891215     -168.726782
9.361                0.927751035     -169.045236
9.362                0.927611754     -169.363853
9.363                0.927473383     -169.682628
9.364                0.927335929     -170.001556
9.365                0.927199404     -170.320633
9.366                0.927063816     -170.639854
9.367                0.926929174     -170.959214
9.368                0.926795487     -171.278709
9.369                0.926662765     -171.598333
9.37                 0.926531017     -171.918083
9.371                0.926400252     -172.237953
9.372                0.926270477     -172.557938
9.373                0.926141703     -172.878034
9.374                0.926013938     -173.198236
9.375                 0.92588719      -173.51854
9.376                0.925761468     -173.838939
9.377                 0.92563678      -174.15943
9.378                0.925513134     -174.480008
9.379                 0.92539054     -174.800668
9.38                 0.925269004     -175.121404
9.381                0.925148535     -175.442213
9.382                0.925029141     -175.763089
9.383                0.924910829     -176.084028
9.384                0.924793608     -176.405024
9.385                0.924677485     -176.726072
9.386                0.924562467     -177.047169
9.387                0.924448563     -177.368308
9.388                0.924335778     -177.689486
9.389                0.924224121     -178.010696
9.39                 0.924113598     -178.331935
9.391                0.924004217     -178.653197
9.392                0.923895984     -178.974478
9.393                0.923788906     -179.295772
9.394                0.923682991     -179.617075
9.395                0.923578243     -179.938382
9.396                0.923474671      179.740313
