! TOUCHSTONE file generated by CST DESIGN STUDIO
! Date and time: Tue Feb  4 17:43:54 2025
! Project name: C:\Work\MatlabApps\UnitCellOptimizationMatlab\CST\unitcell.cst
! Tree item: Tasks\Sweep1\SPara1\S-Parameters
! Header version: 2024
! Port assignment regex: !\s*Touchstone port\s*([0-9]+)\s*=\s*(CST MWS port|CST DES external port|CST DES block port)\s*(.+)\s* \(\"(.*)\"\)(\s*mode\s*([0-9]+))?.*
! Touchstone port assignment:
! Touchstone port 1 = CST DES external port 1 ("")
# GHz S MA R 50
9                    0.977221494     -71.6800487
9.001                0.977160113     -71.7946566
9.002                0.977098381     -71.9095594
9.003                0.977036299     -72.0247581
9.004                0.976973864     -72.1402535
9.005                0.976911077     -72.2560467
9.006                0.976847934     -72.3721386
9.007                0.976784437     -72.4885301
9.008                0.976720582     -72.6052223
9.009                0.976656369      -72.722216
9.01                 0.976591798     -72.8395122
9.011                0.976526866      -72.957112
9.012                0.976461572     -73.0750162
9.013                0.976395916     -73.1932258
9.014                0.976329895     -73.3117419
9.015                 0.97626351     -73.4305653
9.016                0.976196759     -73.5496972
9.017                 0.97612964     -73.6691383
9.018                0.976062152     -73.7888898
9.019                0.975994294     -73.9089527
9.02                 0.975926066     -74.0293278
9.021                0.975857465     -74.1500162
9.022                0.975788491      -74.271019
9.023                0.975719142      -74.392337
9.024                0.975649418     -74.5139713
9.025                0.975579317      -74.635923
9.026                0.975508837     -74.7581929
9.027                0.975437978     -74.8807822
9.028                0.975366739     -75.0036918
9.029                0.975295117     -75.1269227
9.03                 0.975223113      -75.250476
9.031                0.975150725     -75.3743527
9.032                0.975077952     -75.4985538
9.033                0.975004792     -75.6230803
9.034                0.974931245     -75.7479332
9.035                0.974857308     -75.8731136
9.036                0.974782982     -75.9986226
9.037                0.974708264     -76.1244611
9.038                0.974633155     -76.2506302
9.039                0.974557651     -76.3771309
9.04                 0.974481753     -76.5039642
9.041                0.974405459     -76.6311313
9.042                0.974328767     -76.7586332
9.043                0.974251678     -76.8864708
9.044                0.974174189     -77.0146453
9.045                0.974096299     -77.1431578
9.046                0.974018008     -77.2720092
9.047                0.973939314     -77.4012006
9.048                0.973860215     -77.5307332
9.049                0.973780711     -77.6606079
9.05                 0.973700801     -77.7908258
9.051                0.973620483     -77.9213881
9.052                0.973539756     -78.0522957
9.053                0.973458619     -78.1835498
9.054                0.973377072     -78.3151513
9.055                0.973295112     -78.4471015
9.056                0.973212738     -78.5794014
9.057                 0.97312995      -78.712052
9.058                0.973046746     -78.8450545
9.059                0.972963125       -78.97841
9.06                 0.972879087     -79.1121195
9.061                0.972794629     -79.2461841
9.062                0.972709751     -79.3806049
9.063                0.972624451      -79.515383
9.064                0.972538729     -79.6505196
9.065                0.972452583     -79.7860157
9.066                0.972366013     -79.9218724
9.067                0.972279016     -80.0580909
9.068                0.972191593     -80.1946722
9.069                0.972103741     -80.3316175
9.07                  0.97201546     -80.4689278
9.071                0.971926749     -80.6066043
9.072                0.971837606     -80.7446481
9.073                0.971748031     -80.8830604
9.074                0.971658022     -81.0218421
9.075                0.971567579     -81.1609946
9.076                0.971476699     -81.3005188
9.077                0.971385383      -81.440416
9.078                0.971293629     -81.5806872
9.079                0.971201436     -81.7213335
9.08                 0.971108803     -81.8623562
9.081                0.971015728     -82.0037563
9.082                0.970922212     -82.1455351
9.083                0.970828252     -82.2876935
9.084                0.970733848     -82.4302328
9.085                0.970638999     -82.5731541
9.086                0.970543703     -82.7164585
9.087                 0.97044796     -82.8601473
9.088                0.970351769     -83.0042215
9.089                0.970255129     -83.1486823
9.09                 0.970158038     -83.2935308
9.091                0.970060496     -83.4387682
9.092                0.969962501     -83.5843957
9.093                0.969864054     -83.7304143
9.094                0.969765151     -83.8768254
9.095                0.969665794     -84.0236299
9.096                0.969565981     -84.1708292
9.097                 0.96946571     -84.3184243
9.098                0.969364982     -84.4664163
9.099                0.969263794     -84.6148066
9.1                  0.969162146     -84.7635962
9.101                0.969060038     -84.9127863
9.102                0.968957468     -85.0623781
9.103                0.968854435     -85.2123727
9.104                0.968750939     -85.3627713
9.105                0.968646978     -85.5135751
9.106                0.968542552     -85.6647853
9.107                 0.96843766      -85.816403
9.108                0.968332301     -85.9684294
9.109                0.968226474     -86.1208656
9.11                 0.968120179      -86.273713
9.111                0.968013414     -86.4269726
9.112                0.967906178     -86.5806456
9.113                0.967798472     -86.7347332
9.114                0.967690294     -86.8892365
9.115                0.967581643     -87.0441569
9.116                0.967472519     -87.1994953
9.117                0.967362921     -87.3552531
9.118                0.967252847     -87.5114315
9.119                0.967142298     -87.6680315
9.12                 0.967031273     -87.8250543
9.121                0.966919771     -87.9825013
9.122                0.966807791     -88.1403735
9.123                0.966695333     -88.2986721
9.124                0.966582395     -88.4573983
9.125                0.966468978     -88.6165534
9.126                0.966355081     -88.7761384
9.127                0.966240702     -88.9361547
9.128                0.966125842     -89.0966033
9.129                  0.9660105     -89.2574854
9.13                 0.965894675     -89.4188023
9.131                0.965778366     -89.5805552
9.132                0.965661574     -89.7427451
9.133                0.965544297     -89.9053734
9.134                0.965426536     -90.0684411
9.135                0.965308289     -90.2319496
9.136                0.965189555     -90.3958999
9.137                0.965070336     -90.5602932
9.138                 0.96495063     -90.7251308
9.139                0.964830436     -90.8904139
9.14                 0.964709754     -91.0561435
9.141                0.964588585      -91.222321
9.142                0.964466927     -91.3889474
9.143                0.964344779      -91.556024
9.144                0.964222143     -91.7235519
9.145                0.964099017     -91.8915324
9.146                0.963975401     -92.0599666
9.147                0.963851295     -92.2288556
9.148                0.963726698     -92.3982008
9.149                0.963601611     -92.5680032
9.15                 0.963476033      -92.738264
9.151                0.963349963     -92.9089844
9.152                0.963223402     -93.0801655
9.153                0.963096349     -93.2518087
9.154                0.962968805     -93.4239149
9.155                0.962840769     -93.5964854
9.156                 0.96271224     -93.7695214
9.157                 0.96258322      -93.943024
9.158                0.962453707     -94.1169944
9.159                0.962323702     -94.2914338
9.16                 0.962193205     -94.4663433
9.161                0.962062215      -94.641724
9.162                0.961930733     -94.8175772
9.163                0.961798759     -94.9939039
9.164                0.961666293     -95.1707054
9.165                0.961533335     -95.3479828
9.166                0.961399885     -95.5257372
9.167                0.961265942     -95.7039698
9.168                0.961131509     -95.8826817
9.169                0.960996583     -96.0618741
9.17                 0.960861167     -96.2415481
9.171                0.960725259     -96.4217048
9.172                0.960588861     -96.6023454
9.173                0.960451972      -96.783471
9.174                0.960314593     -96.9650827
9.175                0.960176724     -97.1471817
9.176                0.960038365     -97.3297691
9.177                0.959899518     -97.5128459
9.178                0.959760182     -97.6964134
9.179                0.959620357     -97.8804725
9.18                 0.959480045     -98.0650245
9.181                0.959339246     -98.2500704
9.182                 0.95919796     -98.4356113
9.183                0.959056188     -98.6216484
9.184                 0.95891393     -98.8081826
9.185                0.958771188     -98.9952151
9.186                0.958627961      -99.182747
9.187                0.958484251     -99.3707794
9.188                0.958340059     -99.5593133
9.189                0.958195384     -99.7483497
9.19                 0.958050228     -99.9378899
9.191                0.957904591     -100.127935
9.192                0.957758475     -100.318485
9.193                 0.95761188     -100.509543
9.194                0.957464808     -100.701108
9.195                0.957317259     -100.893182
9.196                0.957169234     -101.085767
9.197                0.957020734     -101.278862
9.198                 0.95687176     -101.472469
9.199                0.956722314     -101.666589
9.2                  0.956572397     -101.861223
9.201                0.956422009     -102.056372
9.202                0.956271152     -102.252038
9.203                0.956119827      -102.44822
9.204                0.955968035      -102.64492
9.205                0.955815778      -102.84214
9.206                0.955663057     -103.039879
9.207                0.955509874     -103.238139
9.208                0.955356229     -103.436921
9.209                0.955202125     -103.636226
9.21                 0.955047563     -103.836055
9.211                0.954892544     -104.036408
9.212                 0.95473707     -104.237288
9.213                0.954581143     -104.438693
9.214                0.954424764     -104.640627
9.215                0.954267935     -104.843088
9.216                0.954110657     -105.046079
9.217                0.953952934     -105.249601
9.218                0.953794765     -105.453653
9.219                0.953636154     -105.658238
9.22                 0.953477102     -105.863355
9.221                0.953317611     -106.069006
9.222                0.953157684     -106.275192
9.223                0.952997321     -106.481913
9.224                0.952836526      -106.68917
9.225                  0.9526753     -106.896965
9.226                0.952513646     -107.105297
9.227                0.952351565     -107.314168
9.228                0.952189061     -107.523579
9.229                0.952026135      -107.73353
9.23                 0.951862791     -107.944022
9.231                0.951699029     -108.155055
9.232                0.951534853     -108.366632
9.233                0.951370265     -108.578752
9.234                0.951205268     -108.791416
9.235                0.951039864     -109.004625
9.236                0.950874057     -109.218379
9.237                0.950707848      -109.43268
9.238                0.950541241     -109.647527
9.239                0.950374238     -109.862922
9.24                 0.950206842     -110.078866
9.241                0.950039056     -110.295359
9.242                0.949870884     -110.512401
9.243                0.949702327     -110.729993
9.244                0.949533389     -110.948137
9.245                0.949364074     -111.166831
9.246                0.949194384     -111.386078
9.247                0.949024323     -111.605878
9.248                0.948853893     -111.826231
9.249                0.948683099     -112.047138
9.25                 0.948511944     -112.268599
9.251                 0.94834043     -112.490615
9.252                0.948168562     -112.713187
9.253                0.947996343     -112.936315
9.254                0.947823776     -113.159999
9.255                0.947650866      -113.38424
9.256                0.947477616     -113.609038
9.257                0.947304029     -113.834395
9.258                 0.94713011      -114.06031
9.259                0.946955862     -114.286783
9.26                  0.94678129     -114.513816
9.261                0.946606397     -114.741408
9.262                0.946431187      -114.96956
9.263                0.946255665     -115.198273
9.264                0.946079835     -115.427546
9.265                  0.9459037      -115.65738
9.266                0.945727265     -115.887776
9.267                0.945550535     -116.118733
9.268                0.945373514     -116.350252
9.269                0.945196206     -116.582333
9.27                 0.945018615     -116.814977
9.271                0.944840747     -117.048184
9.272                0.944662606     -117.281953
9.273                0.944484197     -117.516286
9.274                0.944305523     -117.751182
9.275                0.944126591     -117.986641
9.276                0.943947405     -118.222664
9.277                 0.94376797     -118.459251
9.278                0.943588291     -118.696402
9.279                0.943408373     -118.934116
9.28                 0.943228221     -119.172395
9.281                 0.94304784     -119.411238
9.282                0.942867235     -119.650646
9.283                0.942686413     -119.890617
9.284                0.942505377     -120.131153
9.285                0.942324133     -120.372253
9.286                0.942142688     -120.613917
9.287                0.941961046     -120.856145
9.288                0.941779213     -121.098937
9.289                0.941597195     -121.342294
9.29                 0.941414997     -121.586214
9.291                0.941232626     -121.830698
9.292                0.941050086     -122.075745
9.293                0.940867385     -122.321356
9.294                0.940684527     -122.567531
9.295                0.940501519     -122.814268
9.296                0.940318367     -123.061568
9.297                0.940135077      -123.30943
9.298                0.939951656     -123.557855
9.299                0.939768109     -123.806842
9.3                  0.939584443      -124.05639
9.301                0.939400664       -124.3065
9.302                0.939216779     -124.557171
9.303                0.939032794     -124.808402
9.304                0.938848716     -125.060193
9.305                0.938664551     -125.312544
9.306                0.938480307     -125.565454
9.307                0.938295989     -125.818923
9.308                0.938111606     -126.072951
9.309                0.937927162     -126.327536
9.31                 0.937742667     -126.582678
9.311                0.937558126     -126.838377
9.312                0.937373546     -127.094632
9.313                0.937188935     -127.351442
9.314                  0.9370043     -127.608807
9.315                0.936819648     -127.866726
9.316                0.936634987     -128.125198
9.317                0.936450323     -128.384223
9.318                0.936265664       -128.6438
9.319                0.936081018     -128.903928
9.32                 0.935896393     -129.164607
9.321                0.935711795     -129.425835
9.322                0.935527232     -129.687611
9.323                0.935342712     -129.949936
9.324                0.935158244     -130.212807
9.325                0.934973834     -130.476225
9.326                 0.93478949     -130.740187
9.327                0.934605221     -131.004693
9.328                0.934421035     -131.269743
9.329                0.934236939     -131.535334
9.33                 0.934052941     -131.801467
9.331                 0.93386905     -132.068139
9.332                0.933685274      -132.33535
9.333                0.933501622     -132.603099
9.334                0.933318101     -132.871384
9.335                0.933134719     -133.140204
9.336                0.932951486     -133.409559
9.337                0.932768409     -133.679446
9.338                0.932585498     -133.949864
9.339                0.932402761     -134.220813
9.34                 0.932220205     -134.492291
9.341                0.932037841     -134.764296
9.342                0.931855677     -135.036827
9.343                0.931673721     -135.309883
9.344                0.931491982     -135.583462
9.345                0.931310469     -135.857563
9.346                0.931129191     -136.132184
9.347                0.930948158     -136.407324
9.348                0.930767377     -136.682981
9.349                0.930586858     -136.959153
9.35                  0.93040661      -137.23584
9.351                0.930226642     -137.513038
9.352                0.930046963     -137.790747
9.353                0.929867583     -138.068965
9.354                 0.92968851      -138.34769
9.355                0.929509754     -138.626921
9.356                0.929331325     -138.906655
9.357                0.929153231      -139.18689
9.358                0.928975481     -139.467626
9.359                0.928798087     -139.748859
9.36                 0.928621055     -140.030588
9.361                0.928444397     -140.312812
9.362                0.928268122     -140.595527
9.363                0.928092239     -140.878733
9.364                0.927916758     -141.162426
9.365                0.927741688     -141.446605
9.366                0.927567039     -141.731269
9.367                0.927392821     -142.016413
9.368                0.927219043     -142.302038
9.369                0.927045715     -142.588139
9.37                 0.926872847     -142.874716
9.371                0.926700448     -143.161766
9.372                0.926528529     -143.449285
9.373                0.926357099     -143.737274
9.374                0.926186167     -144.025728
9.375                0.926015745     -144.314645
9.376                0.925845841     -144.604023
9.377                0.925676465      -144.89386
9.378                0.925507627     -145.184153
9.379                0.925339338       -145.4749
9.38                 0.925171607     -145.766098
9.381                0.925004443     -146.057744
9.382                0.924837858     -146.349836
9.383                 0.92467186     -146.642371
9.384                 0.92450646     -146.935347
9.385                0.924341668      -147.22876
9.386                0.924177494     -147.522609
9.387                0.924013947      -147.81689
9.388                0.923851037     -148.111601
9.389                0.923688775     -148.406739
9.39                 0.923527171       -148.7023
9.391                0.923366234     -148.998282
9.392                0.923205974     -149.294683
9.393                0.923046402     -149.591499
9.394                0.922887527     -149.888727
9.395                0.922729359     -150.186364
9.396                0.922571908     -150.484407
