! TOUCHSTONE file generated by CST DESIGN STUDIO
! Date and time: Tue Feb  4 17:43:45 2025
! Project name: C:\Work\MatlabApps\UnitCellOptimizationMatlab\CST\unitcell.cst
! Tree item: Tasks\Sweep1\SPara1\S-Parameters
! Header version: 2024
! Port assignment regex: !\s*Touchstone port\s*([0-9]+)\s*=\s*(CST MWS port|CST DES external port|CST DES block port)\s*(.+)\s* \(\"(.*)\"\)(\s*mode\s*([0-9]+))?.*
! Touchstone port assignment:
! Touchstone port 1 = CST DES external port 1 ("")
# GHz S MA R 50
9                    0.972157469      -86.532939
9.001                 0.97212678     -86.6878117
9.002                0.972095613     -86.8431238
9.003                0.972063966     -86.9988765
9.004                0.972031837     -87.1550711
9.005                0.971999222     -87.3117087
9.006                 0.97196612     -87.4687907
9.007                0.971932529     -87.6263182
9.008                0.971898444     -87.7842925
9.009                0.971863866     -87.9427148
9.01                  0.97182879     -88.1015863
9.011                0.971793214     -88.2609082
9.012                0.971757137     -88.4206819
9.013                0.971720555     -88.5809085
9.014                0.971683466     -88.7415892
9.015                0.971645868     -88.9027253
9.016                0.971607759      -89.064318
9.017                0.971569135     -89.2263686
9.018                0.971529996     -89.3888783
9.019                0.971490337     -89.5518482
9.02                 0.971450157     -89.7152797
9.021                0.971409454     -89.8791739
9.022                0.971368225     -90.0435321
9.023                0.971326468     -90.2083555
9.024                 0.97128418     -90.3736453
9.025                 0.97124136     -90.5394028
9.026                0.971198004     -90.7056292
9.027                 0.97115411     -90.8723257
9.028                0.971109677     -91.0394936
9.029                0.971064701     -91.2071339
9.03                  0.97101918     -91.3752481
9.031                0.970973113     -91.5438373
9.032                0.970926497     -91.7129026
9.033                0.970879329     -91.8824454
9.034                0.970831607     -92.0524668
9.035                0.970783329     -92.2229681
9.036                0.970734492     -92.3939504
9.037                0.970685096      -92.565415
9.038                0.970635136     -92.7373631
9.039                0.970584611     -92.9097959
9.04                 0.970533519     -93.0827146
9.041                0.970481857     -93.2561204
9.042                0.970429623     -93.4300145
9.043                0.970376816     -93.6043981
9.044                0.970323432     -93.7792724
9.045                 0.97026947     -93.9546386
9.046                0.970214927     -94.1304978
9.047                0.970159802     -94.3068514
9.048                0.970104092     -94.4837004
9.049                0.970047795      -94.661046
9.05                 0.969990909     -94.8388895
9.051                0.969933432      -95.017232
9.052                0.969875361     -95.1960746
9.053                0.969816695     -95.3754186
9.054                0.969757432     -95.5552652
9.055                0.969697569     -95.7356154
9.056                0.969637105     -95.9164705
9.057                0.969576037     -96.0978316
9.058                0.969514364     -96.2796999
9.059                0.969452083     -96.4620765
9.06                 0.969389193     -96.6449626
9.061                0.969325691     -96.8283593
9.062                0.969261576     -97.0122677
9.063                0.969196846     -97.1966891
9.064                0.969131498     -97.3816245
9.065                0.969065532     -97.5670751
9.066                0.968998944      -97.753042
9.067                0.968931734     -97.9395263
9.068                0.968863899     -98.1265291
9.069                0.968795438     -98.3140515
9.07                 0.968726349     -98.5020947
9.071                0.968656629     -98.6906598
9.072                0.968586278     -98.8797478
9.073                0.968515293     -99.0693599
9.074                0.968443674     -99.2594971
9.075                0.968371417     -99.4501605
9.076                0.968298522     -99.6413512
9.077                0.968224987     -99.8330702
9.078                 0.96815081     -100.025319
9.079                 0.96807599     -100.218098
9.08                 0.968000525     -100.411408
9.081                0.967924413     -100.605251
9.082                0.967847654     -100.799628
9.083                0.967770245     -100.994539
9.084                0.967692186     -101.189987
9.085                0.967613474      -101.38597
9.086                0.967534108     -101.582492
9.087                0.967454087     -101.779552
9.088                 0.96737341     -101.977152
9.089                0.967292075     -102.175293
9.09                 0.967210081     -102.373976
9.091                0.967127427     -102.573201
9.092                0.967044111      -102.77297
9.093                0.966960132     -102.973284
9.094                 0.96687549     -103.174143
9.095                0.966790182     -103.375549
9.096                0.966704208     -103.577502
9.097                0.966617567     -103.780004
9.098                0.966530257     -103.983055
9.099                0.966442278     -104.186657
9.1                  0.966353629      -104.39081
9.101                0.966264308     -104.595514
9.102                0.966174315     -104.800772
9.103                 0.96608365     -105.006584
9.104                 0.96599231      -105.21295
9.105                0.965900295     -105.419873
9.106                0.965807605     -105.627351
9.107                0.965714239     -105.835387
9.108                0.965620196     -106.043981
9.109                0.965525475     -106.253134
9.11                 0.965430076     -106.462847
9.111                0.965333999     -106.673121
9.112                0.965237242     -106.883956
9.113                0.965139805     -107.095353
9.114                0.965041688     -107.307313
9.115                 0.96494289     -107.519837
9.116                0.964843411     -107.732925
9.117                0.964743251     -107.946579
9.118                0.964642409     -108.160799
9.119                0.964540885     -108.375585
9.12                 0.964438679     -108.590939
9.121                 0.96433579      -108.80686
9.122                 0.96423222     -109.023351
9.123                0.964127966     -109.240411
9.124                0.964023031     -109.458041
9.125                0.963917412     -109.676242
9.126                0.963811112     -109.895015
9.127                0.963704129     -110.114359
9.128                0.963596464     -110.334276
9.129                0.963488117     -110.554767
9.13                 0.963379088     -110.775831
9.131                0.963269378     -110.997469
9.132                0.963158987     -111.219683
9.133                0.963047916     -111.442472
9.134                0.962936164     -111.665837
9.135                0.962823733     -111.889778
9.136                0.962710623     -112.114297
9.137                0.962596835     -112.339393
9.138                0.962482369     -112.565067
9.139                0.962367226      -112.79132
9.14                 0.962251407     -113.018151
9.141                0.962134912     -113.245562
9.142                0.962017743     -113.473553
9.143                0.961899901     -113.702123
9.144                0.961781386     -113.931274
9.145                  0.9616622     -114.161007
9.146                0.961542344      -114.39132
9.147                0.961421819     -114.622215
9.148                0.961300626     -114.853691
9.149                0.961178766      -115.08575
9.15                 0.961056242     -115.318392
9.151                0.960933053     -115.551616
9.152                0.960809203     -115.785423
9.153                0.960684692     -116.019813
9.154                0.960559521     -116.254787
9.155                0.960433694     -116.490344
9.156                0.960307211     -116.726485
9.157                0.960180074      -116.96321
9.158                0.960052285     -117.200519
9.159                0.959923846     -117.438412
9.16                 0.959794759      -117.67689
9.161                0.959665026     -117.915952
9.162                 0.95953465     -118.155598
9.163                0.959403631     -118.395829
9.164                0.959271974     -118.636644
9.165                0.959139679     -118.878044
9.166                 0.95900675     -119.120029
9.167                0.958873188     -119.362598
9.168                0.958738997     -119.605751
9.169                0.958604179     -119.849489
9.17                 0.958468737      -120.09381
9.171                0.958332673     -120.338717
9.172                0.958195991     -120.584207
9.173                0.958058692      -120.83028
9.174                0.957920781     -121.076938
9.175                0.957782259     -121.324179
9.176                0.957643131     -121.572003
9.177                  0.9575034     -121.820411
9.178                0.957363068       -122.0694
9.179                0.957222139     -122.318973
9.18                 0.957080617     -122.569127
9.181                0.956938504     -122.819864
9.182                0.956795805     -123.071181
9.183                0.956652523      -123.32308
9.184                0.956508661      -123.57556
9.185                0.956364225     -123.828619
9.186                0.956219216     -124.082259
9.187                 0.95607364     -124.336477
9.188                0.955927501     -124.591275
9.189                0.955780801      -124.84665
9.19                 0.955633547     -125.102604
9.191                0.955485741     -125.359134
9.192                0.955337388     -125.616241
9.193                0.955188493     -125.873924
9.194                 0.95503906     -126.132182
9.195                0.954889094     -126.391015
9.196                0.954738599     -126.650422
9.197                0.954587579     -126.910402
9.198                0.954436041     -127.170954
9.199                0.954283988     -127.432078
9.2                  0.954131425     -127.693773
9.201                0.953978358     -127.956038
9.202                0.953824792     -128.218872
9.203                0.953670732     -128.482274
9.204                0.953516183     -128.746244
9.205                 0.95336115      -129.01078
9.206                 0.95320564     -129.275881
9.207                0.953049657     -129.541547
9.208                0.952893206     -129.807777
9.209                0.952736295     -130.074568
9.21                 0.952578928     -130.341922
9.211                0.952421112     -130.609835
9.212                0.952262851     -130.878308
9.213                0.952104153     -131.147338
9.214                0.951945024     -131.416925
9.215                0.951785468     -131.687068
9.216                0.951625494     -131.957765
9.217                0.951465107     -132.229015
9.218                0.951304313     -132.500817
9.219                0.951143119     -132.773169
9.22                 0.950981531      -133.04607
9.221                0.950819557     -133.319519
9.222                0.950657202     -133.593514
9.223                0.950494475     -133.868054
9.224                 0.95033138     -134.143137
9.225                0.950167927     -134.418762
9.226                0.950004121     -134.694928
9.227                0.949839969     -134.971632
9.228                 0.94967548     -135.248873
9.229                 0.94951066     -135.526649
9.23                 0.949345516     -135.804959
9.231                0.949180056     -136.083802
9.232                0.949014288     -136.363175
9.233                0.948848219     -136.643076
9.234                0.948681856     -136.923504
9.235                0.948515208     -137.204458
9.236                0.948348283     -137.485934
9.237                0.948181088     -137.767932
9.238                 0.94801363     -138.050449
9.239                0.947845919     -138.333484
9.24                 0.947677963     -138.617034
9.241                0.947509769     -138.901098
9.242                0.947341346     -139.185673
9.243                0.947172702     -139.470758
9.244                0.947003845      -139.75635
9.245                0.946834785     -140.042447
9.246                0.946665529     -140.329048
9.247                0.946496087     -140.616149
9.248                0.946326466     -140.903748
9.249                0.946156676     -141.191844
9.25                 0.945986726     -141.480435
9.251                0.945816624     -141.769516
9.252                0.945646379     -142.059088
9.253                0.945476001     -142.349146
9.254                0.945305499     -142.639689
9.255                0.945134881     -142.930714
9.256                0.944964157     -143.222219
9.257                0.944793337     -143.514201
9.258                0.944622429     -143.806658
9.259                0.944451443     -144.099587
9.26                 0.944280388     -144.392985
9.261                0.944109275      -144.68685
9.262                0.943938112      -144.98118
9.263                0.943766909      -145.27597
9.264                0.943595676      -145.57122
9.265                0.943424423     -145.866925
9.266                 0.94325316     -146.163084
9.267                0.943081896     -146.459693
9.268                0.942910641     -146.756749
9.269                0.942739406      -147.05425
9.27                   0.9425682     -147.352193
9.271                0.942397034     -147.650574
9.272                0.942225917     -147.949391
9.273                0.942054859     -148.248641
9.274                0.941883872      -148.54832
9.275                0.941712965     -148.848426
9.276                0.941542148     -149.148956
9.277                0.941371433     -149.449905
9.278                0.941200828     -149.751272
9.279                0.941030345     -150.053053
9.28                 0.940859995     -150.355244
9.281                0.940689787     -150.657843
9.282                0.940519732     -150.960846
9.283                0.940349841      -151.26425
9.284                0.940180124     -151.568051
9.285                0.940010593     -151.872246
9.286                0.939841257     -152.176832
9.287                0.939672128     -152.481805
9.288                0.939503215     -152.787162
9.289                0.939334531     -153.092899
9.29                 0.939166085     -153.399012
9.291                0.938997889     -153.705499
9.292                0.938829953     -154.012355
9.293                0.938662288     -154.319576
9.294                0.938494905      -154.62716
9.295                0.938327815     -154.935103
9.296                0.938161029       -155.2434
9.297                0.937994557     -155.552049
9.298                0.937828411     -155.861044
9.299                0.937662602     -156.170383
9.3                  0.937497141     -156.480062
9.301                0.937332037     -156.790076
9.302                0.937167303     -157.100423
9.303                 0.93700295     -157.411097
9.304                0.936838988     -157.722096
9.305                0.936675428     -158.033414
9.306                0.936512282     -158.345049
9.307                 0.93634956     -158.656996
9.308                0.936187274     -158.969251
9.309                0.936025433      -159.28181
9.31                  0.93586405     -159.594668
9.311                0.935703135     -159.907823
9.312                0.935542699     -160.221269
9.313                0.935382753     -160.535003
9.314                0.935223308      -160.84902
9.315                0.935064374     -161.163316
9.316                0.934905964     -161.477887
9.317                0.934748087     -161.792729
9.318                0.934590755     -162.107837
9.319                0.934433977     -162.423206
9.32                 0.934277766     -162.738834
9.321                0.934122132     -163.054715
9.322                0.933967085     -163.370845
9.323                0.933812637     -163.687219
9.324                0.933658798     -164.003833
9.325                0.933505578     -164.320684
9.326                0.933352988     -164.637765
9.327                 0.93320104     -164.955073
9.328                0.933049743     -165.272604
9.329                0.932899108     -165.590352
9.33                 0.932749145     -165.908313
9.331                0.932599865     -166.226484
9.332                0.932451279     -166.544858
9.333                0.932303396     -166.863431
9.334                0.932156227       -167.1822
9.335                0.932009782     -167.501159
9.336                0.931864072     -167.820303
9.337                0.931719106     -168.139629
9.338                0.931574894     -168.459131
9.339                0.931431447     -168.778804
9.34                 0.931288775     -169.098644
9.341                0.931146888     -169.418647
9.342                0.931005794     -169.738807
9.343                0.930865505     -170.059119
9.344                 0.93072603      -170.37958
9.345                0.930587378     -170.700184
9.346                 0.93044956     -171.020926
9.347                0.930312584     -171.341801
9.348                0.930176461     -171.662806
9.349                0.930041199     -171.983934
9.35                 0.929906808     -172.305182
9.351                0.929773297     -172.626543
9.352                0.929640675     -172.948014
9.353                0.929508952      -173.26959
9.354                0.929378136     -173.591265
9.355                0.929248237     -173.913035
9.356                0.929119263     -174.234895
9.357                0.928991222      -174.55684
9.358                0.928864125     -174.878865
9.359                0.928737978     -175.200965
9.36                 0.928612792     -175.523135
9.361                0.928488573     -175.845371
9.362                0.928365331     -176.167666
9.363                0.928243074     -176.490018
9.364                 0.92812181      -176.81242
9.365                0.928001546     -177.134867
9.366                0.927882292     -177.457355
9.367                0.927764054     -177.779878
9.368                0.927646841     -178.102432
9.369                 0.92753066     -178.425012
9.37                 0.927415519     -178.747612
9.371                0.927301425     -179.070229
9.372                0.927188385     -179.392855
9.373                0.927076408     -179.715488
9.374                0.926965499      179.961878
9.375                0.926855666      179.639249
9.376                0.926746916      179.316628
9.377                0.926639256      178.994022
9.378                0.926532693      178.671435
9.379                0.926427233      178.348872
9.38                 0.926322882      178.026338
9.381                0.926219647      177.703837
9.382                0.926117535      177.381376
9.383                0.926016551      177.058958
9.384                0.925916701       176.73659
9.385                0.925817992      176.414275
9.386                 0.92572043      176.092018
9.387                0.925624019      175.769826
9.388                0.925528766      175.447701
9.389                0.925434676      175.125651
9.39                 0.925341754      174.803678
9.391                0.925250006      174.481789
9.392                0.925159437      174.159988
9.393                0.925070051      173.838281
9.394                0.924981854      173.516671
9.395                 0.92489485      173.195164
9.396                0.924809045      172.873764
