! TOUCHSTONE file generated by CST DESIGN STUDIO
! Date and time: Tue Feb  4 17:43:56 2025
! Project name: C:\Work\MatlabApps\UnitCellOptimizationMatlab\CST\unitcell.cst
! Tree item: Tasks\Sweep1\SPara1\S-Parameters
! Header version: 2024
! Port assignment regex: !\s*Touchstone port\s*([0-9]+)\s*=\s*(CST MWS port|CST DES external port|CST DES block port)\s*(.+)\s* \(\"(.*)\"\)(\s*mode\s*([0-9]+))?.*
! Touchstone port assignment:
! Touchstone port 1 = CST DES external port 1 ("")
# GHz S MA R 50
9                    0.978118698     -68.8506194
9.001                0.978055991      -68.957852
9.002                 0.97799297     -69.0653557
9.003                0.977929633     -69.1731314
9.004                0.977865978     -69.2811798
9.005                0.977802006     -69.3895019
9.006                0.977737715     -69.4980985
9.007                0.977673104     -69.6069707
9.008                0.977608172     -69.7161191
9.009                0.977542917     -69.8255448
9.01                 0.977477339     -69.9352486
9.011                0.977411437     -70.0452314
9.012                 0.97734521     -70.1554942
9.013                0.977278656     -70.2660378
9.014                0.977211774     -70.3768631
9.015                0.977144564      -70.487971
9.016                0.977077025     -70.5993625
9.017                0.977009154     -70.7110385
9.018                0.976940952     -70.8229999
9.019                0.976872417     -70.9352475
9.02                 0.976803548     -71.0477824
9.021                0.976734344     -71.1606054
9.022                0.976664804     -71.2737176
9.023                0.976594927     -71.3871197
9.024                0.976524711     -71.5008128
9.025                0.976454156     -71.6147977
9.026                0.976383261     -71.7290755
9.027                0.976312024      -71.843647
9.028                0.976240445     -71.9585133
9.029                0.976168522     -72.0736752
9.03                 0.976096255     -72.1891336
9.031                0.976023641     -72.3048897
9.032                0.975950681     -72.4209443
9.033                0.975877373     -72.5372983
9.034                0.975803716     -72.6539528
9.035                0.975729709     -72.7709086
9.036                 0.97565535     -72.8881668
9.037                0.975580639     -73.0057284
9.038                0.975505575     -73.1235943
9.039                0.975430157     -73.2417654
9.04                 0.975354382     -73.3602428
9.041                0.975278252     -73.4790274
9.042                0.975201763     -73.5981203
9.043                0.975124916     -73.7175223
9.044                0.975047709     -73.8372346
9.045                0.974970141      -73.957258
9.046                0.974892211     -74.0775936
9.047                0.974813918     -74.1982424
9.048                0.974735261     -74.3192054
9.049                0.974656238     -74.4404836
9.05                  0.97457685     -74.5620779
9.051                0.974497093     -74.6839894
9.052                0.974416969     -74.8062191
9.053                0.974336474     -74.9287681
9.054                0.974255609     -75.0516372
9.055                0.974174373     -75.1748276
9.056                0.974092763     -75.2983403
9.057                 0.97401078     -75.4221763
9.058                0.973928422     -75.5463366
9.059                0.973845687     -75.6708222
9.06                 0.973762576     -75.7956342
9.061                0.973679087     -75.9207736
9.062                0.973595218     -76.0462415
9.063                0.973510969     -76.1720389
9.064                0.973426339     -76.2981668
9.065                0.973341326     -76.4246262
9.066                 0.97325593     -76.5514183
9.067                0.973170149     -76.6785441
9.068                0.973083983     -76.8060046
9.069                 0.97299743     -76.9338008
9.07                  0.97291049     -77.0619339
9.071                 0.97282316     -77.1904049
9.072                0.972735442     -77.3192149
9.073                0.972647332     -77.4483649
9.074                 0.97255883     -77.5778559
9.075                0.972469936     -77.7076892
9.076                0.972380647     -77.8378656
9.077                0.972290964     -77.9683864
9.078                0.972200884     -78.0992525
9.079                0.972110408     -78.2304652
9.08                 0.972019533     -78.3620253
9.081                 0.97192826     -78.4939341
9.082                0.971836586     -78.6261926
9.083                0.971744512     -78.7588019
9.084                0.971652035     -78.8917632
9.085                0.971559155     -79.0250774
9.086                0.971465871     -79.1587457
9.087                0.971372182     -79.2927692
9.088                0.971278087     -79.4271489
9.089                0.971183584     -79.5618861
9.09                 0.971088674     -79.6969818
9.091                0.970993354     -79.8324371
9.092                0.970897625      -79.968253
9.093                0.970801484     -80.1044309
9.094                0.970704932     -80.2409716
9.095                0.970607967     -80.3778765
9.096                0.970510587     -80.5151465
9.097                0.970412793     -80.6527828
9.098                0.970314583     -80.7907865
9.099                0.970215956     -80.9291588
9.1                  0.970116912     -81.0679007
9.101                0.970017448     -81.2070135
9.102                0.969917566     -81.3464981
9.103                0.969817263     -81.4863559
9.104                0.969716538     -81.6265879
9.105                0.969615391     -81.7671952
9.106                0.969513821      -81.908179
9.107                0.969411827     -82.0495404
9.108                0.969309408     -82.1912806
9.109                0.969206563     -82.3334006
9.11                 0.969103291     -82.4759018
9.111                0.968999592     -82.6187852
9.112                0.968895464     -82.7620519
9.113                0.968790907     -82.9057031
9.114                 0.96868592       -83.04974
9.115                0.968580501     -83.1941637
9.116                0.968474651     -83.3389754
9.117                0.968368368     -83.4841762
9.118                0.968261652     -83.6297673
9.119                0.968154501     -83.7757499
9.12                 0.968046916     -83.9221251
9.121                0.967938894     -84.0688941
9.122                0.967830436     -84.2160581
9.123                 0.96772154     -84.3636182
9.124                0.967612206     -84.5115756
9.125                0.967502433     -84.6599314
9.126                 0.96739222     -84.8086869
9.127                0.967281567     -84.9578432
9.128                0.967170473     -85.1074015
9.129                0.967058937      -85.257363
9.13                 0.966946958     -85.4077288
9.131                0.966834536     -85.5585001
9.132                 0.96672167     -85.7096782
9.133                0.966608359     -85.8612641
9.134                0.966494603     -86.0132591
9.135                0.966380401     -86.1656643
9.136                0.966265752      -86.318481
9.137                0.966150657     -86.4717103
9.138                0.966035113     -86.6253535
9.139                0.965919121     -86.7794116
9.14                 0.965802679     -86.9338859
9.141                0.965685789     -87.0887776
9.142                0.965568447     -87.2440878
9.143                0.965450656     -87.3998178
9.144                0.965332412     -87.5559688
9.145                0.965213717     -87.7125419
9.146                 0.96509457     -87.8695383
9.147                0.964974969     -88.0269593
9.148                0.964854916      -88.184806
9.149                0.964734408     -88.3430796
9.15                 0.964613446     -88.5017813
9.151                 0.96449203     -88.6609123
9.152                0.964370158     -88.8204738
9.153                 0.96424783      -88.980467
9.154                0.964125047     -89.1408931
9.155                0.964001807     -89.3017533
9.156                 0.96387811     -89.4630488
9.157                0.963753957     -89.6247807
9.158                0.963629345     -89.7869503
9.159                0.963504276     -89.9495588
9.16                 0.963378749     -90.1126074
9.161                0.963252763     -90.2760973
9.162                0.963126319     -90.4400296
9.163                0.962999416     -90.6044055
9.164                0.962872054     -90.7692263
9.165                0.962744232     -90.9344932
9.166                 0.96261595     -91.1002073
9.167                0.962487209     -91.2663698
9.168                0.962358008     -91.4329819
9.169                0.962228346     -91.6000449
9.17                 0.962098225     -91.7675599
9.171                0.961967643     -91.9355281
9.172                  0.9618366     -92.1039506
9.173                0.961705097     -92.2728288
9.174                0.961573134     -92.4421637
9.175                0.961440709     -92.6119566
9.176                0.961307825     -92.7822086
9.177                0.961174479      -92.952921
9.178                0.961040673     -93.1240949
9.179                0.960906406     -93.2957314
9.18                 0.960771679     -93.4678318
9.181                0.960636492     -93.6403973
9.182                0.960500844     -93.8134291
9.183                0.960364736     -93.9869282
9.184                0.960228169     -94.1608959
9.185                0.960091141     -94.3353334
9.186                0.959953654     -94.5102418
9.187                0.959815707     -94.6856223
9.188                0.959677302      -94.861476
9.189                0.959538438     -95.0378042
9.19                 0.959399115      -95.214608
9.191                0.959259334     -95.3918885
9.192                0.959119095      -95.569647
9.193                0.958978399     -95.7478845
9.194                0.958837246     -95.9266022
9.195                0.958695636     -96.1058013
9.196                 0.95855357      -96.285483
9.197                0.958411049     -96.4656483
9.198                0.958268072     -96.6462984
9.199                0.958124641     -96.8274344
9.2                  0.957980756     -97.0090576
9.201                0.957836417     -97.1911689
9.202                0.957691626     -97.3737696
9.203                0.957546382     -97.5568608
9.204                0.957400687     -97.7404436
9.205                0.957254541     -97.9245191
9.206                0.957107946     -98.1090884
9.207                0.956960901     -98.2941527
9.208                0.956813407     -98.4797131
9.209                0.956665466     -98.6657706
9.21                 0.956517079     -98.8523264
9.211                0.956368245     -99.0393816
9.212                0.956218966     -99.2269372
9.213                0.956069244     -99.4149943
9.214                0.955919079     -99.6035541
9.215                0.955768471     -99.7926176
9.216                0.955617423     -99.9821859
9.217                0.955465935      -100.17226
9.218                0.955314008     -100.362841
9.219                0.955161644      -100.55393
9.22                 0.955008844     -100.745528
9.221                0.954855608     -100.937636
9.222                0.954701939     -101.130256
9.223                0.954547837     -101.323387
9.224                0.954393303     -101.517032
9.225                 0.95423834     -101.711191
9.226                0.954082949     -101.905865
9.227                 0.95392713     -102.101056
9.228                0.953770886     -102.296763
9.229                0.953614218      -102.49299
9.23                 0.953457128     -102.689735
9.231                0.953299616     -102.887001
9.232                0.953141686     -103.084788
9.233                0.952983338     -103.283097
9.234                0.952824574     -103.481929
9.235                0.952665396     -103.681286
9.236                0.952505805     -103.881168
9.237                0.952345804     -104.081575
9.238                0.952185395      -104.28251
9.239                0.952024578     -104.483973
9.24                 0.951863357     -104.685965
9.241                0.951701734     -104.888487
9.242                0.951539709     -105.091539
9.243                0.951377286     -105.295123
9.244                0.951214466      -105.49924
9.245                0.951051252      -105.70389
9.246                0.950887646     -105.909075
9.247                 0.95072365     -106.114794
9.248                0.950559266      -106.32105
9.249                0.950394497     -106.527843
9.25                 0.950229345     -106.735173
9.251                0.950063812     -106.943042
9.252                0.949897901      -107.15145
9.253                0.949731615     -107.360399
9.254                0.949564956     -107.569889
9.255                0.949397927     -107.779921
9.256                 0.94923053     -107.990495
9.257                0.949062768     -108.201613
9.258                0.948894644     -108.413275
9.259                0.948726161     -108.625482
9.26                 0.948557321     -108.838235
9.261                0.948388127     -109.051534
9.262                0.948218583      -109.26538
9.263                 0.94804869     -109.479774
9.264                0.947878454     -109.694717
9.265                0.947707875      -109.91021
9.266                0.947536959     -110.126252
9.267                0.947365707     -110.342845
9.268                0.947194122     -110.559989
9.269                 0.94702221     -110.777685
9.27                 0.946849972     -110.995934
9.271                0.946677412     -111.214736
9.272                0.946504533     -111.434092
9.273                 0.94633134     -111.654003
9.274                0.946157835     -111.874468
9.275                0.945984022     -112.095489
9.276                0.945809905     -112.317067
9.277                0.945635488     -112.539201
9.278                0.945460774     -112.761892
9.279                0.945285767     -112.985141
9.28                 0.945110471     -113.208949
9.281                 0.94493489     -113.433315
9.282                0.944759028     -113.658241
9.283                0.944582889     -113.883726
9.284                0.944406477     -114.109771
9.285                0.944229796     -114.336378
9.286                0.944052851     -114.563545
9.287                0.943875645     -114.791274
9.288                0.943698183     -115.019564
9.289                 0.94352047     -115.248417
9.29                  0.94334251     -115.477832
9.291                0.943164306     -115.707811
9.292                0.942985865     -115.938352
9.293                 0.94280719     -116.169458
9.294                0.942628286     -116.401127
9.295                0.942449158      -116.63336
9.296                0.942269811     -116.866158
9.297                0.942090249     -117.099521
9.298                0.941910477     -117.333448
9.299                0.941730501     -117.567941
9.3                  0.941550324     -117.802999
9.301                0.941369953     -118.038622
9.302                0.941189393     -118.274811
9.303                0.941008648     -118.511566
9.304                0.940827724     -118.748887
9.305                0.940646626     -118.986774
9.306                 0.94046536     -119.225227
9.307                0.940283931     -119.464247
9.308                0.940102344     -119.703833
9.309                0.939920605     -119.943985
9.31                  0.93973872     -120.184703
9.311                0.939556694     -120.425988
9.312                0.939374532     -120.667839
9.313                0.939192242     -120.910256
9.314                0.939009828      -121.15324
9.315                0.938827296      -121.39679
9.316                0.938644653     -121.640905
9.317                0.938461904     -121.885587
9.318                0.938279056     -122.130834
9.319                0.938096114     -122.376647
9.32                 0.937913085     -122.623026
9.321                0.937729975     -122.869969
9.322                 0.93754679     -123.117478
9.323                0.937363537     -123.365551
9.324                0.937180222     -123.614189
9.325                0.936996852     -123.863391
9.326                0.936813433     -124.113156
9.327                0.936629972     -124.363486
9.328                0.936446475     -124.614378
9.329                 0.93626295     -124.865833
9.33                 0.936079402     -125.117851
9.331                0.935895839      -125.37043
9.332                0.935712268     -125.623571
9.333                0.935528695     -125.877273
9.334                0.935345128     -126.131535
9.335                0.935161574     -126.386358
9.336                 0.93497804      -126.64174
9.337                0.934794532      -126.89768
9.338                0.934611059      -127.15418
9.339                0.934427628     -127.411236
9.34                 0.934244246      -127.66885
9.341                 0.93406092      -127.92702
9.342                0.933877657     -128.185746
9.343                0.933694466     -128.445026
9.344                0.933511355     -128.704861
9.345                0.933328329     -128.965249
9.346                0.933145398      -129.22619
9.347                0.932962569     -129.487683
9.348                 0.93277985     -129.749726
9.349                0.932597249      -130.01232
9.35                 0.932414773     -130.275463
9.351                 0.93223243     -130.539154
9.352                0.932050229     -130.803392
9.353                0.931868178     -131.068177
9.354                0.931686285     -131.333507
9.355                0.931504557     -131.599382
9.356                0.931323004     -131.865799
9.357                0.931141633     -132.132759
9.358                0.930960453      -132.40026
9.359                0.930779472     -132.668301
9.36                 0.930598698      -132.93688
9.361                 0.93041814     -133.205997
9.362                0.930237807      -133.47565
9.363                0.930057707     -133.745839
9.364                0.929877848     -134.016561
9.365                 0.92969824     -134.287815
9.366                 0.92951889     -134.559601
9.367                0.929339809     -134.831916
9.368                0.929161004      -135.10476
9.369                0.928982484     -135.378131
9.37                 0.928804258     -135.652027
9.371                0.928626335     -135.926447
9.372                0.928448725      -136.20139
9.373                0.928271435     -136.476853
9.374                0.928094476     -136.752836
9.375                0.927917855     -137.029337
9.376                0.927741583     -137.306354
9.377                0.927565668     -137.583885
9.378                 0.92739012     -137.861929
9.379                0.927214947     -138.140484
9.38                 0.927040159     -138.419548
9.381                0.926865766      -138.69912
9.382                0.926691776     -138.979198
9.383                0.926518199     -139.259779
9.384                0.926345044     -139.540863
9.385                0.926172321     -139.822446
9.386                0.926000039     -140.104528
9.387                0.925828207     -140.387106
9.388                0.925656836     -140.670178
9.389                0.925485934     -140.953742
9.39                 0.925315511     -141.237796
9.391                0.925145577     -141.522338
9.392                0.924976141     -141.807367
9.393                0.924807213     -142.092879
9.394                0.924638802     -142.378872
9.395                0.924470918     -142.665345
9.396                0.924303571     -142.952295
