! TOUCHSTONE file generated by CST DESIGN STUDIO
! Date and time: Tue Feb  4 14:25:30 2025
! Project name: C:\Work\MatlabApps\UnitCellOptimizationMatlab\CST\unitcell.cst
! Tree item: Tasks\Sweep1\SPara1\S-Parameters
! Header version: 2024
! Port assignment regex: !\s*Touchstone port\s*([0-9]+)\s*=\s*(CST MWS port|CST DES external port|CST DES block port)\s*(.+)\s* \(\"(.*)\"\)(\s*mode\s*([0-9]+))?.*
! Touchstone port assignment:
! Touchstone port 1 = CST DES external port 1 ("")
# GHz S MA R 50
9                    0.972012484     -77.9334479
9.001                0.971938204     -78.0563223
9.002                0.971863708      -78.179511
9.003                0.971788995     -78.3030151
9.004                0.971714064     -78.4268354
9.005                0.971638916     -78.5509731
9.006                 0.97156355      -78.675429
9.007                0.971487966     -78.8002041
9.008                0.971412162     -78.9252993
9.009                0.971336139     -79.0507157
9.01                 0.971259896     -79.1764543
9.011                0.971183433     -79.3025159
9.012                0.971106749     -79.4289016
9.013                0.971029844     -79.5556123
9.014                0.970952718     -79.6826491
9.015                0.970875369     -79.8100129
9.016                0.970797798     -79.9377047
9.017                0.970720004     -80.0657255
9.018                0.970641986     -80.1940763
9.019                0.970563745      -80.322758
9.02                  0.97048528     -80.4517718
9.021                0.970406591     -80.5811185
9.022                0.970327676     -80.7107991
9.023                0.970248536     -80.8408147
9.024                0.970169171     -80.9711663
9.025                0.970089579     -81.1018549
9.026                0.970009761     -81.2328814
9.027                0.969929716     -81.3642469
9.028                0.969849444     -81.4959524
9.029                0.969768945     -81.6279989
9.03                 0.969688217     -81.7603875
9.031                0.969607261      -81.893119
9.032                0.969526076     -82.0261947
9.033                0.969444662     -82.1596153
9.034                0.969363019     -82.2933821
9.035                0.969281146      -82.427496
9.036                0.969199043      -82.561958
9.037                 0.96911671     -82.6967692
9.038                0.969034146     -82.8319305
9.039                0.968951351     -82.9674431
9.04                 0.968868324     -83.1033079
9.041                0.968785065      -83.239526
9.042                0.968701575     -83.3760984
9.043                0.968617852     -83.5130262
9.044                0.968533897     -83.6503103
9.045                0.968449709     -83.7879519
9.046                0.968365287     -83.9259519
9.047                0.968280632     -84.0643114
9.048                0.968195743     -84.2030315
9.049                 0.96811062     -84.3421132
9.05                 0.968025263     -84.4815575
9.051                0.967939671     -84.6213654
9.052                0.967853844     -84.7615381
9.053                0.967767783     -84.9020766
9.054                0.967681486     -85.0429819
9.055                0.967594953     -85.1842551
9.056                0.967508184     -85.3258973
9.057                 0.96742118     -85.4679094
9.058                0.967333939     -85.6102926
9.059                0.967246462     -85.7530478
9.06                 0.967158748     -85.8961763
9.061                0.967070797     -86.0396789
9.062                 0.96698261     -86.1835569
9.063                0.966894185     -86.3278112
9.064                0.966805523     -86.4724428
9.065                0.966716623      -86.617453
9.066                0.966627485     -86.7628427
9.067                 0.96653811      -86.908613
9.068                0.966448496     -87.0547649
9.069                0.966358645     -87.2012996
9.07                 0.966268555     -87.3482181
9.071                0.966178227     -87.4955214
9.072                 0.96608766     -87.6432107
9.073                0.965996855      -87.791287
9.074                0.965905811     -87.9397514
9.075                0.965814528     -88.0886049
9.076                0.965723006     -88.2378486
9.077                0.965631246     -88.3874836
9.078                0.965539246      -88.537511
9.079                0.965447008     -88.6879319
9.08                  0.96535453     -88.8387472
9.081                0.965261813     -88.9899581
9.082                0.965168858     -89.1415657
9.083                0.965075663     -89.2935711
9.084                0.964982229     -89.4459752
9.085                0.964888555     -89.5987793
9.086                0.964794643     -89.7519843
9.087                0.964700492     -89.9055913
9.088                0.964606101     -90.0596015
9.089                0.964511472     -90.2140158
9.09                 0.964416603     -90.3688354
9.091                0.964321496     -90.5240614
9.092                 0.96422615     -90.6796948
9.093                0.964130566     -90.8357367
9.094                0.964034742     -90.9921881
9.095                0.963938681     -91.1490503
9.096                 0.96384238     -91.3063241
9.097                0.963745842     -91.4640107
9.098                0.963649066     -91.6221112
9.099                0.963552051     -91.7806267
9.1                  0.963454799     -91.9395582
9.101                 0.96335731     -92.0989067
9.102                0.963259583     -92.2586735
9.103                0.963161619     -92.4188595
9.104                0.963063418     -92.5794658
9.105                 0.96296498     -92.7404934
9.106                0.962866306     -92.9019436
9.107                0.962767395     -93.0638172
9.108                0.962668249     -93.2261155
9.109                0.962568867     -93.3888394
9.11                  0.96246925       -93.55199
9.111                0.962369397     -93.7155685
9.112                 0.96226931     -93.8795757
9.113                0.962168989     -94.0440129
9.114                0.962068433     -94.2088811
9.115                0.961967644     -94.3741813
9.116                0.961866622     -94.5399146
9.117                0.961765367     -94.7060821
9.118                0.961663879     -94.8726848
9.119                0.961562159     -95.0397237
9.12                 0.961460208        -95.2072
9.121                0.961358026     -95.3751146
9.122                0.961255612     -95.5434687
9.123                0.961152969     -95.7122632
9.124                0.961050096     -95.8814993
9.125                0.960946994     -96.0511779
9.126                0.960843663     -96.2213001
9.127                0.960740104     -96.3918669
9.128                0.960636318     -96.5628795
9.129                0.960532305     -96.7343387
9.13                 0.960428065     -96.9062457
9.131                  0.9603236     -97.0786014
9.132                0.960218909      -97.251407
9.133                0.960113994     -97.4246634
9.134                0.960008856     -97.5983717
9.135                0.959903494     -97.7725328
9.136                 0.95979791     -97.9471478
9.137                0.959692104     -98.1222177
9.138                0.959586077     -98.2977436
9.139                 0.95947983     -98.4737264
9.14                 0.959373364     -98.6501671
9.141                0.959266679     -98.8270667
9.142                0.959159776     -99.0044263
9.143                0.959052656     -99.1822468
9.144                 0.95894532     -99.3605292
9.145                0.958837769     -99.5392746
9.146                0.958730004     -99.7184838
9.147                0.958622025     -99.8981579
9.148                0.958513833     -100.078298
9.149                 0.95840543     -100.258905
9.15                 0.958296817     -100.439979
9.151                0.958187993     -100.621523
9.152                0.958078961     -100.803536
9.153                0.957969722      -100.98602
9.154                0.957860276     -101.168975
9.155                0.957750624     -101.352403
9.156                0.957640768     -101.536305
9.157                0.957530709     -101.720681
9.158                0.957420447     -101.905532
9.159                0.957309985      -102.09086
9.16                 0.957199323     -102.276665
9.161                0.957088462     -102.462948
9.162                0.956977404     -102.649711
9.163                0.956866149     -102.836953
9.164                  0.9567547     -103.024676
9.165                0.956643057     -103.212882
9.166                0.956531222     -103.401569
9.167                0.956419196     -103.590741
9.168                 0.95630698     -103.780397
9.169                0.956194576     -103.970538
9.17                 0.956081986     -104.161166
9.171                 0.95596921      -104.35228
9.172                 0.95585625     -104.543883
9.173                0.955743107     -104.735974
9.174                0.955629784     -104.928555
9.175                0.955516281     -105.121627
9.176                0.955402601      -105.31519
9.177                0.955288744     -105.509245
9.178                0.955174713     -105.703793
9.179                0.955060508     -105.898834
9.18                 0.954946132     -106.094371
9.181                0.954831587     -106.290403
9.182                0.954716873     -106.486931
9.183                0.954601993     -106.683956
9.184                0.954486949     -106.881478
9.185                0.954371742       -107.0795
9.186                0.954256373      -107.27802
9.187                0.954140846     -107.477041
9.188                0.954025162     -107.676562
9.189                0.953909322     -107.876585
9.19                 0.953793329      -108.07711
9.191                0.953677185     -108.278138
9.192                0.953560891      -108.47967
9.193                0.953444449     -108.681706
9.194                0.953327862     -108.884247
9.195                0.953211132     -109.087294
9.196                 0.95309426     -109.290848
9.197                0.952977249     -109.494909
9.198                0.952860101     -109.699477
9.199                0.952742818     -109.904554
9.2                  0.952625403      -110.11014
9.201                0.952507857     -110.316235
9.202                0.952390183     -110.522841
9.203                0.952272382     -110.729958
9.204                0.952154459     -110.937586
9.205                0.952036414     -111.145727
9.206                 0.95191825      -111.35438
9.207                 0.95179997     -111.563546
9.208                0.951681575     -111.773226
9.209                0.951563069     -111.983421
9.21                 0.951444454     -112.194131
9.211                0.951325733     -112.405356
9.212                0.951206907     -112.617096
9.213                 0.95108798     -112.829354
9.214                0.950968955     -113.042128
9.215                0.950849833      -113.25542
9.216                0.950730617      -113.46923
9.217                0.950611311     -113.683558
9.218                0.950491917     -113.898405
9.219                0.950372438     -114.113771
9.22                 0.950252876     -114.329657
9.221                0.950133235     -114.546063
9.222                0.950013517     -114.762989
9.223                0.949893725     -114.980436
9.224                0.949773862     -115.198405
9.225                0.949653932     -115.416895
9.226                0.949533936     -115.635907
9.227                0.949413879     -115.855441
9.228                0.949293762     -116.075498
9.229                 0.94917359     -116.296078
9.23                 0.949053366     -116.517181
9.231                0.948933092     -116.738807
9.232                0.948812771     -116.960957
9.233                0.948692408     -117.183631
9.234                0.948572005     -117.406829
9.235                0.948451565     -117.630552
9.236                0.948331092     -117.854799
9.237                 0.94821059     -118.079571
9.238                0.948090061     -118.304868
9.239                0.947969509     -118.530691
9.24                 0.947848937     -118.757038
9.241                0.947728349     -118.983911
9.242                0.947607749      -119.21131
9.243                 0.94748714     -119.439234
9.244                0.947366525     -119.667684
9.245                0.947245908     -119.896659
9.246                0.947125294     -120.126161
9.247                0.947004684     -120.356188
9.248                0.946884085     -120.586741
9.249                0.946763498      -120.81782
9.25                 0.946642927     -121.049425
9.251                0.946522378     -121.281556
9.252                0.946401853     -121.514213
9.253                0.946281356     -121.747395
9.254                0.946160891     -121.981103
9.255                0.946040462     -122.215336
9.256                0.945920074     -122.450095
9.257                 0.94579973     -122.685379
9.258                0.945679434     -122.921188
9.259                 0.94555919     -123.157522
9.26                 0.945439003     -123.394381
9.261                0.945318876     -123.631765
9.262                0.945198814     -123.869672
9.263                0.945078821     -124.108104
9.264                0.944958901      -124.34706
9.265                0.944839058     -124.586539
9.266                0.944719297     -124.826541
9.267                0.944599622     -125.067066
9.268                0.944480038     -125.308113
9.269                0.944360548     -125.549683
9.27                 0.944241157     -125.791774
9.271                0.944121871     -126.034387
9.272                0.944002692     -126.277521
9.273                0.943883626     -126.521175
9.274                0.943764677     -126.765349
9.275                 0.94364585     -127.010043
9.276                 0.94352715     -127.255256
9.277                 0.94340858     -127.500987
9.278                0.943290147     -127.747236
9.279                0.943171854     -127.994002
9.28                 0.943053706     -128.241286
9.281                0.942935708     -128.489085
9.282                0.942817864       -128.7374
9.283                 0.94270018      -128.98623
9.284                0.942582661     -129.235574
9.285                0.942465311     -129.485431
9.286                0.942348135     -129.735801
9.287                0.942231138     -129.986684
9.288                0.942114325     -130.238077
9.289                0.941997701     -130.489981
9.29                 0.941881272     -130.742394
9.291                0.941765041     -130.995317
9.292                0.941649015     -131.248747
9.293                0.941533197     -131.502684
9.294                0.941417595     -131.757128
9.295                0.941302211     -132.012076
9.296                0.941187053     -132.267529
9.297                0.941072124     -132.523485
9.298                 0.94095743     -132.779944
9.299                0.940842977     -133.036904
9.3                  0.940728769     -133.294363
9.301                0.940614812     -133.552323
9.302                0.940501111      -133.81078
9.303                0.940387672     -134.069734
9.304                  0.9402745     -134.329183
9.305                0.940161599     -134.589128
9.306                0.940048977     -134.849566
9.307                0.939936638     -135.110496
9.308                0.939824587     -135.371916
9.309                 0.93971283     -135.633827
9.31                 0.939601372     -135.896226
9.311                 0.93949022     -136.159112
9.312                0.939379378     -136.422484
9.313                0.939268851      -136.68634
9.314                0.939158647     -136.950679
9.315                0.939048769     -137.215499
9.316                0.938939225       -137.4808
9.317                0.938830018     -137.746579
9.318                0.938721155     -138.012835
9.319                0.938612642     -138.279567
9.32                 0.938504484     -138.546773
9.321                0.938396687     -138.814451
9.322                0.938289257     -139.082601
9.323                0.938182198     -139.351219
9.324                0.938075518     -139.620305
9.325                0.937969221     -139.889857
9.326                0.937863313     -140.159873
9.327                0.937757801     -140.430351
9.328                0.937652689     -140.701291
9.329                0.937547984     -140.972689
9.33                 0.937443691     -141.244544
9.331                0.937339816     -141.516854
9.332                0.937236365     -141.789618
9.333                0.937133343     -142.062833
9.334                0.937030757     -142.336498
9.335                0.936928612     -142.610611
9.336                0.936826914     -142.885169
9.337                0.936725669     -143.160171
9.338                0.936624882     -143.435614
9.339                 0.93652456     -143.711497
9.34                 0.936424708     -143.987817
9.341                0.936325332     -144.264573
9.342                0.936226438     -144.541762
9.343                0.936128031     -144.819382
9.344                0.936030118     -145.097432
9.345                0.935932704     -145.375907
9.346                0.935835795     -145.654808
9.347                0.935739397      -145.93413
9.348                0.935643515     -146.213872
9.349                0.935548156     -146.494032
9.35                 0.935453325     -146.774607
9.351                0.935359028     -147.055595
9.352                0.935265271     -147.336993
9.353                0.935172059       -147.6188
9.354                0.935079398     -147.901011
9.355                0.934987295     -148.183626
9.356                0.934895754     -148.466642
9.357                0.934804782     -148.750055
9.358                0.934714383     -149.033864
9.359                0.934624565     -149.318066
9.36                 0.934535332     -149.602658
9.361                0.934446691     -149.887638
9.362                0.934358646     -150.173003
9.363                0.934271204     -150.458749
9.364                0.934184371     -150.744876
9.365                 0.93409815     -151.031379
9.366                 0.93401255     -151.318256
9.367                0.933927574     -151.605505
9.368                0.933843229     -151.893121
9.369                 0.93375952     -152.181104
9.37                 0.933676452     -152.469449
9.371                0.933594031     -152.758154
9.372                0.933512263     -153.047215
9.373                0.933431153     -153.336631
9.374                0.933350706     -153.626397
9.375                0.933270927     -153.916511
9.376                0.933191823     -154.206971
9.377                0.933113399     -154.497772
9.378                0.933035659     -154.788911
9.379                0.932958609     -155.080387
9.38                 0.932882254     -155.372195
9.381                  0.9328066     -155.664332
9.382                0.932731651     -155.956795
9.383                0.932657413     -156.249582
9.384                0.932583891     -156.542688
9.385                 0.93251109     -156.836111
9.386                0.932439016     -157.129847
9.387                0.932367672     -157.423892
9.388                0.932297064     -157.718245
9.389                0.932227197     -158.012901
9.39                 0.932158077     -158.307857
9.391                0.932089706     -158.603109
9.392                0.932022092     -158.898654
9.393                0.931955238      -159.19449
9.394                0.931889148     -159.490611
9.395                0.931823829     -159.787015
9.396                0.931759284     -160.083699
