! TOUCHSTONE file generated by CST DESIGN STUDIO
! Date and time: Tue Feb  4 18:04:50 2025
! Project name: C:\Work\MatlabApps\UnitCellOptimizationMatlab\CST\unitcell.cst
! Tree item: Tasks\Sweep1\SPara1\S-Parameters
! Header version: 2024
! Port assignment regex: !\s*Touchstone port\s*([0-9]+)\s*=\s*(CST MWS port|CST DES external port|CST DES block port)\s*(.+)\s* \(\"(.*)\"\)(\s*mode\s*([0-9]+))?.*
! Touchstone port assignment:
! Touchstone port 1 = CST DES external port 1 ("")
# GHz S MA R 50
9                    0.958884442     -75.6403088
9.001                 0.95877188     -75.7611526
9.002                0.958658906     -75.8823104
9.003                0.958545518     -76.0037832
9.004                0.958431716      -76.125572
9.005                0.958317498     -76.2476778
9.006                0.958202864     -76.3701015
9.007                0.958087811     -76.4928443
9.008                 0.95797234      -76.615907
9.009                0.957856449     -76.7392907
9.01                 0.957740137     -76.8629965
9.011                0.957623403     -76.9870252
9.012                0.957506247     -77.1113781
9.013                0.957388666     -77.2360559
9.014                 0.95727066     -77.3610599
9.015                0.957152228      -77.486391
9.016                0.957033369     -77.6120502
9.017                0.956914083     -77.7380386
9.018                0.956794367     -77.8643571
9.019                 0.95667422      -77.991007
9.02                 0.956553643      -78.117989
9.021                0.956432634     -78.2453044
9.022                0.956311192     -78.3729542
9.023                0.956189315     -78.5009393
9.024                0.956067003     -78.6292609
9.025                0.955944256     -78.7579199
9.026                0.955821071     -78.8869176
9.027                0.955697448     -79.0162548
9.028                0.955573387     -79.1459326
9.029                0.955448885     -79.2759522
9.03                 0.955323942     -79.4063146
9.031                0.955198558     -79.5370208
9.032                 0.95507273     -79.6680719
9.033                0.954946459     -79.7994689
9.034                0.954819743      -79.931213
9.035                0.954692582     -80.0633052
9.036                0.954564974     -80.1957467
9.037                0.954436918     -80.3285383
9.038                0.954308414     -80.4616814
9.039                0.954179461     -80.5951768
9.04                 0.954050057     -80.7290258
9.041                0.953920203     -80.8632293
9.042                0.953789896     -80.9977886
9.043                0.953659137     -81.1327046
9.044                0.953527923     -81.2679785
9.045                0.953396255     -81.4036114
9.046                0.953264132     -81.5396043
9.047                0.953131552     -81.6759584
9.048                0.952998515     -81.8126748
9.049                 0.95286502     -81.9497545
9.05                 0.952731066     -82.0871987
9.051                0.952596652     -82.2250084
9.052                0.952461778     -82.3631849
9.053                0.952326443     -82.5017291
9.054                0.952190645     -82.6406423
9.055                0.952054385     -82.7799255
9.056                0.951917661     -82.9195799
9.057                0.951780472     -83.0596065
9.058                0.951642819     -83.2000064
9.059                0.951504699     -83.3407809
9.06                 0.951366113     -83.4819311
9.061                0.951227059     -83.6234579
9.062                0.951087537     -83.7653627
9.063                0.950947546     -83.9076465
9.064                0.950807085     -84.0503104
9.065                0.950666154     -84.1933556
9.066                0.950524753     -84.3367833
9.067                0.950382879     -84.4805945
9.068                0.950240534     -84.6247903
9.069                0.950097715      -84.769372
9.07                 0.949954423     -84.9143407
9.071                0.949810657     -85.0596975
9.072                0.949666415     -85.2054435
9.073                0.949521699     -85.3515799
9.074                0.949376506     -85.4981079
9.075                0.949230837     -85.6450286
9.076                 0.94908469     -85.7923432
9.077                0.948938066     -85.9400527
9.078                0.948790964     -86.0881584
9.079                0.948643383     -86.2366614
9.08                 0.948495322     -86.3855628
9.081                0.948346782     -86.5348639
9.082                0.948197762     -86.6845657
9.083                 0.94804826     -86.8346695
9.084                0.947898278     -86.9851764
9.085                0.947747813     -87.1360875
9.086                0.947596867      -87.287404
9.087                0.947445438     -87.4391271
9.088                0.947293527      -87.591258
9.089                0.947141132     -87.7437977
9.09                 0.946988253     -87.8967476
9.091                 0.94683489     -88.0501086
9.092                0.946681043     -88.2038821
9.093                0.946526711     -88.3580691
9.094                0.946371895     -88.5126709
9.095                0.946216593     -88.6676886
9.096                0.946060805     -88.8231233
9.097                0.945904532     -88.9789763
9.098                0.945747772     -89.1352487
9.099                0.945590526     -89.2919417
9.1                  0.945432794     -89.4490565
9.101                0.945274576     -89.6065942
9.102                 0.94511587      -89.764556
9.103                0.944956677     -89.9229431
9.104                0.944796998     -90.0817566
9.105                0.944636831     -90.2409978
9.106                0.944476177     -90.4006677
9.107                0.944315035     -90.5607676
9.108                0.944153407     -90.7212987
9.109                 0.94399129     -90.8822621
9.11                 0.943828687     -91.0436589
9.111                0.943665596     -91.2054904
9.112                0.943502017     -91.3677578
9.113                0.943337951     -91.5304621
9.114                0.943173398     -91.6936047
9.115                0.943008358     -91.8571866
9.116                0.942842831      -92.021209
9.117                0.942676817     -92.1856731
9.118                0.942510316       -92.35058
9.119                0.942343328      -92.515931
9.12                 0.942175855     -92.6817272
9.121                0.942007895     -92.8479698
9.122                0.941839449     -93.0146599
9.123                0.941670518     -93.1817987
9.124                0.941501102     -93.3493874
9.125                  0.9413312     -93.5174271
9.126                0.941160814      -93.685919
9.127                0.940989944     -93.8548642
9.128                0.940818591      -94.024264
9.129                0.940646754     -94.1941195
9.13                 0.940474434     -94.3644318
9.131                0.940301632     -94.5352021
9.132                0.940128347     -94.7064316
9.133                0.939954582     -94.8781214
9.134                0.939780336     -95.0502726
9.135                 0.93960561     -95.2228865
9.136                0.939430404     -95.3959641
9.137                 0.93925472     -95.5695067
9.138                0.939078557     -95.7435152
9.139                0.938901917     -95.9179911
9.14                   0.9387248     -96.0929352
9.141                0.938547207     -96.2683488
9.142                0.938369139     -96.4442331
9.143                0.938190597     -96.6205891
9.144                0.938011582      -96.797418
9.145                0.937832093     -96.9747209
9.146                0.937652134      -97.152499
9.147                0.937471704     -97.3307533
9.148                0.937290804     -97.5094851
9.149                0.937109435     -97.6886953
9.15                 0.936927599     -97.8683852
9.151                0.936745296     -98.0485559
9.152                0.936562529     -98.2292084
9.153                0.936379296     -98.4103438
9.154                0.936195601     -98.5919634
9.155                0.936011445     -98.7740681
9.156                0.935826827     -98.9566591
9.157                0.935641751     -99.1397374
9.158                0.935456217     -99.3233042
9.159                0.935270226     -99.5073606
9.16                  0.93508378     -99.6919075
9.161                 0.93489688     -99.8769462
9.162                0.934709529     -100.062478
9.163                0.934521727     -100.248503
9.164                0.934333475     -100.435023
9.165                0.934144776     -100.622039
9.166                0.933955632     -100.809553
9.167                0.933766043     -100.997564
9.168                0.933576012     -101.186074
9.169                 0.93338554     -101.375085
9.17                 0.933194629     -101.564597
9.171                0.933003281     -101.754611
9.172                0.932811497     -101.945129
9.173                0.932619281      -102.13615
9.174                0.932426633     -102.327677
9.175                0.932233556     -102.519711
9.176                0.932040052     -102.712252
9.177                0.931846122     -102.905301
9.178                0.931651769     -103.098859
9.179                0.931456996     -103.292928
9.18                 0.931261803     -103.487508
9.181                0.931066194     -103.682601
9.182                0.930870172     -103.878207
9.183                0.930673737     -104.074327
9.184                0.930476893     -104.270962
9.185                0.930279642     -104.468113
9.186                0.930081986     -104.665782
9.187                0.929883929     -104.863968
9.188                0.929685472     -105.062674
9.189                0.929486618     -105.261899
9.19                 0.929287371     -105.461645
9.191                0.929087732     -105.661913
9.192                0.928887704     -105.862704
9.193                0.928687291     -106.064018
9.194                0.928486494     -106.265857
9.195                0.928285318     -106.468221
9.196                0.928083765     -106.671111
9.197                0.927881837     -106.874528
9.198                0.927679539     -107.078473
9.199                0.927476873     -107.282947
9.2                  0.927273842      -107.48795
9.201                 0.92707045     -107.693484
9.202                  0.9268667     -107.899549
9.203                0.926662595     -108.106146
9.204                0.926458138     -108.313276
9.205                0.926253333      -108.52094
9.206                0.926048184     -108.729138
9.207                0.925842694     -108.937871
9.208                0.925636866      -109.14714
9.209                0.925430704     -109.356946
9.21                 0.925224213      -109.56729
9.211                0.925017395     -109.778171
9.212                0.924810254     -109.989592
9.213                0.924602795     -110.201552
9.214                 0.92439502     -110.414053
9.215                0.924186936     -110.627094
9.216                0.923978544     -110.840678
9.217                0.923769849     -111.054804
9.218                0.923560856     -111.269473
9.219                0.923351569     -111.484685
9.22                 0.923141992     -111.700442
9.221                0.922932129     -111.916744
9.222                0.922721984     -112.133592
9.223                0.922511562     -112.350985
9.224                0.922300868     -112.568926
9.225                0.922089906     -112.787414
9.226                0.921878681      -113.00645
9.227                0.921667197     -113.226034
9.228                0.921455459     -113.446167
9.229                0.921243472      -113.66685
9.23                  0.92103124     -113.888083
9.231                 0.92081877     -114.109867
9.232                0.920606064     -114.332202
9.233                 0.92039313     -114.555088
9.234                0.920179971     -114.778526
9.235                0.919966593     -115.002516
9.236                0.919753001      -115.22706
9.237                  0.9195392     -115.452156
9.238                0.919325196     -115.677807
9.239                0.919110994     -115.904011
9.24                   0.9188966      -116.13077
9.241                0.918682019     -116.358084
9.242                0.918467256     -116.585953
9.243                0.918252317     -116.814377
9.244                0.918037209     -117.043357
9.245                0.917821937     -117.272893
9.246                0.917606506     -117.502986
9.247                0.917390922     -117.733635
9.248                0.917175192     -117.964841
9.249                0.916959322     -118.196604
9.25                 0.916743317     -118.428924
9.251                0.916527184     -118.661802
9.252                0.916310929     -118.895238
9.253                0.916094559     -119.129231
9.254                0.915878079     -119.363782
9.255                0.915661496     -119.598892
9.256                0.915444816      -119.83456
9.257                0.915228047     -120.070786
9.258                0.915011194      -120.30757
9.259                0.914794265     -120.544913
9.26                 0.914577266     -120.782815
9.261                0.914360204     -121.021275
9.262                0.914143085     -121.260293
9.263                0.913925917      -121.49987
9.264                0.913708707     -121.740006
9.265                0.913491462       -121.9807
9.266                0.913274188     -122.221952
9.267                0.913056894     -122.463762
9.268                0.912839586     -122.706131
9.269                0.912622271     -122.949057
9.27                 0.912404958     -123.192541
9.271                0.912187653     -123.436583
9.272                0.911970364     -123.681183
9.273                0.911753098     -123.926339
9.274                0.911535864     -124.172053
9.275                0.911318668     -124.418323
9.276                0.911101519      -124.66515
9.277                0.910884425     -124.912533
9.278                0.910667393     -125.160471
9.279                0.910450431     -125.408965
9.28                 0.910233548     -125.658015
9.281                0.910016751     -125.907619
9.282                0.909800048     -126.157777
9.283                0.909583448     -126.408489
9.284                0.909366959     -126.659754
9.285                 0.90915059     -126.911573
9.286                0.908934348     -127.163943
9.287                0.908718242     -127.416866
9.288                 0.90850228      -127.67034
9.289                0.908286472     -127.924365
9.29                 0.908070826     -128.178939
9.291                 0.90785535     -128.434064
9.292                0.907640054     -128.689737
9.293                0.907424945     -128.945958
9.294                0.907210034     -129.202727
9.295                0.906995328     -129.460043
9.296                0.906780837     -129.717904
9.297                0.906566569     -129.976311
9.298                0.906352535     -130.235263
9.299                0.906138742     -130.494758
9.3                  0.905925201     -130.754796
9.301                 0.90571192     -131.015375
9.302                0.905498909     -131.276496
9.303                0.905286177     -131.538157
9.304                0.905073734     -131.800357
9.305                0.904861588     -132.063095
9.306                 0.90464975      -132.32637
9.307                0.904438229     -132.590182
9.308                0.904227035     -132.854528
9.309                0.904016177     -133.119409
9.31                 0.903805665     -133.384822
9.311                0.903595509     -133.650767
9.312                0.903385718     -133.917243
9.313                0.903176303     -134.184248
9.314                0.902967273     -134.451781
9.315                0.902758639     -134.719841
9.316                 0.90255041     -134.988426
9.317                0.902342596     -135.257536
9.318                0.902135208     -135.527169
9.319                0.901928255     -135.797324
9.32                 0.901721748     -136.067999
9.321                0.901515697     -136.339192
9.322                0.901310112     -136.610904
9.323                0.901105003      -136.88313
9.324                0.900900381     -137.155872
9.325                0.900696257     -137.429126
9.326                0.900492639     -137.702892
9.327                 0.90028954     -137.977167
9.328                0.900086969      -138.25195
9.329                0.899884937      -138.52724
9.33                 0.899683455     -138.803034
9.331                0.899482532     -139.079332
9.332                 0.89928218     -139.356131
9.333                0.899082409     -139.633429
9.334                 0.89888323     -139.911226
9.335                0.898684654     -140.189518
9.336                 0.89848669     -140.468304
9.337                0.898289351     -140.747582
9.338                0.898092646     -141.027351
9.339                0.897896587     -141.307608
9.34                 0.897701184     -141.588351
9.341                0.897506448     -141.869579
9.342                 0.89731239     -142.151289
9.343                0.897119021     -142.433479
9.344                0.896926351     -142.716148
9.345                0.896734392     -142.999292
9.346                0.896543154      -143.28291
9.347                0.896352648        -143.567
9.348                0.896162886     -143.851559
9.349                0.895973877     -144.136586
9.35                 0.895785634     -144.422077
9.351                0.895598166     -144.708031
9.352                0.895411486     -144.994445
9.353                0.895225603     -145.281317
9.354                0.895040529     -145.568645
9.355                0.894856275     -145.856425
9.356                0.894672852     -146.144657
9.357                0.894490271     -146.433336
9.358                0.894308542     -146.722461
9.359                0.894127676     -147.012028
9.36                 0.893947685     -147.302037
9.361                 0.89376858     -147.592483
9.362                0.893590371     -147.883364
9.363                 0.89341307     -148.174677
9.364                0.893236686      -148.46642
9.365                0.893061232     -148.758591
9.366                0.892886718     -149.051185
9.367                0.892713155     -149.344201
9.368                0.892540553     -149.637636
9.369                0.892368924     -149.931486
9.37                 0.892198278     -150.225749
9.371                0.892028627     -150.520422
9.372                 0.89185998     -150.815502
9.373                0.891692349     -151.110986
9.374                0.891525744     -151.406871
9.375                0.891360177     -151.703154
9.376                0.891195657     -151.999832
9.377                0.891032195     -152.296902
9.378                0.890869803      -152.59436
9.379                0.890708489     -152.892203
9.38                 0.890548266     -153.190429
9.381                0.890389143     -153.489034
9.382                0.890231131     -153.788015
9.383                0.890074241     -154.087368
9.384                0.889918482     -154.387091
9.385                0.889763865     -154.687179
9.386                  0.8896104      -154.98763
9.387                0.889458098     -155.288441
9.388                0.889306968     -155.589606
9.389                0.889157021     -155.891125
9.39                 0.889008267     -156.192991
9.391                0.888860715     -156.495204
9.392                0.888714377     -156.797758
9.393                 0.88856926      -157.10065
9.394                0.888425377     -157.403877
9.395                0.888282735     -157.707435
9.396                0.888141346      -158.01132
