! TOUCHSTONE file generated by CST DESIGN STUDIO
! Date and time: Tue Feb  4 18:04:57 2025
! Project name: C:\Work\MatlabApps\UnitCellOptimizationMatlab\CST\unitcell.cst
! Tree item: Tasks\Sweep1\SPara1\S-Parameters
! Header version: 2024
! Port assignment regex: !\s*Touchstone port\s*([0-9]+)\s*=\s*(CST MWS port|CST DES external port|CST DES block port)\s*(.+)\s* \(\"(.*)\"\)(\s*mode\s*([0-9]+))?.*
! Touchstone port assignment:
! Touchstone port 1 = CST DES external port 1 ("")
# GHz S MA R 50
9                    0.966082267     -60.5688824
9.001                0.965999214     -60.6536534
9.002                0.965915882     -60.7386224
9.003                 0.96583227       -60.82379
9.004                0.965748375     -60.9091569
9.005                0.965664199     -60.9947237
9.006                0.965579739      -61.080491
9.007                0.965494995     -61.1664595
9.008                0.965409965     -61.2526298
9.009                 0.96532465     -61.3390025
9.01                 0.965239048     -61.4255784
9.011                0.965153159     -61.5123581
9.012                0.965066981     -61.5993422
9.013                0.964980513     -61.6865313
9.014                0.964893755     -61.7739262
9.015                0.964806706     -61.8615275
9.016                0.964719365     -61.9493358
9.017                0.964631731     -62.0373518
9.018                0.964543803     -62.1255762
9.019                 0.96445558     -62.2140097
9.02                 0.964367062     -62.3026529
9.021                0.964278247     -62.3915065
9.022                0.964189135     -62.4805712
9.023                0.964099724     -62.5698476
9.024                0.964010014     -62.6593365
9.025                0.963920004     -62.7490385
9.026                0.963829692     -62.8389542
9.027                0.963739079     -62.9290845
9.028                0.963648163       -63.01943
9.029                0.963556943     -63.1099913
9.03                 0.963465419     -63.2007692
9.031                0.963373588     -63.2917644
9.032                0.963281452     -63.3829775
9.033                0.963189007     -63.4744093
9.034                0.963096255     -63.5660605
9.035                0.963003193     -63.6579318
9.036                0.962909821     -63.7500239
9.037                0.962816138     -63.8423374
9.038                0.962722142     -63.9348732
9.039                0.962627834      -64.027632
9.04                 0.962533212     -64.1206144
9.041                0.962438275     -64.2138212
9.042                0.962343022     -64.3072531
9.043                0.962247453     -64.4009108
9.044                0.962151565     -64.4947952
9.045                 0.96205536     -64.5889068
9.046                0.961958834     -64.6832464
9.047                0.961861988     -64.7778148
9.048                0.961764821     -64.8726128
9.049                0.961667332     -64.9676409
9.05                 0.961569519     -65.0629001
9.051                0.961471382     -65.1583911
9.052                 0.96137292     -65.2541145
9.053                0.961274131     -65.3500712
9.054                0.961175016     -65.4462619
9.055                0.961075572     -65.5426874
9.056                  0.9609758     -65.6393484
9.057                0.960875698     -65.7362457
9.058                0.960775264     -65.8333801
9.059                0.960674499     -65.9307523
9.06                 0.960573402     -66.0283631
9.061                 0.96047197     -66.1262132
9.062                0.960370204     -66.2243035
9.063                0.960268102     -66.3226348
9.064                0.960165663     -66.4212077
9.065                0.960062887     -66.5200232
9.066                0.959959773     -66.6190819
9.067                0.959856319     -66.7183847
9.068                0.959752524     -66.8179324
9.069                0.959648388     -66.9177257
9.07                  0.95954391     -67.0177655
9.071                0.959439088     -67.1180526
9.072                0.959333922     -67.2185877
9.073                0.959228411     -67.3193716
9.074                0.959122553     -67.4204053
9.075                0.959016348     -67.5216894
9.076                0.958909795     -67.6232249
9.077                0.958802893     -67.7250125
9.078                0.958695641      -67.827053
9.079                0.958588038     -67.9293472
9.08                 0.958480083     -68.0318961
9.081                0.958371774     -68.1347003
9.082                0.958263112     -68.2377608
9.083                0.958154095     -68.3410784
9.084                0.958044722     -68.4446539
9.085                0.957934991     -68.5484881
9.086                0.957824904     -68.6525819
9.087                0.957714457     -68.7569362
9.088                 0.95760365     -68.8615517
9.089                0.957492483     -68.9664294
9.09                 0.957380954       -69.07157
9.091                0.957269062     -69.1769745
9.092                0.957156806     -69.2826437
9.093                0.957044186     -69.3885784
9.094                  0.9569312     -69.4947795
9.095                0.956817848      -69.601248
9.096                0.956704128     -69.7079845
9.097                 0.95659004     -69.8149901
9.098                0.956475582     -69.9222656
9.099                0.956360753     -70.0298119
9.1                  0.956245553     -70.1376299
9.101                0.956129981     -70.2457203
9.102                0.956014035     -70.3540842
9.103                0.955897715     -70.4627224
9.104                 0.95578102     -70.5716358
9.105                0.955663948     -70.6808253
9.106                0.955546499     -70.7902918
9.107                0.955428672     -70.9000362
9.108                0.955310466     -71.0100593
9.109                 0.95519188     -71.1203622
9.11                 0.955072913     -71.2309457
9.111                0.954953563     -71.3418106
9.112                0.954833831     -71.4529581
9.113                0.954713715     -71.5643888
9.114                0.954593214     -71.6761038
9.115                0.954472327      -71.788104
9.116                0.954351053     -71.9003903
9.117                0.954229391     -72.0129637
9.118                0.954107341      -72.125825
9.119                0.953984901     -72.2389752
9.12                 0.953862071     -72.3524153
9.121                0.953738849     -72.4661461
9.122                0.953615234     -72.5801686
9.123                0.953491226     -72.6944838
9.124                0.953366824     -72.8090927
9.125                0.953242027      -72.923996
9.126                0.953116833     -73.0391949
9.127                0.952991242     -73.1546902
9.128                0.952865253      -73.270483
9.129                0.952738865     -73.3865741
9.13                 0.952612078     -73.5029646
9.131                0.952484889     -73.6196554
9.132                0.952357299     -73.7366474
9.133                0.952229306     -73.8539418
9.134                0.952100909     -73.9715393
9.135                0.951972108     -74.0894411
9.136                0.951842902      -74.207648
9.137                0.951713289     -74.3261612
9.138                0.951583269     -74.4449814
9.139                0.951452841     -74.5641098
9.14                 0.951322004     -74.6835474
9.141                0.951190757     -74.8032951
9.142                  0.9510591     -74.9233539
9.143                0.950927031     -75.0437248
9.144                0.950794549     -75.1644089
9.145                0.950661654     -75.2854071
9.146                0.950528345     -75.4067204
9.147                 0.95039462     -75.5283499
9.148                 0.95026048     -75.6502966
9.149                0.950125923     -75.7725614
9.15                 0.949990948     -75.8951455
9.151                0.949855554     -76.0180498
9.152                0.949719741     -76.1412753
9.153                0.949583508     -76.2648231
9.154                0.949446854     -76.3886942
9.155                0.949309778     -76.5128896
9.156                0.949172279     -76.6374104
9.157                0.949034357     -76.7622576
9.158                 0.94889601     -76.8874323
9.159                0.948757239     -77.0129355
9.16                 0.948618041     -77.1387682
9.161                0.948478416     -77.2649314
9.162                0.948338364     -77.3914264
9.163                0.948197884      -77.518254
9.164                0.948056975     -77.6454154
9.165                0.947915635     -77.7729115
9.166                0.947773865     -77.9007436
9.167                0.947631664     -78.0289126
9.168                 0.94748903     -78.1574195
9.169                0.947345964     -78.2862656
9.17                 0.947202463     -78.4154518
9.171                0.947058529     -78.5449792
9.172                0.946914159     -78.6748489
9.173                0.946769353      -78.805062
9.174                0.946624111     -78.9356195
9.175                0.946478432     -79.0665225
9.176                0.946332315     -79.1977722
9.177                0.946185759     -79.3293696
9.178                0.946038763     -79.4613158
9.179                0.945891328     -79.5936119
9.18                 0.945743452      -79.726259
9.181                0.945595134     -79.8592582
9.182                0.945446375     -79.9926106
9.183                0.945297173     -80.1263173
9.184                0.945147527     -80.2603794
9.185                0.944997438      -80.394798
9.186                0.944846904     -80.5295743
9.187                0.944695926     -80.6647093
9.188                0.944544501     -80.8002041
9.189                 0.94439263     -80.9360599
9.19                 0.944240312     -81.0722778
9.191                0.944087547     -81.2088589
9.192                0.943934334     -81.3458044
9.193                0.943780672     -81.4831153
9.194                0.943626561     -81.6207929
9.195                0.943472001     -81.7588381
9.196                 0.94331699     -81.8972522
9.197                0.943161529     -82.0360363
9.198                0.943005616     -82.1751916
9.199                0.942849252     -82.3147191
9.2                  0.942692436       -82.45462
9.201                0.942535167     -82.5948955
9.202                0.942377446     -82.7355467
9.203                 0.94221927     -82.8765748
9.204                0.942060641     -83.0179808
9.205                0.941901558      -83.159766
9.206                 0.94174202     -83.3019315
9.207                0.941582027     -83.4444785
9.208                0.941421579      -83.587408
9.209                0.941260674     -83.7307214
9.21                 0.941099314     -83.8744197
9.211                0.940937497     -84.0185041
9.212                0.940775223     -84.1629758
9.213                0.940612492     -84.3078359
9.214                0.940449304     -84.4530856
9.215                0.940285658     -84.5987261
9.216                0.940121554     -84.7447585
9.217                0.939956992      -84.891184
9.218                0.939791972     -85.0380038
9.219                0.939626492     -85.1852191
9.22                 0.939460554      -85.332831
9.221                0.939294157     -85.4808408
9.222                0.939127301     -85.6292495
9.223                0.938959985     -85.7780585
9.224                 0.93879221     -85.9272688
9.225                0.938623975     -86.0768816
9.226                 0.93845528     -86.2268982
9.227                0.938286126     -86.3773198
9.228                0.938116512     -86.5281474
9.229                0.937946437     -86.6793823
9.23                 0.937775903     -86.8310258
9.231                0.937604908     -86.9830789
9.232                0.937433454     -87.1355429
9.233                 0.93726154      -87.288419
9.234                0.937089165     -87.4417083
9.235                0.936916331     -87.5954121
9.236                0.936743037     -87.7495316
9.237                0.936569283     -87.9040679
9.238                0.936395069     -88.0590223
9.239                0.936220396      -88.214396
9.24                 0.936045264     -88.3701901
9.241                0.935869672     -88.5264059
9.242                0.935693621     -88.6830445
9.243                0.935517112     -88.8401072
9.244                0.935340144     -88.9975952
9.245                0.935162717     -89.1555096
9.246                0.934984833     -89.3138518
9.247                0.934806491     -89.4726228
9.248                0.934627692     -89.6318238
9.249                0.934448435     -89.7914562
9.25                 0.934268722     -89.9515211
9.251                0.934088552     -90.1120197
9.252                0.933907927     -90.2729532
9.253                0.933726846     -90.4343228
9.254                0.933545311     -90.5961297
9.255                 0.93336332     -90.7583751
9.256                0.933180876     -90.9210603
9.257                0.932997978     -91.0841864
9.258                0.932814628     -91.2477547
9.259                0.932630825     -91.4117663
9.26                  0.93244657     -91.5762225
9.261                0.932261865     -91.7411244
9.262                0.932076709     -91.9064733
9.263                0.931891103     -92.0722704
9.264                0.931705048     -92.2385168
9.265                0.931518545     -92.4052139
9.266                0.931331595     -92.5723627
9.267                0.931144198     -92.7399644
9.268                0.930956355     -92.9080204
9.269                0.930768067     -93.0765317
9.27                 0.930579335     -93.2454997
9.271                 0.93039016     -93.4149254
9.272                0.930200543     -93.5848101
9.273                0.930010484     -93.7551549
9.274                0.929819985     -93.9259611
9.275                0.929629047     -94.0972299
9.276                0.929437671     -94.2689625
9.277                0.929245858     -94.4411599
9.278                0.929053608     -94.6138236
9.279                0.928860924     -94.7869545
9.28                 0.928667807      -94.960554
9.281                0.928474257     -95.1346231
9.282                0.928280275     -95.3091632
9.283                0.928085864     -95.4841752
9.284                0.927891025     -95.6596606
9.285                0.927695758     -95.8356203
9.286                0.927500066     -96.0120556
9.287                0.927303949     -96.1889677
9.288                 0.92710741     -96.3663578
9.289                0.926910449     -96.5442269
9.29                 0.926713068     -96.7225763
9.291                0.926515269     -96.9014071
9.292                0.926317053     -97.0807206
9.293                0.926118423     -97.2605177
9.294                0.925919379     -97.4407998
9.295                0.925719923      -97.621568
9.296                0.925520057     -97.8028233
9.297                0.925319783      -97.984567
9.298                0.925119103     -98.1668002
9.299                0.924918019     -98.3495241
9.3                  0.924716532     -98.5327397
9.301                0.924514644     -98.7164482
9.302                0.924312358     -98.9006508
9.303                0.924109675     -99.0853485
9.304                0.923906598     -99.2705425
9.305                0.923703128     -99.4562339
9.306                0.923499268     -99.6424238
9.307                 0.92329502     -99.8291134
9.308                0.923090386     -100.016304
9.309                0.922885368     -100.203996
9.31                 0.922679969     -100.392191
9.311                0.922474192      -100.58089
9.312                0.922268037     -100.770094
9.313                0.922061509     -100.959805
9.314                0.921854609     -101.150022
9.315                 0.92164734     -101.340748
9.316                0.921439705     -101.531984
9.317                0.921231705      -101.72373
9.318                0.921023345     -101.915987
9.319                0.920814626     -102.108757
9.32                 0.920605551     -102.302041
9.321                0.920396123      -102.49584
9.322                0.920186345     -102.690154
9.323                 0.91997622     -102.884985
9.324                0.919765751     -103.080334
9.325                 0.91955494     -103.276201
9.326                0.919343792     -103.472589
9.327                0.919132308     -103.669497
9.328                0.918920492     -103.866927
9.329                0.918708348      -104.06488
9.33                 0.918495878     -104.263356
9.331                0.918283085     -104.462358
9.332                0.918069974     -104.661885
9.333                0.917856547     -104.861939
9.334                0.917642808      -105.06252
9.335                0.917428761      -105.26363
9.336                0.917214408      -105.46527
9.337                0.916999754     -105.667441
9.338                0.916784803     -105.870142
9.339                0.916569557     -106.073376
9.34                  0.91635402     -106.277144
9.341                0.916138198     -106.481445
9.342                0.915922092     -106.686282
9.343                0.915705708     -106.891654
9.344                0.915489049     -107.097564
9.345                0.915272119     -107.304011
9.346                0.915054923     -107.510997
9.347                0.914837464     -107.718522
9.348                0.914619747     -107.926587
9.349                0.914401775     -108.135194
9.35                 0.914183554     -108.344342
9.351                0.913965087     -108.554033
9.352                 0.91374638     -108.764268
9.353                0.913527436     -108.975047
9.354                0.913308259     -109.186371
9.355                0.913088856     -109.398241
9.356                 0.91286923     -109.610658
9.357                0.912649385     -109.823622
9.358                0.912429327     -110.037134
9.359                0.912209061     -110.251195
9.36                 0.911988592     -110.465806
9.361                0.911767923     -110.680967
9.362                0.911547061     -110.896679
9.363                0.911326011     -111.112942
9.364                0.911104777     -111.329759
9.365                0.910883364     -111.547128
9.366                0.910661779      -111.76505
9.367                0.910440026     -111.983528
9.368                0.910218111      -112.20256
9.369                0.909996039     -112.422147
9.37                 0.909773815     -112.642291
9.371                0.909551446     -112.862991
9.372                0.909328936     -113.084249
9.373                0.909106292     -113.306065
9.374                0.908883519     -113.528439
9.375                0.908660623     -113.751372
9.376                 0.90843761     -113.974865
9.377                0.908214486     -114.198917
9.378                0.907991257      -114.42353
9.379                0.907767928     -114.648704
9.38                 0.907544506     -114.874439
9.381                0.907320998     -115.100737
9.382                0.907097409     -115.327596
9.383                0.906873745     -115.555018
9.384                0.906650014     -115.783004
9.385                0.906426221     -116.011552
9.386                0.906202373     -116.240665
9.387                0.905978477     -116.470342
9.388                 0.90575454     -116.700584
9.389                0.905530567      -116.93139
9.39                 0.905306565     -117.162762
9.391                0.905082543     -117.394699
9.392                0.904858505     -117.627202
9.393                0.904634461     -117.860271
9.394                0.904410415     -118.093906
9.395                0.904186376     -118.328107
9.396                0.903962351     -118.562876
