! TOUCHSTONE file generated by CST DESIGN STUDIO
! Date and time: Tue Feb  4 18:04:54 2025
! Project name: C:\Work\MatlabApps\UnitCellOptimizationMatlab\CST\unitcell.cst
! Tree item: Tasks\Sweep1\SPara1\S-Parameters
! Header version: 2024
! Port assignment regex: !\s*Touchstone port\s*([0-9]+)\s*=\s*(CST MWS port|CST DES external port|CST DES block port)\s*(.+)\s* \(\"(.*)\"\)(\s*mode\s*([0-9]+))?.*
! Touchstone port assignment:
! Touchstone port 1 = CST DES external port 1 ("")
# GHz S MA R 50
9                    0.962555806     -67.9604356
9.001                 0.96245778     -68.0620937
9.002                0.962359404     -68.1640034
9.003                0.962260675     -68.2661654
9.004                0.962161594     -68.3685807
9.005                0.962062158     -68.4712499
9.006                0.961962367     -68.5741739
9.007                0.961862219     -68.6773536
9.008                0.961761715     -68.7807898
9.009                0.961660852     -68.8844832
9.01                 0.961559631     -68.9884348
9.011                0.961458049     -69.0926453
9.012                0.961356105     -69.1971156
9.013                  0.9612538     -69.3018466
9.014                0.961151131     -69.4068389
9.015                0.961048098     -69.5120936
9.016                  0.9609447     -69.6176115
9.017                0.960840935     -69.7233933
9.018                0.960736803     -69.8294401
9.019                0.960632303     -69.9357525
9.02                 0.960527433     -70.0423314
9.021                0.960422193     -70.1491778
9.022                0.960316581     -70.2562925
9.023                0.960210598     -70.3636763
9.024                 0.96010424     -70.4713301
9.025                0.959997509     -70.5792548
9.026                0.959890401     -70.6874513
9.027                0.959782918     -70.7959204
9.028                0.959675057      -70.904663
9.029                0.959566817       -71.01368
9.03                 0.959458198     -71.1229722
9.031                0.959349198     -71.2325406
9.032                0.959239817     -71.3423861
9.033                0.959130053     -71.4525095
9.034                0.959019906     -71.5629117
9.035                0.958909374     -71.6735937
9.036                0.958798456     -71.7845563
9.037                0.958687152     -71.8958004
9.038                 0.95857546     -72.0073269
9.039                 0.95846338     -72.1191368
9.04                  0.95835091     -72.2312309
9.041                0.958238049     -72.3436102
9.042                0.958124796     -72.4562756
9.043                0.958011151      -72.569228
9.044                0.957897112     -72.6824683
9.045                0.957782679     -72.7959974
9.046                 0.95766785     -72.9098164
9.047                0.957552624      -73.023926
9.048                   0.957437     -73.1383272
9.049                0.957320978     -73.2530211
9.05                 0.957204556     -73.3680084
9.051                0.957087733     -73.4832901
9.052                0.956970509     -73.5988673
9.053                0.956852882     -73.7147408
9.054                0.956734851     -73.8309116
9.055                0.956616416     -73.9473806
9.056                0.956497575     -74.0641487
9.057                0.956378327     -74.1812171
9.058                0.956258672     -74.2985865
9.059                0.956138608      -74.416258
9.06                 0.956018135     -74.5342325
9.061                0.955897251     -74.6525111
9.062                0.955775955     -74.7710946
9.063                0.955654247      -74.889984
9.064                0.955532125     -75.0091803
9.065                 0.95540959     -75.1286846
9.066                0.955286638     -75.2484977
9.067                0.955163271     -75.3686206
9.068                0.955039485     -75.4890544
9.069                0.954915282     -75.6098001
9.07                  0.95479066     -75.7308585
9.071                0.954665617     -75.8522308
9.072                0.954540153     -75.9739179
9.073                0.954414267     -76.0959207
9.074                0.954287958     -76.2182405
9.075                0.954161226      -76.340878
9.076                0.954034068     -76.4638343
9.077                0.953906485     -76.5871105
9.078                0.953778474     -76.7107075
9.079                0.953650037     -76.8346264
9.08                  0.95352117     -76.9588681
9.081                0.953391874     -77.0834338
9.082                0.953262148     -77.2083244
9.083                0.953131991     -77.3335409
9.084                0.953001401     -77.4590844
9.085                0.952870379     -77.5849559
9.086                0.952738922     -77.7111564
9.087                 0.95260703      -77.837687
9.088                0.952474703     -77.9645487
9.089                 0.95234194     -78.0917426
9.09                 0.952208738     -78.2192696
9.091                0.952075099     -78.3471309
9.092                 0.95194102     -78.4753275
9.093                0.951806502     -78.6038604
9.094                0.951671542     -78.7327307
9.095                0.951536141     -78.8619394
9.096                0.951400297     -78.9914877
9.097                 0.95126401     -79.1213765
9.098                0.951127278     -79.2516069
9.099                0.950990102       -79.38218
9.1                   0.95085248     -79.5130969
9.101                0.950714411     -79.6443586
9.102                0.950575895     -79.7759661
9.103                0.950436931     -79.9079207
9.104                0.950297517     -80.0402233
9.105                0.950157654      -80.172875
9.106                 0.95001734     -80.3058769
9.107                0.949876575     -80.4392301
9.108                0.949735358     -80.5729357
9.109                0.949593689     -80.7069948
9.11                 0.949451566     -80.8414084
9.111                0.949308988     -80.9761776
9.112                0.949165956     -81.1113036
9.113                0.949022467     -81.2467874
9.114                0.948878523     -81.3826302
9.115                0.948734121      -81.518833
9.116                0.948589262     -81.6553969
9.117                0.948443944     -81.7923231
9.118                0.948298167     -81.9296127
9.119                0.948151931     -82.0672667
9.12                 0.948005234     -82.2052862
9.121                0.947858076     -82.3436725
9.122                0.947710456     -82.4824265
9.123                0.947562374     -82.6215495
9.124                0.947413829     -82.7610425
9.125                0.947264821     -82.9009067
9.126                0.947115348     -83.0411432
9.127                0.946965411      -83.181753
9.128                0.946815009     -83.3227374
9.129                 0.94666414     -83.4640975
9.13                 0.946512806     -83.6058344
9.131                0.946361004     -83.7479492
9.132                0.946208736      -83.890443
9.133                0.946055999     -84.0333171
9.134                0.945902794     -84.1765725
9.135                 0.94574912     -84.3202103
9.136                0.945594977     -84.4642318
9.137                0.945440363      -84.608638
9.138                 0.94528528     -84.7534302
9.139                0.945129726     -84.8986094
9.14                 0.944973701     -85.0441768
9.141                0.944817204     -85.1901335
9.142                0.944660235     -85.3364807
9.143                0.944502794     -85.4832196
9.144                0.944344881     -85.6303513
9.145                0.944186494     -85.7778769
9.146                0.944027634     -85.9257977
9.147                  0.9438683     -86.0741147
9.148                0.943708493     -86.2228291
9.149                0.943548211     -86.3719422
9.15                 0.943387454     -86.5214549
9.151                0.943226223     -86.6713686
9.152                0.943064516     -86.8216844
9.153                0.942902335     -86.9724034
9.154                0.942739677     -87.1235268
9.155                0.942576544     -87.2750558
9.156                0.942412935     -87.4269916
9.157                 0.94224885     -87.5793352
9.158                0.942084289     -87.7320879
9.159                0.941919252     -87.8852509
9.16                 0.941753738     -88.0388253
9.161                0.941587747     -88.1928123
9.162                 0.94142128      -88.347213
9.163                0.941254336     -88.5020287
9.164                0.941086915     -88.6572605
9.165                0.940919018     -88.8129096
9.166                0.940750643     -88.9689772
9.167                0.940581793     -89.1254644
9.168                0.940412465     -89.2823724
9.169                0.940242661     -89.4397024
9.17                  0.94007238     -89.5974556
9.171                0.939901622     -89.7556331
9.172                0.939730389     -89.9142362
9.173                0.939558679      -90.073266
9.174                0.939386493     -90.2327236
9.175                0.939213831     -90.3926104
9.176                0.939040693     -90.5529273
9.177                 0.93886708     -90.7136757
9.178                0.938692992     -90.8748567
9.179                0.938518428     -91.0364715
9.18                 0.938343391     -91.1985212
9.181                0.938167878     -91.3610071
9.182                0.937991892     -91.5239303
9.183                0.937815432     -91.6872919
9.184                0.937638499     -91.8510933
9.185                0.937461093     -92.0153355
9.186                0.937283215     -92.1800197
9.187                0.937104864     -92.3451471
9.188                0.936926043     -92.5107189
9.189                 0.93674675     -92.6767363
9.19                 0.936566987     -92.8432004
9.191                0.936386754     -93.0101124
9.192                0.936206052     -93.1774734
9.193                0.936024881     -93.3452847
9.194                0.935843242     -93.5135475
9.195                0.935661135     -93.6822628
9.196                0.935478562     -93.8514319
9.197                0.935295524     -94.0210559
9.198                 0.93511202      -94.191136
9.199                0.934928051     -94.3616733
9.2                  0.934743619     -94.5326691
9.201                0.934558725     -94.7041244
9.202                0.934373368     -94.8760405
9.203                 0.93418755     -95.0484186
9.204                0.934001273     -95.2212596
9.205                0.933814536     -95.3945649
9.206                0.933627341     -95.5683356
9.207                 0.93343969     -95.7425728
9.208                0.933251582     -95.9172776
9.209                0.933063019     -96.0924513
9.21                 0.932874003      -96.268095
9.211                0.932684533     -96.4442097
9.212                0.932494613     -96.6207968
9.213                0.932304242     -96.7978572
9.214                0.932113422     -96.9753922
9.215                0.931922154     -97.1534028
9.216                 0.93173044     -97.3318902
9.217                0.931538281     -97.5108556
9.218                0.931345678        -97.6903
9.219                0.931152632     -97.8702246
9.22                 0.930959146     -98.0506305
9.221                0.930765221     -98.2315188
9.222                0.930570858     -98.4128907
9.223                0.930376059     -98.5947472
9.224                0.930180825     -98.7770894
9.225                0.929985158     -98.9599185
9.226                 0.92978906     -99.1432356
9.227                0.929592532     -99.3270417
9.228                0.929395577      -99.511338
9.229                0.929198195     -99.6961255
9.23                 0.929000389     -99.8814053
9.231                0.928802161     -100.067179
9.232                0.928603512     -100.253446
9.233                0.928404445     -100.440209
9.234                0.928204962     -100.627469
9.235                0.928005064     -100.815227
9.236                0.927804754     -101.003483
9.237                0.927604033     -101.192239
9.238                0.927402904     -101.381497
9.239                 0.92720137     -101.571255
9.24                 0.926999431     -101.761517
9.241                0.926797092     -101.952283
9.242                0.926594353     -102.143554
9.243                0.926391218     -102.335331
9.244                0.926187688     -102.527615
9.245                0.925983767     -102.720407
9.246                0.925779456     -102.913708
9.247                0.925574758     -103.107519
9.248                0.925369677     -103.301842
9.249                0.925164214     -103.496676
9.25                 0.924958372     -103.692023
9.251                0.924752154     -103.887885
9.252                0.924545563     -104.084261
9.253                0.924338601     -104.281154
9.254                0.924131272     -104.478563
9.255                0.923923578     -104.676491
9.256                0.923715522     -104.874937
9.257                0.923507108     -105.073903
9.258                0.923298338     -105.273389
9.259                0.923089215     -105.473398
9.26                 0.922879744     -105.673929
9.261                0.922669926     -105.874983
9.262                0.922459765     -106.076562
9.263                0.922249265     -106.278666
9.264                0.922038429     -106.481296
9.265                0.921827261     -106.684453
9.266                0.921615763     -106.888138
9.267                0.921403939     -107.092352
9.268                0.921191793     -107.297095
9.269                0.920979329     -107.502369
9.27                  0.92076655     -107.708174
9.271                 0.92055346     -107.914512
9.272                0.920340063     -108.121382
9.273                0.920126362     -108.328786
9.274                0.919912363     -108.536725
9.275                0.919698067     -108.745198
9.276                 0.91948348     -108.954209
9.277                0.919268606     -109.163756
9.278                0.919053448      -109.37384
9.279                0.918838011     -109.584463
9.28                   0.9186223     -109.795625
9.281                0.918406318     -110.007328
9.282                0.918190069      -110.21957
9.283                0.917973559     -110.432354
9.284                0.917756791      -110.64568
9.285                0.917539771     -110.859549
9.286                0.917322503     -111.073961
9.287                 0.91710499     -111.288917
9.288                 0.91688724     -111.504418
9.289                0.916669254     -111.720465
9.29                  0.91645104     -111.937057
9.291                0.916232601     -112.154196
9.292                0.916013943     -112.371882
9.293                 0.91579507     -112.590115
9.294                0.915575988     -112.808898
9.295                0.915356702     -113.028229
9.296                0.915137216      -113.24811
9.297                0.914917537      -113.46854
9.298                0.914697669     -113.689522
9.299                0.914477618     -113.911054
9.3                  0.914257389     -114.133138
9.301                0.914036988     -114.355774
9.302                 0.91381642     -114.578963
9.303                0.913595691     -114.802705
9.304                0.913374806        -115.027
9.305                0.913153772     -115.251849
9.306                0.912932594     -115.477252
9.307                0.912711278     -115.703211
9.308                 0.91248983     -115.929724
9.309                0.912268255     -116.156793
9.31                 0.912046561     -116.384418
9.311                0.911824753     -116.612599
9.312                0.911602837     -116.841336
9.313                0.911380819     -117.070631
9.314                0.911158706     -117.300482
9.315                0.910936504     -117.530891
9.316                 0.91071422     -117.761858
9.317                 0.91049186     -117.993383
9.318                0.910269431     -118.225466
9.319                0.910046939     -118.458107
9.32                 0.909824391     -118.691307
9.321                0.909601793     -118.925066
9.322                0.909379153     -119.159383
9.323                0.909156478      -119.39426
9.324                0.908933774     -119.629696
9.325                0.908711048     -119.865691
9.326                0.908488308     -120.102246
9.327                 0.90826556     -120.339361
9.328                0.908042813     -120.577034
9.329                0.907820072     -120.815268
9.33                 0.907597346     -121.054061
9.331                0.907374642     -121.293414
9.332                0.907151967     -121.533326
9.333                0.906929328     -121.773798
9.334                0.906706735      -122.01483
9.335                0.906484193     -122.256421
9.336                0.906261711     -122.498571
9.337                0.906039297      -122.74128
9.338                0.905816958     -122.984549
9.339                0.905594702     -123.228377
9.34                 0.905372538     -123.472763
9.341                0.905150473     -123.717708
9.342                0.904928515     -123.963211
9.343                0.904706674     -124.209272
9.344                0.904484955     -124.455891
9.345                 0.90426337     -124.703068
9.346                0.904041924     -124.950802
9.347                0.903820628     -125.199093
9.348                0.903599488      -125.44794
9.349                0.903378515     -125.697344
9.35                 0.903157716     -125.947303
9.351                  0.9029371     -126.197818
9.352                0.902716676     -126.448888
9.353                0.902496453     -126.700512
9.354                0.902276439      -126.95269
9.355                0.902056644     -127.205422
9.356                0.901837075     -127.458706
9.357                0.901617743     -127.712543
9.358                0.901398657     -127.966932
9.359                0.901179825     -128.221872
9.36                 0.900961256     -128.477363
9.361                0.900742961     -128.733403
9.362                0.900524948     -128.989993
9.363                0.900307226     -129.247132
9.364                0.900089805     -129.504818
9.365                0.899872695     -129.763051
9.366                0.899655904      -130.02183
9.367                0.899439443     -130.281155
9.368                0.899223321     -130.541025
9.369                0.899007548     -130.801439
9.37                 0.898792133     -131.062395
9.371                0.898577087     -131.323893
9.372                0.898362419     -131.585933
9.373                0.898148139     -131.848512
9.374                0.897934256     -132.111631
9.375                0.897720782     -132.375288
9.376                0.897507725     -132.639482
9.377                0.897295096     -132.904212
9.378                0.897082906     -133.169477
9.379                0.896871163     -133.435275
9.38                 0.896659879     -133.701607
9.381                0.896449064     -133.968469
9.382                0.896238728     -134.235862
9.383                0.896028881     -134.503785
9.384                0.895819533     -134.772234
9.385                0.895610696     -135.041211
9.386                0.895402379     -135.310712
9.387                0.895194594     -135.580738
9.388                0.894987349     -135.851286
9.389                0.894780657     -136.122355
9.39                 0.894574528     -136.393943
9.391                0.894368972      -136.66605
9.392                   0.894164     -136.938674
9.393                0.893959623     -137.211812
9.394                0.893755851     -137.485465
9.395                0.893552696     -137.759629
9.396                0.893350167     -138.034304
