! TOUCHSTONE file generated by CST DESIGN STUDIO
! Date and time: Tue Feb  4 18:04:59 2025
! Project name: C:\Work\MatlabApps\UnitCellOptimizationMatlab\CST\unitcell.cst
! Tree item: Tasks\Sweep1\SPara1\S-Parameters
! Header version: 2024
! Port assignment regex: !\s*Touchstone port\s*([0-9]+)\s*=\s*(CST MWS port|CST DES external port|CST DES block port)\s*(.+)\s* \(\"(.*)\"\)(\s*mode\s*([0-9]+))?.*
! Touchstone port assignment:
! Touchstone port 1 = CST DES external port 1 ("")
# GHz S MA R 50
9                    0.967749149     -57.0331139
9.001                0.967673343     -57.1105028
9.002                 0.96759729     -57.1880663
9.003                0.967520989     -57.2658048
9.004                 0.96744444     -57.3437191
9.005                0.967367642     -57.4218095
9.006                0.967290594     -57.5000768
9.007                0.967213296     -57.5785213
9.008                0.967135746     -57.6571438
9.009                0.967057944     -57.7359448
9.01                 0.966979889     -57.8149248
9.011                0.966901581     -57.8940844
9.012                0.966823018     -57.9734242
9.013                  0.9667442     -58.0529447
9.014                0.966665126     -58.1326465
9.015                0.966585796     -58.2125303
9.016                0.966506208     -58.2925965
9.017                0.966426362     -58.3728458
9.018                0.966346257     -58.4532787
9.019                0.966265892     -58.5338959
9.02                 0.966185266     -58.6146979
9.021                0.966104379     -58.6956853
9.022                0.966023231     -58.7768586
9.023                0.965941819     -58.8582186
9.024                0.965860143     -58.9397658
9.025                0.965778203     -59.0215007
9.026                0.965695998      -59.103424
9.027                0.965613527     -59.1855364
9.028                0.965530789     -59.2678383
9.029                0.965447783     -59.3503304
9.03                 0.965364509     -59.4330133
9.031                0.965280965     -59.5158877
9.032                0.965197152      -59.598954
9.033                0.965113068     -59.6822131
9.034                0.965028712     -59.7656654
9.035                0.964944083     -59.8493116
9.036                0.964859181     -59.9331523
9.037                0.964774005     -60.0171881
9.038                0.964688555     -60.1014197
9.039                0.964602828     -60.1858477
9.04                 0.964516825     -60.2704727
9.041                0.964430545     -60.3552954
9.042                0.964343986     -60.4403163
9.043                0.964257149     -60.5255362
9.044                0.964170031     -60.6109557
9.045                0.964082633     -60.6965754
9.046                0.963994953      -60.782396
9.047                0.963906991      -60.868418
9.048                0.963818746     -60.9546422
9.049                0.963730217     -61.0410693
9.05                 0.963641403     -61.1276998
9.051                0.963552303     -61.2145344
9.052                0.963462917     -61.3015738
9.053                0.963373243     -61.3888187
9.054                0.963283281     -61.4762696
9.055                 0.96319303     -61.5639274
9.056                 0.96310249     -61.6517926
9.057                0.963011658     -61.7398659
9.058                0.962920535     -61.8281479
9.059                0.962829119     -61.9166395
9.06                  0.96273741     -62.0053412
9.061                0.962645407     -62.0942537
9.062                0.962553108     -62.1833778
9.063                0.962460514      -62.272714
9.064                0.962367623     -62.3622631
9.065                0.962274434     -62.4520258
9.066                0.962180947     -62.5420028
9.067                0.962087161     -62.6321947
9.068                0.961993074     -62.7226023
9.069                0.961898686     -62.8132262
9.07                 0.961803996     -62.9040672
9.071                0.961709003      -62.995126
9.072                0.961613706     -63.0864033
9.073                0.961518105     -63.1778997
9.074                0.961422198      -63.269616
9.075                0.961325985      -63.361553
9.076                0.961229464     -63.4537113
9.077                0.961132636     -63.5460917
9.078                0.961035498     -63.6386948
9.079                 0.96093805     -63.7315214
9.08                 0.960840292     -63.8245723
9.081                0.960742222     -63.9178482
9.082                0.960643839     -64.0113497
9.083                0.960545142     -64.1050777
9.084                0.960446132     -64.1990328
9.085                0.960346806     -64.2932159
9.086                0.960247163     -64.3876276
9.087                0.960147204     -64.4822687
9.088                0.960046927       -64.57714
9.089                 0.95994633     -64.6722422
9.09                 0.959845414      -64.767576
9.091                0.959744177     -64.8631422
9.092                0.959642619     -64.9589417
9.093                0.959540738      -65.054975
9.094                0.959438534     -65.1512431
9.095                0.959336005     -65.2477466
9.096                0.959233151     -65.3444864
9.097                0.959129971     -65.4414631
9.098                0.959026463     -65.5386777
9.099                0.958922628     -65.6361308
9.1                  0.958818464     -65.7338233
9.101                 0.95871397     -65.8317559
9.102                0.958609145     -65.9299294
9.103                0.958503989     -66.0283446
9.104                  0.9583985     -66.1270023
9.105                0.958292678     -66.2259033
9.106                0.958186521     -66.3250484
9.107                0.958080029     -66.4244384
9.108                  0.9579732      -66.524074
9.109                0.957866035     -66.6239562
9.11                 0.957758531     -66.7240856
9.111                0.957650688     -66.8244632
9.112                0.957542506     -66.9250896
9.113                0.957433982     -67.0259658
9.114                0.957325117     -67.1270926
9.115                0.957215909     -67.2284707
9.116                0.957106357     -67.3301011
9.117                0.956996461     -67.4319845
9.118                0.956886219     -67.5341217
9.119                0.956775631     -67.6365136
9.12                 0.956664695     -67.7391611
9.121                0.956553411     -67.8420649
9.122                0.956441778     -67.9452259
9.123                0.956329795      -68.048645
9.124                0.956217461      -68.152323
9.125                0.956104775     -68.2562607
9.126                0.955991735      -68.360459
9.127                0.955878342     -68.4649187
9.128                0.955764595     -68.5696408
9.129                0.955650491      -68.674626
9.13                 0.955536031     -68.7798753
9.131                0.955421213     -68.8853894
9.132                0.955306037     -68.9911694
9.133                0.955190501     -69.0972159
9.134                0.955074605       -69.20353
9.135                0.954958348     -69.3101125
9.136                0.954841729     -69.4169642
9.137                0.954724746     -69.5240861
9.138                  0.9546074      -69.631479
9.139                0.954489688     -69.7391439
9.14                  0.95437161     -69.8470816
9.141                0.954253166      -69.955293
9.142                0.954134354      -70.063779
9.143                0.954015173     -70.1725405
9.144                0.953895623     -70.2815784
9.145                0.953775702     -70.3908937
9.146                 0.95365541     -70.5004871
9.147                0.953534745     -70.6103598
9.148                0.953413707     -70.7205124
9.149                0.953292295     -70.8309461
9.15                 0.953170508     -70.9416616
9.151                0.953048345       -71.05266
9.152                0.952925804     -71.1639421
9.153                0.952802886     -71.2755088
9.154                 0.95267959     -71.3873612
9.155                0.952555913     -71.4995001
9.156                0.952431856     -71.6119265
9.157                0.952307418     -71.7246413
9.158                0.952182597     -71.8376454
9.159                0.952057393     -71.9509398
9.16                 0.951931805     -72.0645255
9.161                0.951805831     -72.1784035
9.162                0.951679472     -72.2925745
9.163                0.951552726     -72.4070397
9.164                0.951425592        -72.5218
9.165                0.951298069     -72.6368563
9.166                0.951170157     -72.7522096
9.167                0.951041855     -72.8678608
9.168                0.950913161     -72.9838111
9.169                0.950784075     -73.1000612
9.17                 0.950654596     -73.2166123
9.171                0.950524723     -73.3334652
9.172                0.950394456      -73.450621
9.173                0.950263792     -73.5680806
9.174                0.950132732     -73.6858451
9.175                0.950001275     -73.8039155
9.176                 0.94986942     -73.9222926
9.177                0.949737165     -74.0409776
9.178                 0.94960451     -74.1599714
9.179                0.949471455      -74.279275
9.18                 0.949337998     -74.3988894
9.181                0.949204138     -74.5188158
9.182                0.949069875     -74.6390549
9.183                0.948935208     -74.7596079
9.184                0.948800136     -74.8804759
9.185                0.948664658     -75.0016597
9.186                0.948528774     -75.1231605
9.187                0.948392482     -75.2449792
9.188                0.948255782     -75.3671169
9.189                0.948118672     -75.4895746
9.19                 0.947981153     -75.6123534
9.191                0.947843223     -75.7354543
9.192                0.947704882     -75.8588783
9.193                0.947566128     -75.9826265
9.194                0.947426961     -76.1066999
9.195                 0.94728738     -76.2310996
9.196                0.947147385     -76.3558266
9.197                0.947006974      -76.480882
9.198                0.946866148     -76.6062668
9.199                0.946724904     -76.7319821
9.2                  0.946583242     -76.8580289
9.201                0.946441163     -76.9844084
9.202                0.946298664     -77.1111215
9.203                0.946155745     -77.2381695
9.204                0.946012405     -77.3655532
9.205                0.945868644     -77.4932738
9.206                0.945724461     -77.6213325
9.207                0.945579855     -77.7497302
9.208                0.945434826      -77.878468
9.209                0.945289372     -78.0075471
9.21                 0.945143494     -78.1369685
9.211                 0.94499719     -78.2667334
9.212                 0.94485046     -78.3968427
9.213                0.944703303     -78.5272977
9.214                0.944555718     -78.6580993
9.215                0.944407705     -78.7892488
9.216                0.944259263     -78.9207472
9.217                0.944110392     -79.0525956
9.218                0.943961091     -79.1847952
9.219                0.943811358     -79.3173469
9.22                 0.943661195     -79.4502521
9.221                0.943510599     -79.5835117
9.222                0.943359571     -79.7171269
9.223                0.943208109     -79.8510989
9.224                0.943056214     -79.9854287
9.225                0.942903884     -80.1201174
9.226                 0.94275112     -80.2551663
9.227                 0.94259792     -80.3905764
9.228                0.942444284     -80.5263489
9.229                0.942290212     -80.6624848
9.23                 0.942135702     -80.7989855
9.231                0.941980755     -80.9358519
9.232                 0.94182537     -81.0730852
9.233                0.941669547     -81.2106866
9.234                0.941513284     -81.3486572
9.235                0.941356582     -81.4869982
9.236                0.941199439     -81.6257108
9.237                0.941041857      -81.764796
9.238                0.940883833      -81.904255
9.239                0.940725368     -82.0440891
9.24                 0.940566462     -82.1842993
9.241                0.940407113     -82.3248868
9.242                0.940247322     -82.4658529
9.243                0.940087088     -82.6071986
9.244                0.939926411     -82.7489251
9.245                 0.93976529     -82.8910336
9.246                0.939603725     -83.0335253
9.247                0.939441716     -83.1764014
9.248                0.939279262     -83.3196629
9.249                0.939116364     -83.4633112
9.25                  0.93895302     -83.6073474
9.251                0.938789231     -83.7517727
9.252                0.938624996     -83.8965882
9.253                0.938460315     -84.0417951
9.254                0.938295188     -84.1873947
9.255                0.938129614     -84.3333882
9.256                0.937963594     -84.4797766
9.257                0.937797127     -84.6265613
9.258                0.937630213     -84.7737433
9.259                0.937462851      -84.921324
9.26                 0.937295043     -85.0693045
9.261                0.937126787      -85.217686
9.262                0.936958084     -85.3664697
9.263                0.936788932     -85.5156568
9.264                0.936619334     -85.6652485
9.265                0.936449287     -85.8152461
9.266                0.936278793     -85.9656507
9.267                0.936107851     -86.1164635
9.268                0.935936461     -86.2676858
9.269                0.935764623     -86.4193188
9.27                 0.935592337     -86.5713637
9.271                0.935419604     -86.7238216
9.272                0.935246423     -86.8766938
9.273                0.935072794     -87.0299816
9.274                0.934898718     -87.1836861
9.275                0.934724194     -87.3378086
9.276                0.934549223     -87.4923503
9.277                0.934373805     -87.6473124
9.278                 0.93419794     -87.8026961
9.279                0.934021628     -87.9585026
9.28                  0.93384487     -88.1147333
9.281                0.933667666     -88.2713892
9.282                0.933490015     -88.4284716
9.283                0.933311919     -88.5859818
9.284                0.933133378      -88.743921
9.285                0.932954391     -88.9022904
9.286                0.932774959     -89.0610912
9.287                0.932595084     -89.2203247
9.288                0.932414764      -89.379992
9.289                0.932234001     -89.5400945
9.29                 0.932052794     -89.7006333
9.291                0.931871145     -89.8616097
9.292                0.931689054     -90.0230249
9.293                0.931506521     -90.1848801
9.294                0.931323547     -90.3471766
9.295                0.931140132     -90.5099156
9.296                0.930956278     -90.6730983
9.297                0.930771984      -90.836726
9.298                0.930587251     -91.0007999
9.299                 0.93040208     -91.1653211
9.3                  0.930216472     -91.3302911
9.301                0.930030427     -91.4957109
9.302                0.929843946     -91.6615818
9.303                0.929657031      -91.827905
9.304                 0.92946968     -91.9946818
9.305                0.929281896     -92.1619134
9.306                 0.92909368      -92.329601
9.307                0.928905031     -92.4977458
9.308                0.928715952     -92.6663491
9.309                0.928526443     -92.8354121
9.31                 0.928336505     -93.0049361
9.311                0.928146138     -93.1749221
9.312                0.927955345     -93.3453716
9.313                0.927764126     -93.5162856
9.314                0.927572482     -93.6876654
9.315                0.927380414     -93.8595122
9.316                0.927187923     -94.0318273
9.317                0.926995012     -94.2046118
9.318                 0.92680168     -94.3778671
9.319                0.926607929     -94.5515941
9.32                  0.92641376     -94.7257943
9.321                0.926219175     -94.9004688
9.322                0.926024175     -95.0756188
9.323                0.925828761     -95.2512456
9.324                0.925632935     -95.4273502
9.325                0.925436699      -95.603934
9.326                0.925240052     -95.7809981
9.327                0.925042999     -95.9585437
9.328                0.924845539     -96.1365721
9.329                0.924647674     -96.3150843
9.33                 0.924449406     -96.4940817
9.331                0.924250737     -96.6735654
9.332                0.924051668     -96.8535365
9.333                0.923852201     -97.0339963
9.334                0.923652338      -97.214946
9.335                 0.92345208     -97.3963867
9.336                 0.92325143     -97.5783195
9.337                0.923050389     -97.7607458
9.338                 0.92284896     -97.9436665
9.339                0.922647143      -98.127083
9.34                 0.922444942     -98.3109964
9.341                0.922242358     -98.4954077
9.342                0.922039394     -98.6803182
9.343                 0.92183605     -98.8657291
9.344                0.921632331     -99.0516414
9.345                0.921428237     -99.2380564
9.346                0.921223771     -99.4249751
9.347                0.921018936     -99.6123987
9.348                0.920813733     -99.8003283
9.349                0.920608166     -99.9887651
9.35                 0.920402235      -100.17771
9.351                0.920195945     -100.367165
9.352                0.919989297      -100.55713
9.353                0.919782294     -100.747606
9.354                0.919574939     -100.938595
9.355                0.919367233     -101.130099
9.356                0.919159181     -101.322117
9.357                0.918950784     -101.514651
9.358                0.918742045     -101.707702
9.359                0.918532968     -101.901271
9.36                 0.918323555     -102.095359
9.361                0.918113808     -102.289968
9.362                0.917903732     -102.485098
9.363                0.917693329     -102.680751
9.364                0.917482601     -102.876927
9.365                0.917271553     -103.073627
9.366                0.917060186     -103.270853
9.367                0.916848506     -103.468606
9.368                0.916636513     -103.666886
9.369                0.916424213     -103.865695
9.37                 0.916211609     -104.065034
9.371                0.915998703     -104.264903
9.372                0.915785499     -104.465303
9.373                0.915572001     -104.666237
9.374                0.915358212     -104.867704
9.375                0.915144136     -105.069705
9.376                0.914929777     -105.272242
9.377                0.914715138     -105.475316
9.378                0.914500223     -105.678927
9.379                0.914285036     -105.883076
9.38                  0.91406958     -106.087765
9.381                0.913853861     -106.292993
9.382                 0.91363788     -106.498763
9.383                0.913421644     -106.705076
9.384                0.913205156     -106.911931
9.385                0.912988419      -107.11933
9.386                0.912771438     -107.327273
9.387                0.912554218     -107.535763
9.388                0.912336763     -107.744798
9.389                0.912119077     -107.954381
9.39                 0.911901164     -108.164513
9.391                0.911683029     -108.375193
9.392                0.911464677     -108.586423
9.393                0.911246112     -108.798204
9.394                0.911027339     -109.010536
9.395                0.910808363      -109.22342
9.396                0.910589188     -109.436858
