! TOUCHSTONE file generated by CST DESIGN STUDIO
! Date and time: Tue Feb  4 18:04:49 2025
! Project name: C:\Work\MatlabApps\UnitCellOptimizationMatlab\CST\unitcell.cst
! Tree item: Tasks\Sweep1\SPara1\S-Parameters
! Header version: 2024
! Port assignment regex: !\s*Touchstone port\s*([0-9]+)\s*=\s*(CST MWS port|CST DES external port|CST DES block port)\s*(.+)\s* \(\"(.*)\"\)(\s*mode\s*([0-9]+))?.*
! Touchstone port assignment:
! Touchstone port 1 = CST DES external port 1 ("")
# GHz S MA R 50
9                    0.957055953     -79.5020924
9.001                0.956938021     -79.6331436
9.002                0.956819647     -79.7645419
9.003                0.956700829     -79.8962882
9.004                0.956581567     -80.0283837
9.005                0.956461859     -80.1608295
9.006                0.956341705     -80.2936266
9.007                0.956221103     -80.4267761
9.008                0.956100052     -80.5602792
9.009                0.955978552     -80.6941368
9.01                 0.955856602     -80.8283501
9.011                0.955734199     -80.9629201
9.012                0.955611345      -81.097848
9.013                0.955488037     -81.2331349
9.014                0.955364274     -81.3687819
9.015                0.955240056       -81.50479
9.016                0.955115382     -81.6411604
9.017                0.954990251     -81.7778941
9.018                0.954864662     -81.9149923
9.019                0.954738613     -82.0524561
9.02                 0.954612105     -82.1902866
9.021                0.954485135     -82.3284849
9.022                0.954357704     -82.4670521
9.023                0.954229811     -82.6059894
9.024                0.954101453     -82.7452978
9.025                0.953972632     -82.8849785
9.026                0.953843345     -83.0250326
9.027                0.953713592     -83.1654613
9.028                0.953583372     -83.3062655
9.029                0.953452684     -83.4474466
9.03                 0.953321527     -83.5890056
9.031                0.953189902     -83.7309436
9.032                0.953057805     -83.8732618
9.033                0.952925238     -84.0159613
9.034                0.952792199     -84.1590432
9.035                0.952658687     -84.3025087
9.036                0.952524702      -84.446359
9.037                0.952390242     -84.5905951
9.038                0.952255308     -84.7352182
9.039                0.952119898     -84.8802295
9.04                 0.951984011     -85.0256301
9.041                0.951847647     -85.1714212
9.042                0.951710806     -85.3176038
9.043                0.951573485     -85.4641792
9.044                0.951435686     -85.6111485
9.045                0.951297407     -85.7585128
9.046                0.951158647     -85.9062734
9.047                0.951019406     -86.0544313
9.048                0.950879683     -86.2029877
9.049                0.950739477     -86.3519439
9.05                 0.950598788     -86.5013008
9.051                0.950457616     -86.6510598
9.052                0.950315959      -86.801222
9.053                0.950173817     -86.9517884
9.054                 0.95003119     -87.1027604
9.055                0.949888077      -87.254139
9.056                0.949744477     -87.4059255
9.057                 0.94960039     -87.5581209
9.058                0.949455816     -87.7107265
9.059                0.949310754     -87.8637434
9.06                 0.949165203     -88.0171729
9.061                0.949019163      -88.171016
9.062                0.948872633     -88.3252739
9.063                0.948725614     -88.4799479
9.064                0.948578104      -88.635039
9.065                0.948430104     -88.7905485
9.066                0.948281612     -88.9464775
9.067                0.948132629     -89.1028273
9.068                0.947983154     -89.2595989
9.069                0.947833187     -89.4167936
9.07                 0.947682728     -89.5744125
9.071                0.947531776     -89.7324568
9.072                 0.94738033     -89.8909277
9.073                0.947228392     -90.0498264
9.074                 0.94707596      -90.209154
9.075                0.946923034     -90.3689117
9.076                0.946769614     -90.5291007
9.077                  0.9466157     -90.6897222
9.078                0.946461291     -90.8507773
9.079                0.946306388     -91.0122673
9.08                  0.94615099     -91.1741932
9.081                0.945995098     -91.3365563
9.082                0.945838711     -91.4993578
9.083                0.945681829     -91.6625988
9.084                0.945524451     -91.8262805
9.085                0.945366579     -91.9904041
9.086                0.945208212     -92.1549707
9.087                 0.94504935     -92.3199816
9.088                0.944889993     -92.4854379
9.089                0.944730141     -92.6513407
9.09                 0.944569794     -92.8176913
9.091                0.944408952     -92.9844908
9.092                0.944247616     -93.1517403
9.093                0.944085785     -93.3194412
9.094                0.943923461     -93.4875944
9.095                0.943760642     -93.6562013
9.096                0.943597329     -93.8252629
9.097                0.943433523     -93.9947804
9.098                0.943269223      -94.164755
9.099                 0.94310443     -94.3351879
9.1                  0.942939145     -94.5060802
9.101                0.942773367      -94.677433
9.102                0.942607097     -94.8492476
9.103                0.942440336     -95.0215251
9.104                0.942273083     -95.1942666
9.105                 0.94210534     -95.3674733
9.106                0.941937107     -95.5411463
9.107                0.941768384     -95.7152869
9.108                0.941599172     -95.8898961
9.109                0.941429471      -96.064975
9.11                 0.941259282     -96.2405249
9.111                0.941088606     -96.4165469
9.112                0.940917443     -96.5930421
9.113                0.940745794     -96.7700116
9.114                 0.94057366     -96.9474566
9.115                0.940401041     -97.1253782
9.116                0.940227938     -97.3037776
9.117                0.940054353     -97.4826558
9.118                0.939880285      -97.662014
9.119                0.939705736     -97.8418533
9.12                 0.939530707     -98.0221749
9.121                0.939355198     -98.2029798
9.122                0.939179211     -98.3842691
9.123                0.939002746      -98.566044
9.124                0.938825805     -98.7483056
9.125                0.938648388     -98.9310549
9.126                0.938470497     -99.1142931
9.127                0.938292134     -99.2980213
9.128                0.938113298     -99.4822405
9.129                0.937933991     -99.6669518
9.13                 0.937754215     -99.8521563
9.131                0.937573971     -100.037855
9.132                 0.93739326     -100.224049
9.133                0.937212083      -100.41074
9.134                0.937030442     -100.597928
9.135                0.936848339     -100.785615
9.136                0.936665774     -100.973801
9.137                0.936482749     -101.162488
9.138                0.936299267     -101.351677
9.139                0.936115327     -101.541368
9.14                 0.935930933     -101.731564
9.141                0.935746085     -101.922264
9.142                0.935560786      -102.11347
9.143                0.935375037     -102.305183
9.144                0.935188839     -102.497403
9.145                0.935002196     -102.690133
9.146                0.934815108     -102.883373
9.147                0.934627577     -103.077123
9.148                0.934439606     -103.271385
9.149                0.934251197     -103.466161
9.15                  0.93406235      -103.66145
9.151                 0.93387307     -103.857254
9.152                0.933683357     -104.053574
9.153                0.933493214      -104.25041
9.154                0.933302643     -104.447764
9.155                0.933111646     -104.645637
9.156                0.932920226      -104.84403
9.157                0.932728385     -105.042943
9.158                0.932536125     -105.242378
9.159                0.932343449     -105.442335
9.16                 0.932150359     -105.642815
9.161                0.931956858      -105.84382
9.162                0.931762949      -106.04535
9.163                0.931568633     -106.247406
9.164                0.931373915     -106.449988
9.165                0.931178795     -106.653099
9.166                0.930983278     -106.856738
9.167                0.930787366     -107.060906
9.168                0.930591062     -107.265605
9.169                0.930394369     -107.470836
9.17                  0.93019729     -107.676598
9.171                0.929999827     -107.882893
9.172                0.929801985     -108.089721
9.173                0.929603765     -108.297084
9.174                0.929405172     -108.504983
9.175                0.929206208     -108.713417
9.176                0.929006877     -108.922389
9.177                0.928807183     -109.131897
9.178                0.928607127     -109.341945
9.179                0.928406715     -109.552531
9.18                 0.928205949     -109.763657
9.181                0.928004833     -109.975324
9.182                0.927803371     -110.187532
9.183                0.927601566     -110.400282
9.184                0.927399422     -110.613574
9.185                0.927196942      -110.82741
9.186                0.926994132      -111.04179
9.187                0.926790994     -111.256715
9.188                0.926587532     -111.472185
9.189                0.926383751     -111.688201
9.19                 0.926179654     -111.904763
9.191                0.925975246     -112.121873
9.192                0.925770531     -112.339531
9.193                0.925565513     -112.557737
9.194                0.925360196     -112.776492
9.195                0.925154584     -112.995797
9.196                0.924948683     -113.215651
9.197                0.924742497     -113.436057
9.198                0.924536029     -113.657013
9.199                0.924329285     -113.878521
9.2                   0.92412227     -114.100582
9.201                0.923914987     -114.323195
9.202                0.923707442     -114.546361
9.203                 0.92349964     -114.770081
9.204                0.923291586     -114.994355
9.205                0.923083284     -115.219183
9.206                0.922874739     -115.444567
9.207                0.922665957     -115.670505
9.208                0.922456942     -115.896999
9.209                0.922247701      -116.12405
9.21                 0.922038237     -116.351657
9.211                0.921828557      -116.57982
9.212                0.921618666     -116.808541
9.213                0.921408569     -117.037818
9.214                0.921198272     -117.267654
9.215                 0.92098778     -117.498048
9.216                  0.9207771        -117.729
9.217                0.920566236      -117.96051
9.218                0.920355194     -118.192579
9.219                0.920143981     -118.425207
9.22                 0.919932602     -118.658394
9.221                0.919721063      -118.89214
9.222                 0.91950937     -119.126446
9.223                 0.91929753     -119.361311
9.224                0.919085548     -119.596736
9.225                0.918873431     -119.832721
9.226                0.918661184     -120.069266
9.227                0.918448815      -120.30637
9.228                 0.91823633     -120.544035
9.229                0.918023734      -120.78226
9.23                 0.917811036     -121.021045
9.231                 0.91759824      -121.26039
9.232                0.917385355     -121.500295
9.233                0.917172386      -121.74076
9.234                0.916959341     -121.981785
9.235                0.916746225      -122.22337
9.236                0.916533048     -122.465515
9.237                0.916319814      -122.70822
9.238                0.916106532     -122.951484
9.239                0.915893208     -123.195307
9.24                  0.91567985     -123.439689
9.241                0.915466464     -123.684631
9.242                0.915253059     -123.930131
9.243                0.915039641      -124.17619
9.244                0.914826219     -124.422807
9.245                0.914612798     -124.669982
9.246                0.914399388     -124.917714
9.247                0.914185995     -125.166004
9.248                0.913972628     -125.414851
9.249                0.913759294     -125.664255
9.25                 0.913546001     -125.914214
9.251                0.913332757      -126.16473
9.252                0.913119569     -126.415801
9.253                0.912906446     -126.667426
9.254                0.912693397     -126.919606
9.255                0.912480428      -127.17234
9.256                0.912267548     -127.425628
9.257                0.912054766     -127.679468
9.258                0.911842089      -127.93386
9.259                0.911629527     -128.188804
9.26                 0.911417087     -128.444299
9.261                0.911204779     -128.700344
9.262                0.910992609     -128.956938
9.263                0.910780589     -129.214082
9.264                0.910568725     -129.471774
9.265                0.910357026     -129.730013
9.266                0.910145503     -129.988799
9.267                0.909934162     -130.248131
9.268                0.909723014     -130.508008
9.269                0.909512067     -130.768429
9.27                  0.90930133     -131.029393
9.271                0.909090812       -131.2909
9.272                0.908880523     -131.552948
9.273                0.908670471     -131.815537
9.274                0.908460666     -132.078665
9.275                0.908251117     -132.342332
9.276                0.908041834     -132.606536
9.277                0.907832826     -132.871277
9.278                0.907624101     -133.136553
9.279                0.907415671     -133.402363
9.28                 0.907207544     -133.668706
9.281                 0.90699973     -133.935581
9.282                0.906792238     -134.202986
9.283                0.906585079     -134.470922
9.284                0.906378262     -134.739385
9.285                0.906171797     -135.008375
9.286                0.905965693     -135.277891
9.287                0.905759961     -135.547931
9.288                 0.90555461     -135.818494
9.289                0.905349651     -136.089578
9.29                 0.905145093     -136.361182
9.291                0.904940947     -136.633305
9.292                0.904737222     -136.905945
9.293                0.904533929     -137.179101
9.294                0.904331078     -137.452771
9.295                 0.90412868     -137.726953
9.296                0.903926743     -138.001646
9.297                0.903725279     -138.276848
9.298                0.903524299     -138.552558
9.299                0.903323811     -138.828774
9.3                  0.903123828     -139.105494
9.301                0.902924358     -139.382716
9.302                0.902725414     -139.660439
9.303                0.902527004     -139.938661
9.304                 0.90232914      -140.21738
9.305                0.902131833     -140.496594
9.306                0.901935092     -140.776301
9.307                0.901738928       -141.0565
9.308                0.901543353     -141.337188
9.309                0.901348376     -141.618363
9.31                 0.901154008     -141.900024
9.311                0.900960261     -142.182168
9.312                0.900767144     -142.464793
9.313                0.900574669     -142.747898
9.314                0.900382846     -143.031479
9.315                0.900191686     -143.315535
9.316                  0.9000012     -143.600064
9.317                0.899811398     -143.885063
9.318                0.899622292      -144.17053
9.319                0.899433892     -144.456463
9.32                 0.899246209      -144.74286
9.321                0.899059254     -145.029717
9.322                0.898873038     -145.317034
9.323                0.898687572     -145.604806
9.324                0.898502866     -145.893033
9.325                0.898318931     -146.181711
9.326                0.898135779     -146.470838
9.327                 0.89795342     -146.760411
9.328                0.897771864     -147.050428
9.329                0.897591124     -147.340886
9.33                  0.89741121     -147.631783
9.331                0.897232132     -147.923116
9.332                0.897053901     -148.214882
9.333                0.896876529     -148.507078
9.334                0.896700026     -148.799702
9.335                0.896524403     -149.092751
9.336                0.896349671     -149.386222
9.337                 0.89617584     -149.680112
9.338                0.896002922     -149.974419
9.339                0.895830927     -150.269139
9.34                 0.895659866      -150.56427
9.341                0.895489749     -150.859808
9.342                0.895320588     -151.155751
9.343                0.895152393     -151.452096
9.344                0.894985175     -151.748839
9.345                0.894818944     -152.045977
9.346                0.894653712     -152.343508
9.347                0.894489487     -152.641428
9.348                0.894326282     -152.939734
9.349                0.894164107     -153.238422
9.35                 0.894002972      -153.53749
9.351                0.893842887     -153.836935
9.352                0.893683864     -154.136752
9.353                0.893525911     -154.436939
9.354                0.893369041     -154.737493
9.355                0.893213263     -155.038409
9.356                0.893058587     -155.339685
9.357                0.892905023     -155.641317
9.358                0.892752582     -155.943301
9.359                0.892601274     -156.245635
9.36                 0.892451108     -156.548314
9.361                0.892302096     -156.851336
9.362                0.892154246     -157.154695
9.363                0.892007569      -157.45839
9.364                0.891862075     -157.762416
9.365                0.891717772      -158.06677
9.366                0.891574672     -158.371448
9.367                0.891432784     -158.676445
9.368                0.891292117      -158.98176
9.369                 0.89115268     -159.287387
9.37                 0.891014484     -159.593323
9.371                0.890877538     -159.899564
9.372                0.890741851     -160.206106
9.373                0.890607432     -160.512946
9.374                 0.89047429      -160.82008
9.375                0.890342436     -161.127503
9.376                0.890211876     -161.435211
9.377                0.890082622     -161.743202
9.378                0.889954681      -162.05147
9.379                0.889828062     -162.360012
9.38                 0.889702774     -162.668824
9.381                0.889578825     -162.977901
9.382                0.889456225      -163.28724
9.383                0.889334982     -163.596836
9.384                0.889215103     -163.906686
9.385                0.889096598     -164.216785
9.386                0.888979474     -164.527129
9.387                 0.88886374     -164.837714
9.388                0.888749403     -165.148536
9.389                0.888636472      -165.45959
9.39                 0.888524954     -165.770872
9.391                0.888414857     -166.082378
9.392                0.888306189     -166.394104
9.393                0.888198957     -166.706045
9.394                0.888093168     -167.018197
9.395                 0.88798883     -167.330556
9.396                 0.88788595     -167.643117
