! TOUCHSTONE file generated by CST DESIGN STUDIO
! Date and time: Tue Jan 28 13:35:05 2025
! Project name: C:\Work\MatlabApps\UnitCellOptimizationMatlabNew\CST\unitcell.cst
! Tree item: Tasks\Sweep1\SPara1\S-Parameters
! Header version: 2024
! Port assignment regex: !\s*Touchstone port\s*([0-9]+)\s*=\s*(CST MWS port|CST DES external port|CST DES block port)\s*(.+)\s* \(\"(.*)\"\)(\s*mode\s*([0-9]+))?.*
! Touchstone port assignment:
! Touchstone port 1 = CST DES external port 1 ("")
# GHz S MA R 50
9                     0.78957666     -113.237319
9.001                0.788847315     -113.500547
9.002                0.788117195     -113.764675
9.003                0.787386321     -114.029705
9.004                0.786654715      -114.29564
9.005                  0.7859224     -114.562483
9.006                0.785189398     -114.830235
9.007                0.784455732     -115.098899
9.008                0.783721426     -115.368478
9.009                0.782986504     -115.638974
9.01                 0.782250989     -115.910388
9.011                0.781514905     -116.182724
9.012                0.780778278     -116.455984
9.013                0.780041133      -116.73017
9.014                0.779303494     -117.005284
9.015                0.778565387     -117.281328
9.016                0.777826839     -117.558305
9.017                0.777087876     -117.836216
9.018                0.776348525     -118.115065
9.019                0.775608812     -118.394853
9.02                 0.774868766     -118.675581
9.021                0.774128413     -118.957253
9.022                0.773387783      -119.23987
9.023                0.772646903     -119.523434
9.024                0.771905803     -119.807948
9.025                0.771164511     -120.093412
9.026                0.770423058     -120.379829
9.027                0.769681473     -120.667202
9.028                0.768939786     -120.955531
9.029                0.768198029     -121.244818
9.03                 0.767456232     -121.535066
9.031                0.766714427     -121.826276
9.032                0.765972644      -122.11845
9.033                0.765230918     -122.411589
9.034                0.764489279     -122.705695
9.035                0.763747761      -123.00077
9.036                0.763006397     -123.296815
9.037                0.762265221     -123.593831
9.038                0.761524266     -123.891821
9.039                0.760783566     -124.190786
9.04                 0.760043158     -124.490727
9.041                0.759303074     -124.791645
9.042                0.758563352     -125.093541
9.043                0.757824026     -125.396418
9.044                0.757085133     -125.700276
9.045                0.756346709     -126.005116
9.046                0.755608791     -126.310939
9.047                0.754871417     -126.617748
9.048                0.754134623     -126.925541
9.049                0.753398449     -127.234322
9.05                 0.752662931      -127.54409
9.051                0.751928109     -127.854846
9.052                0.751194022     -128.166591
9.053                0.750460709     -128.479327
9.054                 0.74972821     -128.793053
9.055                0.748996565      -129.10777
9.056                0.748265815      -129.42348
9.057                0.747535999     -129.740182
9.058                 0.74680716     -130.057877
9.059                0.746079339     -130.376565
9.06                 0.745352577     -130.696247
9.061                0.744626917     -131.016924
9.062                0.743902402     -131.338594
9.063                0.743179073      -131.66126
9.064                0.742456975      -131.98492
9.065                0.741736151     -132.309575
9.066                0.741016644     -132.635225
9.067                0.740298499     -132.961869
9.068                0.739581761     -133.289508
9.069                0.738866473     -133.618141
9.07                 0.738152682     -133.947769
9.071                0.737440432      -134.27839
9.072                 0.73672977     -134.610005
9.073                0.736020741     -134.942613
9.074                0.735313392     -135.276213
9.075                0.734607769     -135.610804
9.076                 0.73390392     -135.946387
9.077                0.733201891      -136.28296
9.078                 0.73250173     -136.620522
9.079                0.731803485     -136.959072
9.08                 0.731107204     -137.298611
9.081                0.730412935     -137.639135
9.082                0.729720727     -137.980644
9.083                0.729030628     -138.323138
9.084                0.728342688     -138.666614
9.085                0.727656955     -139.011071
9.086                0.726973481     -139.356507
9.087                0.726292313     -139.702922
9.088                0.725613503     -140.050313
9.089                0.724937101     -140.398679
9.09                 0.724263157     -140.748017
9.091                0.723591721     -141.098326
9.092                0.722922845     -141.449604
9.093                 0.72225658     -141.801849
9.094                0.721592977     -142.155057
9.095                0.720932087     -142.509228
9.096                0.720273961     -142.864359
9.097                0.719618653     -143.220447
9.098                0.718966213     -143.577489
9.099                0.718316694     -143.935484
9.1                  0.717670147     -144.294427
9.101                0.717026626     -144.654317
9.102                0.716386183      -145.01515
9.103                0.715748869     -145.376923
9.104                0.715114739     -145.739633
9.105                0.714483844     -146.103277
9.106                0.713856238     -146.467851
9.107                0.713231973     -146.833352
9.108                0.712611102     -147.199777
9.109                0.711993679      -147.56712
9.11                 0.711379757      -147.93538
9.111                0.710769388     -148.304551
9.112                0.710162626      -148.67463
9.113                0.709559524     -149.045613
9.114                0.708960136     -149.417495
9.115                0.708364514     -149.790273
9.116                0.707772711     -150.163941
9.117                0.707184782     -150.538495
9.118                0.706600778     -150.913931
9.119                0.706020753     -151.290243
9.12                 0.705444761     -151.667428
9.121                0.704872853     -152.045479
9.122                0.704305083     -152.424392
9.123                0.703741504     -152.804161
9.124                0.703182168     -153.184782
9.125                0.702627127     -153.566248
9.126                0.702076435     -153.948555
9.127                0.701530144     -154.331696
9.128                0.700988305     -154.715666
9.129                0.700450971     -155.100459
9.13                 0.699918194     -155.486068
9.131                0.699390025     -155.872489
9.132                0.698866515     -156.259714
9.133                0.698347716     -156.647737
9.134                0.697833678     -157.036552
9.135                0.697324453     -157.426152
9.136                0.696820091     -157.816531
9.137                0.696320643     -158.207681
9.138                0.695826157     -158.599596
9.139                0.695336684     -158.992269
9.14                 0.694852274     -159.385692
9.141                0.694372974     -159.779859
9.142                0.693898835     -160.174761
9.143                0.693429904     -160.570393
9.144                0.692966229     -160.966745
9.145                0.692507859      -161.36381
9.146                0.692054839     -161.761581
9.147                0.691607218     -162.160049
9.148                0.691165042     -162.559207
9.149                0.690728356     -162.959045
9.15                 0.690297207     -163.359557
9.151                0.689871639     -163.760734
9.152                0.689451698     -164.162567
9.153                0.689037428     -164.565048
9.154                0.688628871     -164.968167
9.155                0.688226073     -165.371917
9.156                0.687829075     -165.776287
9.157                0.687437919     -166.181271
9.158                0.687052648     -166.586857
9.159                0.686673303     -166.993037
9.16                 0.686299924     -167.399802
9.161                0.685932551     -167.807142
9.162                0.685571224     -168.215048
9.163                0.685215982      -168.62351
9.164                0.684866862     -169.032518
9.165                0.684523903     -169.442063
9.166                0.684187142     -169.852135
9.167                0.683856614     -170.262724
9.168                0.683532356     -170.673819
9.169                0.683214402      -171.08541
9.17                 0.682902788     -171.497488
9.171                0.682597546     -171.910042
9.172                 0.68229871     -172.323061
9.173                0.682006312     -172.736535
9.174                0.681720383     -173.150454
9.175                0.681440954     -173.564806
9.176                0.681168056     -173.979581
9.177                0.680901717     -174.394767
9.178                0.680641967     -174.810356
9.179                0.680388832     -175.226334
9.18                 0.680142341     -175.642691
9.181                0.679902518     -176.059416
9.182                0.679669391     -176.476498
9.183                0.679442982     -176.893925
9.184                0.679223317     -177.311687
9.185                0.679010417     -177.729771
9.186                0.678804306     -178.148166
9.187                0.678605004     -178.566861
9.188                0.678412531     -178.985844
9.189                0.678226909     -179.405104
9.19                 0.678048154     -179.824628
9.191                0.677876285      179.755594
9.192                 0.67771132      179.335575
9.193                0.677553273      178.915327
9.194                0.677402161      178.494862
9.195                0.677257998      178.074191
9.196                0.677120796      177.653326
9.197                 0.67699057      177.232279
9.198                0.676867329      176.811063
9.199                0.676751086       176.38969
9.2                  0.676641849      175.968171
9.201                0.676539628      175.546519
9.202                 0.67644443      175.124745
9.203                0.676356263      174.702863
9.204                0.676275133      174.280884
9.205                0.676201045      173.858821
9.206                0.676134003      173.436685
9.207                 0.67607401       173.01449
9.208                0.676021069      172.592246
9.209                0.675975182      172.169968
9.21                 0.675936348      171.747666
9.211                0.675904568      171.325353
9.212                0.675879839      170.903042
9.213                 0.67586216      170.480744
9.214                0.675851528      170.058473
9.215                0.675847938      169.636239
9.216                0.675851385      169.214057
9.217                0.675861863      168.791937
9.218                0.675879365      168.369892
9.219                0.675903883      167.947935
9.22                 0.675935409      167.526077
9.221                0.675973932      167.104331
9.222                0.676019442      166.682709
9.223                0.676071927      166.261223
9.224                0.676131375      165.839885
9.225                0.676197772      165.418708
9.226                0.676271105      164.997703
9.227                0.676351357      164.576882
9.228                0.676438513      164.156258
9.229                0.676532556      163.735842
9.23                 0.676633467      163.315647
9.231                0.676741229      162.895684
9.232                0.676855821      162.475965
9.233                0.676977223      162.056502
9.234                0.677105413      161.637306
9.235                 0.67724037      161.218389
9.236                 0.67738207      160.799764
9.237                0.677530489       160.38144
9.238                0.677685603      159.963431
9.239                0.677847386      159.545747
9.24                 0.678015812      159.128401
9.241                0.678190854      158.711402
9.242                0.678372483      158.294762
9.243                0.678560671      157.878494
9.244                0.678755389      157.462607
9.245                0.678956606      157.047112
9.246                0.679164291      156.632022
9.247                0.679378412      156.217346
9.248                0.679598938      155.803096
9.249                0.679825834      155.389282
9.25                 0.680059066      154.975915
9.251                0.680298601      154.563005
9.252                0.680544402      154.150564
9.253                0.680796434      153.738601
9.254                 0.68105466      153.327127
9.255                0.681319043      152.916152
9.256                0.681589544      152.505686
9.257                0.681866125      152.095739
9.258                0.682148747      151.686322
9.259                 0.68243737      151.277444
9.26                 0.682731954      150.869114
9.261                0.683032456      150.461344
9.262                0.683338837      150.054141
9.263                0.683651052      149.647516
9.264                0.683969061      149.241479
9.265                0.684292819      148.836038
9.266                0.684622283      148.431202
9.267                0.684957408      148.026981
9.268                 0.68529815      147.623384
9.269                0.685644463      147.220419
9.27                 0.685996301      146.818096
9.271                0.686353619      146.416423
9.272                0.686716369      146.015408
9.273                0.687084505       145.61506
9.274                0.687457979      145.215388
9.275                0.687836743        144.8164
9.276                0.688220748      144.418103
9.277                0.688609947      144.020506
9.278                 0.68900429      143.623617
9.279                0.689403727      143.227443
9.28                 0.689808209      142.831993
9.281                0.690217685      142.437274
9.282                0.690632106      142.043292
9.283                0.691051421      141.650057
9.284                0.691475578      141.257574
9.285                0.691904526      140.865852
9.286                0.692338215      140.474896
9.287                0.692776591      140.084715
9.288                0.693219604      139.695314
9.289                  0.6936672      139.306701
9.29                 0.694119327      138.918881
9.291                0.694575934      138.531862
9.292                0.695036966       138.14565
9.293                0.695502372      137.760251
9.294                0.695972097      137.375672
9.295                0.696446089      136.991917
9.296                0.696924294      136.608993
9.297                0.697406658      136.226907
9.298                0.697893128      135.845662
9.299                0.698383651      135.465266
9.3                  0.698878172      135.085723
9.301                0.699376637       134.70704
9.302                0.699878993       134.32922
9.303                0.700385186      133.952269
9.304                 0.70089516      133.576192
9.305                0.701408864      133.200995
9.306                0.701926241      132.826681
9.307                0.702447238      132.453256
9.308                0.702971802      132.080723
9.309                0.703499877      131.709088
9.31                 0.704031411      131.338355
9.311                0.704566348      130.968528
9.312                0.705104635      130.599611
9.313                0.705646218      130.231609
9.314                0.706191043      129.864524
9.315                0.706739057      129.498362
9.316                0.707290205      129.133124
9.317                0.707844435      128.768817
9.318                0.708401692      128.405442
9.319                0.708961924      128.043003
9.32                 0.709525077      127.681503
9.321                0.710091097      127.320946
9.322                0.710659933      126.961335
9.323                0.711231531      126.602672
9.324                0.711805839      126.244961
9.325                0.712382804      125.888205
9.326                0.712962373      125.532405
9.327                0.713544496      125.177565
9.328                0.714129119      124.823688
9.329                0.714716192      124.470775
9.33                 0.715305662      124.118829
9.331                0.715897479      123.767852
9.332                0.716491591      123.417847
9.333                0.717087947      123.068815
9.334                0.717686497      122.720759
9.335                0.718287191      122.373679
9.336                0.718889978      122.027579
9.337                0.719494808      121.682459
9.338                0.720101633      121.338322
9.339                0.720710402      120.995169
9.34                 0.721321067         120.653
9.341                0.721933578      120.311819
9.342                0.722547888      119.971625
9.343                0.723163948      119.632421
9.344                 0.72378171      119.294207
9.345                0.724401126      118.956984
9.346                 0.72502215      118.620753
9.347                0.725644734      118.285516
9.348                0.726268832      117.951272
9.349                0.726894397      117.618023
9.35                 0.727521383      117.285769
9.351                0.728149745      116.954511
9.352                0.728779436       116.62425
9.353                0.729410413      116.294985
9.354                 0.73004263      115.966718
9.355                0.730676043      115.639448
9.356                0.731310609      115.313176
9.357                0.731946282      114.987901
9.358                 0.73258302      114.663625
9.359                 0.73322078      114.340346
9.36                  0.73385952      114.018065
9.361                0.734499196      113.696783
9.362                0.735139768      113.376497
9.363                0.735781193       113.05721
9.364                0.736423431      112.738919
9.365                 0.73706644      112.421625
9.366                0.737710181      112.105328
9.367                0.738354612      111.790026
9.368                0.738999696       111.47572
9.369                0.739645391      111.162408
9.37                 0.740291659      110.850091
9.371                0.740938462      110.538767
9.372                0.741585762      110.228436
9.373                 0.74223352      109.919096
9.374                0.742881699      109.610748
9.375                0.743530262       109.30339
9.376                0.744179173      108.997021
9.377                0.744828394       108.69164
9.378                0.745477892      108.387246
9.379                0.746127628      108.083838
9.38                  0.74677757      107.781416
9.381                0.747427681      107.479976
9.382                0.748077928      107.179519
9.383                0.748728276      106.880044
9.384                0.749378692      106.581548
9.385                0.750029143      106.284031
9.386                0.750679596       105.98749
9.387                0.751330018      105.691925
9.388                0.751980377      105.397335
9.389                0.752630642      105.103716
9.39                 0.753280781      104.811069
9.391                0.753930764      104.519391
9.392                 0.75458056      104.228681
9.393                0.755230138      103.938937
9.394                0.755879469      103.650157
9.395                0.756528523       103.36234
9.396                0.757177272      103.075483
