! TOUCHSTONE file generated by CST DESIGN STUDIO
! Date and time: Tue Jan 28 13:35:06 2025
! Project name: C:\Work\MatlabApps\UnitCellOptimizationMatlabNew\CST\unitcell.cst
! Tree item: Tasks\Sweep1\SPara1\S-Parameters
! Header version: 2024
! Port assignment regex: !\s*Touchstone port\s*([0-9]+)\s*=\s*(CST MWS port|CST DES external port|CST DES block port)\s*(.+)\s* \(\"(.*)\"\)(\s*mode\s*([0-9]+))?.*
! Touchstone port assignment:
! Touchstone port 1 = CST DES external port 1 ("")
# GHz S MA R 50
9                    0.831952149     -97.1500876
9.001                 0.83136729     -97.3547874
9.002                0.830781036     -97.5601881
9.003                0.830193392     -97.7662926
9.004                0.829604362     -97.9731033
9.005                0.829013951     -98.1806231
9.006                0.828422163     -98.3888546
9.007                0.827829004     -98.5978005
9.008                0.827234479     -98.8074635
9.009                0.826638593     -99.0178461
9.01                 0.826041351     -99.2289513
9.011                0.825442759     -99.4407815
9.012                0.824842823     -99.6533396
9.013                0.824241549     -99.8666281
9.014                0.823638943      -100.08065
9.015                0.823035011     -100.295408
9.016                 0.82242976     -100.510904
9.017                0.821823195     -100.727141
9.018                0.821215325     -100.944123
9.019                0.820606155     -101.161851
9.02                 0.819995694     -101.380329
9.021                0.819383947     -101.599558
9.022                0.818770924     -101.819543
9.023                0.818156631     -102.040285
9.024                0.817541076     -102.261787
9.025                0.816924267     -102.484052
9.026                0.816306213     -102.707083
9.027                0.815686922     -102.930882
9.028                0.815066403     -103.155451
9.029                0.814444663     -103.380795
9.03                 0.813821714     -103.606915
9.031                0.813197562     -103.833814
9.032                0.812572219     -104.061494
9.033                0.811945693     -104.289959
9.034                0.811317994     -104.519212
9.035                0.810689133     -104.749253
9.036                 0.81005912     -104.980088
9.037                0.809427964     -105.211717
9.038                0.808795677     -105.444144
9.039                 0.80816227     -105.677372
9.04                 0.807527754     -105.911403
9.041                0.806892139     -106.146239
9.042                0.806255438     -106.381884
9.043                0.805617662      -106.61834
9.044                0.804978824     -106.855609
9.045                0.804338935     -107.093695
9.046                0.803698008       -107.3326
9.047                0.803056056     -107.572326
9.048                0.802413091     -107.812876
9.049                0.801769127     -108.054253
9.05                 0.801124177      -108.29646
9.051                0.800478255     -108.539498
9.052                0.799831375      -108.78337
9.053                0.799183551      -109.02808
9.054                0.798534796     -109.273629
9.055                0.797885127     -109.520021
9.056                0.797234558     -109.767257
9.057                0.796583103      -110.01534
9.058                0.795930779     -110.264273
9.059                0.795277601     -110.514058
9.06                 0.794623586     -110.764697
9.061                0.793968748     -111.016194
9.062                0.793313105     -111.268551
9.063                0.792656673     -111.521769
9.064                 0.79199947     -111.775852
9.065                0.791341513     -112.030802
9.066                0.790682819     -112.286621
9.067                0.790023406     -112.543312
9.068                0.789363292     -112.800877
9.069                0.788702496     -113.059319
9.07                 0.788041037     -113.318639
9.071                0.787378932      -113.57884
9.072                0.786716202     -113.839925
9.073                0.786052867     -114.101895
9.074                0.785388945     -114.364754
9.075                0.784724457     -114.628503
9.076                0.784059424     -114.893144
9.077                0.783393866      -115.15868
9.078                0.782727804     -115.425112
9.079                 0.78206126     -115.692444
9.08                 0.781394255     -115.960677
9.081                0.780726811     -116.229813
9.082                 0.78005895     -116.499855
9.083                0.779390695     -116.770804
9.084                0.778722068     -117.042663
9.085                0.778053093     -117.315433
9.086                0.777383794     -117.589117
9.087                0.776714193     -117.863717
9.088                0.776044315     -118.139234
9.089                0.775374185      -118.41567
9.09                 0.774703827     -118.693028
9.091                0.774033266     -118.971309
9.092                0.773362527     -119.250516
9.093                0.772691637     -119.530649
9.094                 0.77202062      -119.81171
9.095                0.771349504     -120.093703
9.096                0.770678315     -120.376627
9.097                0.770007079     -120.660485
9.098                0.769335825     -120.945279
9.099                 0.76866458      -121.23101
9.1                  0.767993371     -121.517679
9.101                0.767322227     -121.805289
9.102                0.766651176      -122.09384
9.103                0.765980248     -122.383335
9.104                0.765309471     -122.673775
9.105                0.764638875      -122.96516
9.106                 0.76396849     -123.257493
9.107                0.763298345     -123.550775
9.108                0.762628473     -123.845007
9.109                0.761958903      -124.14019
9.11                 0.761289666     -124.436326
9.111                0.760620795     -124.733415
9.112                 0.75995232      -125.03146
9.113                0.759284274      -125.33046
9.114                 0.75861669     -125.630417
9.115                  0.7579496     -125.931332
9.116                0.757283037     -126.233206
9.117                0.756617036      -126.53604
9.118                0.755951629     -126.839834
9.119                 0.75528685     -127.144589
9.12                 0.754622735     -127.450307
9.121                0.753959317     -127.756988
9.122                0.753296633     -128.064632
9.123                0.752634716      -128.37324
9.124                0.751973604     -128.682813
9.125                0.751313331     -128.993351
9.126                0.750653935     -129.304854
9.127                0.749995452     -129.617323
9.128                0.749337918     -129.930759
9.129                0.748681372     -130.245161
9.13                 0.748025851      -130.56053
9.131                0.747371391     -130.876866
9.132                0.746718033     -131.194168
9.133                0.746065814     -131.512438
9.134                0.745414773     -131.831674
9.135                0.744764948     -132.151878
9.136                 0.74411638     -132.473048
9.137                0.743469109     -132.795184
9.138                0.742823173     -133.118287
9.139                0.742178613     -133.442356
9.14                  0.74153547      -133.76739
9.141                0.740893784     -134.093389
9.142                0.740253597     -134.420352
9.143                0.739614949     -134.748279
9.144                0.738977883     -135.077169
9.145                0.738342441     -135.407022
9.146                0.737708663     -135.737836
9.147                0.737076594      -136.06961
9.148                0.736446274     -136.402345
9.149                0.735817748     -136.736037
9.15                 0.735191058     -137.070687
9.151                0.734566248     -137.406294
9.152                0.733943362     -137.742855
9.153                0.733322442     -138.080369
9.154                0.732703533     -138.418836
9.155                 0.73208668     -138.758254
9.156                0.731471926      -139.09862
9.157                0.730859317     -139.439934
9.158                0.730248898     -139.782193
9.159                0.729640712     -140.125396
9.16                 0.729034807     -140.469541
9.161                0.728431226     -140.814626
9.162                0.727830017     -141.160648
9.163                0.727231223     -141.507606
9.164                0.726634893     -141.855497
9.165                0.726041071     -142.204319
9.166                0.725449803     -142.554069
9.167                0.724861137     -142.904745
9.168                0.724275119     -143.256344
9.169                0.723691796     -143.608864
9.17                 0.723111213     -143.962302
9.171                0.722533419     -144.316655
9.172                 0.72195846     -144.671919
9.173                0.721386384     -145.028093
9.174                0.720817237     -145.385171
9.175                0.720251068     -145.743153
9.176                0.719687922     -146.102033
9.177                0.719127848     -146.461809
9.178                0.718570894     -146.822476
9.179                0.718017106     -147.184032
9.18                 0.717466533     -147.546473
9.181                0.716919222     -147.909794
9.182                0.716375221     -148.273992
9.183                0.715834577     -148.639062
9.184                0.715297339     -149.005001
9.185                0.714763553     -149.371805
9.186                0.714233268     -149.739468
9.187                0.713706531     -150.107987
9.188                0.713183389     -150.477357
9.189                0.712663892     -150.847573
9.19                 0.712148085     -151.218631
9.191                0.711636016     -151.590525
9.192                0.711127734     -151.963252
9.193                0.710623284     -152.336804
9.194                0.710122715     -152.711179
9.195                0.709626073     -153.086369
9.196                0.709133406     -153.462371
9.197                0.708644761     -153.839178
9.198                0.708160183     -154.216784
9.199                0.707679721     -154.595185
9.2                  0.707203419     -154.974374
9.201                0.706731326     -155.354345
9.202                0.706263486     -155.735093
9.203                0.705799946     -156.116612
9.204                0.705340751     -156.498894
9.205                0.704885947     -156.881934
9.206                0.704435579     -157.265726
9.207                0.703989693     -157.650262
9.208                0.703548333     -158.035537
9.209                0.703111544     -158.421543
9.21                  0.70267937     -158.808273
9.211                0.702251855     -159.195722
9.212                0.701829042     -159.583881
9.213                0.701410977     -159.972744
9.214                  0.7009977     -160.362303
9.215                0.700589256     -160.752551
9.216                0.700185687     -161.143481
9.217                0.699787034     -161.535084
9.218                0.699393341     -161.927354
9.219                0.699004647     -162.320282
9.22                 0.698620995     -162.713861
9.221                0.698242424     -163.108083
9.222                0.697868975     -163.502939
9.223                0.697500689     -163.898422
9.224                0.697137603     -164.294523
9.225                0.696779757     -164.691234
9.226                0.696427191     -165.088547
9.227                0.696079941     -165.486452
9.228                0.695738045     -165.884942
9.229                0.695401541     -166.284008
9.23                 0.695070464      -166.68364
9.231                0.694744852      -167.08383
9.232                0.694424739     -167.484569
9.233                0.694110162     -167.885847
9.234                0.693801153     -168.287657
9.235                0.693497748     -168.689987
9.236                0.693199979      -169.09283
9.237                 0.69290788     -169.496175
9.238                0.692621482     -169.900013
9.239                0.692340818     -170.304335
9.24                 0.692065918      -170.70913
9.241                0.691796814     -171.114389
9.242                0.691533534     -171.520102
9.243                0.691276108      -171.92626
9.244                0.691024565     -172.332851
9.245                0.690778933     -172.739867
9.246                0.690539238     -173.147297
9.247                0.690305508      -173.55513
9.248                0.690077769     -173.963357
9.249                0.689856045     -174.371967
9.25                 0.689640361     -174.780949
9.251                0.689430742     -175.190294
9.252                 0.68922721      -175.59999
9.253                0.689029788     -176.010027
9.254                0.688838497     -176.420395
9.255                0.688653359     -176.831082
9.256                0.688474394     -177.242078
9.257                0.688301621     -177.653372
9.258                 0.68813506     -178.064953
9.259                0.687974727      -178.47681
9.26                 0.687820641     -178.888932
9.261                0.687672818     -179.301308
9.262                0.687531274     -179.713927
9.263                0.687396023      179.873223
9.264                 0.68726708      179.460152
9.265                0.687144458      179.046871
9.266                 0.68702817      178.633392
9.267                0.686918227      178.219727
9.268                0.686814641      177.805886
9.269                0.686717421      177.391881
9.27                 0.686626577      176.977723
9.271                0.686542118      176.563424
9.272                0.686464051      176.148995
9.273                0.686392383      175.734448
9.274                 0.68632712      175.319794
9.275                0.686268267      174.905045
9.276                0.686215829      174.490212
9.277                0.686169809      174.075306
9.278                0.686130211       173.66034
9.279                0.686097035      173.245324
9.28                 0.686070284      172.830271
9.281                0.686049957      172.415192
9.282                0.686036054      172.000099
9.283                0.686028573      171.585002
9.284                0.686027512      171.169915
9.285                0.686032868      170.754848
9.286                0.686044637      170.339812
9.287                0.686062814      169.924821
9.288                0.686087394      169.509884
9.289                0.686118371      169.095014
9.29                 0.686155736      168.680222
9.291                0.686199483       168.26552
9.292                0.686249601      167.850919
9.293                0.686306082       167.43643
9.294                0.686368915      167.022066
9.295                0.686438088      166.607837
9.296                 0.68651359      166.193756
9.297                0.686595407      165.779833
9.298                0.686683525      165.366079
9.299                0.686777931      164.952507
9.3                  0.686878608      164.539127
9.301                 0.68698554       164.12595
9.302                0.687098712      163.712989
9.303                0.687218104      163.300253
9.304                0.687343698      162.887755
9.305                0.687475476      162.475505
9.306                0.687613417      162.063514
9.307                  0.6877575      161.651794
9.308                0.687907705      161.240355
9.309                0.688064007      160.829208
9.31                 0.688226386      160.418364
9.311                0.688394816      160.007834
9.312                0.688569274      159.597628
9.313                0.688749735      159.187758
9.314                0.688936172      158.778233
9.315                0.689128559      158.369065
9.316                0.689326868      157.960263
9.317                0.689531073      157.551839
9.318                0.689741144      157.143802
9.319                0.689957052      156.736164
9.32                 0.690178767      156.328933
9.321                0.690406259      155.922121
9.322                0.690639497      155.515737
9.323                0.690878448      155.109791
9.324                0.691123081      154.704294
9.325                0.691373362      154.299254
9.326                0.691629258      153.894683
9.327                0.691890735      153.490589
9.328                0.692157757      153.086982
9.329                0.692430291      152.683872
9.33                 0.692708299      152.281267
9.331                0.692991745      151.879179
9.332                0.693280593      151.477614
9.333                0.693574805      151.076584
9.334                0.693874343      150.676097
9.335                0.694179168      150.276162
9.336                0.694489243      149.876787
9.337                0.694804526      149.477982
9.338                0.695124979      149.079756
9.339                0.695450561      148.682116
9.34                 0.695781232      148.285072
9.341                0.696116949      147.888632
9.342                0.696457672      147.492805
9.343                0.696803359      147.097597
9.344                0.697153967      146.703019
9.345                0.697509453      146.309078
9.346                0.697869774      145.915781
9.347                0.698234887      145.523137
9.348                0.698604747      145.131153
9.349                0.698979311      144.739837
9.35                 0.699358534      144.349196
9.351                0.699742372      143.959239
9.352                0.700130778      143.569972
9.353                0.700523708      143.181403
9.354                0.700921116      142.793538
9.355                0.701322955      142.406386
9.356                0.701729181      142.019952
9.357                0.702139745      141.634243
9.358                0.702554602      141.249267
9.359                0.702973705       140.86503
9.36                 0.703397006      140.481539
9.361                0.703824458      140.098799
9.362                0.704256014      139.716818
9.363                0.704691625      139.335601
9.364                0.705131245      138.955155
9.365                0.705574825      138.575485
9.366                0.706022316      138.196598
9.367                0.706473672      137.818499
9.368                0.706928842      137.441194
9.369                0.707387779      137.064689
9.37                 0.707850435      136.688988
9.371                 0.70831676      136.314099
9.372                0.708786705      135.940025
9.373                0.709260223      135.566772
9.374                0.709737263      135.194345
9.375                0.710217778      134.822749
9.376                0.710701717      134.451989
9.377                0.711189033       134.08207
9.378                0.711679676      133.712996
9.379                0.712173597      133.344772
9.38                 0.712670748      132.977402
9.381                0.713171078      132.610891
9.382                 0.71367454      132.245243
9.383                0.714181084      131.880463
9.384                0.714690661      131.516553
9.385                0.715203223      131.153519
9.386                0.715718721      130.791364
9.387                0.716237106      130.430092
9.388                0.716758329      130.069707
9.389                0.717282343      129.710211
9.39                 0.717809098       129.35161
9.391                0.718338546      128.993905
9.392                0.718870639      128.637101
9.393                0.719405329        128.2812
9.394                0.719942568      127.926206
9.395                0.720482308      127.572122
9.396                0.721024501      127.218951
