! TOUCHSTONE file generated by CST DESIGN STUDIO
! Date and time: Tue Jan 28 13:35:15 2025
! Project name: C:\Work\MatlabApps\UnitCellOptimizationMatlabNew\CST\unitcell.cst
! Tree item: Tasks\Sweep1\SPara1\S-Parameters
! Header version: 2024
! Port assignment regex: !\s*Touchstone port\s*([0-9]+)\s*=\s*(CST MWS port|CST DES external port|CST DES block port)\s*(.+)\s* \(\"(.*)\"\)(\s*mode\s*([0-9]+))?.*
! Touchstone port assignment:
! Touchstone port 1 = CST DES external port 1 ("")
# GHz S MA R 50
9                    0.956927117     -49.2465218
9.001                0.956851048     -49.3091888
9.002                0.956774758     -49.3719993
9.003                0.956698247     -49.4349539
9.004                0.956621513     -49.4980529
9.005                0.956544555      -49.561297
9.006                0.956467371     -49.6246865
9.007                0.956389961     -49.6882219
9.008                0.956312323     -49.7519038
9.009                0.956234455     -49.8157325
9.01                 0.956156357     -49.8797086
9.011                0.956078027     -49.9438326
9.012                0.955999463      -50.008105
9.013                0.955920665     -50.0725262
9.014                0.955841632     -50.1370967
9.015                0.955762361     -50.2018171
9.016                0.955682851     -50.2666878
9.017                0.955603102     -50.3317093
9.018                0.955523112     -50.3968821
9.019                0.955442879     -50.4622068
9.02                 0.955362402     -50.5276838
9.021                 0.95528168     -50.5933136
9.022                0.955200711     -50.6590968
9.023                0.955119495     -50.7250338
9.024                0.955038029     -50.7911252
9.025                0.954956312     -50.8573714
9.026                0.954874343      -50.923773
9.027                0.954792121     -50.9903306
9.028                0.954709644     -51.0570445
9.029                 0.95462691     -51.1239154
9.03                 0.954543919     -51.1909438
9.031                0.954460668     -51.2581302
9.032                0.954377157     -51.3254751
9.033                0.954293384      -51.392979
9.034                0.954209348     -51.4606425
9.035                0.954125047     -51.5284662
9.036                0.954040479     -51.5964505
9.037                0.953955644      -51.664596
9.038                0.953870539     -51.7329032
9.039                0.953785164     -51.8013727
9.04                 0.953699517      -51.870005
9.041                0.953613596     -51.9388006
9.042                0.953527399     -52.0077602
9.043                0.953440927     -52.0768843
9.044                0.953354176     -52.1461733
9.045                0.953267146      -52.215628
9.046                0.953179834     -52.2852487
9.047                 0.95309224     -52.3550362
9.048                0.953004362     -52.4249909
9.049                0.952916198     -52.4951134
9.05                 0.952827747     -52.5654043
9.051                0.952739007     -52.6358641
9.052                0.952649977     -52.7064935
9.053                0.952560655     -52.7772929
9.054                 0.95247104     -52.8482631
9.055                 0.95238113     -52.9194044
9.056                0.952290923     -52.9907176
9.057                0.952200419     -53.0622032
9.058                0.952109614     -53.1338618
9.059                0.952018509      -53.205694
9.06                   0.9519271     -53.2777003
9.061                0.951835388     -53.3498814
9.062                0.951743369     -53.4222378
9.063                0.951651042     -53.4947702
9.064                0.951558406     -53.5674792
9.065                 0.95146546     -53.6403653
9.066                  0.9513722     -53.7134291
9.067                0.951278627     -53.7866713
9.068                0.951184738     -53.8600925
9.069                0.951090531     -53.9336932
9.07                 0.950996005     -54.0074742
9.071                0.950901159     -54.0814359
9.072                0.950805989     -54.1555791
9.073                0.950710496     -54.2299043
9.074                0.950614677     -54.3044122
9.075                 0.95051853     -54.3791033
9.076                0.950422054     -54.4539784
9.077                0.950325247     -54.5290381
9.078                0.950228108     -54.6042829
9.079                0.950130634     -54.6797135
9.08                 0.950032824     -54.7553306
9.081                0.949934676     -54.8311349
9.082                0.949836189     -54.9071268
9.083                 0.94973736     -54.9833071
9.084                0.949638188     -55.0596765
9.085                0.949538671     -55.1362356
9.086                0.949438808      -55.212985
9.087                0.949338596     -55.2899253
9.088                0.949238034     -55.3670574
9.089                 0.94913712     -55.4443818
9.09                 0.949035853     -55.5218991
9.091                0.948934229     -55.5996101
9.092                0.948832249     -55.6775154
9.093                0.948729909     -55.7556157
9.094                0.948627208     -55.8339117
9.095                0.948524144      -55.912404
9.096                0.948420715     -55.9910934
9.097                 0.94831692     -56.0699804
9.098                0.948212757     -56.1490659
9.099                0.948108223     -56.2283504
9.1                  0.948003317     -56.3078347
9.101                0.947898037     -56.3875195
9.102                0.947792381     -56.4674054
9.103                0.947686348     -56.5474932
9.104                0.947579934     -56.6277836
9.105                0.947473139     -56.7082772
9.106                0.947365961     -56.7889748
9.107                0.947258397     -56.8698771
9.108                0.947150446     -56.9509848
9.109                0.947042105     -57.0322987
9.11                 0.946933373     -57.1138194
9.111                0.946824248     -57.1955476
9.112                0.946714728     -57.2774842
9.113                 0.94660481     -57.3596297
9.114                0.946494494      -57.441985
9.115                0.946383776     -57.5245508
9.116                0.946272655     -57.6073279
9.117                 0.94616113     -57.6903169
9.118                0.946049197     -57.7735186
9.119                0.945936855     -57.8569337
9.12                 0.945824102     -57.9405631
9.121                0.945710935     -58.0244074
9.122                0.945597354     -58.1084675
9.123                0.945483355      -58.192744
9.124                0.945368937     -58.2772377
9.125                0.945254098     -58.3619494
9.126                0.945138836       -58.44688
9.127                0.945023147       -58.53203
9.128                0.944907032     -58.6174004
9.129                0.944790487     -58.7029918
9.13                 0.944673509     -58.7888051
9.131                0.944556099     -58.8748411
9.132                0.944438252     -58.9611005
9.133                0.944319967     -59.0475841
9.134                0.944201242     -59.1342928
9.135                0.944082074     -59.2212272
9.136                0.943962462     -59.3083883
9.137                0.943842404     -59.3957768
9.138                0.943721896     -59.4833936
9.139                0.943600938     -59.5712394
9.14                 0.943479526      -59.659315
9.141                 0.94335766     -59.7476213
9.142                0.943235335      -59.836159
9.143                0.943112551     -59.9249291
9.144                0.942989305     -60.0139323
9.145                0.942865595     -60.1031695
9.146                0.942741419     -60.1926415
9.147                0.942616774     -60.2823491
9.148                0.942491658     -60.3722931
9.149                0.942366069     -60.4624745
9.15                 0.942240004      -60.552894
9.151                0.942113462     -60.6435526
9.152                0.941986441      -60.734451
9.153                0.941858937     -60.8255901
9.154                0.941730948     -60.9169707
9.155                0.941602473     -61.0085939
9.156                0.941473509     -61.1004603
9.157                0.941344053     -61.1925709
9.158                0.941214104     -61.2849265
9.159                0.941083659     -61.3775281
9.16                 0.940952716     -61.4703765
9.161                0.940821272     -61.5634725
9.162                0.940689324     -61.6568172
9.163                0.940556872     -61.7504113
9.164                0.940423912     -61.8442557
9.165                0.940290441     -61.9383515
9.166                0.940156458     -62.0326994
9.167                 0.94002196     -62.1273003
9.168                0.939886945     -62.2221553
9.169                0.939751411     -62.3172651
9.17                 0.939615354     -62.4126308
9.171                0.939478772     -62.5082531
9.172                0.939341664     -62.6041331
9.173                0.939204026     -62.7002718
9.174                0.939065856     -62.7966699
9.175                0.938927152     -62.8933284
9.176                0.938787912     -62.9902484
9.177                0.938648132     -63.0874306
9.178                 0.93850781     -63.1848762
9.179                0.938366944      -63.282586
9.18                 0.938225531     -63.3805609
9.181                 0.93808357      -63.478802
9.182                0.937941056     -63.5773102
9.183                0.937797988     -63.6760864
9.184                0.937654364     -63.7751317
9.185                 0.93751018      -63.874447
9.186                0.937365434     -63.9740332
9.187                0.937220125     -64.0738914
9.188                0.937074248     -64.1740226
9.189                0.936927801     -64.2744277
9.19                 0.936780783     -64.3751077
9.191                 0.93663319     -64.4760637
9.192                0.936485019     -64.5772966
9.193                0.936336269     -64.6788074
9.194                0.936186937     -64.7805971
9.195                0.936037019     -64.8826668
9.196                0.935886514     -64.9850175
9.197                0.935735418     -65.0876501
9.198                 0.93558373     -65.1905658
9.199                0.935431446     -65.2937654
9.2                  0.935278564     -65.3972502
9.201                0.935125081     -65.5010211
9.202                0.934970994     -65.6050791
9.203                0.934816301     -65.7094253
9.204                   0.934661     -65.8140607
9.205                0.934505087     -65.9189865
9.206                0.934348559     -66.0242036
9.207                0.934191415     -66.1297131
9.208                0.934033651      -66.235516
9.209                0.933875265     -66.3416135
9.21                 0.933716253     -66.4480067
9.211                0.933556614     -66.5546965
9.212                0.933396345     -66.6616841
9.213                0.933235442     -66.7689706
9.214                0.933073903      -66.876557
9.215                0.932911725     -66.9844445
9.216                0.932748906     -67.0926341
9.217                0.932585443      -67.201127
9.218                0.932421332     -67.3099242
9.219                0.932256572     -67.4190269
9.22                 0.932091159     -67.5284362
9.221                0.931925091     -67.6381532
9.222                0.931758364      -67.748179
9.223                0.931590976     -67.8585147
9.224                0.931422925     -67.9691616
9.225                0.931254207     -68.0801207
9.226                0.931084819     -68.1913931
9.227                0.930914759     -68.3029801
9.228                0.930744024     -68.4148827
9.229                0.930572611     -68.5271021
9.23                 0.930400518     -68.6396396
9.231                 0.93022774     -68.7524961
9.232                0.930054276      -68.865673
9.233                0.929880123     -68.9791713
9.234                0.929705277     -69.0929923
9.235                0.929529736     -69.2071372
9.236                0.929353497     -69.3216071
9.237                0.929176557     -69.4364032
9.238                0.928998914     -69.5515266
9.239                0.928820563     -69.6669787
9.24                 0.928641504     -69.7827607
9.241                0.928461731     -69.8988736
9.242                0.928281243     -70.0153188
9.243                0.928100037     -70.1320974
9.244                 0.92791811     -70.2492106
9.245                0.927735458     -70.3666598
9.246                 0.92755208     -70.4844461
9.247                0.927367971     -70.6025708
9.248                0.927183129      -70.721035
9.249                0.926997551     -70.8398401
9.25                 0.926811235     -70.9589873
9.251                0.926624177     -71.0784779
9.252                0.926436374      -71.198313
9.253                0.926247823      -71.318494
9.254                0.926058521     -71.4390222
9.255                0.925868466     -71.5598987
9.256                0.925677655     -71.6811249
9.257                0.925486083     -71.8027021
9.258                0.925293749     -71.9246316
9.259                 0.92510065     -72.0469145
9.26                 0.924906782     -72.1695523
9.261                0.924712143     -72.2925463
9.262                0.924516729     -72.4158976
9.263                0.924320538     -72.5396077
9.264                0.924123566     -72.6636779
9.265                0.923925811     -72.7881094
9.266                 0.92372727     -72.9129037
9.267                0.923527939     -73.0380619
9.268                0.923327816     -73.1635855
9.269                0.923126897     -73.2894758
9.27                  0.92292518     -73.4157342
9.271                0.922722662     -73.5423619
9.272                0.922519339     -73.6693603
9.273                0.922315209     -73.7967308
9.274                0.922110268     -73.9244748
9.275                0.921904514     -74.0525935
9.276                0.921697944     -74.1810885
9.277                0.921490554      -74.309961
9.278                0.921282343     -74.4392124
9.279                0.921073305     -74.5688441
9.28                  0.92086344     -74.6988575
9.281                0.920652743     -74.8292541
9.282                0.920441211     -74.9600351
9.283                0.920228843      -75.091202
9.284                0.920015634     -75.2227562
9.285                0.919801581     -75.3546991
9.286                0.919586683     -75.4870321
9.287                0.919370935     -75.6197567
9.288                0.919154335     -75.7528742
9.289                 0.91893688     -75.8863861
9.29                 0.918718566     -76.0202939
9.291                0.918499391     -76.1545989
9.292                0.918279352     -76.2893027
9.293                0.918058446     -76.4244066
9.294                 0.91783667     -76.5599122
9.295                0.917614021     -76.6958208
9.296                0.917390496     -76.8321339
9.297                0.917166092     -76.9688531
9.298                0.916940806     -77.1059797
9.299                0.916714635     -77.2435153
9.3                  0.916487577     -77.3814613
9.301                0.916259628     -77.5198193
9.302                0.916030785     -77.6585906
9.303                0.915801046     -77.7977769
9.304                0.915570407     -77.9373796
9.305                0.915338866     -78.0774001
9.306                 0.91510642     -78.2178401
9.307                0.914873065      -78.358701
9.308                  0.9146388     -78.4999844
9.309                0.914403621     -78.6416917
9.31                 0.914167525     -78.7838245
9.311                 0.91393051     -78.9263843
9.312                0.913692572     -79.0693727
9.313                0.913453709     -79.2127912
9.314                0.913213918     -79.3566414
9.315                0.912973196     -79.5009247
9.316                0.912731541     -79.6456428
9.317                0.912488949     -79.7907972
9.318                0.912245417     -79.9363895
9.319                0.912000944     -80.0824212
9.32                 0.911755526     -80.2288939
9.321                0.911509161     -80.3758091
9.322                0.911261845     -80.5231686
9.323                0.911013576     -80.6709737
9.324                0.910764352     -80.8192262
9.325                0.910514169     -80.9679277
9.326                0.910263026     -81.1170796
9.327                0.910010918     -81.2666837
9.328                0.909757844     -81.4167415
9.329                0.909503802     -81.5672546
9.33                 0.909248788     -81.7182246
9.331                0.908992799     -81.8696533
9.332                0.908735834     -82.0215421
9.333                 0.90847789     -82.1738927
9.334                0.908218964     -82.3267068
9.335                0.907959053     -82.4799859
9.336                0.907698156     -82.6337318
9.337                0.907436269      -82.787946
9.338                 0.90717339     -82.9426302
9.339                0.906909517     -83.0977861
9.34                 0.906644647     -83.2534153
9.341                0.906378779     -83.4095194
9.342                0.906111908     -83.5661001
9.343                0.905844034     -83.7231592
9.344                0.905575154     -83.8806982
9.345                0.905305265     -84.0387188
9.346                0.905034365     -84.1972227
9.347                0.904762452     -84.3562116
9.348                0.904489524     -84.5156871
9.349                0.904215578      -84.675651
9.35                 0.903940613      -84.836105
9.351                0.903664625     -84.9970507
9.352                0.903387614     -85.1584898
9.353                0.903109576     -85.3204241
9.354                 0.90283051     -85.4828551
9.355                0.902550414     -85.6457848
9.356                0.902269286     -85.8092147
9.357                0.901987123     -85.9731465
9.358                0.901703923      -86.137582
9.359                0.901419686      -86.302523
9.36                 0.901134408      -86.467971
9.361                0.900848089     -86.6339279
9.362                0.900560725     -86.8003954
9.363                0.900272316     -86.9673753
9.364                0.899982859     -87.1348691
9.365                0.899692354     -87.3028787
9.366                0.899400797     -87.4714059
9.367                0.899108188     -87.6404523
9.368                0.898814524     -87.8100198
9.369                0.898519805       -87.98011
9.37                 0.898224029     -88.1507247
9.371                0.897927194     -88.3218656
9.372                0.897629298     -88.4935346
9.373                0.897330341     -88.6657334
9.374                 0.89703032     -88.8384637
9.375                0.896729236     -89.0117273
9.376                0.896427085      -89.185526
9.377                0.896123867     -89.3598614
9.378                0.895819581     -89.5347355
9.379                0.895514226       -89.71015
9.38                   0.8952078     -89.8861065
9.381                0.894900302      -90.062607
9.382                0.894591732     -90.2396532
9.383                0.894282088     -90.4172468
9.384                0.893971369     -90.5953897
9.385                0.893659575     -90.7740836
9.386                0.893346704     -90.9533303
9.387                0.893032757     -91.1331316
9.388                0.892717731     -91.3134892
9.389                0.892401627      -91.494405
9.39                 0.892084443     -91.6758807
9.391                 0.89176618     -91.8579182
9.392                0.891446836     -92.0405191
9.393                0.891126412     -92.2236854
9.394                0.890804907     -92.4074187
9.395                0.890482319     -92.5917209
9.396                0.890158651     -92.7765938
