! TOUCHSTONE file generated by CST DESIGN STUDIO
! Date and time: Tue Jan 28 13:35:09 2025
! Project name: C:\Work\MatlabApps\UnitCellOptimizationMatlabNew\CST\unitcell.cst
! Tree item: Tasks\Sweep1\SPara1\S-Parameters
! Header version: 2024
! Port assignment regex: !\s*Touchstone port\s*([0-9]+)\s*=\s*(CST MWS port|CST DES external port|CST DES block port)\s*(.+)\s* \(\"(.*)\"\)(\s*mode\s*([0-9]+))?.*
! Touchstone port assignment:
! Touchstone port 1 = CST DES external port 1 ("")
# GHz S MA R 50
9                    0.896129473     -73.9794658
9.001                0.895816499     -74.1061012
9.002                0.895502589      -74.233124
9.003                 0.89518774     -74.3605358
9.004                 0.89487195     -74.4883381
9.005                0.894555214     -74.6165326
9.006                0.894237529     -74.7451209
9.007                0.893918893     -74.8741046
9.008                0.893599301     -75.0034853
9.009                0.893278751     -75.1332648
9.01                 0.892957239     -75.2634445
9.011                0.892634761     -75.3940262
9.012                0.892311315     -75.5250115
9.013                0.891986897     -75.6564021
9.014                0.891661504     -75.7881996
9.015                0.891335132     -75.9204057
9.016                0.891007778     -76.0530222
9.017                0.890679438     -76.1860506
9.018                0.890350111     -76.3194928
9.019                0.890019791     -76.4533503
9.02                 0.889688476     -76.5876249
9.021                0.889356163     -76.7223184
9.022                0.889022847     -76.8574323
9.023                0.888688527     -76.9929686
9.024                0.888353198     -77.1289288
9.025                0.888016857     -77.2653148
9.026                0.887679502     -77.4021282
9.027                0.887341128     -77.5393709
9.028                0.887001732     -77.6770447
9.029                0.886661312     -77.8151511
9.03                 0.886319864     -77.9536922
9.031                0.885977384     -78.0926696
9.032                 0.88563387     -78.2320851
9.033                0.885289318     -78.3719405
9.034                0.884943724     -78.5122376
9.035                0.884597087     -78.6529783
9.036                0.884249402     -78.7941644
9.037                0.883900666     -78.9357976
9.038                0.883550877     -79.0778798
9.039                0.883200031     -79.2204129
9.04                 0.882848124     -79.3633986
9.041                0.882495154     -79.5068389
9.042                0.882141117     -79.6507356
9.043                0.881786011     -79.7950905
9.044                0.881429832     -79.9399056
9.045                0.881072578     -80.0851827
9.046                0.880714244     -80.2309237
9.047                0.880354828     -80.3771305
9.048                0.879994328      -80.523805
9.049                0.879632739     -80.6709491
9.05                 0.879270059     -80.8185646
9.051                0.878906285     -80.9666536
9.052                0.878541414      -81.115218
9.053                0.878175443     -81.2642597
9.054                0.877808369     -81.4137805
9.055                0.877440189     -81.5637826
9.056                0.877070899     -81.7142677
9.057                0.876700499      -81.865238
9.058                0.876328983     -82.0166953
9.059                 0.87595635     -82.1686417
9.06                 0.875582597      -82.321079
9.061                0.875207721     -82.4740094
9.062                0.874831718     -82.6274347
9.063                0.874454587      -82.781357
9.064                0.874076325     -82.9357783
9.065                0.873696928     -83.0907007
9.066                0.873316395      -83.246126
9.067                0.872934722     -83.4020564
9.068                0.872551908      -83.558494
9.069                0.872167948     -83.7154406
9.07                 0.871782841     -83.8728984
9.071                0.871396585     -84.0308695
9.072                0.871009176     -84.1893558
9.073                0.870620612     -84.3483596
9.074                0.870230891     -84.5078827
9.075                0.869840011     -84.6679274
9.076                0.869447968     -84.8284956
9.077                0.869054761     -84.9895896
9.078                0.868660388     -85.1512113
9.079                0.868264845      -85.313363
9.08                 0.867868131     -85.4760466
9.081                0.867470244     -85.6392644
9.082                0.867071181     -85.8030185
9.083                 0.86667094     -85.9673109
9.084                0.866269519     -86.1321438
9.085                0.865866917     -86.2975194
9.086                0.865463131     -86.4634398
9.087                0.865058159     -86.6299071
9.088                0.864651999     -86.7969236
9.089                0.864244649     -86.9644914
9.09                 0.863836108     -87.1326127
9.091                0.863426374     -87.3012896
9.092                0.863015444     -87.4705243
9.093                0.862603318      -87.640319
9.094                0.862189994      -87.810676
9.095                 0.86177547     -87.9815974
9.096                0.861359744     -88.1530854
9.097                0.860942815     -88.3251422
9.098                0.860524681     -88.4977701
9.099                0.860105342     -88.6709713
9.1                  0.859684796      -88.844748
9.101                0.859263041     -89.0191025
9.102                0.858840077     -89.1940369
9.103                0.858415901     -89.3695536
9.104                0.857990514     -89.5456548
9.105                0.857563914     -89.7223427
9.106                  0.8571361     -89.8996196
9.107                0.856707071     -90.0774879
9.108                0.856276826     -90.2559496
9.109                0.855845364     -90.4350072
9.11                 0.855412686     -90.6146629
9.111                0.854978789      -90.794919
9.112                0.854543674     -90.9757777
9.113                 0.85410734     -91.1572415
9.114                0.853669786     -91.3393125
9.115                0.853231012     -91.5219931
9.116                0.852791018     -91.7052856
9.117                0.852349804     -91.8891924
9.118                0.851907369     -92.0737156
9.119                0.851463713     -92.2588577
9.12                 0.851018837      -92.444621
9.121                0.850572739     -92.6310078
9.122                0.850125422     -92.8180204
9.123                0.849676884     -93.0056612
9.124                0.849227126     -93.1939325
9.125                0.848776148     -93.3828366
9.126                0.848323951      -93.572376
9.127                0.847870536      -93.762553
9.128                0.847415903     -93.9533698
9.129                0.846960052     -94.1448289
9.13                 0.846502985     -94.3369327
9.131                0.846044703     -94.5296835
9.132                0.845585207     -94.7230836
9.133                0.845124497     -94.9171355
9.134                0.844662575     -95.1118414
9.135                0.844199442     -95.3072039
9.136                  0.8437351     -95.5032252
9.137                 0.84326955     -95.6999077
9.138                0.842802794     -95.8972539
9.139                0.842334833     -96.0952661
9.14                 0.841865669     -96.2939466
9.141                0.841395305     -96.4932979
9.142                0.840923741     -96.6933224
9.143                0.840450981     -96.8940224
9.144                0.839977027     -97.0954004
9.145                0.839501881     -97.2974586
9.146                0.839025545     -97.5001996
9.147                0.838548022     -97.7036257
9.148                0.838069314     -97.9077394
9.149                0.837589426     -98.1125429
9.15                 0.837108359     -98.3180387
9.151                0.836626116     -98.5242292
9.152                0.836142701     -98.7311167
9.153                0.835658117     -98.9387038
9.154                0.835172368     -99.1469927
9.155                0.834685457     -99.3559859
9.156                0.834197387     -99.5656857
9.157                0.833708163     -99.7760945
9.158                0.833217789     -99.9872148
9.159                0.832726269     -100.199049
9.16                 0.832233606     -100.411599
9.161                0.831739806     -100.624868
9.162                0.831244872     -100.838858
9.163                 0.83074881     -101.053571
9.164                0.830251625      -101.26901
9.165                 0.82975332     -101.485177
9.166                0.829253902     -101.702075
9.167                0.828753376     -101.919705
9.168                0.828251747     -102.138071
9.169                 0.82774902     -102.357174
9.17                 0.827245201     -102.577017
9.171                0.826740297     -102.797603
9.172                0.826234313     -103.018933
9.173                0.825727255      -103.24101
9.174                0.825219129     -103.463836
9.175                0.824709943     -103.687414
9.176                0.824199703     -103.911746
9.177                0.823688415     -104.136835
9.178                0.823176088     -104.362682
9.179                0.822662727      -104.58929
9.18                  0.82214834     -104.816661
9.181                0.821632935     -105.044798
9.182                0.821116519     -105.273703
9.183                0.820599101     -105.503378
9.184                0.820080688     -105.733825
9.185                0.819561289     -105.965047
9.186                0.819040911     -106.197046
9.187                0.818519565     -106.429824
9.188                0.817997257     -106.663384
9.189                0.817473998     -106.897727
9.19                 0.816949797     -107.132856
9.191                0.816424663     -107.368774
9.192                0.815898605     -107.605482
9.193                0.815371634     -107.842982
9.194                0.814843758     -108.081277
9.195                 0.81431499     -108.320369
9.196                0.813785337     -108.560261
9.197                0.813254812     -108.800953
9.198                0.812723426     -109.042449
9.199                0.812191188     -109.284751
9.2                   0.81165811      -109.52786
9.201                0.811124204     -109.771778
9.202                0.810589481     -110.016509
9.203                0.810053954     -110.262054
9.204                0.809517633     -110.508414
9.205                0.808980531     -110.755593
9.206                0.808442662     -111.003592
9.207                0.807904036     -111.252413
9.208                0.807364669     -111.502058
9.209                0.806824571     -111.752529
9.21                 0.806283758     -112.003828
9.211                0.805742241     -112.255957
9.212                0.805200037     -112.508918
9.213                0.804657157     -112.762713
9.214                0.804113617     -113.017344
9.215                0.803569431     -113.272812
9.216                0.803024614      -113.52912
9.217                0.802479181     -113.786269
9.218                0.801933147     -114.044262
9.219                0.801386527     -114.303099
9.22                 0.800839338     -114.562783
9.221                0.800291595     -114.823316
9.222                0.799743314     -115.084699
9.223                0.799194512     -115.346934
9.224                0.798645206     -115.610023
9.225                0.798095412     -115.873967
9.226                0.797545148     -116.138768
9.227                 0.79699443     -116.404427
9.228                0.796443278     -116.670947
9.229                0.795891708     -116.938329
9.23                 0.795339739     -117.206574
9.231                0.794787389     -117.475684
9.232                0.794234678      -117.74566
9.233                0.793681623     -118.016504
9.234                0.793128245     -118.288218
9.235                0.792574562     -118.560802
9.236                0.792020595     -118.834258
9.237                0.791466363     -119.108587
9.238                0.790911887     -119.383791
9.239                0.790357187     -119.659872
9.24                 0.789802285     -119.936829
9.241                  0.7892472     -120.214665
9.242                0.788691955     -120.493381
9.243                0.788136571     -120.772978
9.244                 0.78758107     -121.053456
9.245                0.787025474     -121.334818
9.246                0.786469805     -121.617064
9.247                0.785914086     -121.900195
9.248                0.785358341     -122.184212
9.249                0.784802591     -122.469117
9.25                 0.784246862     -122.754909
9.251                0.783691175     -123.041591
9.252                0.783135557     -123.329162
9.253                 0.78258003     -123.617624
9.254                0.782024619     -123.906977
9.255                0.781469349     -124.197222
9.256                0.780914246      -124.48836
9.257                0.780359334     -124.780391
9.258                0.779804639     -125.073316
9.259                0.779250188     -125.367136
9.26                 0.778696005     -125.661851
9.261                0.778142119     -125.957461
9.262                0.777588554     -126.253968
9.263                0.777035339     -126.551371
9.264                0.776482501      -126.84967
9.265                0.775930066     -127.148866
9.266                0.775378064      -127.44896
9.267                0.774826521     -127.749951
9.268                0.774275467     -128.051839
9.269                0.773724929     -128.354626
9.27                 0.773174937      -128.65831
9.271                 0.77262552     -128.962891
9.272                0.772076706      -129.26837
9.273                0.771528526     -129.574747
9.274                0.770981009     -129.882021
9.275                0.770434186     -130.190192
9.276                0.769888087      -130.49926
9.277                0.769342742     -130.809225
9.278                0.768798183     -131.120086
9.279                 0.76825444     -131.431843
9.28                 0.767711545     -131.744495
9.281                0.767169529     -132.058041
9.282                0.766628424     -132.372482
9.283                0.766088263     -132.687816
9.284                0.765549077     -133.004043
9.285                0.765010899     -133.321162
9.286                0.764473762     -133.639173
9.287                0.763937699     -133.958073
9.288                0.763402743     -134.277863
9.289                0.762868928     -134.598541
9.29                 0.762336286     -134.920106
9.291                0.761804853     -135.242557
9.292                0.761274662     -135.565893
9.293                0.760745748     -135.890113
9.294                0.760218145     -136.215214
9.295                0.759691887     -136.541197
9.296                 0.75916701     -136.868059
9.297                0.758643549     -137.195798
9.298                0.758121539     -137.524414
9.299                0.757601015     -137.853904
9.3                  0.757082014     -138.184267
9.301                 0.75656457     -138.515501
9.302                0.756048721     -138.847604
9.303                0.755534503     -139.180574
9.304                0.755021951     -139.514409
9.305                0.754511102     -139.849106
9.306                0.754001993     -140.184665
9.307                0.753494661     -140.521082
9.308                0.752989143     -140.858355
9.309                0.752485476     -141.196482
9.31                 0.751983697      -141.53546
9.311                0.751483843     -141.875287
9.312                0.750985953      -142.21596
9.313                0.750490064     -142.557476
9.314                0.749996214     -142.899833
9.315                0.749504439     -143.243028
9.316                 0.74901478     -143.587057
9.317                0.748527273     -143.931919
9.318                0.748041957     -144.277609
9.319                 0.74755887     -144.624124
9.32                  0.74707805     -144.971462
9.321                0.746599537     -145.319619
9.322                0.746123367     -145.668591
9.323                0.745649581     -146.018375
9.324                0.745178216     -146.368968
9.325                0.744709312     -146.720366
9.326                0.744242906     -147.072565
9.327                0.743779039     -147.425561
9.328                0.743317748      -147.77935
9.329                0.742859072     -148.133928
9.33                  0.74240305     -148.489292
9.331                0.741949721     -148.845437
9.332                0.741499124     -149.202359
9.333                0.741051298     -149.560054
9.334                 0.74060628     -149.918516
9.335                0.740164112     -150.277742
9.336                 0.73972483     -150.637727
9.337                0.739288473     -150.998467
9.338                0.738855081     -151.359956
9.339                0.738424692     -151.722191
9.34                 0.737997345     -152.085165
9.341                0.737573077     -152.448873
9.342                0.737151928     -152.813312
9.343                0.736733935     -153.178475
9.344                0.736319137     -153.544358
9.345                0.735907572     -153.910955
9.346                0.735499279      -154.27826
9.347                0.735094294     -154.646268
9.348                0.734692656     -155.014974
9.349                0.734294402     -155.384372
9.35                  0.73389957     -155.754455
9.351                0.733508197     -156.125219
9.352                0.733120321     -156.496657
9.353                0.732735978     -156.868763
9.354                0.732355205     -157.241531
9.355                0.731978039     -157.614955
9.356                0.731604516     -157.989028
9.357                0.731234672     -158.363744
9.358                0.730868545     -158.739098
9.359                0.730506168     -159.115081
9.36                 0.730147578     -159.491688
9.361                 0.72979281     -159.868912
9.362                  0.7294419     -160.246746
9.363                0.729094882     -160.625183
9.364                 0.72875179     -161.004217
9.365                 0.72841266     -161.383839
9.366                0.728077524     -161.764044
9.367                0.727746417     -162.144824
9.368                0.727419372     -162.526171
9.369                0.727096422     -162.908079
9.37                   0.7267776     -163.290539
9.371                0.726462938     -163.673545
9.372                0.726152469     -164.057089
9.373                0.725846224     -164.441163
9.374                0.725544234     -164.825759
9.375                0.725246531      -165.21087
9.376                0.724953146     -165.596488
9.377                0.724664108     -165.982605
9.378                0.724379448     -166.369212
9.379                0.724099195     -166.756302
9.38                 0.723823378     -167.143866
9.381                0.723552025     -167.531896
9.382                0.723285166     -167.920385
9.383                0.723022828     -168.309323
9.384                0.722765039     -168.698702
9.385                0.722511824     -169.088514
9.386                0.722263212     -169.478749
9.387                0.722019228       -169.8694
9.388                0.721779897     -170.260458
9.389                0.721545244     -170.651914
9.39                 0.721315295     -171.043759
9.391                0.721090074     -171.435984
9.392                0.720869603      -171.82858
9.393                0.720653907     -172.221538
9.394                0.720443008      -172.61485
9.395                0.720236927     -173.008505
9.396                0.720035687     -173.402496
