! TOUCHSTONE file generated by CST DESIGN STUDIO
! Date and time: Tue Jan 28 13:35:12 2025
! Project name: C:\Work\MatlabApps\UnitCellOptimizationMatlabNew\CST\unitcell.cst
! Tree item: Tasks\Sweep1\SPara1\S-Parameters
! Header version: 2024
! Port assignment regex: !\s*Touchstone port\s*([0-9]+)\s*=\s*(CST MWS port|CST DES external port|CST DES block port)\s*(.+)\s* \(\"(.*)\"\)(\s*mode\s*([0-9]+))?.*
! Touchstone port assignment:
! Touchstone port 1 = CST DES external port 1 ("")
# GHz S MA R 50
9                    0.934485946     -59.1371054
9.001                0.934330733     -59.2222146
9.002                0.934175082     -59.3075483
9.003                0.934018991     -59.3931074
9.004                0.933862458     -59.4788926
9.005                0.933705479      -59.564905
9.006                0.933548053     -59.6511452
9.007                0.933390178     -59.7376142
9.008                 0.93323185     -59.8243128
9.009                0.933073068     -59.9112418
9.01                  0.93291383     -59.9984023
9.011                0.932754132     -60.0857949
9.012                0.932593973     -60.1734206
9.013                0.932433351     -60.2612803
9.014                0.932272262     -60.3493748
9.015                0.932110704     -60.4377051
9.016                0.931948675     -60.5262719
9.017                0.931786173     -60.6150763
9.018                0.931623194     -60.7041191
9.019                0.931459737     -60.7934011
9.02                   0.9312958     -60.8829234
9.021                0.931131378     -60.9726867
9.022                0.930966471     -61.0626921
9.023                0.930801076     -61.1529404
9.024                0.930635189     -61.2434326
9.025                0.930468809     -61.3341695
9.026                0.930301934     -61.4251521
9.027                0.930134559     -61.5163813
9.028                0.929966684     -61.6078581
9.029                0.929798305     -61.6995833
9.03                  0.92962942      -61.791558
9.031                0.929460025     -61.8837831
9.032                 0.92929012     -61.9762595
9.033                0.929119701     -62.0689881
9.034                0.928948765       -62.16197
9.035                 0.92877731     -62.2552061
9.036                0.928605333     -62.3486973
9.037                0.928432831     -62.4424447
9.038                0.928259803     -62.5364491
9.039                0.928086244     -62.6307116
9.04                 0.927912153     -62.7252331
9.041                0.927737527     -62.8200147
9.042                0.927562363     -62.9150573
9.043                0.927386659     -63.0103619
9.044                0.927210411     -63.1059296
9.045                0.927033618     -63.2017612
9.046                0.926856275     -63.2978579
9.047                0.926678382     -63.3942205
9.048                0.926499934     -63.4908502
9.049                0.926320929      -63.587748
9.05                 0.926141364     -63.6849148
9.051                0.925961236     -63.7823518
9.052                0.925780544     -63.8800598
9.053                0.925599283       -63.97804
9.054                0.925417452     -64.0762935
9.055                0.925235046     -64.1748211
9.056                0.925052064     -64.2736241
9.057                0.924868503     -64.3727034
9.058                0.924684359     -64.4720601
9.059                 0.92449963     -64.5716953
9.06                 0.924314313     -64.6716099
9.061                0.924128405     -64.7718052
9.062                0.923941904     -64.8722821
9.063                0.923754806     -64.9730418
9.064                0.923567108     -65.0740853
9.065                0.923378807     -65.1754137
9.066                0.923189902     -65.2770281
9.067                0.923000387     -65.3789296
9.068                0.922810262     -65.4811194
9.069                0.922619522     -65.5835984
9.07                 0.922428165     -65.6863678
9.071                0.922236188     -65.7894287
9.072                0.922043587     -65.8927823
9.073                 0.92185036     -65.9964296
9.074                0.921656504     -66.1003718
9.075                0.921462016     -66.2046101
9.076                0.921266893     -66.3091455
9.077                0.921071131     -66.4139792
9.078                0.920874728     -66.5191123
9.079                 0.92067768      -66.624546
9.08                 0.920479985     -66.7302815
9.081                 0.92028164     -66.8363199
9.082                0.920082641     -66.9426624
9.083                0.919882985     -67.0493101
9.084                 0.91968267     -67.1562642
9.085                0.919481691     -67.2635259
9.086                0.919280047     -67.3710964
9.087                0.919077734     -67.4789769
9.088                0.918874748     -67.5871685
9.089                0.918671087     -67.6956725
9.09                 0.918466747       -67.80449
9.091                0.918261726     -67.9136224
9.092                 0.91805602     -68.0230706
9.093                0.917849626     -68.1328361
9.094                0.917642541       -68.24292
9.095                0.917434761     -68.3533236
9.096                0.917226284      -68.464048
9.097                0.917017106     -68.5750945
9.098                0.916807224     -68.6864644
9.099                0.916596635      -68.798159
9.1                  0.916385335     -68.9101793
9.101                0.916173322     -69.0225268
9.102                0.915960592     -69.1352026
9.103                0.915747142     -69.2482081
9.104                0.915532968     -69.3615445
9.105                0.915318068     -69.4752131
9.106                0.915102437     -69.5892152
9.107                0.914886074      -69.703552
9.108                0.914668974     -69.8182249
9.109                0.914451134     -69.9332351
9.11                 0.914232551      -70.048584
9.111                0.914013222     -70.1642728
9.112                0.913793142     -70.2803029
9.113                 0.91357231     -70.3966756
9.114                0.913350722     -70.5133922
9.115                0.913128374     -70.6304541
9.116                0.912905263     -70.7478625
9.117                0.912681385     -70.8656189
9.118                0.912456738     -70.9837245
9.119                0.912231318     -71.1021807
9.12                 0.912005121     -71.2209889
9.121                0.911778145     -71.3401504
9.122                0.911550385     -71.4596665
9.123                0.911321839     -71.5795388
9.124                0.911092503     -71.6997684
9.125                0.910862374     -71.8203569
9.126                0.910631448     -71.9413056
9.127                0.910399722     -72.0626159
9.128                0.910167193     -72.1842891
9.129                0.909933857     -72.3063268
9.13                  0.90969971     -72.4287303
9.131                 0.90946475     -72.5515009
9.132                0.909228973     -72.6746402
9.133                0.908992375     -72.7981496
9.134                0.908754954     -72.9220304
9.135                0.908516705     -73.0462841
9.136                0.908277625     -73.1709122
9.137                0.908037711     -73.2959162
9.138                 0.90779696     -73.4212973
9.139                0.907555367     -73.5470572
9.14                  0.90731293     -73.6731972
9.141                0.907069645     -73.7997189
9.142                0.906825509     -73.9266237
9.143                0.906580518     -74.0539131
9.144                0.906334668     -74.1815886
9.145                0.906087957     -74.3096516
9.146                0.905840381     -74.4381037
9.147                0.905591937     -74.5669463
9.148                 0.90534262      -74.696181
9.149                0.905092428     -74.8258093
9.15                 0.904841357     -74.9558327
9.151                0.904589404     -75.0862527
9.152                0.904336564     -75.2170708
9.153                0.904082836     -75.3482886
9.154                0.903828215     -75.4799076
9.155                0.903572698     -75.6119294
9.156                0.903316281     -75.7443555
9.157                0.903058962     -75.8771874
9.158                0.902800736     -76.0104268
9.159                  0.9025416     -76.1440752
9.16                 0.902281551     -76.2781341
9.161                0.902020585     -76.4126052
9.162                0.901758699       -76.54749
9.163                0.901495889     -76.6827901
9.164                0.901232153     -76.8185072
9.165                0.900967486     -76.9546427
9.166                0.900701885     -77.0911983
9.167                0.900435347     -77.2281757
9.168                0.900167869     -77.3655764
9.169                0.899899446     -77.5034021
9.17                 0.899630077     -77.6416544
9.171                0.899359756     -77.7803349
9.172                0.899088481     -77.9194453
9.173                0.898816249     -78.0589872
9.174                0.898543056     -78.1989622
9.175                0.898268899      -78.339372
9.176                0.897993774     -78.4802184
9.177                0.897717679     -78.6215029
9.178                0.897440609     -78.7632271
9.179                0.897162562     -78.9053929
9.18                 0.896883533     -79.0480019
9.181                0.896603521     -79.1910557
9.182                0.896322521     -79.3345561
9.183                 0.89604053     -79.4785047
9.184                0.895757546     -79.6229033
9.185                0.895473564     -79.7677536
9.186                0.895188582     -79.9130573
9.187                0.894902596     -80.0588161
9.188                0.894615603     -80.2050317
9.189                0.894327599     -80.3517059
9.19                 0.894038583     -80.4988404
9.191                0.893748549     -80.6464369
9.192                0.893457497     -80.7944973
9.193                0.893165421     -80.9430232
9.194                0.892872319     -81.0920164
9.195                0.892578188     -81.2414787
9.196                0.892283025     -81.3914118
9.197                0.891986826     -81.5418176
9.198                0.891689589     -81.6926978
9.199                0.891391311     -81.8440542
9.2                  0.891091988     -81.9958885
9.201                0.890791618     -82.1482026
9.202                0.890490197     -82.3009983
9.203                0.890187722     -82.4542774
9.204                0.889884191     -82.6080417
9.205                0.889579601      -82.762293
9.206                0.889273948     -82.9170331
9.207                 0.88896723     -83.0722639
9.208                0.888659444     -83.2279872
9.209                0.888350587     -83.3842048
9.21                 0.888040657     -83.5409186
9.211                0.887729649     -83.6981304
9.212                0.887417563     -83.8558421
9.213                0.887104394     -84.0140555
9.214                0.886790141     -84.1727725
9.215                  0.8864748      -84.331995
9.216                0.886158368     -84.4917248
9.217                0.885840844     -84.6519638
9.218                0.885522225     -84.8127139
9.219                0.885202507      -84.973977
9.22                 0.884881689     -85.1357549
9.221                0.884559768     -85.2980496
9.222                0.884236741     -85.4608629
9.223                0.883912606     -85.6241968
9.224                 0.88358736     -85.7880532
9.225                0.883261002      -85.952434
9.226                0.882933528      -86.117341
9.227                0.882604937     -86.2827763
9.228                0.882275226     -86.4487418
9.229                0.881944392     -86.6152393
9.23                 0.881612435     -86.7822708
9.231                 0.88127935     -86.9498383
9.232                0.880945138     -87.1179437
9.233                0.880609794     -87.2865889
9.234                0.880273317      -87.455776
9.235                0.879935706     -87.6255067
9.236                0.879596958     -87.7957832
9.237                0.879257071     -87.9666074
9.238                0.878916043     -88.1379812
9.239                0.878573873     -88.3099066
9.24                 0.878230558     -88.4823856
9.241                0.877886098     -88.6554202
9.242                0.877540489     -88.8290123
9.243                0.877193731     -89.0031639
9.244                0.876845822      -89.177877
9.245                0.876496761     -89.3531537
9.246                0.876146545     -89.5289959
9.247                0.875795173     -89.7054055
9.248                0.875442645     -89.8823847
9.249                0.875088958     -90.0599354
9.25                 0.874734111     -90.2380596
9.251                0.874378104     -90.4167593
9.252                0.874020934     -90.5960365
9.253                0.873662601     -90.7758934
9.254                0.873303103     -90.9563317
9.255                0.872942441     -91.1373537
9.256                0.872580611     -91.3189613
9.257                0.872217615     -91.5011566
9.258                 0.87185345     -91.6839415
9.259                0.871488117     -91.8673181
9.26                 0.871121613     -92.0512884
9.261                 0.87075394     -92.2358546
9.262                0.870385096     -92.4210185
9.263                 0.87001508     -92.6067823
9.264                0.869643893      -92.793148
9.265                0.869271533     -92.9801175
9.266                0.868898001     -93.1676931
9.267                0.868523297     -93.3558767
9.268                0.868147419     -93.5446703
9.269                0.867770368     -93.7340761
9.27                 0.867392145      -93.924096
9.271                0.867012748     -94.1147322
9.272                0.866632179     -94.3059866
9.273                0.866250437     -94.4978613
9.274                0.865867523     -94.6903583
9.275                0.865483436     -94.8834798
9.276                0.865098179     -95.0772278
9.277                 0.86471175     -95.2716043
9.278                0.864324151     -95.4666113
9.279                0.863935383      -95.662251
9.28                 0.863545446     -95.8585254
9.281                 0.86315434     -96.0554365
9.282                0.862762068     -96.2529864
9.283                 0.86236863     -96.4511771
9.284                0.861974027     -96.6500108
9.285                0.861578261     -96.8494894
9.286                0.861181333     -97.0496149
9.287                0.860783244     -97.2503896
9.288                0.860383995     -97.4518153
9.289                0.859983589     -97.6538941
9.29                 0.859582028     -97.8566282
9.291                0.859179312     -98.0600194
9.292                0.858775444       -98.26407
9.293                0.858370426     -98.4687818
9.294                 0.85796426      -98.674157
9.295                0.857556949     -98.8801975
9.296                0.857148494     -99.0869055
9.297                0.856738899     -99.2942829
9.298                0.856328165     -99.5023318
9.299                0.855916296     -99.7110541
9.3                  0.855503293      -99.920452
9.301                0.855089161     -100.130527
9.302                0.854673902     -100.341282
9.303                 0.85425752     -100.552719
9.304                0.853840016     -100.764839
9.305                0.853421396     -100.977644
9.306                0.853001662     -101.191138
9.307                0.852580818      -101.40532
9.308                0.852158868     -101.620194
9.309                0.851735816     -101.835762
9.31                 0.851311665     -102.052025
9.311                 0.85088642     -102.268986
9.312                0.850460086     -102.486646
9.313                0.850032665     -102.705007
9.314                0.849604164     -102.924072
9.315                0.849174586     -103.143842
9.316                0.848743936      -103.36432
9.317                 0.84831222     -103.585506
9.318                0.847879442     -103.807404
9.319                0.847445608     -104.030014
9.32                 0.847010723      -104.25334
9.321                0.846574792     -104.477382
9.322                0.846137822     -104.702143
9.323                0.845699817     -104.927625
9.324                0.845260784     -105.153829
9.325                0.844820729     -105.380758
9.326                0.844379658     -105.608412
9.327                0.843937578     -105.836795
9.328                0.843494494     -106.065908
9.329                0.843050415     -106.295752
9.33                 0.842605346      -106.52633
9.331                0.842159294     -106.757644
9.332                0.841712267     -106.989695
9.333                0.841264273     -107.222484
9.334                0.840815318     -107.456015
9.335                 0.84036541     -107.690288
9.336                0.839914557     -107.925305
9.337                0.839462767     -108.161068
9.338                0.839010049     -108.397579
9.339                 0.83855641      -108.63484
9.34                 0.838101859     -108.872852
9.341                0.837646405     -109.111616
9.342                0.837190056     -109.351136
9.343                0.836732822     -109.591411
9.344                0.836274711     -109.832445
9.345                0.835815734     -110.074237
9.346                0.835355899     -110.316792
9.347                0.834895217     -110.560108
9.348                0.834433697      -110.80419
9.349                0.833971349     -111.049037
9.35                 0.833508184     -111.294651
9.351                0.833044213     -111.541035
9.352                0.832579445     -111.788189
9.353                0.832113892     -112.036116
9.354                0.831647565     -112.284815
9.355                0.831180474      -112.53429
9.356                0.830712632     -112.784542
9.357                 0.83024405     -113.035571
9.358                 0.82977474      -113.28738
9.359                0.829304714     -113.539969
9.36                 0.828833984     -113.793341
9.361                0.828362563     -114.047496
9.362                0.827890462     -114.302435
9.363                0.827417696     -114.558161
9.364                0.826944276     -114.814675
9.365                0.826470217     -115.071977
9.366                0.825995531     -115.330069
9.367                0.825520232     -115.588952
9.368                0.825044335     -115.848627
9.369                0.824567852     -116.109096
9.37                   0.8240908      -116.37036
9.371                 0.82361319      -116.63242
9.372                 0.82313504     -116.895276
9.373                0.822656363     -117.158931
9.374                0.822177174     -117.423385
9.375                0.821697489     -117.688638
9.376                0.821217324     -117.954693
9.377                0.820736694     -118.221551
9.378                0.820255615     -118.489211
9.379                0.819774103     -118.757675
9.38                 0.819292175     -119.026944
9.381                0.818809847     -119.297019
9.382                0.818327137       -119.5679
9.383                 0.81784406     -119.839589
9.384                0.817360635     -120.112086
9.385                0.816876879     -120.385392
9.386                 0.81639281     -120.659507
9.387                0.815908446     -120.934433
9.388                0.815423804      -121.21017
9.389                0.814938904     -121.486718
9.39                 0.814453763     -121.764079
9.391                0.813968402     -122.042252
9.392                0.813482838     -122.321238
9.393                0.812997091     -122.601039
9.394                 0.81251118     -122.881653
9.395                0.812025126     -123.163082
9.396                0.811538948     -123.445327
