! TOUCHSTONE file generated by CST DESIGN STUDIO
! Date and time: Wed Feb  5 13:27:44 2025
! Project name: C:\Work\MatlabApps\UnitCellOptimizationMatlab\CST\unitcell.cst
! Tree item: Tasks\Sweep1\SPara1\S-Parameters
! Header version: 2024
! Port assignment regex: !\s*Touchstone port\s*([0-9]+)\s*=\s*(CST MWS port|CST DES external port|CST DES block port)\s*(.+)\s* \(\"(.*)\"\)(\s*mode\s*([0-9]+))?.*
! Touchstone port assignment:
! Touchstone port 1 = CST DES external port 1 ("")
# GHz S MA R 50
9                    0.902341821     -79.2867794
9.001                0.902061421     -79.4224522
9.002                0.901780103     -79.5585078
9.003                0.901497865     -79.6949475
9.004                0.901214705     -79.8317727
9.005                 0.90093062     -79.9689845
9.006                 0.90064561     -80.1065844
9.007                0.900359671     -80.2445736
9.008                0.900072803     -80.3829536
9.009                0.899785003     -80.5217255
9.01                 0.899496269     -80.6608907
9.011                  0.8992066     -80.8004506
9.012                0.898915993     -80.9404065
9.013                0.898624448     -81.0807597
9.014                0.898331961     -81.2215116
9.015                0.898038531     -81.3626636
9.016                0.897744156     -81.5042168
9.017                0.897448835     -81.6461728
9.018                0.897152566     -81.7885329
9.019                0.896855347     -81.9312984
9.02                 0.896557176     -82.0744707
9.021                0.896258053     -82.2180512
9.022                0.895957974     -82.3620412
9.023                0.895656938      -82.506442
9.024                0.895354945     -82.6512552
9.025                0.895051991      -82.796482
9.026                0.894748076     -82.9421238
9.027                0.894443199     -83.0881821
9.028                0.894137356     -83.2346581
9.029                0.893830548     -83.3815534
9.03                 0.893522772     -83.5288692
9.031                0.893214028     -83.6766071
9.032                0.892904312     -83.8247683
9.033                0.892593626     -83.9733543
9.034                0.892281966     -84.1223665
9.035                0.891969331     -84.2718063
9.036                0.891655721     -84.4216751
9.037                0.891341133     -84.5719743
9.038                0.891025567     -84.7227054
9.039                0.890709021     -84.8738698
9.04                 0.890391495     -85.0254688
9.041                0.890072986      -85.177504
9.042                0.889753494     -85.3299767
9.043                0.889433018     -85.4828884
9.044                0.889111556     -85.6362405
9.045                0.888789108     -85.7900345
9.046                0.888465672     -85.9442717
9.047                0.888141247     -86.0989537
9.048                0.887815833     -86.2540819
9.049                0.887489428     -86.4096577
9.05                 0.887162032     -86.5656826
9.051                0.886833644      -86.722158
9.052                0.886504263     -86.8790854
9.053                0.886173887     -87.0364662
9.054                0.885842517      -87.194302
9.055                0.885510152     -87.3525941
9.056                 0.88517679      -87.511344
9.057                0.884842432     -87.6705532
9.058                0.884507076     -87.8302233
9.059                0.884170723     -87.9903555
9.06                  0.88383337     -88.1509514
9.061                0.883495019     -88.3120126
9.062                0.883155669     -88.4735404
9.063                0.882815318     -88.6355363
9.064                0.882473968     -88.7980019
9.065                0.882131616     -88.9609385
9.066                0.881788264     -89.1243478
9.067                0.881443911     -89.2882311
9.068                0.881098556     -89.4525901
9.069                  0.8807522      -89.617426
9.07                 0.880404843     -89.7827405
9.071                0.880056484     -89.9485351
9.072                0.879707123     -90.1148112
9.073                 0.87935676     -90.2815703
9.074                0.879005396     -90.4488139
9.075                0.878653031     -90.6165436
9.076                0.878299664     -90.7847608
9.077                0.877945296     -90.9534671
9.078                0.877589928     -91.1226639
9.079                0.877233559     -91.2923527
9.08                  0.87687619      -91.462535
9.081                0.876517821     -91.6332124
9.082                0.876158453     -91.8043864
9.083                0.875798087     -91.9760584
9.084                0.875436722       -92.14823
9.085                0.875074361     -92.3209027
9.086                0.874711002     -92.4940779
9.087                0.874346648     -92.6677573
9.088                0.873981299     -92.8419422
9.089                0.873614955     -93.0166343
9.09                 0.873247618      -93.191835
9.091                0.872879289     -93.3675459
9.092                0.872509969     -93.5437684
9.093                0.872139659     -93.7205041
9.094                 0.87176836     -93.8977544
9.095                0.871396073     -94.0755209
9.096                  0.8710228     -94.2538052
9.097                0.870648541     -94.4326086
9.098                  0.8702733     -94.6119328
9.099                0.869897076     -94.7917792
9.1                  0.869519872     -94.9721494
9.101                0.869141689     -95.1530448
9.102                0.868762529      -95.334467
9.103                0.868382393     -95.5164174
9.104                0.868001285     -95.6988977
9.105                0.867619204     -95.8819092
9.106                0.867236154     -96.0654535
9.107                0.866852137     -96.2495321
9.108                0.866467154     -96.4341465
9.109                0.866081207     -96.6192982
9.11                 0.865694301     -96.8049887
9.111                0.865306435     -96.9912195
9.112                0.864917613     -97.1779921
9.113                0.864527838     -97.3653081
9.114                0.864137112     -97.5531687
9.115                0.863745438     -97.7415757
9.116                0.863352817     -97.9305305
9.117                0.862959255     -98.1200345
9.118                0.862564752     -98.3100892
9.119                0.862169313     -98.5006962
9.12                 0.861772939     -98.6918569
9.121                0.861375636     -98.8835727
9.122                0.860977404     -99.0758452
9.123                0.860578249     -99.2686759
9.124                0.860178174     -99.4620662
9.125                0.859777181     -99.6560175
9.126                0.859375275     -99.8505313
9.127                0.858972459     -100.045609
9.128                0.858568736     -100.241252
9.129                0.858164112     -100.437463
9.13                  0.85775859     -100.634241
9.131                0.857352173      -100.83159
9.132                0.856944867     -101.029509
9.133                0.856536675     -101.228001
9.134                0.856127601     -101.427068
9.135                 0.85571765      -101.62671
9.136                0.855306827     -101.826928
9.137                0.854895136     -102.027726
9.138                0.854482582     -102.229103
9.139                 0.85406917     -102.431061
9.14                 0.853654905     -102.633602
9.141                0.853239791     -102.836727
9.142                0.852823834     -103.040437
9.143                0.852407039     -103.244734
9.144                0.851989412     -103.449619
9.145                0.851570957     -103.655094
9.146                0.851151681     -103.861159
9.147                0.850731589     -104.067817
9.148                0.850310687     -104.275069
9.149                0.849888981     -104.482915
9.15                 0.849466476     -104.691358
9.151                0.849043179     -104.900399
9.152                0.848619097     -105.110038
9.153                0.848194234     -105.320278
9.154                0.847768599     -105.531119
9.155                0.847342197     -105.742564
9.156                0.846915035     -105.954613
9.157                0.846487119     -106.167267
9.158                0.846058458     -106.380528
9.159                0.845629057     -106.594397
9.16                 0.845198924     -106.808875
9.161                0.844768067     -107.023964
9.162                0.844336492     -107.239665
9.163                0.843904206      -107.45598
9.164                0.843471219     -107.672908
9.165                0.843037537     -107.890452
9.166                0.842603168     -108.108613
9.167                0.842168121     -108.327392
9.168                0.841732402      -108.54679
9.169                0.841296022     -108.766808
9.17                 0.840858987     -108.987448
9.171                0.840421307      -109.20871
9.172                 0.83998299     -109.430597
9.173                0.839544045     -109.653108
9.174                0.839104481     -109.876246
9.175                0.838664307      -110.10001
9.176                0.838223531     -110.324403
9.177                0.837782164     -110.549426
9.178                0.837340214     -110.775079
9.179                0.836897692     -111.001363
9.18                 0.836454606     -111.228281
9.181                0.836010968     -111.455831
9.182                0.835566785     -111.684017
9.183                 0.83512207     -111.912838
9.184                0.834676832     -112.142296
9.185                0.834231081     -112.372392
9.186                0.833784827     -112.603127
9.187                0.833338083     -112.834501
9.188                0.832890857     -113.066516
9.189                0.832443162     -113.299172
9.19                 0.831995009     -113.532471
9.191                0.831546407     -113.766413
9.192                 0.83109737     -114.000999
9.193                0.830647908      -114.23623
9.194                0.830198033     -114.472108
9.195                0.829747757     -114.708632
9.196                0.829297091     -114.945804
9.197                0.828846049     -115.183624
9.198                0.828394641     -115.422094
9.199                0.827942881     -115.661213
9.2                   0.82749078     -115.900983
9.201                0.827038353     -116.141405
9.202                 0.82658561     -116.382479
9.203                0.826132566     -116.624206
9.204                0.825679234     -116.866586
9.205                0.825225626     -117.109621
9.206                0.824771756     -117.353311
9.207                0.824317638     -117.597656
9.208                0.823863285     -117.842657
9.209                0.823408712     -118.088315
9.21                 0.822953931      -118.33463
9.211                0.822498958     -118.581603
9.212                0.822043807     -118.829234
9.213                0.821588491     -119.077525
9.214                0.821133027     -119.326474
9.215                0.820677428     -119.576084
9.216                0.820221709     -119.826353
9.217                0.819765886     -120.077283
9.218                0.819309973     -120.328875
9.219                0.818853986     -120.581127
9.22                 0.818397941     -120.834042
9.221                0.817941853     -121.087618
9.222                0.817485738     -121.341857
9.223                0.817029611     -121.596758
9.224                 0.81657349     -121.852323
9.225                 0.81611739      -122.10855
9.226                0.815661328     -122.365441
9.227                 0.81520532     -122.622995
9.228                0.814749384     -122.881213
9.229                0.814293535     -123.140095
9.23                  0.81383779     -123.399641
9.231                0.813382168      -123.65985
9.232                0.812926686     -123.920724
9.233                 0.81247136     -124.182262
9.234                0.812016208     -124.444463
9.235                0.811561249     -124.707329
9.236                  0.8111065     -124.970859
9.237                0.810651979     -125.235052
9.238                0.810197704     -125.499909
9.239                0.809743694      -125.76543
9.24                 0.809289967     -126.031614
9.241                0.808836542     -126.298461
9.242                0.808383438     -126.565972
9.243                0.807930673     -126.834144
9.244                0.807478267      -127.10298
9.245                0.807026238     -127.372477
9.246                0.806574607     -127.642636
9.247                0.806123393     -127.913457
9.248                0.805672614     -128.184938
9.249                0.805222292      -128.45708
9.25                 0.804772445     -128.729881
9.251                0.804323095     -129.003342
9.252                 0.80387426     -129.277462
9.253                0.803425962     -129.552241
9.254                0.802978221     -129.827677
9.255                0.802531058      -130.10377
9.256                0.802084492     -130.380519
9.257                0.801638546     -130.657924
9.258                0.801193239     -130.935984
9.259                0.800748593     -131.214698
9.26                  0.80030463     -131.494065
9.261                 0.79986137     -131.774085
9.262                0.799418836     -132.054756
9.263                0.798977047     -132.336078
9.264                0.798536028      -132.61805
9.265                0.798095798      -132.90067
9.266                 0.79765638     -133.183938
9.267                0.797217796     -133.467852
9.268                0.796780069     -133.752411
9.269                 0.79634322     -134.037615
9.27                 0.795907272     -134.323462
9.271                0.795472247     -134.609951
9.272                0.795038168      -134.89708
9.273                0.794605058     -135.184849
9.274                0.794172939     -135.473255
9.275                0.793741834     -135.762298
9.276                0.793311767     -136.051976
9.277                 0.79288276     -136.342288
9.278                0.792454836     -136.633232
9.279                 0.79202802     -136.924806
9.28                 0.791602333      -137.21701
9.281                  0.7911778     -137.509841
9.282                0.790754444     -137.803297
9.283                0.790332289     -138.097378
9.284                0.789911359     -138.392081
9.285                0.789491676     -138.687404
9.286                0.789073265     -138.983346
9.287                 0.78865615     -139.279905
9.288                0.788240355     -139.577078
9.289                0.787825904     -139.874865
9.29                 0.787412821     -140.173262
9.291                 0.78700113     -140.472268
9.292                0.786590856     -140.771881
9.293                0.786182021     -141.072098
9.294                0.785774652     -141.372918
9.295                0.785368773     -141.674338
9.296                0.784964406     -141.976357
9.297                0.784561579      -142.27897
9.298                0.784160313     -142.582177
9.299                0.783760635     -142.885975
9.3                  0.783362569     -143.190362
9.301                0.782966139     -143.495334
9.302                 0.78257137      -143.80089
9.303                0.782178287     -144.107026
9.304                0.781786914     -144.413741
9.305                0.781397276     -144.721031
9.306                0.781009398     -145.028894
9.307                0.780623304     -145.337328
9.308                0.780239019     -145.646328
9.309                0.779856569     -145.955893
9.31                 0.779475977      -146.26602
9.311                0.779097268     -146.576705
9.312                0.778720467     -146.887946
9.313                0.778345599     -147.199739
9.314                0.777972688     -147.512082
9.315                0.777601759     -147.824971
9.316                0.777232837     -148.138403
9.317                0.776865947     -148.452376
9.318                0.776501112     -148.766885
9.319                0.776138358     -149.081927
9.32                 0.775777709       -149.3975
9.321                0.775419189     -149.713599
9.322                0.775062824     -150.030221
9.323                0.774708636     -150.347363
9.324                0.774356652     -150.665021
9.325                0.774006894     -150.983192
9.326                0.773659387     -151.301872
9.327                0.773314156     -151.621057
9.328                0.772971224     -151.940743
9.329                0.772630616     -152.260927
9.33                 0.772292355     -152.581605
9.331                0.771956465     -152.902774
9.332                 0.77162297     -153.224428
9.333                0.771291894     -153.546564
9.334                 0.77096326     -153.869179
9.335                0.770637092     -154.192268
9.336                0.770313413     -154.515827
9.337                0.769992247     -154.839852
9.338                0.769673616     -155.164338
9.339                0.769357544     -155.489282
9.34                 0.769044053      -155.81468
9.341                0.768733167     -156.140526
9.342                0.768424908     -156.466817
9.343                0.768119299     -156.793548
9.344                0.767816362     -157.120714
9.345                 0.76751612     -157.448312
9.346                0.767218594     -157.776337
9.347                0.766923806     -158.104783
9.348                 0.76663178     -158.433647
9.349                0.766342535     -158.762924
9.35                 0.766056094     -159.092609
9.351                0.765772479     -159.422698
9.352                0.765491709     -159.753185
9.353                0.765213807     -160.084066
9.354                0.764938794     -160.415335
9.355                0.764666689     -160.746989
9.356                0.764397513     -161.079021
9.357                0.764131288     -161.411428
9.358                0.763868032     -161.744203
9.359                0.763607766     -162.077343
9.36                  0.76335051     -162.410841
9.361                0.763096282     -162.744693
9.362                0.762845103     -163.078893
9.363                0.762596991     -163.413436
9.364                0.762351966     -163.748318
9.365                0.762110046     -164.083532
9.366                0.761871249     -164.419073
9.367                0.761635593     -164.754936
9.368                0.761403098     -165.091116
9.369                 0.76117378     -165.427607
9.37                 0.760947656     -165.764404
9.371                0.760724745       -166.1015
9.372                0.760505063     -166.438891
9.373                0.760288627     -166.776571
9.374                0.760075454     -167.114535
9.375                0.759865559     -167.452776
9.376                0.759658959     -167.791289
9.377                 0.75945567     -168.130068
9.378                0.759255706     -168.469108
9.379                0.759059084     -168.808403
9.38                 0.758865817     -169.147947
9.381                0.758675922     -169.487734
9.382                0.758489412     -169.827758
9.383                0.758306301     -170.168014
9.384                0.758126603     -170.508495
9.385                0.757950331     -170.849196
9.386                  0.7577775     -171.190111
9.387                0.757608121     -171.531233
9.388                0.757442208     -171.872557
9.389                0.757279772     -172.214076
9.39                 0.757120826     -172.555785
9.391                0.756965382     -172.897677
9.392                 0.75681345     -173.239747
9.393                0.756665043     -173.581987
9.394                 0.75652017     -173.924393
9.395                0.756378843     -174.266958
9.396                0.756241071     -174.609676
