! TOUCHSTONE file generated by CST DESIGN STUDIO
! Date and time: Wed Feb  5 13:27:49 2025
! Project name: C:\Work\MatlabApps\UnitCellOptimizationMatlab\CST\unitcell.cst
! Tree item: Tasks\Sweep1\SPara1\S-Parameters
! Header version: 2024
! Port assignment regex: !\s*Touchstone port\s*([0-9]+)\s*=\s*(CST MWS port|CST DES external port|CST DES block port)\s*(.+)\s* \(\"(.*)\"\)(\s*mode\s*([0-9]+))?.*
! Touchstone port assignment:
! Touchstone port 1 = CST DES external port 1 ("")
# GHz S MA R 50
9                    0.939827495     -57.9577603
9.001                 0.93968734     -58.0374259
9.002                0.939546728     -58.1172797
9.003                0.939405659     -58.1973224
9.004                 0.93926413     -58.2775544
9.005                 0.93912214     -58.3579765
9.006                0.938979688     -58.4385893
9.007                0.938836772     -58.5193934
9.008                0.938693389     -58.6003894
9.009                 0.93854954      -58.681578
9.01                  0.93840522     -58.7629598
9.011                 0.93826043     -58.8445354
9.012                0.938115168     -58.9263055
9.013                0.937969431     -59.0082707
9.014                0.937823218     -59.0904316
9.015                0.937676527      -59.172789
9.016                0.937529357     -59.2553434
9.017                0.937381706     -59.3380955
9.018                0.937233573      -59.421046
9.019                0.937084955     -59.5041955
9.02                  0.93693585     -59.5875446
9.021                0.936786258     -59.6710941
9.022                0.936636176     -59.7548446
9.023                0.936485603     -59.8387968
9.024                0.936334536     -59.9229513
9.025                0.936182975     -60.0073087
9.026                0.936030917     -60.0918699
9.027                0.935878361     -60.1766354
9.028                0.935725305     -60.2616059
9.029                0.935571747     -60.3467822
9.03                 0.935417685     -60.4321648
9.031                0.935263118     -60.5177545
9.032                0.935108043      -60.603552
9.033                 0.93495246      -60.689558
9.034                0.934796366     -60.7757731
9.035                0.934639759      -60.862198
9.036                0.934482638     -60.9488335
9.037                0.934325001     -61.0356803
9.038                0.934166846      -61.122739
9.039                0.934008171     -61.2100103
9.04                 0.933848974     -61.2974951
9.041                0.933689254     -61.3851939
9.042                0.933529009     -61.4731076
9.043                0.933368236     -61.5612367
9.044                0.933206935     -61.6495821
9.045                0.933045103     -61.7381444
9.046                0.932882739     -61.8269245
9.047                 0.93271984     -61.9159229
9.048                0.932556404     -62.0051405
9.049                0.932392431      -62.094578
9.05                 0.932227917     -62.1842361
9.051                0.932062862     -62.2741156
9.052                0.931897263     -62.3642172
9.053                0.931731118     -62.4545416
9.054                0.931564426     -62.5450896
9.055                0.931397184     -62.6358619
9.056                0.931229391     -62.7268594
9.057                0.931061044     -62.8180827
9.058                0.930892143     -62.9095326
9.059                0.930722685     -63.0012099
9.06                 0.930552667     -63.0931153
9.061                0.930382089     -63.1852496
9.062                0.930210948     -63.2776137
9.063                0.930039242     -63.3702081
9.064                 0.92986697     -63.4630338
9.065                0.929694129     -63.5560915
9.066                0.929520718      -63.649382
9.067                0.929346734     -63.7429061
9.068                0.929172176     -63.8366645
9.069                0.928997042     -63.9306581
9.07                 0.928821329     -64.0248876
9.071                0.928645037     -64.1193539
9.072                0.928468162     -64.2140577
9.073                0.928290702     -64.3089998
9.074                0.928112657     -64.4041811
9.075                0.927934024     -64.4996023
9.076                  0.9277548     -64.5952644
9.077                0.927574985      -64.691168
9.078                0.927394575      -64.787314
9.079                 0.92721357     -64.8837032
9.08                 0.927031966     -64.9803364
9.081                0.926849763     -65.0772146
9.082                0.926666957     -65.1743384
9.083                0.926483548     -65.2717088
9.084                0.926299532     -65.3693265
9.085                0.926114909     -65.4671924
9.086                0.925929675     -65.5653074
9.087                 0.92574383     -65.6636723
9.088                 0.92555737     -65.7622879
9.089                0.925370294     -65.8611551
9.09                   0.9251826     -65.9602747
9.091                0.924994286     -66.0596476
9.092                 0.92480535     -66.1592747
9.093                 0.92461579     -66.2591568
9.094                0.924425603     -66.3592948
9.095                0.924234788     -66.4596896
9.096                0.924043343      -66.560342
9.097                0.923851266     -66.6612529
9.098                0.923658554     -66.7624232
9.099                0.923465205     -66.8638537
9.1                  0.923271218     -66.9655454
9.101                 0.92307659     -67.0674991
9.102                 0.92288132     -67.1697158
9.103                0.922685405     -67.2721963
9.104                0.922488844     -67.3749415
9.105                0.922291633     -67.4779523
9.106                0.922093772     -67.5812297
9.107                0.921895257     -67.6847745
9.108                0.921696088     -67.7885876
9.109                0.921496261       -67.89267
9.11                 0.921295775     -67.9970226
9.111                0.921094628     -68.1016462
9.112                0.920892818     -68.2065419
9.113                0.920690342     -68.3117106
9.114                0.920487198     -68.4171531
9.115                0.920283385     -68.5228704
9.116                  0.9200789     -68.6288635
9.117                0.919873742     -68.7351332
9.118                0.919667907     -68.8416806
9.119                0.919461395     -68.9485066
9.12                 0.919254203     -69.0556121
9.121                0.919046328     -69.1629981
9.122                0.918837769     -69.2706655
9.123                0.918628524     -69.3786153
9.124                 0.91841859     -69.4868485
9.125                0.918207966      -69.595366
9.126                0.917996649     -69.7041688
9.127                0.917784638     -69.8132578
9.128                 0.91757193     -69.9226341
9.129                0.917358522     -70.0322987
9.13                 0.917144414     -70.1422524
9.131                0.916929603     -70.2524963
9.132                0.916714086     -70.3630314
9.133                0.916497862     -70.4738587
9.134                0.916280929     -70.5849792
9.135                0.916063284     -70.6963939
9.136                0.915844926     -70.8081037
9.137                0.915625852     -70.9201097
9.138                 0.91540606     -71.0324129
9.139                0.915185549     -71.1450143
9.14                 0.914964315      -71.257915
9.141                0.914742357     -71.3711159
9.142                0.914519674     -71.4846181
9.143                0.914296262     -71.5984225
9.144                0.914072119     -71.7125303
9.145                0.913847244     -71.8269425
9.146                0.913621635       -71.94166
9.147                 0.91339529     -72.0566841
9.148                0.913168205     -72.1720155
9.149                 0.91294038     -72.2876556
9.15                 0.912711812     -72.4036052
9.151                  0.9124825     -72.5198655
9.152                 0.91225244     -72.6364374
9.153                0.912021631     -72.7533221
9.154                0.911790072     -72.8705207
9.155                0.911557759     -72.9880341
9.156                0.911324691     -73.1058636
9.157                0.911090866       -73.22401
9.158                0.910856281     -73.3424746
9.159                0.910620936     -73.4612584
9.16                 0.910384827     -73.5803625
9.161                0.910147952      -73.699788
9.162                 0.90991031     -73.8195359
9.163                0.909671899     -73.9396074
9.164                0.909432716     -74.0600036
9.165                 0.90919276     -74.1807256
9.166                0.908952028     -74.3017744
9.167                0.908710519     -74.4231513
9.168                 0.90846823     -74.5448572
9.169                 0.90822516     -74.6668934
9.17                 0.907981306     -74.7892609
9.171                0.907736667     -74.9119609
9.172                 0.90749124     -75.0349944
9.173                0.907245024     -75.1583627
9.174                0.906998017     -75.2820669
9.175                0.906750216     -75.4061081
9.176                 0.90650162     -75.5304874
9.177                0.906252226      -75.655206
9.178                0.906002034      -75.780265
9.179                 0.90575104     -75.9056656
9.18                 0.905499243      -76.031409
9.181                0.905246642     -76.1574963
9.182                0.904993233     -76.2839286
9.183                0.904739016     -76.4107072
9.184                0.904483988     -76.5378331
9.185                0.904228147     -76.6653077
9.186                0.903971492     -76.7931319
9.187                0.903714021     -76.9213071
9.188                0.903455732     -77.0498345
9.189                0.903196623     -77.1787151
9.19                 0.902936691     -77.3079502
9.191                0.902675937      -77.437541
9.192                0.902414357     -77.5674886
9.193                0.902151949     -77.6977943
9.194                0.901888713     -77.8284594
9.195                0.901624646     -77.9594849
9.196                0.901359746     -78.0908721
9.197                0.901094012     -78.2226222
9.198                0.900827442     -78.3547364
9.199                0.900560035      -78.487216
9.2                  0.900291787     -78.6200621
9.201                0.900022699      -78.753276
9.202                0.899752767      -78.886859
9.203                0.899481991     -79.0208122
9.204                0.899210369      -79.155137
9.205                0.898937899     -79.2898344
9.206                 0.89866458     -79.4249059
9.207                0.898390409     -79.5603525
9.208                0.898115385     -79.6961757
9.209                0.897839508     -79.8323765
9.21                 0.897562774     -79.9689564
9.211                0.897285183     -80.1059165
9.212                0.897006733     -80.2432581
9.213                0.896727422     -80.3809824
9.214                0.896447249     -80.5190908
9.215                0.896166213     -80.6575846
9.216                0.895884312     -80.7964649
9.217                0.895601544      -80.935733
9.218                0.895317908     -81.0753904
9.219                0.895033403     -81.2154381
9.22                 0.894748028     -81.3558776
9.221                 0.89446178     -81.4967101
9.222                0.894174659     -81.6379369
9.223                0.893886663     -81.7795593
9.224                0.893597791     -81.9215786
9.225                0.893308041     -82.0639961
9.226                0.893017413     -82.2068131
9.227                0.892725905     -82.3500309
9.228                0.892433516     -82.4936508
9.229                0.892140244     -82.6376742
9.23                 0.891846089     -82.7821024
9.231                0.891551049     -82.9269366
9.232                0.891255123     -83.0721783
9.233                 0.89095831     -83.2178286
9.234                0.890660609     -83.3638891
9.235                0.890362018     -83.5103609
9.236                0.890062538     -83.6572454
9.237                0.889762166      -83.804544
9.238                0.889460902      -83.952258
9.239                0.889158745     -84.1003887
9.24                 0.888855693     -84.2489376
9.241                0.888551747     -84.3979058
9.242                0.888246904     -84.5472949
9.243                0.887941165     -84.6971061
9.244                0.887634528     -84.8473407
9.245                0.887326993     -84.9980003
9.246                0.887018558      -85.149086
9.247                0.886709223     -85.3005993
9.248                0.886398988     -85.4525415
9.249                0.886087851     -85.6049141
9.25                 0.885775813     -85.7577183
9.251                0.885462871     -85.9109556
9.252                0.885149027     -86.0646273
9.253                0.884834278     -86.2187347
9.254                0.884518626     -86.3732794
9.255                0.884202068     -86.5282626
9.256                0.883884605     -86.6836858
9.257                0.883566237     -86.8395502
9.258                0.883246963     -86.9958574
9.259                0.882926782     -87.1526087
9.26                 0.882605694     -87.3098055
9.261                0.882283699     -87.4674491
9.262                0.881960798      -87.625541
9.263                0.881636988     -87.7840826
9.264                0.881312271     -87.9430753
9.265                0.880986647     -88.1025205
9.266                0.880660114     -88.2624195
9.267                0.880332674     -88.4227738
9.268                0.880004326     -88.5835848
9.269                 0.87967507     -88.7448538
9.27                 0.879344906     -88.9065824
9.271                0.879013835     -89.0687719
9.272                0.878681856     -89.2314237
9.273                 0.87834897     -89.3945392
9.274                0.878015176     -89.5581198
9.275                0.877680476      -89.722167
9.276                 0.87734487     -89.8866822
9.277                0.877008358     -90.0516668
9.278                 0.87667094     -90.2171222
9.279                0.876332617     -90.3830498
9.28                 0.875993389     -90.5494511
9.281                0.875653257     -90.7163275
9.282                0.875312222     -90.8836803
9.283                0.874970284      -91.051511
9.284                0.874627444     -91.2198211
9.285                0.874283703      -91.388612
9.286                0.873939061      -91.557885
9.287                 0.87359352     -91.7276417
9.288                 0.87324708     -91.8978834
9.289                0.872899743     -92.0686116
9.29                 0.872551509     -92.2398276
9.291                0.872202379      -92.411533
9.292                0.871852355     -92.5837291
9.293                0.871501437     -92.7564174
9.294                0.871149628     -92.9295993
9.295                0.870796927     -93.1032763
9.296                0.870443338     -93.2774497
9.297                0.870088861      -93.452121
9.298                0.869733497     -93.6272916
9.299                0.869377248     -93.8029629
9.3                  0.869020116     -93.9791364
9.301                0.868662102     -94.1558135
9.302                0.868303209     -94.3329956
9.303                0.867943437     -94.5106841
9.304                0.867582789     -94.6888806
9.305                0.867221266     -94.8675863
9.306                0.866858871     -95.0468027
9.307                0.866495606     -95.2265313
9.308                0.866131473     -95.4067734
9.309                0.865766473     -95.5875305
9.31                  0.86540061     -95.7688039
9.311                0.865033885     -95.9505952
9.312                  0.8646663     -96.1329057
9.313                0.864297859     -96.3157369
9.314                0.863928564     -96.4990901
9.315                0.863558417     -96.6829667
9.316                0.863187421     -96.8673683
9.317                0.862815579     -97.0522961
9.318                0.862442893     -97.2377516
9.319                0.862069367     -97.4237361
9.32                 0.861695003     -97.6102512
9.321                0.861319805     -97.7972981
9.322                0.860943774     -97.9848784
9.323                0.860566916     -98.1729933
9.324                0.860189232     -98.3616442
9.325                0.859810727     -98.5508326
9.326                0.859431403     -98.7405599
9.327                0.859051265     -98.9308274
9.328                0.858670315     -99.1216364
9.329                0.858288557     -99.3129885
9.33                 0.857905996     -99.5048849
9.331                0.857522634      -99.697327
9.332                0.857138476     -99.8903162
9.333                0.856753526     -100.083854
9.334                0.856367788     -100.277941
9.335                0.855981266      -100.47258
9.336                0.855593964     -100.667771
9.337                0.855205887     -100.863516
9.338                0.854817038     -101.059816
9.339                0.854427423     -101.256673
9.34                 0.854037047     -101.454087
9.341                0.853645912     -101.652061
9.342                0.853254026     -101.850595
9.343                0.852861392     -102.049692
9.344                0.852468015     -102.249351
9.345                0.852073901     -102.449575
9.346                0.851679054     -102.650364
9.347                 0.85128348     -102.851721
9.348                0.850887185     -103.053646
9.349                0.850490173      -103.25614
9.35                  0.85009245     -103.459206
9.351                0.849694021     -103.662843
9.352                0.849294894     -103.867054
9.353                0.848895073      -104.07184
9.354                0.848494564     -104.277202
9.355                0.848093373     -104.483141
9.356                0.847691507     -104.689659
9.357                0.847288971     -104.896756
9.358                0.846885772     -105.104434
9.359                0.846481917     -105.312694
9.36                 0.846077412     -105.521538
9.361                0.845672264     -105.730966
9.362                0.845266479      -105.94098
9.363                0.844860065     -106.151581
9.364                0.844453027      -106.36277
9.365                0.844045374     -106.574548
9.366                0.843637113     -106.786917
9.367                0.843228251     -106.999877
9.368                0.842818795      -107.21343
9.369                0.842408752     -107.427577
9.37                 0.841998132     -107.642319
9.371                 0.84158694     -107.857657
9.372                0.841175186     -108.073593
9.373                0.840762877     -108.290126
9.374                0.840350021      -108.50726
9.375                0.839936626     -108.724993
9.376                0.839522701     -108.943328
9.377                0.839108255     -109.162266
9.378                0.838693295     -109.381808
9.379                 0.83827783     -109.601954
9.38                  0.83786187     -109.822706
9.381                0.837445423     -110.044065
9.382                0.837028498     -110.266031
9.383                0.836611105     -110.488606
9.384                0.836193252     -110.711791
9.385                0.835774949     -110.935587
9.386                0.835356206     -111.159994
9.387                0.834937033     -111.385014
9.388                0.834517438     -111.610647
9.389                0.834097432     -111.836895
9.39                 0.833677025     -112.063758
9.391                0.833256228     -112.291237
9.392                 0.83283505     -112.519333
9.393                0.832413501     -112.748047
9.394                0.831991593      -112.97738
9.395                0.831569336     -113.207332
9.396                0.831146741     -113.437905
