! TOUCHSTONE file generated by CST DESIGN STUDIO
! Date and time: Wed Feb  5 13:27:41 2025
! Project name: C:\Work\MatlabApps\UnitCellOptimizationMatlab\CST\unitcell.cst
! Tree item: Tasks\Sweep1\SPara1\S-Parameters
! Header version: 2024
! Port assignment regex: !\s*Touchstone port\s*([0-9]+)\s*=\s*(CST MWS port|CST DES external port|CST DES block port)\s*(.+)\s* \(\"(.*)\"\)(\s*mode\s*([0-9]+))?.*
! Touchstone port assignment:
! Touchstone port 1 = CST DES external port 1 ("")
# GHz S MA R 50
9                    0.869530006     -97.7602983
9.001                0.869135244     -97.9525828
9.002                0.868739477     -98.1454376
9.003                0.868342707     -98.3388643
9.004                0.867944938     -98.5328645
9.005                0.867546173     -98.7274396
9.006                0.867146413     -98.9225914
9.007                0.866745663     -99.1183213
9.008                0.866343925      -99.314631
9.009                0.865941204     -99.5115219
9.01                 0.865537501     -99.7089958
9.011                 0.86513282      -99.907054
9.012                0.864727166     -100.105698
9.013                0.864320541      -100.30493
9.014                 0.86391295     -100.504751
9.015                0.863504395     -100.705162
9.016                0.863094882     -100.906166
9.017                0.862684414     -101.107763
9.018                0.862272995     -101.309955
9.019                0.861860629     -101.512744
9.02                 0.861447321     -101.716132
9.021                0.861033075     -101.920119
9.022                0.860617895     -102.124708
9.023                0.860201787     -102.329899
9.024                0.859784755     -102.535694
9.025                0.859366803     -102.742096
9.026                0.858947937     -102.949104
9.027                0.858528162     -103.156721
9.028                0.858107483     -103.364949
9.029                0.857685905     -103.573788
9.03                 0.857263434     -103.783241
9.031                0.856840075     -103.993308
9.032                0.856415834     -104.203991
9.033                0.855990715     -104.415291
9.034                0.855564727     -104.627211
9.035                0.855137873     -104.839751
9.036                0.854710161     -105.052913
9.037                0.854281596     -105.266697
9.038                0.853852186     -105.481107
9.039                0.853421935     -105.696143
9.04                 0.852990852     -105.911806
9.041                0.852558942     -106.128098
9.042                0.852126212      -106.34502
9.043                0.851692669     -106.562573
9.044                0.851258321      -106.78076
9.045                0.850823175      -106.99958
9.046                0.850387237     -107.219037
9.047                0.849950516      -107.43913
9.048                0.849513018     -107.659861
9.049                0.849074752     -107.881232
9.05                 0.848635726     -108.103244
9.051                0.848195947     -108.325898
9.052                0.847755423     -108.549195
9.053                0.847314163     -108.773137
9.054                0.846872176     -108.997725
9.055                0.846429469     -109.222961
9.056                0.845986051     -109.448844
9.057                0.845541931     -109.675377
9.058                0.845097119     -109.902561
9.059                0.844651622     -110.130398
9.06                 0.844205451     -110.358887
9.061                0.843758614     -110.588031
9.062                0.843311122      -110.81783
9.063                0.842862983     -111.048286
9.064                0.842414208       -111.2794
9.065                0.841964806     -111.511172
9.066                0.841514788     -111.743605
9.067                0.841064163     -111.976699
9.068                0.840612943     -112.210455
9.069                0.840161137     -112.444875
9.07                 0.839708757     -112.679959
9.071                0.839255813     -112.915708
9.072                0.838802315     -113.152124
9.073                0.838348277     -113.389207
9.074                0.837893707     -113.626958
9.075                0.837438619     -113.865379
9.076                0.836983023      -114.10447
9.077                0.836526931     -114.344232
9.078                0.836070355     -114.584666
9.079                0.835613307     -114.825774
9.08                   0.8351558     -115.067555
9.081                0.834697845     -115.310011
9.082                0.834239456     -115.553143
9.083                0.833780644     -115.796951
9.084                0.833321423     -116.041437
9.085                0.832861806       -116.2866
9.086                0.832401806     -116.532443
9.087                0.831941436     -116.778965
9.088                0.831480709     -117.026167
9.089                0.831019639      -117.27405
9.09                 0.830558241     -117.522615
9.091                0.830096527     -117.771863
9.092                0.829634513     -118.021793
9.093                0.829172212     -118.272408
9.094                0.828709638     -118.523706
9.095                0.828246808     -118.775689
9.096                0.827783734     -119.028358
9.097                0.827320432     -119.281713
9.098                0.826856917     -119.535754
9.099                0.826393205     -119.790482
9.1                  0.825929311     -120.045898
9.101                0.825465249     -120.302001
9.102                0.825001038     -120.558793
9.103                0.824536691     -120.816274
9.104                0.824072225     -121.074443
9.105                0.823607657     -121.333302
9.106                0.823143002     -121.592851
9.107                0.822678278      -121.85309
9.108                0.822213501     -122.114019
9.109                0.821748688     -122.375638
9.11                 0.821283856     -122.637949
9.111                0.820819022      -122.90095
9.112                0.820354204     -123.164643
9.113                0.819889419     -123.429026
9.114                0.819424685     -123.694101
9.115                 0.81896002     -123.959868
9.116                0.818495442     -124.226325
9.117                0.818030968     -124.493475
9.118                0.817566619     -124.761316
9.119                0.817102411     -125.029848
9.12                 0.816638364     -125.299071
9.121                0.816174496     -125.568986
9.122                0.815710827     -125.839592
9.123                0.815247376     -126.110889
9.124                0.814784161     -126.382877
9.125                0.814321203     -126.655555
9.126                0.813858522     -126.928924
9.127                0.813396136     -127.202982
9.128                0.812934066      -127.47773
9.129                0.812472333     -127.753168
9.13                 0.812010955     -128.029294
9.131                0.811549955     -128.306109
9.132                0.811089351     -128.583612
9.133                0.810629166     -128.861802
9.134                 0.81016942      -129.14068
9.135                0.809710133     -129.420243
9.136                0.809251328     -129.700493
9.137                0.808793025     -129.981428
9.138                0.808335247     -130.263047
9.139                0.807878013     -130.545351
9.14                 0.807421347     -130.828337
9.141                 0.80696527     -131.112005
9.142                0.806509805     -131.396355
9.143                0.806054973     -131.681386
9.144                0.805600796     -131.967096
9.145                0.805147298     -132.253485
9.146                  0.8046945     -132.540552
9.147                0.804242426     -132.828296
9.148                0.803791099     -133.116715
9.149                 0.80334054     -133.405809
9.15                 0.802890774     -133.695577
9.151                0.802441824     -133.986017
9.152                0.801993712     -134.277128
9.153                0.801546463     -134.568909
9.154                0.801100101     -134.861358
9.155                0.800654648     -135.154475
9.156                0.800210128     -135.448258
9.157                0.799766566     -135.742705
9.158                0.799323986     -136.037815
9.159                0.798882411     -136.333586
9.16                 0.798441867     -136.630018
9.161                0.798002377     -136.927107
9.162                0.797563966     -137.224854
9.163                0.797126658     -137.523255
9.164                0.796690479      -137.82231
9.165                0.796255452     -138.122016
9.166                0.795821603     -138.422372
9.167                0.795388957     -138.723376
9.168                0.794957539     -139.025025
9.169                0.794527374     -139.327319
9.17                 0.794098486     -139.630255
9.171                0.793670902      -139.93383
9.172                0.793244647     -140.238044
9.173                0.792819746     -140.542893
9.174                0.792396225     -140.848376
9.175                0.791974108      -141.15449
9.176                0.791553423     -141.461233
9.177                0.791134194     -141.768603
9.178                0.790716447     -142.076597
9.179                0.790300209     -142.385213
9.18                 0.789885504     -142.694449
9.181                0.789472359     -143.004301
9.182                  0.7890608     -143.314768
9.183                0.788650853     -143.625847
9.184                0.788242543     -143.937535
9.185                0.787835897     -144.249829
9.186                0.787430941     -144.562727
9.187                0.787027701     -144.876226
9.188                0.786626203     -145.190323
9.189                0.786226473     -145.505015
9.19                 0.785828538       -145.8203
9.191                0.785432423     -146.136173
9.192                0.785038155     -146.452633
9.193                 0.78464576     -146.769675
9.194                0.784255264     -147.087298
9.195                0.783866693     -147.405497
9.196                0.783480074      -147.72427
9.197                0.783095432     -148.043613
9.198                0.782712794     -148.363522
9.199                0.782332186     -148.683995
9.2                  0.781953634     -149.005028
9.201                0.781577163     -149.326618
9.202                0.781202801      -149.64876
9.203                0.780830573     -149.971451
9.204                0.780460505     -150.294689
9.205                0.780092623     -150.618468
9.206                0.779726952     -150.942785
9.207                0.779363519     -151.267637
9.208                 0.77900235     -151.593019
9.209                0.778643469     -151.918928
9.21                 0.778286903      -152.24536
9.211                0.777932678     -152.572311
9.212                0.777580817     -152.899776
9.213                0.777231348     -153.227752
9.214                0.776884295     -153.556234
9.215                0.776539684     -153.885218
9.216                0.776197539     -154.214701
9.217                0.775857886     -154.544677
9.218                 0.77552075     -154.875142
9.219                0.775186154     -155.206093
9.22                 0.774854125     -155.537523
9.221                0.774524687      -155.86943
9.222                0.774197864     -156.201809
9.223                 0.77387368     -156.534654
9.224                0.773552159     -156.867962
9.225                0.773233327     -157.201727
9.226                0.772917206     -157.535946
9.227                 0.77260382     -157.870612
9.228                0.772293194     -158.205721
9.229                 0.77198535     -158.541269
9.23                 0.771680311     -158.877251
9.231                0.771378102     -159.213661
9.232                0.771078745     -159.550495
9.233                0.770782262     -159.887747
9.234                0.770488677     -160.225412
9.235                0.770198011     -160.563486
9.236                0.769910288     -160.901963
9.237                0.769625529     -161.240837
9.238                0.769343756     -161.580104
9.239                0.769064991     -161.919759
9.24                 0.768789255     -162.259795
9.241                 0.76851657     -162.600208
9.242                0.768246956     -162.940991
9.243                0.767980435     -163.282141
9.244                0.767717026      -163.62365
9.245                0.767456752     -163.965514
9.246                 0.76719963     -164.307727
9.247                0.766945683     -164.650283
9.248                0.766694928     -164.993176
9.249                0.766447386     -165.336401
9.25                 0.766203077     -165.679952
9.251                0.765962018     -166.023824
9.252                0.765724228      -166.36801
9.253                0.765489727     -166.712504
9.254                0.765258531     -167.057301
9.255                 0.76503066     -167.402394
9.256                0.764806131     -167.747779
9.257                 0.76458496     -168.093448
9.258                0.764367166     -168.439395
9.259                0.764152764     -168.785615
9.26                 0.763941773     -169.132102
9.261                0.763734206     -169.478848
9.262                0.763530082     -169.825849
9.263                0.763329415     -170.173098
9.264                 0.76313222     -170.520588
9.265                0.762938513     -170.868313
9.266                0.762748308     -171.216268
9.267                 0.76256162     -171.564445
9.268                0.762378463     -171.912839
9.269                0.762198851     -172.261443
9.27                 0.762022797      -172.61025
9.271                0.761850314     -172.959254
9.272                0.761681415     -173.308449
9.273                0.761516112     -173.657829
9.274                0.761354419     -174.007386
9.275                0.761196346     -174.357114
9.276                0.761041905     -174.707007
9.277                0.760891107     -175.057058
9.278                0.760743964      -175.40726
9.279                0.760600484     -175.757607
9.28                  0.76046068     -176.108093
9.281                 0.76032456      -176.45871
9.282                0.760192133     -176.809452
9.283                0.760063409     -177.160312
9.284                0.759938397     -177.511284
9.285                0.759817105     -177.862361
9.286                0.759699541     -178.213535
9.287                0.759585712     -178.564802
9.288                0.759475627     -178.916152
9.289                 0.75936929     -179.267581
9.29                 0.759266711     -179.619081
9.291                0.759167893     -179.970645
9.292                0.759072844      179.677733
9.293                0.758981569       179.32606
9.294                0.758894072      178.974344
9.295                0.758810359       178.62259
9.296                0.758730434      178.270806
9.297                0.758654301      177.918999
9.298                0.758581963      177.567174
9.299                0.758513424       177.21534
9.3                  0.758448686      176.863503
9.301                0.758387752       176.51167
9.302                0.758330624      176.159847
9.303                0.758277304      175.808041
9.304                0.758227793       175.45626
9.305                0.758182092       175.10451
9.306                0.758140201      174.752798
9.307                0.758102122      174.401131
9.308                0.758067853      174.049515
9.309                0.758037395      173.697957
9.31                 0.758010745      173.346465
9.311                0.757987904      172.995044
9.312                0.757968869      172.643702
9.313                0.757953638      172.292446
9.314                 0.75794221      171.941282
9.315                 0.75793458      171.590217
9.316                0.757930747      171.239258
9.317                0.757930706      170.888411
9.318                0.757934453      170.537683
9.319                0.757941986      170.187082
9.32                 0.757953297      169.836612
9.321                0.757968384      169.486283
9.322                0.757987241      169.136099
9.323                0.758009861      168.786067
9.324                0.758036239      168.436195
9.325                0.758066368      168.086489
9.326                0.758100242      167.736955
9.327                0.758137853        167.3876
9.328                0.758179195       167.03843
9.329                0.758224258      166.689452
9.33                 0.758273036      166.340673
9.331                 0.75832552      165.992099
9.332                  0.7583817      165.643737
9.333                0.758441567      165.295592
9.334                0.758505113      164.947671
9.335                0.758572327      164.599981
9.336                0.758643199      164.252528
9.337                0.758717718      163.905318
9.338                0.758795874      163.558358
9.339                0.758877656      163.211654
9.34                 0.758963051      162.865212
9.341                0.759052049      162.519038
9.342                0.759144637      162.173138
9.343                0.759240802      161.827519
9.344                0.759340532      161.482187
9.345                0.759443814      161.137147
9.346                0.759550634      160.792406
9.347                 0.75966098       160.44797
9.348                0.759774836      160.103845
9.349                0.759892189      159.760037
9.35                 0.760013024      159.416551
9.351                0.760137326      159.073393
9.352                0.760265081       158.73057
9.353                0.760396272      158.388087
9.354                0.760530885      158.045949
9.355                0.760668903      157.704163
9.356                 0.76081031      157.362735
9.357                 0.76095509      157.021669
9.358                0.761103226      156.680971
9.359                0.761254701      156.340648
9.36                 0.761409499      156.000704
9.361                  0.7615676      155.661145
9.362                0.761728988      155.321976
9.363                0.761893646      154.983203
9.364                0.762061554      154.644831
9.365                0.762232694      154.306865
9.366                0.762407048      153.969311
9.367                0.762584597      153.632173
9.368                0.762765321      153.295458
9.369                0.762949203       152.95917
9.37                 0.763136221      152.623314
9.371                0.763326357      152.287895
9.372                 0.76351959      151.952918
9.373                0.763715901      151.618388
9.374                0.763915269       151.28431
9.375                0.764117674      150.950689
9.376                0.764323095       150.61753
9.377                0.764531511      150.284837
9.378                0.764742902      149.952615
9.379                0.764957246      149.620869
9.38                 0.765174522      149.289603
9.381                0.765394708      148.958821
9.382                0.765617783      148.628529
9.383                0.765843725      148.298731
9.384                0.766072512      147.969431
9.385                0.766304122      147.640634
9.386                0.766538533      147.312343
9.387                0.766775722      146.984563
9.388                0.767015667      146.657299
9.389                0.767258346      146.330554
9.39                 0.767503735      146.004333
9.391                0.767751812      145.678639
9.392                0.768002554      145.353477
9.393                0.768255937       145.02885
9.394                0.768511939      144.704763
9.395                0.768770537      144.381219
9.396                0.769031707      144.058222
