! TOUCHSTONE file generated by CST DESIGN STUDIO
! Date and time: Wed Feb  5 13:27:51 2025
! Project name: C:\Work\MatlabApps\UnitCellOptimizationMatlab\CST\unitcell.cst
! Tree item: Tasks\Sweep1\SPara1\S-Parameters
! Header version: 2024
! Port assignment regex: !\s*Touchstone port\s*([0-9]+)\s*=\s*(CST MWS port|CST DES external port|CST DES block port)\s*(.+)\s* \(\"(.*)\"\)(\s*mode\s*([0-9]+))?.*
! Touchstone port assignment:
! Touchstone port 1 = CST DES external port 1 ("")
# GHz S MA R 50
9                    0.948677227     -52.5195343
9.001                0.948567427     -52.5874352
9.002                0.948457286     -52.6554855
9.003                0.948346803     -52.7236857
9.004                0.948235976     -52.7920363
9.005                0.948124804     -52.8605377
9.006                0.948013287     -52.9291904
9.007                0.947901422      -52.997995
9.008                0.947789209     -53.0669518
9.009                0.947676646     -53.1360614
9.01                 0.947563731     -53.2053242
9.011                0.947450465     -53.2747408
9.012                0.947336844     -53.3443117
9.013                0.947222869     -53.4140372
9.014                0.947108537      -53.483918
9.015                0.946993848     -53.5539544
9.016                0.946878799     -53.6241471
9.017                0.946763391     -53.6944964
9.018                 0.94664762      -53.765003
9.019                0.946531487     -53.8356672
9.02                  0.94641499     -53.9064897
9.021                0.946298127     -53.9774708
9.022                0.946180897     -54.0486112
9.023                0.946063299     -54.1199112
9.024                0.945945331     -54.1913715
9.025                0.945826992     -54.2629926
9.026                0.945708281     -54.3347749
9.027                0.945589196      -54.406719
9.028                0.945469736     -54.4788254
9.029                  0.9453499     -54.5510946
9.03                 0.945229685     -54.6235271
9.031                0.945109092     -54.6961235
9.032                0.944988118     -54.7688842
9.033                0.944866761     -54.8418099
9.034                0.944745022     -54.9149011
9.035                0.944622897     -54.9881582
9.036                0.944500387     -55.0615818
9.037                0.944377489     -55.1351725
9.038                0.944254201     -55.2089307
9.039                0.944130523     -55.2828571
9.04                 0.944006454     -55.3569521
9.041                0.943881991     -55.4312164
9.042                0.943757133     -55.5056504
9.043                0.943631879     -55.5802547
9.044                0.943506227     -55.6550299
9.045                0.943380176     -55.7299765
9.046                0.943253725     -55.8050951
9.047                0.943126872     -55.8803862
9.048                0.942999615     -55.9558504
9.049                0.942871953     -56.0314882
9.05                 0.942743885     -56.1073002
9.051                0.942615408      -56.183287
9.052                0.942486523     -56.2594492
9.053                0.942357226     -56.3357872
9.054                0.942227517     -56.4123018
9.055                0.942097395     -56.4889934
9.056                0.941966856     -56.5658626
9.057                0.941835901       -56.64291
9.058                0.941704528     -56.7201363
9.059                0.941572734     -56.7975419
9.06                  0.94144052     -56.8751274
9.061                0.941307882     -56.9528936
9.062                0.941174819     -57.0308408
9.063                0.941041331     -57.1089698
9.064                0.940907415     -57.1872811
9.065                 0.94077307     -57.2657753
9.066                0.940638294     -57.3444531
9.067                0.940503086     -57.4233149
9.068                0.940367444     -57.5023615
9.069                0.940231367     -57.5815934
9.07                 0.940094852     -57.6610112
9.071                0.939957899     -57.7406156
9.072                0.939820507     -57.8204071
9.073                0.939682672     -57.9003864
9.074                0.939544394     -57.9805541
9.075                0.939405671     -58.0609108
9.076                0.939266502     -58.1414572
9.077                0.939126885     -58.2221937
9.078                0.938986818     -58.3031212
9.079                0.938846299     -58.3842401
9.08                 0.938705328     -58.4655512
9.081                0.938563902     -58.5470551
9.082                 0.93842202     -58.6287524
9.083                 0.93827968     -58.7106437
9.084                0.938136881     -58.7927297
9.085                 0.93799362      -58.875011
9.086                0.937849897     -58.9574883
9.087                0.937705709     -59.0401622
9.088                0.937561056     -59.1230334
9.089                0.937415934     -59.2061026
9.09                 0.937270343     -59.2893702
9.091                0.937124281     -59.3728372
9.092                0.936977747      -59.456504
9.093                0.936830737     -59.5403714
9.094                0.936683252       -59.62444
9.095                0.936535289     -59.7087105
9.096                0.936386847     -59.7931836
9.097                0.936237923     -59.8778598
9.098                0.936088516       -59.96274
9.099                0.935938625     -60.0478248
9.1                  0.935788247     -60.1331149
9.101                0.935637381     -60.2186109
9.102                0.935486026     -60.3043135
9.103                0.935334179     -60.3902235
9.104                0.935181838     -60.4763415
9.105                0.935029003     -60.5626682
9.106                0.934875671     -60.6492043
9.107                0.934721841     -60.7359504
9.108                 0.93456751     -60.8229074
9.109                0.934412677     -60.9100759
9.11                 0.934257341     -60.9974566
9.111                0.934101499     -61.0850502
9.112                0.933945149     -61.1728575
9.113                0.933788291     -61.2608791
9.114                0.933630922     -61.3491157
9.115                 0.93347304     -61.4375682
9.116                0.933314644     -61.5262371
9.117                0.933155731     -61.6151233
9.118                0.932996301     -61.7042274
9.119                 0.93283635     -61.7935502
9.12                 0.932675878     -61.8830925
9.121                0.932514883     -61.9728549
9.122                0.932353362     -62.0628382
9.123                0.932191315     -62.1530431
9.124                0.932028738     -62.2434704
9.125                0.931865631     -62.3341208
9.126                0.931701991     -62.4249951
9.127                0.931537817      -62.516094
9.128                0.931373107     -62.6074183
9.129                0.931207858     -62.6989687
9.13                  0.93104207     -62.7907461
9.131                 0.93087574     -62.8827511
9.132                0.930708866     -62.9749845
9.133                0.930541447     -63.0674472
9.134                 0.93037348     -63.1601398
9.135                0.930204965     -63.2530631
9.136                0.930035898      -63.346218
9.137                0.929866278     -63.4396052
9.138                0.929696103     -63.5332254
9.139                0.929525372     -63.6270796
9.14                 0.929354082     -63.7211684
9.141                0.929182231     -63.8154926
9.142                0.929009818     -63.9100532
9.143                0.928836841     -64.0048507
9.144                0.928663298     -64.0998861
9.145                0.928489186     -64.1951602
9.146                0.928314505     -64.2906737
9.147                0.928139251     -64.3864275
9.148                0.927963424     -64.4824224
9.149                0.927787021     -64.5786592
9.15                  0.92761004     -64.6751387
9.151                0.927432479     -64.7718617
9.152                0.927254337     -64.8688291
9.153                0.927075612     -64.9660417
9.154                0.926896301     -65.0635003
9.155                0.926716402     -65.1612057
9.156                0.926535915     -65.2591589
9.157                0.926354836     -65.3573606
9.158                0.926173164     -65.4558116
9.159                0.925990896     -65.5545129
9.16                 0.925808032     -65.6534653
9.161                0.925624569     -65.7526695
9.162                0.925440504     -65.8521266
9.163                0.925255837     -65.9518373
9.164                0.925070564     -66.0518025
9.165                0.924884685      -66.152023
9.166                0.924698196     -66.2524998
9.167                0.924511097     -66.3532336
9.168                0.924323385     -66.4542255
9.169                0.924135058     -66.5554761
9.17                 0.923946114     -66.6569866
9.171                0.923756552     -66.7587576
9.172                0.923566368     -66.8607901
9.173                0.923375562      -66.963085
9.174                0.923184131     -67.0656432
9.175                0.922992074     -67.1684656
9.176                0.922799387      -67.271553
9.177                 0.92260607     -67.3749064
9.178                 0.92241212     -67.4785267
9.179                0.922217535     -67.5824148
9.18                 0.922022314     -67.6865716
9.181                0.921826453      -67.790998
9.182                0.921629952      -67.895695
9.183                0.921432808     -68.0006634
9.184                 0.92123502     -68.1059042
9.185                0.921036584     -68.2114183
9.186                  0.9208375     -68.3172066
9.187                0.920637765     -68.4232701
9.188                0.920437377     -68.5296097
9.189                0.920236334     -68.6362264
9.19                 0.920034634     -68.7431211
9.191                0.919832276     -68.8502947
9.192                0.919629257     -68.9577482
9.193                0.919425574     -69.0654826
9.194                0.919221227     -69.1734987
9.195                0.919016213     -69.2817977
9.196                 0.91881053     -69.3903804
9.197                0.918604175     -69.4992477
9.198                0.918397148     -69.6084008
9.199                0.918189446     -69.7178405
9.2                  0.917981067     -69.8275678
9.201                0.917772009     -69.9375837
9.202                0.917562269     -70.0478892
9.203                0.917351847     -70.1584853
9.204                0.917140739     -70.2693729
9.205                0.916928945     -70.3805531
9.206                0.916716461     -70.4920268
9.207                0.916503286     -70.6037951
9.208                0.916289418      -70.715859
9.209                0.916074854     -70.8282194
9.21                 0.915859594     -70.9408774
9.211                0.915643634     -71.0538341
9.212                0.915426973     -71.1670903
9.213                0.915209609     -71.2806471
9.214                 0.91499154     -71.3945056
9.215                0.914772763     -71.5086668
9.216                0.914553277     -71.6231317
9.217                 0.91433308     -71.7379014
9.218                 0.91411217     -71.8529768
9.219                0.913890544     -71.9683591
9.22                 0.913668202     -72.0840492
9.221                 0.91344514     -72.2000483
9.222                0.913221357     -72.3163574
9.223                 0.91299685     -72.4329774
9.224                0.912771619     -72.5499096
9.225                 0.91254566     -72.6671549
9.226                0.912318973     -72.7847144
9.227                0.912091554     -72.9025893
9.228                0.911863402     -73.0207804
9.229                0.911634515      -73.139289
9.23                 0.911404892     -73.2581162
9.231                0.911174529     -73.3772629
9.232                0.910943425     -73.4967303
9.233                0.910711579     -73.6165194
9.234                0.910478988     -73.7366315
9.235                 0.91024565     -73.8570674
9.236                0.910011564     -73.9778285
9.237                0.909776727     -74.0989157
9.238                0.909541137     -74.2203302
9.239                0.909304793      -74.342073
9.24                 0.909067693     -74.4641454
9.241                0.908829835     -74.5865483
9.242                0.908591216      -74.709283
9.243                0.908351836     -74.8323505
9.244                0.908111692     -74.9557521
9.245                0.907870782     -75.0794887
9.246                0.907629104     -75.2035616
9.247                0.907386657     -75.3279718
9.248                0.907143438     -75.4527206
9.249                0.906899446     -75.5778091
9.25                  0.90665468     -75.7032383
9.251                0.906409136     -75.8290096
9.252                0.906162814     -75.9551239
9.253                0.905915711     -76.0815826
9.254                0.905667826     -76.2083867
9.255                0.905419156     -76.3355373
9.256                0.905169701     -76.4630358
9.257                0.904919458     -76.5908832
9.258                0.904668426     -76.7190807
9.259                0.904416602     -76.8476295
9.26                 0.904163986     -76.9765309
9.261                0.903910574     -77.1057858
9.262                0.903656367     -77.2353956
9.263                0.903401361     -77.3653615
9.264                0.903145555     -77.4956846
9.265                0.902888947     -77.6263662
9.266                0.902631537     -77.7574074
9.267                0.902373321     -77.8888094
9.268                0.902114299     -78.0205735
9.269                0.901854468     -78.1527008
9.27                 0.901593827     -78.2851927
9.271                0.901332375     -78.4180502
9.272                 0.90107011     -78.5512747
9.273                 0.90080703     -78.6848673
9.274                0.900543134     -78.8188293
9.275                0.900278419     -78.9531618
9.276                0.900012886     -79.0878663
9.277                0.899746531     -79.2229438
9.278                0.899479354     -79.3583956
9.279                0.899211352     -79.4942229
9.28                 0.898942525     -79.6304271
9.281                0.898672871     -79.7670094
9.282                0.898402389     -79.9039709
9.283                0.898131076     -80.0413131
9.284                0.897858932      -80.179037
9.285                0.897585955     -80.3171441
9.286                0.897312144     -80.4556355
9.287                0.897037497     -80.5945125
9.288                0.896762014     -80.7337765
9.289                0.896485692     -80.8734286
9.29                  0.89620853     -81.0134702
9.291                0.895930527     -81.1539025
9.292                0.895651682     -81.2947268
9.293                0.895371994     -81.4359445
9.294                 0.89509146     -81.5775567
9.295                0.894810081     -81.7195648
9.296                0.894527854     -81.8619701
9.297                0.894244779     -82.0047739
9.298                0.893960854     -82.1479775
9.299                0.893676079     -82.2915822
9.3                  0.893390451     -82.4355893
9.301                0.893103971     -82.5800001
9.302                0.892816636     -82.7248159
9.303                0.892528447     -82.8700381
9.304                0.892239401     -83.0156679
9.305                0.891949498     -83.1617068
9.306                0.891658737     -83.3081559
9.307                0.891367116     -83.4550166
9.308                0.891074636     -83.6022903
9.309                0.890781294     -83.7499783
9.31                 0.890487091      -83.898082
9.311                0.890192025     -84.0466026
9.312                0.889896095     -84.1955415
9.313                0.889599301     -84.3449001
9.314                0.889301642     -84.4946796
9.315                0.889003116     -84.6448815
9.316                0.888703724     -84.7955071
9.317                0.888403465     -84.9465578
9.318                0.888102338     -85.0980348
9.319                0.887800342     -85.2499396
9.32                 0.887497477     -85.4022735
9.321                0.887193742     -85.5550379
9.322                0.886889137     -85.7082342
9.323                0.886583661     -85.8618636
9.324                0.886277313     -86.0159276
9.325                0.885970094     -86.1704276
9.326                0.885662002     -86.3253649
9.327                0.885353038     -86.4807408
9.328                0.885043201     -86.6365569
9.329                0.884732491     -86.7928144
9.33                 0.884420907     -86.9495147
9.331                0.884108449     -87.1066592
9.332                0.883795117     -87.2642493
9.333                0.883480911     -87.4222864
9.334                0.883165831     -87.5807719
9.335                0.882849877     -87.7397071
9.336                0.882533048     -87.8990935
9.337                0.882215344     -88.0589324
9.338                0.881896766     -88.2192252
9.339                0.881577314     -88.3799734
9.34                 0.881256987     -88.5411783
9.341                0.880935786     -88.7028413
9.342                0.880613712     -88.8649638
9.343                0.880290763     -89.0275473
9.344                0.879966941     -89.1905931
9.345                0.879642246     -89.3541026
9.346                0.879316678     -89.5180773
9.347                0.878990237     -89.6825185
9.348                0.878662925     -89.8474277
9.349                0.878334741     -90.0128062
9.35                 0.878005686     -90.1786555
9.351                 0.87767576      -90.344977
9.352                0.877344965      -90.511772
9.353                0.877013301     -90.6790421
9.354                0.876680768     -90.8467886
9.355                0.876347368     -91.0150129
9.356                  0.8760131     -91.1837164
9.357                0.875677967     -91.3529006
9.358                0.875341969     -91.5225669
9.359                0.875005107     -91.6927167
9.36                 0.874667381     -91.8633513
9.361                0.874328794     -92.0344723
9.362                0.873989346      -92.206081
9.363                0.873649038     -92.3781789
9.364                0.873307871     -92.5507673
9.365                0.872965848     -92.7238477
9.366                0.872622968     -92.8974215
9.367                0.872279234     -93.0714901
9.368                0.871934647     -93.2460549
9.369                0.871589209     -93.4211174
9.37                 0.871242921     -93.5966789
9.371                0.870895784      -93.772741
9.372                0.870547801     -93.9493049
9.373                0.870198973     -94.1263721
9.374                0.869849302      -94.303944
9.375                 0.86949879      -94.482022
9.376                0.869147438     -94.6606076
9.377                 0.86879525     -94.8397021
9.378                0.868442226      -95.019307
9.379                0.868088369     -95.1994236
9.38                 0.867733681     -95.3800534
9.381                0.867378164     -95.5611978
9.382                0.867021821     -95.7428582
9.383                0.866664654     -95.9250359
9.384                0.866306666     -96.1077325
9.385                0.865947859     -96.2909492
9.386                0.865588235     -96.4746875
9.387                0.865227798     -96.6589487
9.388                0.864866549     -96.8437343
9.389                0.864504492     -97.0290457
9.39                  0.86414163     -97.2148843
9.391                0.863777966     -97.4012513
9.392                0.863413502     -97.5881483
9.393                0.863048242     -97.7755766
9.394                0.862682189     -97.9635376
9.395                0.862315346     -98.1520326
9.396                0.861947716     -98.3410631
