! TOUCHSTONE file generated by CST DESIGN STUDIO
! Date and time: Wed Feb  5 13:27:43 2025
! Project name: C:\Work\MatlabApps\UnitCellOptimizationMatlab\CST\unitcell.cst
! Tree item: Tasks\Sweep1\SPara1\S-Parameters
! Header version: 2024
! Port assignment regex: !\s*Touchstone port\s*([0-9]+)\s*=\s*(CST MWS port|CST DES external port|CST DES block port)\s*(.+)\s* \(\"(.*)\"\)(\s*mode\s*([0-9]+))?.*
! Touchstone port assignment:
! Touchstone port 1 = CST DES external port 1 ("")
# GHz S MA R 50
9                     0.88631756     -88.1948891
9.001                0.885977408     -88.3571866
9.002                0.885636233     -88.5199595
9.003                0.885294036     -88.6832093
9.004                0.884950815     -88.8469375
9.005                 0.88460657     -89.0111457
9.006                0.884261301     -89.1758353
9.007                0.883915007      -89.341008
9.008                0.883567687     -89.5066652
9.009                0.883219343     -89.6728085
9.01                 0.882869972     -89.8394394
9.011                0.882519576     -90.0065595
9.012                0.882168154     -90.1741703
9.013                0.881815706     -90.3422733
9.014                0.881462231     -90.5108701
9.015                0.881107731     -90.6799623
9.016                0.880752204     -90.8495513
9.017                0.880395652     -91.0196387
9.018                0.880038073     -91.1902261
9.019                 0.87967947     -91.3613151
9.02                 0.879319841      -91.532907
9.021                0.878959187     -91.7050037
9.022                0.878597508     -91.8776065
9.023                0.878234805      -92.050717
9.024                0.877871079     -92.2243368
9.025                0.877506329     -92.3984674
9.026                0.877140557     -92.5731105
9.027                0.876773763     -92.7482675
9.028                0.876405948       -92.92394
9.029                0.876037112     -93.1001296
9.03                 0.875667257     -93.2768378
9.031                0.875296383     -93.4540661
9.032                0.874924492     -93.6318163
9.033                0.874551584     -93.8100897
9.034                 0.87417766      -93.988888
9.035                0.873802722     -94.1682127
9.036                0.873426771     -94.3480654
9.037                0.873049808     -94.5284476
9.038                0.872671834     -94.7093609
9.039                0.872292851     -94.8908068
9.04                 0.871912861      -95.072787
9.041                0.871531864     -95.2553029
9.042                0.871149863     -95.4383562
9.043                 0.87076686     -95.6219483
9.044                0.870382855     -95.8060809
9.045                0.869997851     -95.9907554
9.046                 0.86961185     -96.1759735
9.047                0.869224854     -96.3617367
9.048                0.868836864     -96.5480465
9.049                0.868447884     -96.7349045
9.05                 0.868057914     -96.9223122
9.051                0.867666959     -97.1102712
9.052                0.867275019     -97.2987831
9.053                0.866882097     -97.4878493
9.054                0.866488197     -97.6774714
9.055                0.866093319      -97.867651
9.056                0.865697469     -98.0583895
9.057                0.865300647     -98.2496886
9.058                0.864902856     -98.4415497
9.059                0.864504101     -98.6339744
9.06                 0.864104384     -98.8269642
9.061                0.863703707     -99.0205206
9.062                0.863302075     -99.2146452
9.063                 0.86289949     -99.4093394
9.064                0.862495957     -99.6046049
9.065                0.862091477      -99.800443
9.066                0.861686056     -99.9968553
9.067                0.861279696     -100.193843
9.068                0.860872401     -100.391409
9.069                0.860464176     -100.589553
9.07                 0.860055024     -100.788277
9.071                 0.85964495     -100.987583
9.072                0.859233956     -101.187472
9.073                0.858822049     -101.387945
9.074                0.858409231     -101.589005
9.075                0.857995508     -101.790653
9.076                0.857580884     -101.992889
9.077                0.857165363     -102.195716
9.078                0.856748951     -102.399135
9.079                0.856331652     -102.603148
9.08                 0.855913471     -102.807755
9.081                0.855494414     -103.012959
9.082                0.855074485     -103.218761
9.083                0.854653689     -103.425161
9.084                0.854232033     -103.632163
9.085                0.853809521     -103.839766
9.086                 0.85338616     -104.047973
9.087                0.852961954     -104.256785
9.088                 0.85253691     -104.466203
9.089                0.852111034     -104.676229
9.09                 0.851684331     -104.886863
9.091                0.851256809     -105.098109
9.092                0.850828473     -105.309966
9.093                0.850399329     -105.522436
9.094                0.849969384      -105.73552
9.095                0.849538645     -105.949221
9.096                0.849107119     -106.163538
9.097                0.848674812     -106.378475
9.098                0.848241732     -106.594031
9.099                0.847807885     -106.810208
9.1                  0.847373278     -107.027008
9.101                 0.84693792     -107.244431
9.102                0.846501818     -107.462479
9.103                0.846064979     -107.681154
9.104                0.845627411     -107.900457
9.105                0.845189122     -108.120388
9.106                 0.84475012     -108.340949
9.107                0.844310413     -108.562142
9.108                 0.84387001     -108.783967
9.109                0.843428918     -109.006426
9.11                 0.842987146      -109.22952
9.111                0.842544703      -109.45325
9.112                0.842101599     -109.677618
9.113                 0.84165784     -109.902624
9.114                0.841213438     -110.128269
9.115                0.840768401     -110.354556
9.116                0.840322738     -110.581485
9.117                0.839876458     -110.809056
9.118                0.839429572     -111.037272
9.119                 0.83898209     -111.266133
9.12                  0.83853402     -111.495641
9.121                0.838085374     -111.725795
9.122                0.837636161     -111.956599
9.123                0.837186392     -112.188052
9.124                0.836736076     -112.420155
9.125                0.836285226      -112.65291
9.126                0.835833851     -112.886318
9.127                0.835381962     -113.120379
9.128                0.834929571     -113.355095
9.129                0.834476689     -113.590467
9.13                 0.834023326     -113.826494
9.131                0.833569496     -114.063179
9.132                0.833115208     -114.300523
9.133                0.832660475     -114.538525
9.134                0.832205309     -114.777188
9.135                0.831749722     -115.016511
9.136                0.831293727     -115.256496
9.137                0.830837335     -115.497144
9.138                0.830380559     -115.738455
9.139                0.829923412      -115.98043
9.14                 0.829465907      -116.22307
9.141                0.829008057     -116.466375
9.142                0.828549874     -116.710347
9.143                0.828091373     -116.954986
9.144                0.827632566     -117.200293
9.145                0.827173468     -117.446268
9.146                0.826714092     -117.692912
9.147                0.826254452     -117.940226
9.148                0.825794562      -118.18821
9.149                0.825334436     -118.436865
9.15                 0.824874089     -118.686192
9.151                0.824413536     -118.936191
9.152                0.823952791     -119.186862
9.153                0.823491868     -119.438206
9.154                0.823030784     -119.690224
9.155                0.822569553     -119.942916
9.156                 0.82210819     -120.196282
9.157                0.821646712     -120.450323
9.158                0.821185133     -120.705039
9.159                0.820723469      -120.96043
9.16                 0.820261738     -121.216498
9.161                0.819799953     -121.473242
9.162                0.819338133     -121.730662
9.163                0.818876293     -121.988759
9.164                0.818414451     -122.247533
9.165                0.817952622     -122.506985
9.166                0.817490824     -122.767114
9.167                0.817029073      -123.02792
9.168                0.816567388     -123.289404
9.169                0.816105785     -123.551566
9.17                 0.815644282     -123.814405
9.171                0.815182897     -124.077923
9.172                0.814721647     -124.342119
9.173                0.814260552     -124.606992
9.174                0.813799627     -124.872544
9.175                0.813338893     -125.138773
9.176                0.812878368      -125.40568
9.177                 0.81241807     -125.673265
9.178                0.811958018     -125.941527
9.179                0.811498231     -126.210466
9.18                 0.811038728     -126.480083
9.181                0.810579528     -126.750377
9.182                0.810120651     -127.021347
9.183                0.809662117     -127.292993
9.184                0.809203944     -127.565315
9.185                0.808746153     -127.838313
9.186                0.808288764     -128.111986
9.187                0.807831797     -128.386334
9.188                0.807375272     -128.661356
9.189                 0.80691921     -128.937051
9.19                  0.80646363      -129.21342
9.191                0.806008555     -129.490462
9.192                0.805554005     -129.768175
9.193                     0.8051      -130.04656
9.194                0.804646562     -130.325616
9.195                0.804193712     -130.605342
9.196                0.803741472     -130.885737
9.197                0.803289863       -131.1668
9.198                0.802838907     -131.448531
9.199                0.802388625     -131.730929
9.2                  0.801939039     -132.013993
9.201                0.801490172     -132.297722
9.202                0.801042046     -132.582115
9.203                0.800594682     -132.867171
9.204                0.800148104     -133.152888
9.205                0.799702334     -133.439267
9.206                0.799257394     -133.726306
9.207                0.798813308     -134.014003
9.208                0.798370098     -134.302357
9.209                0.797927788     -134.591368
9.21                   0.7974864     -134.881034
9.211                0.797045958     -135.171353
9.212                0.796606484     -135.462325
9.213                0.796168003     -135.753947
9.214                0.795730538     -136.046219
9.215                0.795294113     -136.339138
9.216                0.794858752     -136.632704
9.217                0.794424477     -136.926915
9.218                0.793991314     -137.221769
9.219                0.793559287     -137.517265
9.22                 0.793128418       -137.8134
9.221                0.792698734     -138.110174
9.222                0.792270257     -138.407584
9.223                0.791843013     -138.705628
9.224                0.791417025     -139.004306
9.225                0.790992319     -139.303613
9.226                0.790568919      -139.60355
9.227                0.790146849     -139.904114
9.228                0.789726136     -140.205302
9.229                0.789306802     -140.507113
9.23                 0.788888873     -140.809545
9.231                0.788472375     -141.112595
9.232                0.788057332     -141.416261
9.233                0.787643769     -141.720541
9.234                0.787231711     -142.025433
9.235                0.786821184     -142.330933
9.236                0.786412212     -142.637041
9.237                0.786004821     -142.943753
9.238                0.785599037     -143.251067
9.239                0.785194884      -143.55898
9.24                 0.784792388      -143.86749
9.241                0.784391574     -144.176594
9.242                0.783992468      -144.48629
9.243                0.783595095     -144.796574
9.244                0.783199481     -145.107444
9.245                 0.78280565     -145.418897
9.246                0.782413629      -145.73093
9.247                0.782023443     -146.043541
9.248                0.781635118     -146.356726
9.249                0.781248678     -146.670482
9.25                  0.78086415     -146.984806
9.251                0.780481558     -147.299696
9.252                0.780100929     -147.615148
9.253                0.779722288     -147.931158
9.254                 0.77934566     -148.247724
9.255                 0.77897107     -148.564842
9.256                0.778598545     -148.882508
9.257                0.778228108     -149.200721
9.258                0.777859787     -149.519475
9.259                0.777493605     -149.838768
9.26                 0.777129588     -150.158595
9.261                0.776767761     -150.478954
9.262                 0.77640815     -150.799841
9.263                 0.77605078     -151.121252
9.264                0.775695675     -151.443183
9.265                 0.77534286      -151.76563
9.266                 0.77499236      -152.08859
9.267                0.774644201     -152.412059
9.268                0.774298406     -152.736033
9.269                0.773955001     -153.060508
9.27                  0.77361401     -153.385479
9.271                0.773275458     -153.710944
9.272                0.772939368     -154.036897
9.273                0.772605766     -154.363334
9.274                0.772274675     -154.690252
9.275                0.771946119     -155.017646
9.276                0.771620122     -155.345511
9.277                0.771296709     -155.673844
9.278                0.770975903      -156.00264
9.279                0.770657727     -156.331894
9.28                 0.770342206     -156.661602
9.281                0.770029362      -156.99176
9.282                0.769719218     -157.322363
9.283                0.769411798     -157.653406
9.284                0.769107124     -157.984884
9.285                 0.76880522     -158.316794
9.286                0.768506107     -158.649129
9.287                0.768209809     -158.981886
9.288                0.767916347     -159.315059
9.289                0.767625745     -159.648644
9.29                 0.767338023     -159.982635
9.291                0.767053203     -160.317028
9.292                0.766771307     -160.651817
9.293                0.766492357     -160.986998
9.294                0.766216373     -161.322566
9.295                0.765943377     -161.658515
9.296                 0.76567339     -161.994839
9.297                0.765406431     -162.331535
9.298                0.765142522     -162.668596
9.299                0.764881683     -163.006017
9.3                  0.764623933     -163.343794
9.301                0.764369293     -163.681919
9.302                0.764117782     -164.020389
9.303                0.763869419     -164.359197
9.304                0.763624223     -164.698339
9.305                0.763382214     -165.037808
9.306                0.763143409     -165.377598
9.307                0.762907828     -165.717705
9.308                0.762675488     -166.058123
9.309                0.762446407     -166.398846
9.31                 0.762220603     -166.739868
9.311                0.761998092     -167.081183
9.312                0.761778894     -167.422786
9.313                0.761563023     -167.764671
9.314                0.761350496     -168.106832
9.315                0.761141331     -168.449263
9.316                0.760935542     -168.791958
9.317                0.760733146     -169.134912
9.318                0.760534158     -169.478117
9.319                0.760338593     -169.821569
9.32                 0.760146466     -170.165261
9.321                0.759957792     -170.509187
9.322                0.759772585      -170.85334
9.323                0.759590858     -171.197716
9.324                0.759412626     -171.542307
9.325                0.759237902     -171.887108
9.326                0.759066699     -172.232112
9.327                 0.75889903     -172.577314
9.328                0.758734906     -172.922706
9.329                0.758574341     -173.268282
9.33                 0.758417346     -173.614037
9.331                0.758263933     -173.959963
9.332                0.758114112     -174.306055
9.333                0.757967894     -174.652306
9.334                0.757825291      -174.99871
9.335                0.757686311     -175.345261
9.336                0.757550966     -175.691951
9.337                0.757419264     -176.038775
9.338                0.757291214     -176.385726
9.339                0.757166826     -176.732797
9.34                 0.757046108     -177.079982
9.341                0.756929068     -177.427275
9.342                0.756815713     -177.774669
9.343                0.756706052     -178.122158
9.344                 0.75660009     -178.469734
9.345                0.756497836     -178.817392
9.346                0.756399295     -179.165125
9.347                0.756304474     -179.512926
9.348                0.756213377     -179.860789
9.349                0.756126011      179.791293
9.35                 0.756042381      179.443327
9.351                 0.75596249      179.095318
9.352                0.755886343      178.747275
9.353                0.755813944      178.399203
9.354                0.755745297      178.051108
9.355                0.755680404      177.702999
9.356                 0.75561927       177.35488
9.357                0.755561894       177.00676
9.358                0.755508281      176.658644
9.359                0.755458432      176.310539
9.36                 0.755412348      175.962451
9.361                 0.75537003      175.614388
9.362                0.755331478      175.266356
9.363                0.755296694      174.918362
9.364                0.755265676      174.570412
9.365                0.755238425      174.222513
9.366                0.755214939      173.874671
9.367                0.755195218      173.526893
9.368                0.755179259      173.179186
9.369                0.755167062      172.831556
9.37                 0.755158623       172.48401
9.371                 0.75515394      172.136554
9.372                 0.75515301      171.789196
9.373                 0.75515583       171.44194
9.374                0.755162396      171.094795
9.375                0.755172704      170.747767
9.376                0.755186749      170.400861
9.377                0.755204527      170.054085
9.378                0.755226033      169.707445
9.379                0.755251261      169.360947
9.38                 0.755280206      169.014599
9.381                0.755312861      168.668406
9.382                0.755349219      168.322374
9.383                0.755389275      167.976511
9.384                 0.75543302      167.630822
9.385                0.755480448      167.285315
9.386                 0.75553155      166.939994
9.387                0.755586318      166.594867
9.388                0.755644745       166.24994
9.389                0.755706819      165.905219
9.39                 0.755772534       165.56071
9.391                0.755841879       165.21642
9.392                0.755914844      164.872354
9.393                0.755991419       164.52852
9.394                0.756071595      164.184923
9.395                0.756155359      163.841568
9.396                0.756242701      163.498463
