! TOUCHSTONE file generated by CST DESIGN STUDIO
! Date and time: Wed Feb  5 13:27:48 2025
! Project name: C:\Work\MatlabApps\UnitCellOptimizationMatlab\CST\unitcell.cst
! Tree item: Tasks\Sweep1\SPara1\S-Parameters
! Header version: 2024
! Port assignment regex: !\s*Touchstone port\s*([0-9]+)\s*=\s*(CST MWS port|CST DES external port|CST DES block port)\s*(.+)\s* \(\"(.*)\"\)(\s*mode\s*([0-9]+))?.*
! Touchstone port assignment:
! Touchstone port 1 = CST DES external port 1 ("")
# GHz S MA R 50
9                    0.929244669     -64.1778798
9.001                0.929065824     -64.2724906
9.002                0.928886382     -64.3673396
9.003                0.928706342     -64.4624277
9.004                0.928525702     -64.5577558
9.005                0.928344458     -64.6533245
9.006                 0.92816261     -64.7491348
9.007                0.927980155     -64.8451875
9.008                0.927797092     -64.9414833
9.009                0.927613418     -65.0380231
9.01                 0.927429131     -65.1348078
9.011                0.927244229     -65.2318381
9.012                 0.92705871      -65.329115
9.013                0.926872572     -65.4266391
9.014                0.926685813     -65.5244115
9.015                 0.92649843     -65.6224329
9.016                0.926310422     -65.7207041
9.017                0.926121787     -65.8192261
9.018                0.925932522     -65.9179997
9.019                0.925742626     -66.0170256
9.02                 0.925552096     -66.1163049
9.021                 0.92536093     -66.2158383
9.022                0.925169127     -66.3156268
9.023                0.924976683     -66.4156711
9.024                0.924783597     -66.5159722
9.025                0.924589867      -66.616531
9.026                0.924395491     -66.7173482
9.027                0.924200466     -66.8184249
9.028                 0.92400479     -66.9197618
9.029                0.923808462     -67.0213599
9.03                 0.923611479     -67.1232201
9.031                0.923413839     -67.2253432
9.032                 0.92321554     -67.3277302
9.033                0.923016579     -67.4303819
9.034                0.922816955     -67.5332993
9.035                0.922616666     -67.6364833
9.036                0.922415708     -67.7399347
9.037                0.922214081     -67.8436545
9.038                0.922011782     -67.9476437
9.039                0.921808809      -68.051903
9.04                 0.921605159     -68.1564336
9.041                0.921400831     -68.2612362
9.042                0.921195822     -68.3663118
9.043                 0.92099013     -68.4716614
9.044                0.920783754     -68.5772858
9.045                 0.92057669     -68.6831861
9.046                0.920368937     -68.7893631
9.047                0.920160492     -68.8958179
9.048                0.919951354     -69.0025513
9.049                 0.91974152     -69.1095643
9.05                 0.919530988     -69.2168579
9.051                0.919319756     -69.3244331
9.052                0.919107821     -69.4322907
9.053                0.918895182     -69.5404319
9.054                0.918681836     -69.6488574
9.055                0.918467781     -69.7575684
9.056                0.918253015     -69.8665657
9.057                0.918037536     -69.9758504
9.058                0.917821342     -70.0854235
9.059                 0.91760443     -70.1952859
9.06                 0.917386798     -70.3054386
9.061                0.917168444     -70.4158827
9.062                0.916949365     -70.5266191
9.063                0.916729561     -70.6376488
9.064                0.916509028     -70.7489728
9.065                0.916287764     -70.8605922
9.066                0.916065768      -70.972508
9.067                0.915843036      -71.084721
9.068                0.915619567     -71.1972325
9.069                0.915395358     -71.3100434
9.07                 0.915170408     -71.4231547
9.071                0.914944715     -71.5365675
9.072                0.914718275     -71.6502827
9.073                0.914491087     -71.7643015
9.074                0.914263148     -71.8786248
9.075                0.914034458     -71.9932538
9.076                0.913805012     -72.1081894
9.077                 0.91357481     -72.2234327
9.078                0.913343848     -72.3389848
9.079                0.913112126     -72.4548467
9.08                  0.91287964     -72.5710194
9.081                0.912646388     -72.6875041
9.082                0.912412369     -72.8043018
9.083                 0.91217758     -72.9214136
9.084                 0.91194202     -73.0388405
9.085                0.911705685     -73.1565836
9.086                0.911468573     -73.2746441
9.087                0.911230684     -73.3930229
9.088                0.910992013     -73.5117213
9.089                 0.91075256     -73.6307401
9.09                 0.910512323     -73.7500807
9.091                0.910271298      -73.869744
9.092                0.910029484     -73.9897312
9.093                0.909786879     -74.1100434
9.094                0.909543481     -74.2306817
9.095                0.909299287     -74.3516471
9.096                0.909054295     -74.4729409
9.097                0.908808504     -74.5945641
9.098                0.908561912     -74.7165179
9.099                0.908314515     -74.8388033
9.1                  0.908066313     -74.9614216
9.101                0.907817302     -75.0843738
9.102                0.907567481     -75.2076611
9.103                0.907316849     -75.3312846
9.104                0.907065402     -75.4552455
9.105                0.906813139     -75.5795449
9.106                0.906560057      -75.704184
9.107                0.906306155     -75.8291639
9.108                0.906051431     -75.9544858
9.109                0.905795882     -76.0801509
9.11                 0.905539507     -76.2061602
9.111                0.905282304     -76.3325151
9.112                 0.90502427     -76.4592166
9.113                0.904765404     -76.5862659
9.114                0.904505703     -76.7136642
9.115                0.904245166     -76.8414128
9.116                 0.90398379     -76.9695127
9.117                0.903721574     -77.0979652
9.118                0.903458516     -77.2267714
9.119                0.903194614     -77.3559326
9.12                 0.902929865       -77.48545
9.121                0.902664268     -77.6153248
9.122                0.902397822     -77.7455581
9.123                0.902130523     -77.8761512
9.124                0.901862371     -78.0071053
9.125                0.901593363     -78.1384216
9.126                0.901323498     -78.2701014
9.127                0.901052773     -78.4021458
9.128                0.900781188     -78.5345561
9.129                0.900508739     -78.6673336
9.13                 0.900235425     -78.8004794
9.131                0.899961245     -78.9339948
9.132                0.899686196      -79.067881
9.133                0.899410277     -79.2021393
9.134                0.899133486      -79.336771
9.135                0.898855821     -79.4717772
9.136                0.898577281     -79.6071593
9.137                0.898297864     -79.7429185
9.138                0.898017568      -79.879056
9.139                0.897736392     -80.0155732
9.14                 0.897454333     -80.1524712
9.141                 0.89717139     -80.2897514
9.142                0.896887562     -80.4274151
9.143                0.896602847     -80.5654634
9.144                0.896317243     -80.7038978
9.145                0.896030748     -80.8427195
9.146                0.895743362     -80.9819297
9.147                0.895455082     -81.1215298
9.148                0.895165908      -81.261521
9.149                0.894875836     -81.4019047
9.15                 0.894584867     -81.5426821
9.151                0.894292999     -81.6838546
9.152                0.894000229     -81.8254235
9.153                0.893706557       -81.96739
9.154                0.893411981     -82.1097555
9.155                0.893116501     -82.2525214
9.156                0.892820113     -82.3956888
9.157                0.892522818     -82.5392592
9.158                0.892224613     -82.6832339
9.159                0.891925498     -82.8276141
9.16                 0.891625471     -82.9724013
9.161                0.891324532     -83.1175967
9.162                0.891022677     -83.2632018
9.163                0.890719907     -83.4092178
9.164                0.890416221      -83.555646
9.165                0.890111617     -83.7024879
9.166                0.889806093     -83.8497447
9.167                 0.88949965     -83.9974179
9.168                0.889192285     -84.1455088
9.169                0.888883998     -84.2940187
9.17                 0.888574788     -84.4429489
9.171                0.888264653      -84.592301
9.172                0.887953593     -84.7420761
9.173                0.887641607     -84.8922758
9.174                0.887328693     -85.0429013
9.175                0.887014852      -85.193954
9.176                0.886700081     -85.3454353
9.177                0.886384381     -85.4973466
9.178                0.886067751     -85.6496893
9.179                0.885750189     -85.8024647
9.18                 0.885431695     -85.9556742
9.181                0.885112268     -86.1093193
9.182                0.884791908     -86.2634012
9.183                0.884470613     -86.4179215
9.184                0.884148384     -86.5728814
9.185                 0.88382522     -86.7282824
9.186                 0.88350112     -86.8841259
9.187                0.883176084     -87.0404133
9.188                 0.88285011     -87.1971459
9.189                  0.8825232     -87.3543253
9.19                 0.882195352     -87.5119527
9.191                0.881866566     -87.6700297
9.192                0.881536842     -87.8285576
9.193                 0.88120618     -87.9875377
9.194                0.880874578     -88.1469717
9.195                0.880542038     -88.3068608
9.196                0.880208558     -88.4672064
9.197                0.879874139     -88.6280101
9.198                0.879538781     -88.7892732
9.199                0.879202483     -88.9509971
9.2                  0.878865247     -89.1131833
9.201                 0.87852707     -89.2758332
9.202                0.878187955     -89.4389481
9.203                  0.8778479     -89.6025297
9.204                0.877506906     -89.7665792
9.205                0.877164974     -89.9310981
9.206                0.876822103     -90.0960879
9.207                0.876478294     -90.2615499
9.208                0.876133548     -90.4274857
9.209                0.875787864     -90.5938966
9.21                 0.875441243     -90.7607841
9.211                0.875093685     -90.9281496
9.212                0.874745192     -91.0959945
9.213                0.874395764     -91.2643204
9.214                0.874045401     -91.4331286
9.215                0.873694104     -91.6024206
9.216                0.873341874     -91.7721978
9.217                0.872988712     -91.9424617
9.218                0.872634619     -92.1132137
9.219                0.872279595     -92.2844553
9.22                 0.871923641     -92.4561879
9.221                0.871566759     -92.6284129
9.222                0.871208949     -92.8011318
9.223                0.870850214     -92.9743461
9.224                0.870490553     -93.1480571
9.225                0.870129968     -93.3222664
9.226                0.869768461     -93.4969754
9.227                0.869406033     -93.6721854
9.228                0.869042685     -93.8478981
9.229                0.868678419     -94.0241147
9.23                 0.868313237     -94.2008368
9.231                0.867947139     -94.3780659
9.232                0.867580128     -94.5558032
9.233                0.867212206     -94.7340504
9.234                0.866843374     -94.9128087
9.235                0.866473634     -95.0920798
9.236                0.866102988     -95.2718649
9.237                0.865731438     -95.4521657
9.238                0.865358987     -95.6329834
9.239                0.864985635     -95.8143195
9.24                 0.864611387     -95.9961755
9.241                0.864236243     -96.1785529
9.242                0.863860206     -96.3614529
9.243                0.863483279     -96.5448772
9.244                0.863105464      -96.728827
9.245                0.862726764     -96.9133039
9.246                0.862347181     -97.0983092
9.247                0.861966718     -97.2838444
9.248                0.861585378      -97.469911
9.249                0.861203164     -97.6565102
9.25                 0.860820078     -97.8436437
9.251                0.860436124     -98.0313127
9.252                0.860051305     -98.2195187
9.253                0.859665623     -98.4082631
9.254                0.859279083     -98.5975473
9.255                0.858891688     -98.7873727
9.256                0.858503441     -98.9777407
9.257                0.858114345     -99.1686528
9.258                0.857724404     -99.3601103
9.259                0.857333621     -99.5521146
9.26                 0.856942002     -99.7446672
9.261                0.856549548     -99.9377693
9.262                0.856156265     -100.131422
9.263                0.855762156     -100.325628
9.264                0.855367226     -100.520387
9.265                0.854971478     -100.715702
9.266                0.854574917     -100.911572
9.267                0.854177547     -101.108001
9.268                0.853779373     -101.304989
9.269                0.853380399     -101.502538
9.27                  0.85298063     -101.700648
9.271                 0.85258007     -101.899322
9.272                0.852178725      -102.09856
9.273                0.851776599     -102.298365
9.274                0.851373698     -102.498736
9.275                0.850970026     -102.699676
9.276                0.850565588     -102.901187
9.277                0.850160391     -103.103268
9.278                0.849754439     -103.305922
9.279                0.849347738      -103.50915
9.28                 0.848940293     -103.712953
9.281                0.848532111     -103.917333
9.282                0.848123197      -104.12229
9.283                0.847713557     -104.327826
9.284                0.847303196     -104.533943
9.285                0.846892122     -104.740641
9.286                 0.84648034     -104.947922
9.287                0.846067857     -105.155788
9.288                0.845654679     -105.364238
9.289                0.845240812     -105.573275
9.29                 0.844826264       -105.7829
9.291                0.844411041     -105.993114
9.292                 0.84399515     -106.203919
9.293                0.843578598     -106.415314
9.294                0.843161391     -106.627303
9.295                0.842743539     -106.839885
9.296                0.842325046     -107.053062
9.297                0.841905922     -107.266836
9.298                0.841486173     -107.481207
9.299                0.841065808     -107.696176
9.3                  0.840644833     -107.911745
9.301                0.840223258     -108.127915
9.302                0.839801089     -108.344687
9.303                0.839378335     -108.562062
9.304                0.838955005     -108.780041
9.305                0.838531107     -108.998625
9.306                0.838106648     -109.217816
9.307                0.837681639     -109.437614
9.308                0.837256087      -109.65802
9.309                0.836830001     -109.879036
9.31                 0.836403391     -110.100663
9.311                0.835976265     -110.322901
9.312                0.835548633     -110.545752
9.313                0.835120504     -110.769217
9.314                0.834691888     -110.993296
9.315                0.834262794     -111.217991
9.316                0.833833232     -111.443302
9.317                0.833403211     -111.669231
9.318                0.832972743     -111.895778
9.319                0.832541836     -112.122945
9.32                 0.832110501     -112.350732
9.321                0.831678749     -112.579141
9.322                0.831246589     -112.808171
9.323                0.830814034     -113.037825
9.324                0.830381093     -113.268102
9.325                0.829947777     -113.499004
9.326                0.829514097     -113.730532
9.327                0.829080065     -113.962686
9.328                0.828645692     -114.195467
9.329                0.828210989     -114.428876
9.33                 0.827775967     -114.662913
9.331                 0.82734064     -114.897581
9.332                0.826905017     -115.132878
9.333                0.826469112     -115.368806
9.334                0.826032936     -115.605366
9.335                0.825596502     -115.842559
9.336                0.825159822     -116.080384
9.337                0.824722909     -116.318843
9.338                0.824285774     -116.557936
9.339                0.823848432     -116.797664
9.34                 0.823410895     -117.038028
9.341                0.822973175     -117.279028
9.342                0.822535287     -117.520664
9.343                0.822097243     -117.762937
9.344                0.821659058     -118.005849
9.345                0.821220743     -118.249398
9.346                0.820782315     -118.493586
9.347                0.820343785     -118.738413
9.348                0.819905169      -118.98388
9.349                 0.81946648     -119.229987
9.35                 0.819027733     -119.476735
9.351                0.818588943     -119.724123
9.352                0.818150123     -119.972152
9.353                0.817711289     -120.220823
9.354                0.817272455     -120.470135
9.355                0.816833636      -120.72009
9.356                0.816394849     -120.970687
9.357                0.815956107     -121.221927
9.358                0.815517426      -121.47381
9.359                0.815078822     -121.726336
9.36                 0.814640311     -121.979505
9.361                0.814201908     -122.233317
9.362                0.813763629     -122.487773
9.363                0.813325491     -122.742873
9.364                 0.81288751     -122.998616
9.365                0.812449702     -123.255003
9.366                0.812012083     -123.512034
9.367                0.811574671     -123.769709
9.368                0.811137482     -124.028028
9.369                0.810700533      -124.28699
9.37                 0.810263841     -124.546596
9.371                0.809827423     -124.806846
9.372                0.809391297     -125.067739
9.373                 0.80895548     -125.329275
9.374                 0.80851999     -125.591455
9.375                0.808084844     -125.854277
9.376                0.807650061     -126.117743
9.377                0.807215658      -126.38185
9.378                0.806781653       -126.6466
9.379                0.806348065     -126.911992
9.38                 0.805914912     -127.178025
9.381                0.805482213     -127.444699
9.382                0.805049985     -127.712013
9.383                0.804618249     -127.979969
9.384                0.804187023     -128.248563
9.385                0.803756326     -128.517797
9.386                0.803326176      -128.78767
9.387                0.802896594     -129.058181
9.388                0.802467598      -129.32933
9.389                0.802039209     -129.601115
9.39                 0.801611446     -129.873537
9.391                0.801184327     -130.146594
9.392                0.800757875     -130.420287
9.393                0.800332107     -130.694613
9.394                0.799907045     -130.969573
9.395                0.799482709     -131.245165
9.396                0.799059118     -131.521389
