! TOUCHSTONE file generated by CST DESIGN STUDIO
! Date and time: Tue Feb  4 17:27:19 2025
! Project name: C:\Work\MatlabApps\UnitCellOptimizationMatlab\CST\unitcell.cst
! Tree item: Tasks\Sweep1\SPara1\S-Parameters
! Header version: 2024
! Port assignment regex: !\s*Touchstone port\s*([0-9]+)\s*=\s*(CST MWS port|CST DES external port|CST DES block port)\s*(.+)\s* \(\"(.*)\"\)(\s*mode\s*([0-9]+))?.*
! Touchstone port assignment:
! Touchstone port 1 = CST DES external port 1 ("")
# GHz S MA R 50
9                    0.958157017     -53.9367088
9.001                0.958071869      -54.007418
9.002                0.957986454     -54.0782836
9.003                0.957900769      -54.149306
9.004                0.957814815     -54.2204859
9.005                 0.95772859     -54.2918235
9.006                0.957642093     -54.3633196
9.007                0.957555324     -54.4349745
9.008                0.957468281     -54.5067887
9.009                0.957380964     -54.5787628
9.01                 0.957293371     -54.6508973
9.011                0.957205502     -54.7231926
9.012                0.957117356     -54.7956493
9.013                0.957028932     -54.8682679
9.014                0.956940228     -54.9410489
9.015                0.956851245     -55.0139928
9.016                 0.95676198     -55.0871001
9.017                0.956672433     -55.1603713
9.018                0.956582603      -55.233807
9.019                0.956492489     -55.3074077
9.02                 0.956402091     -55.3811738
9.021                0.956311406      -55.455106
9.022                0.956220434     -55.5292047
9.023                0.956129175     -55.6034705
9.024                0.956037627      -55.677904
9.025                0.955945789     -55.7525055
9.026                 0.95585366     -55.8272757
9.027                0.955761239     -55.9022152
9.028                0.955668525     -55.9773244
9.029                0.955575518     -56.0526038
9.03                 0.955482216     -56.1280541
9.031                0.955388618     -56.2036758
9.032                0.955294723     -56.2794694
9.033                 0.95520053     -56.3554354
9.034                0.955106038     -56.4315745
9.035                0.955011247     -56.5078871
9.036                0.954916154     -56.5843739
9.037                 0.95482076     -56.6610353
9.038                0.954725062      -56.737872
9.039                0.954629061     -56.8148844
9.04                 0.954532755     -56.8920733
9.041                0.954436142      -56.969439
9.042                0.954339223     -57.0469822
9.043                0.954241995     -57.1247035
9.044                0.954144458     -57.2026034
9.045                0.954046611     -57.2806825
9.046                0.953948452     -57.3589414
9.047                0.953849981     -57.4373807
9.048                0.953751197     -57.5160009
9.049                0.953652098     -57.5948025
9.05                 0.953552684     -57.6737863
9.051                0.953452953     -57.7529528
9.052                0.953352904     -57.8323025
9.053                0.953252536     -57.9118361
9.054                0.953151849     -57.9915541
9.055                0.953050841     -58.0714572
9.056                 0.95294951     -58.1515459
9.057                0.952847857     -58.2318209
9.058                0.952745879     -58.3122827
9.059                0.952643576     -58.3929319
9.06                 0.952540946     -58.4737692
9.061                0.952437989     -58.5547952
9.062                0.952334704     -58.6360104
9.063                0.952231089     -58.7174154
9.064                0.952127142      -58.799011
9.065                0.952022864     -58.8807977
9.066                0.951918253     -58.9627761
9.067                0.951813308     -59.0449468
9.068                0.951708027     -59.1273106
9.069                 0.95160241     -59.2098679
9.07                 0.951496455     -59.2926194
9.071                0.951390161     -59.3755658
9.072                0.951283528     -59.4587076
9.073                0.951176554     -59.5420456
9.074                0.951069237     -59.6255803
9.075                0.950961577     -59.7093125
9.076                0.950853573     -59.7932426
9.077                0.950745223     -59.8773715
9.078                0.950636527     -59.9616997
9.079                0.950527482     -60.0462278
9.08                 0.950418089     -60.1309566
9.081                0.950308345     -60.2158866
9.082                 0.95019825     -60.3010186
9.083                0.950087802     -60.3863531
9.084                0.949977001      -60.471891
9.085                0.949865844     -60.5576327
9.086                0.949754332      -60.643579
9.087                0.949642462     -60.7297306
9.088                0.949530233     -60.8160881
9.089                0.949417645     -60.9026521
9.09                 0.949304697     -60.9894235
9.091                0.949191386     -61.0764028
9.092                0.949077711     -61.1635907
9.093                0.948963673     -61.2509879
9.094                0.948849269     -61.3385951
9.095                0.948734497      -61.426413
9.096                0.948619358     -61.5144422
9.097                 0.94850385     -61.6026835
9.098                0.948387971     -61.6911376
9.099                 0.94827172     -61.7798051
9.1                  0.948155096     -61.8686867
9.101                0.948038098     -61.9577833
9.102                0.947920725     -62.0470953
9.103                0.947802975     -62.1366237
9.104                0.947684848      -62.226369
9.105                0.947566341      -62.316332
9.106                0.947447454     -62.4065134
9.107                0.947328185     -62.4969139
9.108                0.947208533     -62.5875343
9.109                0.947088498     -62.6783752
9.11                 0.946968077     -62.7694374
9.111                0.946847269     -62.8607217
9.112                0.946726074     -62.9522287
9.113                0.946604489     -63.0439591
9.114                0.946482515     -63.1359138
9.115                0.946360148     -63.2280935
9.116                0.946237389     -63.3204988
9.117                0.946114236     -63.4131306
9.118                0.945990687     -63.5059895
9.119                0.945866742     -63.5990764
9.12                 0.945742399      -63.692392
9.121                0.945617656     -63.7859371
9.122                0.945492513     -63.8797123
9.123                0.945366968     -63.9737185
9.124                 0.94524102     -64.0679564
9.125                0.945114668     -64.1624268
9.126                 0.94498791     -64.2571304
9.127                0.944860746     -64.3520681
9.128                0.944733173     -64.4472405
9.129                 0.94460519     -64.5426486
9.13                 0.944476797      -64.638293
9.131                0.944347992     -64.7341745
9.132                0.944218773      -64.830294
9.133                0.944089139     -64.9266521
9.134                 0.94395909     -65.0232497
9.135                0.943828623     -65.1200877
9.136                0.943697738     -65.2171667
9.137                0.943566432     -65.3144876
9.138                0.943434706     -65.4120511
9.139                0.943302556     -65.5098582
9.14                 0.943169983     -65.6079095
9.141                0.943036985      -65.706206
9.142                 0.94290356     -65.8047483
9.143                0.942769708     -65.9035374
9.144                0.942635426     -66.0025741
9.145                0.942500714     -66.1018591
9.146                 0.94236557     -66.2013932
9.147                0.942229992     -66.3011774
9.148                0.942093981     -66.4012125
9.149                0.941957533     -66.5014992
9.15                 0.941820649     -66.6020384
9.151                0.941683326      -66.702831
9.152                0.941545563     -66.8038777
9.153                0.941407359     -66.9051795
9.154                0.941268712     -67.0067372
9.155                0.941129622     -67.1085516
9.156                0.940990087     -67.2106235
9.157                0.940850105     -67.3129539
9.158                0.940709675     -67.4155436
9.159                0.940568796     -67.5183935
9.16                 0.940427467     -67.6215043
9.161                0.940285686     -67.7248771
9.162                0.940143451     -67.8285126
9.163                0.940000762     -67.9324117
9.164                0.939857618     -68.0365753
9.165                0.939714016     -68.1410043
9.166                0.939569955     -68.2456995
9.167                0.939425434     -68.3506619
9.168                0.939280453     -68.4558924
9.169                0.939135008     -68.5613917
9.17                   0.9389891     -68.6671608
9.171                0.938842726     -68.7732007
9.172                0.938695886     -68.8795122
9.173                0.938548577     -68.9860961
9.174                  0.9384008     -69.0929535
9.175                0.938252551     -69.2000852
9.176                0.938103831     -69.3074922
9.177                0.937954637     -69.4151753
9.178                0.937804968     -69.5231354
9.179                0.937654823     -69.6313736
9.18                 0.937504201     -69.7398906
9.181                  0.9373531     -69.8486875
9.182                0.937201519     -69.9577651
9.183                0.937049456     -70.0671245
9.184                 0.93689691     -70.1767664
9.185                0.936743881     -70.2866919
9.186                0.936590366      -70.396902
9.187                0.936436363     -70.5073974
9.188                0.936281873     -70.6181793
9.189                0.936126893     -70.7292485
9.19                 0.935971423     -70.8406061
9.191                 0.93581546     -70.9522528
9.192                0.935659003     -71.0641898
9.193                0.935502052      -71.176418
9.194                0.935344604     -71.2889383
9.195                0.935186659     -71.4017517
9.196                0.935028215     -71.5148592
9.197                 0.93486927     -71.6282618
9.198                0.934709824     -71.7419604
9.199                0.934549875      -71.855956
9.2                  0.934389422     -71.9702496
9.201                0.934228464     -72.0848422
9.202                0.934066999     -72.1997347
9.203                0.933905025     -72.3149283
9.204                0.933742542     -72.4304237
9.205                0.933579548     -72.5462222
9.206                0.933416042     -72.6623246
9.207                0.933252023      -72.778732
9.208                0.933087489     -72.8954453
9.209                0.932922439     -73.0124656
9.21                 0.932756872      -73.129794
9.211                0.932590786     -73.2474313
9.212                 0.93242418     -73.3653787
9.213                0.932257053     -73.4836371
9.214                0.932089404     -73.6022076
9.215                 0.93192123     -73.7210913
9.216                0.931752532      -73.840289
9.217                0.931583308      -73.959802
9.218                0.931413556     -74.0796312
9.219                0.931243275     -74.1997776
9.22                 0.931072464     -74.3202423
9.221                0.930901122     -74.4410264
9.222                0.930729247     -74.5621309
9.223                0.930556838     -74.6835568
9.224                0.930383895     -74.8053053
9.225                0.930210415     -74.9273773
9.226                0.930036397     -75.0497739
9.227                0.929861841     -75.1724963
9.228                0.929686744     -75.2955454
9.229                0.929511107     -75.4189223
9.23                 0.929334927     -75.5426282
9.231                0.929158203      -75.666664
9.232                0.928980935     -75.7910309
9.233                0.928803121     -75.9157299
9.234                0.928624759     -76.0407622
9.235                0.928445849     -76.1661288
9.236                 0.92826639     -76.2918309
9.237                 0.92808638     -76.4178694
9.238                0.927905818     -76.5442456
9.239                0.927724703     -76.6709604
9.24                 0.927543033     -76.7980151
9.241                0.927360809     -76.9254107
9.242                0.927178028     -77.0531483
9.243                 0.92699469     -77.1812291
9.244                0.926810792     -77.3096541
9.245                0.926626335     -77.4384245
9.246                0.926441318     -77.5675414
9.247                0.926255738     -77.6970059
9.248                0.926069595     -77.8268192
9.249                0.925882888     -77.9569823
9.25                 0.925695616     -78.0874964
9.251                0.925507778     -78.2183627
9.252                0.925319372     -78.3495823
9.253                0.925130398     -78.4811563
9.254                0.924940855     -78.6130858
9.255                0.924750741     -78.7453721
9.256                0.924560056     -78.8780162
9.257                0.924368798     -79.0110194
9.258                0.924176967     -79.1443827
9.259                0.923984562     -79.2781073
9.26                 0.923791582     -79.4121944
9.261                0.923598025     -79.5466452
9.262                0.923403891     -79.6814608
9.263                0.923209179     -79.8166423
9.264                0.923013888      -79.952191
9.265                0.922818017      -80.088108
9.266                0.922621565     -80.2243946
9.267                0.922424532     -80.3610518
9.268                0.922226915     -80.4980808
9.269                0.922028716     -80.6354829
9.27                 0.921829932     -80.7732593
9.271                0.921630563      -80.911411
9.272                0.921430607     -81.0499394
9.273                0.921230066     -81.1888455
9.274                0.921028936     -81.3281307
9.275                0.920827218      -81.467796
9.276                0.920624912     -81.6078427
9.277                0.920422015     -81.7482721
9.278                0.920218528     -81.8890852
9.279                0.920014449     -82.0302834
9.28                 0.919809778     -82.1718678
9.281                0.919604515     -82.3138396
9.282                0.919398658     -82.4562001
9.283                0.919192208     -82.5989504
9.284                0.918985162     -82.7420918
9.285                0.918777522     -82.8856255
9.286                0.918569285     -83.0295528
9.287                0.918360452     -83.1738748
9.288                0.918151023     -83.3185928
9.289                0.917940995      -83.463708
9.29                 0.917730369     -83.6092217
9.291                0.917519145      -83.755135
9.292                0.917307321     -83.9014493
9.293                0.917094898     -84.0481657
9.294                0.916881875     -84.1952855
9.295                0.916668251       -84.34281
9.296                0.916454027     -84.4907403
9.297                0.916239201     -84.6390778
9.298                0.916023773     -84.7878237
9.299                0.915807743     -84.9369791
9.3                  0.915591111     -85.0865455
9.301                0.915373876      -85.236524
9.302                0.915156037     -85.3869158
9.303                0.914937596     -85.5377223
9.304                0.914718551     -85.6889447
9.305                0.914498902     -85.8405843
9.306                 0.91427865     -85.9926423
9.307                0.914057793       -86.14512
9.308                0.913836331     -86.2980186
9.309                0.913614265     -86.4513394
9.31                 0.913391595     -86.6050837
9.311                 0.91316832     -86.7592528
9.312                 0.91294444     -86.9138478
9.313                0.912719955     -87.0688702
9.314                0.912494866     -87.2243211
9.315                0.912269171     -87.3802019
9.316                0.912042872     -87.5365138
9.317                0.911815969      -87.693258
9.318                 0.91158846     -87.8504359
9.319                0.911360347     -88.0080488
9.32                  0.91113163     -88.1660979
9.321                0.910902309     -88.3245844
9.322                0.910672384     -88.4835098
9.323                0.910441855     -88.6428752
9.324                0.910210722     -88.8026819
9.325                0.909978986     -88.9629313
9.326                0.909746648     -89.1236246
9.327                0.909513707      -89.284763
9.328                0.909280164      -89.446348
9.329                0.909046019     -89.6083807
9.33                 0.908811273     -89.7708625
9.331                0.908575926     -89.9337946
9.332                0.908339979     -90.0971783
9.333                0.908103432     -90.2610149
9.334                0.907866285     -90.4253057
9.335                0.907628541      -90.590052
9.336                0.907390198     -90.7552551
9.337                0.907151258     -90.9209162
9.338                0.906911722     -91.0870366
9.339                0.906671589     -91.2536177
9.34                 0.906430862     -91.4206607
9.341                 0.90618954     -91.5881669
9.342                0.905947626     -91.7561376
9.343                0.905705118     -91.9245741
9.344                0.905462019     -92.0934776
9.345                 0.90521833     -92.2628495
9.346                 0.90497405      -92.432691
9.347                0.904729183     -92.6030035
9.348                0.904483727     -92.7737881
9.349                0.904237686     -92.9450462
9.35                 0.903991059     -93.1167791
9.351                0.903743848      -93.288988
9.352                0.903496055     -93.4616743
9.353                0.903247679     -93.6348391
9.354                0.902998724     -93.8084839
9.355                 0.90274919     -93.9826098
9.356                0.902499078     -94.1572181
9.357                0.902248391     -94.3323102
9.358                0.901997129     -94.5078872
9.359                0.901745294     -94.6839505
9.36                 0.901492887     -94.8605013
9.361                0.901239911     -95.0375409
9.362                0.900986367     -95.2150706
9.363                0.900732256     -95.3930916
9.364                 0.90047758     -95.5716051
9.365                0.900222342     -95.7506125
9.366                0.899966543     -95.9301151
9.367                0.899710185      -96.110114
9.368                0.899453269     -96.2906105
9.369                0.899195799     -96.4716058
9.37                 0.898937775     -96.6531013
9.371                0.898679201     -96.8350982
9.372                0.898420077     -97.0175976
9.373                0.898160407     -97.2006009
9.374                0.897900192     -97.3841093
9.375                0.897639435      -97.568124
9.376                0.897378139     -97.7526462
9.377                0.897116305     -97.9376773
9.378                0.896853936     -98.1232183
9.379                0.896591035     -98.3092706
9.38                 0.896327604     -98.4958353
9.381                0.896063645     -98.6829137
9.382                0.895799162      -98.870507
9.383                0.895534157     -99.0586163
9.384                0.895268633      -99.247243
9.385                0.895002593     -99.4363881
9.386                0.894736039     -99.6260529
9.387                0.894468975     -99.8162386
9.388                0.894201404     -100.006946
9.389                0.893933328     -100.198177
9.39                 0.893664751     -100.389933
9.391                0.893395677     -100.582214
9.392                0.893126107     -100.775021
9.393                0.892856046     -100.968357
9.394                0.892585496     -101.162222
9.395                0.892314462     -101.356617
9.396                0.892042947     -101.551543
