! TOUCHSTONE file generated by CST DESIGN STUDIO
! Date and time: Tue Feb  4 18:09:20 2025
! Project name: C:\Work\MatlabApps\UnitCellOptimizationMatlab\CST\unitcell.cst
! Tree item: Tasks\Sweep1\SPara1\S-Parameters
! Header version: 2024
! Port assignment regex: !\s*Touchstone port\s*([0-9]+)\s*=\s*(CST MWS port|CST DES external port|CST DES block port)\s*(.+)\s* \(\"(.*)\"\)(\s*mode\s*([0-9]+))?.*
! Touchstone port assignment:
! Touchstone port 1 = CST DES external port 1 ("")
# GHz S MA R 50
9                    0.827132055      -95.407524
9.001                0.826548825     -95.6029107
9.002                0.825964132     -95.7989433
9.003                0.825377978     -95.9956241
9.004                0.824790367     -96.1929556
9.005                0.824201302     -96.3909402
9.006                0.823610786     -96.5895802
9.007                0.823018823      -96.788878
9.008                0.822425417     -96.9888361
9.009                0.821830571     -97.1894569
9.01                  0.82123429     -97.3907428
9.011                0.820636577     -97.5926961
9.012                0.820037437     -97.7953194
9.013                0.819436873      -97.998615
9.014                0.818834892     -98.2025854
9.015                0.818231496     -98.4072329
9.016                0.817626691       -98.61256
9.017                0.817020483     -98.8185692
9.018                0.816412875     -99.0252628
9.019                0.815803874     -99.2326433
9.02                 0.815193484     -99.4407131
9.021                0.814581712     -99.6494747
9.022                0.813968562     -99.8589304
9.023                0.813354042     -100.069083
9.024                0.812738156     -100.279934
9.025                0.812120911     -100.491487
9.026                0.811502313     -100.703743
9.027                 0.81088237     -100.916706
9.028                0.810261087     -101.130378
9.029                0.809638471     -101.344761
9.03                  0.80901453     -101.559858
9.031                0.808389271      -101.77567
9.032                  0.8077627     -101.992201
9.033                0.807134826     -102.209453
9.034                0.806505657     -102.427429
9.035                  0.8058752      -102.64613
9.036                0.805243463     -102.865559
9.037                0.804610455     -103.085719
9.038                0.803976184     -103.306612
9.039                0.803340659      -103.52824
9.04                 0.802703889     -103.750606
9.041                0.802065882     -103.973712
9.042                0.801426649     -104.197561
9.043                0.800786197     -104.422155
9.044                0.800144538     -104.647496
9.045                0.799501681     -104.873587
9.046                0.798857636     -105.100431
9.047                0.798212413     -105.328029
9.048                0.797566023     -105.556384
9.049                0.796918476     -105.785498
9.05                 0.796269784     -106.015374
9.051                0.795619957     -106.246014
9.052                0.794969006     -106.477421
9.053                0.794316944     -106.709596
9.054                0.793663782     -106.942543
9.055                0.793009532     -107.176263
9.056                0.792354206     -107.410759
9.057                0.791697817     -107.646033
9.058                0.791040377     -107.882087
9.059                0.790381899     -108.118924
9.06                 0.789722397     -108.356546
9.061                0.789061883     -108.594956
9.062                0.788400371     -108.834155
9.063                0.787737876     -109.074146
9.064                0.787074411     -109.314931
9.065                 0.78640999     -109.556513
9.066                0.785744628     -109.798893
9.067                0.785078339     -110.042074
9.068                 0.78441114     -110.286058
9.069                0.783743045     -110.530848
9.07                 0.783074069     -110.776445
9.071                0.782404229     -111.022852
9.072                0.781733541      -111.27007
9.073                 0.78106202     -111.518103
9.074                0.780389684     -111.766952
9.075                0.779716549     -112.016619
9.076                0.779042632     -112.267106
9.077                0.778367951     -112.518416
9.078                0.777692523     -112.770551
9.079                0.777016366     -113.023512
9.08                 0.776339499     -113.277302
9.081                0.775661939     -113.531923
9.082                0.774983706     -113.787377
9.083                0.774304818     -114.043665
9.084                0.773625295     -114.300791
9.085                0.772945156     -114.558755
9.086                0.772264421      -114.81756
9.087                 0.77158311     -115.077207
9.088                0.770901244     -115.337699
9.089                0.770218842     -115.599038
9.09                 0.769535927     -115.861224
9.091                0.768852519     -116.124261
9.092                0.768168639     -116.388151
9.093                 0.76748431     -116.652894
9.094                0.766799554     -116.918492
9.095                0.766114392     -117.184948
9.096                0.765428848     -117.452263
9.097                0.764742945     -117.720439
9.098                0.764056706     -117.989478
9.099                0.763370154     -118.259381
9.1                  0.762683313     -118.530149
9.101                0.761996207     -118.801786
9.102                0.761308861     -119.074291
9.103                  0.7606213     -119.347667
9.104                0.759933548     -119.621915
9.105                0.759245632     -119.897037
9.106                0.758557575     -120.173034
9.107                0.757869405     -120.449907
9.108                0.757181148     -120.727659
9.109                 0.75649283      -121.00629
9.11                 0.755804478     -121.285802
9.111                 0.75511612     -121.566196
9.112                0.754427782     -121.847473
9.113                0.753739493     -122.129635
9.114                 0.75305128     -122.412683
9.115                0.752363172     -122.696618
9.116                0.751675197     -122.981442
9.117                0.750987386     -123.267154
9.118                0.750299766     -123.553757
9.119                0.749612367     -123.841252
9.12                  0.74892522     -124.129639
9.121                0.748238354      -124.41892
9.122                0.747551801     -124.709095
9.123                 0.74686559     -125.000166
9.124                0.746179753     -125.292132
9.125                0.745494322     -125.584996
9.126                0.744809328     -125.878758
9.127                0.744124803     -126.173418
9.128                 0.74344078     -126.468977
9.129                 0.74275729     -126.765436
9.13                 0.742074368     -127.062795
9.131                0.741392046     -127.361056
9.132                0.740710358     -127.660218
9.133                0.740029338     -127.960282
9.134                0.739349019     -128.261248
9.135                0.738669437     -128.563117
9.136                0.737990625     -128.865889
9.137                 0.73731262     -129.169565
9.138                0.736635455     -129.474144
9.139                0.735959168     -129.779627
9.14                 0.735283793     -130.086014
9.141                0.734609366     -130.393304
9.142                0.733935925     -130.701499
9.143                0.733263506     -131.010597
9.144                0.732592146       -131.3206
9.145                0.731921882     -131.631506
9.146                0.731252752     -131.943315
9.147                0.730584793     -132.256028
9.148                0.729918043     -132.569643
9.149                0.729252542     -132.884161
9.15                 0.728588327     -133.199581
9.151                0.727925438     -133.515903
9.152                0.727263913     -133.833126
9.153                0.726603791     -134.151249
9.154                0.725945114     -134.470271
9.155                0.725287919     -134.790193
9.156                0.724632248     -135.111013
9.157                0.723978141      -135.43273
9.158                0.723325638     -135.755344
9.159                0.722674781     -136.078852
9.16                  0.72202561     -136.403256
9.161                0.721378166     -136.728552
9.162                0.720732491      -137.05474
9.163                0.720088627     -137.381819
9.164                0.719446615     -137.709787
9.165                0.718806498     -138.038643
9.166                0.718168318     -138.368386
9.167                0.717532118     -138.699014
9.168                 0.71689794     -139.030524
9.169                0.716265827     -139.362917
9.17                 0.715635822     -139.696189
9.171                0.715007969     -140.030339
9.172                 0.71438231     -140.365365
9.173                 0.71375889     -140.701265
9.174                0.713137752     -141.038037
9.175                 0.71251894     -141.375679
9.176                0.711902499     -141.714189
9.177                0.711288471     -142.053564
9.178                0.710676902     -142.393801
9.179                0.710067837       -142.7349
9.18                 0.709461318     -143.076856
9.181                0.708857393     -143.419667
9.182                0.708256104     -143.763331
9.183                0.707657497     -144.107844
9.184                0.707061618     -144.453205
9.185                 0.70646851     -144.799409
9.186                 0.70587822     -145.146454
9.187                0.705290792     -145.494337
9.188                0.704706272     -145.843054
9.189                0.704124705     -146.192603
9.19                 0.703546136      -146.54298
9.191                0.702970612     -146.894181
9.192                0.702398177     -147.246203
9.193                0.701828877     -147.599042
9.194                0.701262758     -147.952694
9.195                0.700699864     -148.307156
9.196                0.700140243     -148.662424
9.197                0.699583939     -149.018494
9.198                0.699030997     -149.375361
9.199                0.698481464     -149.733022
9.2                  0.697935385     -150.091472
9.201                0.697392805     -150.450706
9.202                 0.69685377     -150.810722
9.203                0.696318324     -151.171513
9.204                0.695786514     -151.533075
9.205                0.695258385     -151.895404
9.206                0.694733981     -152.258494
9.207                0.694213347     -152.622341
9.208                 0.69369653      -152.98694
9.209                0.693183573     -153.352286
9.21                 0.692674521     -153.718373
9.211                0.692169418     -154.085196
9.212                 0.69166831      -154.45275
9.213                 0.69117124      -154.82103
9.214                0.690678253     -155.190029
9.215                0.690189392     -155.559743
9.216                0.689704702     -155.930165
9.217                0.689224225     -156.301289
9.218                0.688748006      -156.67311
9.219                0.688276087     -157.045622
9.22                 0.687808511     -157.418818
9.221                0.687345322     -157.792693
9.222                0.686886561      -158.16724
9.223                0.686432271     -158.542452
9.224                0.685982493     -158.918323
9.225                0.685537271     -159.294847
9.226                0.685096644     -159.672017
9.227                0.684660655     -160.049825
9.228                0.684229343     -160.428266
9.229                 0.68380275     -160.807333
9.23                 0.683380916     -161.187017
9.231                 0.68296388     -161.567313
9.232                0.682551682     -161.948213
9.233                0.682144362     -162.329709
9.234                0.681741958     -162.711795
9.235                0.681344509     -163.094463
9.236                0.680952053     -163.477704
9.237                0.680564627     -163.861513
9.238                0.680182269      -164.24588
9.239                0.679805015     -164.630798
9.24                 0.679432903     -165.016259
9.241                0.679065968     -165.402255
9.242                0.678704245     -165.788779
9.243                0.678347771     -166.175821
9.244                0.677996579     -166.563374
9.245                0.677650704     -166.951429
9.246                 0.67731018     -167.339978
9.247                0.676975039     -167.729013
9.248                0.676645316     -168.118525
9.249                0.676321041     -168.508505
9.25                 0.676002246     -168.898944
9.251                0.675688964     -169.289835
9.252                0.675381224     -169.681167
9.253                0.675079057     -170.072932
9.254                0.674782492     -170.465122
9.255                0.674491558     -170.857726
9.256                0.674206284     -171.250736
9.257                0.673926698     -171.644143
9.258                0.673652826     -172.037938
9.259                0.673384697      -172.43211
9.26                 0.673122335     -172.826651
9.261                0.672865767     -173.221551
9.262                0.672615016     -173.616801
9.263                0.672370109      -174.01239
9.264                0.672131067     -174.408311
9.265                0.671897914     -174.804552
9.266                0.671670673     -175.201104
9.267                0.671449366     -175.597957
9.268                0.671234012     -175.995101
9.269                0.671024633     -176.392527
9.27                 0.670821249     -176.790225
9.271                0.670623878     -177.188184
9.272                0.670432539     -177.586394
9.273                0.670247249     -177.984846
9.274                0.670068026     -178.383528
9.275                0.669894885     -178.782432
9.276                0.669727843     -179.181546
9.277                0.669566914     -179.580861
9.278                0.669412113     -179.980367
9.279                0.669263452      179.619948
9.28                 0.669120945      179.220094
9.281                0.668984603       178.82008
9.282                0.668854439      178.419917
9.283                0.668730462      178.019617
9.284                0.668612682      177.619188
9.285                0.668501108      177.218642
9.286                0.668395749       176.81799
9.287                0.668296612      176.417241
9.288                0.668203705      176.016406
9.289                0.668117032      175.615496
9.29                   0.6680366      175.214522
9.291                0.667962413      174.813494
9.292                0.667894475      174.412422
9.293                 0.66783279      174.011318
9.294                0.667777358      173.610192
9.295                0.667728183      173.209054
9.296                0.667685264      172.807915
9.297                0.667648602      172.406786
9.298                0.667618197      172.005678
9.299                0.667594046        171.6046
9.3                  0.667576148      171.203565
9.301                0.667564499      170.802581
9.302                0.667559096      170.401661
9.303                0.667559935      170.000813
9.304                0.667567009       169.60005
9.305                0.667580315      169.199382
9.306                0.667599843      168.798819
9.307                0.667625588      168.398371
9.308                0.667657541       167.99805
9.309                0.667695693      167.597865
9.31                 0.667740034      167.197828
9.311                0.667790554      166.797948
9.312                0.667847242      166.398236
9.313                0.667910086      165.998703
9.314                0.667979073      165.599359
9.315                0.668054191      165.200213
9.316                0.668135424      164.801278
9.317                 0.66822276      164.402561
9.318                0.668316181      164.004075
9.319                0.668415671      163.605829
9.32                 0.668521215      163.207832
9.321                0.668632795      162.810096
9.322                0.668750392      162.412631
9.323                0.668873987      162.015446
9.324                0.669003561      161.618551
9.325                0.669139095      161.221956
9.326                0.669280566      160.825671
9.327                0.669427953      160.429706
9.328                0.669581235       160.03407
9.329                0.669740388      159.638774
9.33                 0.669905389      159.243827
9.331                0.670076214      158.849238
9.332                0.670252838      158.455017
9.333                0.670435236      158.061173
9.334                0.670623382      157.667717
9.335                 0.67081725      157.274656
9.336                0.671016813      156.882001
9.337                0.671222042       156.48976
9.338                 0.67143291      156.097943
9.339                0.671649388      155.706559
9.34                 0.671871446      155.315616
9.341                0.672099055      154.925124
9.342                0.672332184      154.535092
9.343                0.672570802      154.145527
9.344                0.672814878       153.75644
9.345                 0.67306438      153.367838
9.346                0.673319275       152.97973
9.347                0.673579531      152.592125
9.348                0.673845113      152.205031
9.349                0.674115988      151.818455
9.35                 0.674392122      151.432408
9.351                 0.67467348      151.046895
9.352                0.674960026      150.661927
9.353                0.675251725       150.27751
9.354                 0.67554854      149.893652
9.355                0.675850435      149.510362
9.356                0.676157373      149.127646
9.357                0.676469317      148.745513
9.358                0.676786229      148.363971
9.359                0.677108071      147.983026
9.36                 0.677434803      147.602685
9.361                0.677766389      147.222957
9.362                0.678102787      146.843849
9.363                0.678443959      146.465367
9.364                0.678789866      146.087518
9.365                0.679140465       145.71031
9.366                0.679495718      145.333749
9.367                0.679855584      144.957842
9.368                0.680220021      144.582596
9.369                0.680588988      144.208017
9.37                 0.680962443      143.834111
9.371                0.681340345      143.460886
9.372                0.681722652      143.088346
9.373                0.682109321      142.716499
9.374                0.682500309      142.345351
9.375                0.682895575      141.974907
9.376                0.683295075      141.605174
9.377                0.683698765      141.236156
9.378                0.684106603      140.867861
9.379                0.684518544      140.500293
9.38                 0.684934546      140.133459
9.381                0.685354565      139.767362
9.382                0.685778555       139.40201
9.383                0.686206475      139.037406
9.384                0.686638278      138.673557
9.385                0.687073921      138.310467
9.386                0.687513359      137.948142
9.387                0.687956547      137.586585
9.388                0.688403442      137.225802
9.389                0.688853998      136.865798
9.39                  0.68930817      136.506577
9.391                0.689765914      136.148144
9.392                0.690227185      135.790502
9.393                0.690691937      135.433657
9.394                0.691160125      135.077613
9.395                0.691631706      134.722373
9.396                0.692106632      134.367942
