! TOUCHSTONE file generated by CST DESIGN STUDIO
! Date and time: Tue Feb  4 18:09:17 2025
! Project name: C:\Work\MatlabApps\UnitCellOptimizationMatlab\CST\unitcell.cst
! Tree item: Tasks\Sweep1\SPara1\S-Parameters
! Header version: 2024
! Port assignment regex: !\s*Touchstone port\s*([0-9]+)\s*=\s*(CST MWS port|CST DES external port|CST DES block port)\s*(.+)\s* \(\"(.*)\"\)(\s*mode\s*([0-9]+))?.*
! Touchstone port assignment:
! Touchstone port 1 = CST DES external port 1 ("")
# GHz S MA R 50
9                    0.740694998      -130.63549
9.001                0.739919774     -130.955127
9.002                0.739145526     -131.275728
9.003                  0.7383723     -131.597291
9.004                 0.73760014     -131.919818
9.005                0.736829091     -132.243306
9.006                0.736059197     -132.567758
9.007                0.735290506     -132.893172
9.008                0.734523061     -133.219548
9.009                0.733756911     -133.546887
9.01                 0.732992101     -133.875186
9.011                0.732228677     -134.204447
9.012                0.731466688     -134.534668
9.013                0.730706181      -134.86585
9.014                0.729947203      -135.19799
9.015                0.729189803      -135.53109
9.016                0.728434028     -135.865147
9.017                0.727679928     -136.200161
9.018                0.726927552      -136.53613
9.019                0.726176948     -136.873055
9.02                 0.725428166     -137.210934
9.021                0.724681256     -137.549765
9.022                0.723936268     -137.889548
9.023                0.723193253     -138.230281
9.024                 0.72245226     -138.571963
9.025                0.721713341     -138.914591
9.026                0.720976546     -139.258166
9.027                0.720241928     -139.602684
9.028                0.719509536     -139.948145
9.029                0.718779424     -140.294546
9.03                 0.718051643     -140.641886
9.031                0.717326245     -140.990162
9.032                0.716603283     -141.339373
9.033                0.715882808     -141.689516
9.034                0.715164875     -142.040589
9.035                0.714449535      -142.39259
9.036                0.713736842     -142.745516
9.037                0.713026849     -143.099365
9.038                 0.71231961     -143.454134
9.039                0.711615178      -143.80982
9.04                 0.710913606     -144.166421
9.041                0.710214949     -144.523935
9.042                0.709519261     -144.882356
9.043                0.708826595     -145.241684
9.044                0.708137006     -145.601914
9.045                0.707450548     -145.963043
9.046                0.706767276     -146.325069
9.047                0.706087243     -146.687986
9.048                0.705410505     -147.051793
9.049                0.704737116     -147.416485
9.05                  0.70406713     -147.782058
9.051                0.703400603     -148.148509
9.052                0.702737589     -148.515834
9.053                0.702078143     -148.884028
9.054                0.701422319     -149.253087
9.055                0.700770172     -149.623007
9.056                0.700121757     -149.993785
9.057                0.699477129     -150.365414
9.058                0.698836342     -150.737891
9.059                0.698199452     -151.111211
9.06                 0.697566511     -151.485369
9.061                0.696937576      -151.86036
9.062                  0.6963127      -152.23618
9.063                0.695691938     -152.612823
9.064                0.695075344     -152.990283
9.065                0.694462973     -153.368556
9.066                0.693854877     -153.747636
9.067                0.693251112     -154.127518
9.068                0.692651731     -154.508195
9.069                0.692056787     -154.889663
9.07                 0.691466334     -155.271915
9.071                0.690880425     -155.654945
9.072                0.690299113     -156.038747
9.073                0.689722451     -156.423315
9.074                0.689150492     -156.808643
9.075                0.688583288     -157.194724
9.076                 0.68802089     -157.581551
9.077                0.687463352     -157.969119
9.078                0.686910725      -158.35742
9.079                0.686363059     -158.746447
9.08                 0.685820406     -159.136194
9.081                0.685282817     -159.526653
9.082                0.684750342     -159.917817
9.083                0.684223032     -160.309679
9.084                0.683700935     -160.702232
9.085                0.683184102     -161.095468
9.086                0.682672581     -161.489378
9.087                0.682166421     -161.883957
9.088                 0.68166567     -162.279195
9.089                0.681170376     -162.675085
9.09                 0.680680586     -163.071619
9.091                0.680196348     -163.468789
9.092                0.679717708     -163.866586
9.093                0.679244712     -164.265002
9.094                0.678777405     -164.664029
9.095                0.678315833     -165.063657
9.096                0.677860041     -165.463879
9.097                0.677410071     -165.864686
9.098                0.676965969     -166.266069
9.099                0.676527777     -166.668018
9.1                  0.676095537     -167.070525
9.101                0.675669291      -167.47358
9.102                0.675249082     -167.877175
9.103                0.674834949       -168.2813
9.104                0.674426932     -168.685945
9.105                0.674025072     -169.091101
9.106                0.673629408     -169.496759
9.107                0.673239977     -169.902908
9.108                0.672856817     -170.309539
9.109                0.672479966     -170.716642
9.11                 0.672109459     -171.124207
9.111                0.671745333     -171.532224
9.112                0.671387623     -171.940683
9.113                0.671036362     -172.349573
9.114                0.670691585     -172.758884
9.115                0.670353324     -173.168607
9.116                0.670021612     -173.578729
9.117                 0.66969648     -173.989241
9.118                0.669377958     -174.400133
9.119                0.669066077     -174.811393
9.12                 0.668760866     -175.223011
9.121                0.668462353     -175.634976
9.122                0.668170566     -176.047276
9.123                0.667885532     -176.459902
9.124                0.667607276     -176.872842
9.125                0.667335825     -177.286084
9.126                0.667071202     -177.699619
9.127                 0.66681343     -178.113433
9.128                0.666562534     -178.527518
9.129                0.666318534      -178.94186
9.13                 0.666081452     -179.356449
9.131                0.665851307     -179.771272
9.132                0.665628121       179.81368
9.133                 0.66541191       179.39842
9.134                0.665202692       178.98296
9.135                0.665000485      178.567311
9.136                0.664805304      178.151484
9.137                0.664617164      177.735492
9.138                0.664436079      177.319345
9.139                0.664262063      176.903057
9.14                 0.664095127      176.486638
9.141                0.663935284        176.0701
9.142                0.663782543      175.653456
9.143                0.663636915      175.236717
9.144                0.663498408      174.819895
9.145                0.663367029      174.403001
9.146                0.663242786      173.986049
9.147                0.663125685      173.569049
9.148                 0.66301573      173.152013
9.149                0.662912926      172.734955
9.15                 0.662817276      172.317885
9.151                0.662728783      171.900815
9.152                0.662647446      171.483758
9.153                0.662573268      171.066725
9.154                0.662506247      170.649729
9.155                0.662446381      170.232781
9.156                 0.66239367      169.815894
9.157                0.662348109      169.399079
9.158                0.662309694      168.982348
9.159                 0.66227842      168.565713
9.16                 0.662254281      168.149187
9.161                 0.66223727       167.73278
9.162                0.662227379      167.316506
9.163                  0.6622246      166.900375
9.164                0.662228922      166.484399
9.165                0.662240336      166.068591
9.166                0.662258829      165.652962
9.167                 0.66228439      165.237523
9.168                0.662317005      164.822287
9.169                0.662356661      164.407266
9.17                 0.662403341       163.99247
9.171                0.662457031      163.577911
9.172                0.662517713      163.163601
9.173                 0.66258537      162.749552
9.174                0.662659984      162.335774
9.175                0.662741534       161.92228
9.176                0.662830002       161.50908
9.177                0.662925366      161.096186
9.178                0.663027605       160.68361
9.179                0.663136695      160.271361
9.18                 0.663252613      159.859452
9.181                0.663375336      159.447893
9.182                0.663504837      159.036696
9.183                0.663641092      158.625871
9.184                0.663784074      158.215429
9.185                0.663933755      157.805381
9.186                0.664090107      157.395738
9.187                0.664253102       156.98651
9.188                 0.66442271      156.577708
9.189                  0.6645989      156.169342
9.19                 0.664781642      155.761424
9.191                0.664970903      155.353962
9.192                0.665166652      154.946968
9.193                0.665368855      154.540451
9.194                0.665577478      154.134423
9.195                0.665792487      153.728891
9.196                0.666013847      153.323868
9.197                0.666241522      152.919362
9.198                0.666475475      152.515382
9.199                 0.66671567       152.11194
9.2                  0.666962069      151.709044
9.201                0.667214633      151.306704
9.202                0.667473324      150.904929
9.203                0.667738102      150.503729
9.204                0.668008927      150.103112
9.205                 0.66828576      149.703088
9.206                0.668568558      149.303666
9.207                 0.66885728      148.904854
9.208                0.669151884      148.506662
9.209                0.669452328      148.109097
9.21                 0.669758567      147.712169
9.211                 0.67007056      147.315887
9.212                0.670388261      146.920257
9.213                0.670711626       146.52529
9.214                 0.67104061      146.130992
9.215                0.671375168      145.737372
9.216                0.671715255      145.344438
9.217                0.672060822      144.952198
9.218                0.672411825      144.560659
9.219                0.672768216      144.169829
9.22                 0.673129949      143.779715
9.221                0.673496974      143.390326
9.222                0.673869244      143.001668
9.223                0.674246712      142.613748
9.224                0.674629327      142.226574
9.225                0.675017042      141.840152
9.226                0.675409806       141.45449
9.227                0.675807571      141.069593
9.228                0.676210287       140.68547
9.229                0.676617903      140.302125
9.23                 0.677030369      139.919566
9.231                0.677447636      139.537799
9.232                0.677869651       139.15683
9.233                0.678296364      138.776665
9.234                0.678727725      138.397311
9.235                0.679163681      138.018772
9.236                0.679604181      137.641055
9.237                0.680049174      137.264166
9.238                0.680498607      136.888109
9.239                 0.68095243      136.512891
9.24                 0.681410589      136.138516
9.241                0.681873034       135.76499
9.242                0.682339711      135.392318
9.243                0.682810568      135.020504
9.244                0.683285553      134.649555
9.245                0.683764613      134.279474
9.246                0.684247696      133.910266
9.247                 0.68473475      133.541935
9.248                0.685225722      133.174487
9.249                0.685720558      132.807925
9.25                 0.686219208      132.442254
9.251                0.686721617      132.077477
9.252                0.687227734      131.713599
9.253                0.687737506      131.350624
9.254                0.688250879      130.988556
9.255                0.688767803      130.627397
9.256                0.689288224      130.267152
9.257                 0.68981209      129.907825
9.258                0.690339349      129.549418
9.259                0.690869948      129.191935
9.26                 0.691403836       128.83538
9.261                0.691940959      128.479754
9.262                0.692481267      128.125062
9.263                0.693024707      127.771306
9.264                0.693571227      127.418489
9.265                0.694120777      127.066613
9.266                0.694673304      126.715682
9.267                0.695228758      126.365698
9.268                0.695787086      126.016662
9.269                0.696348238      125.668579
9.27                 0.696912164      125.321449
9.271                0.697478812      124.975275
9.272                0.698048133      124.630059
9.273                0.698620075      124.285803
9.274                0.699194588      123.942509
9.275                0.699771624      123.600178
9.276                0.700351132      123.258813
9.277                0.700933062      122.918415
9.278                0.701517366      122.578986
9.279                0.702103994      122.240526
9.28                 0.702692897      121.903038
9.281                0.703284028      121.566522
9.282                0.703877337       121.23098
9.283                0.704472777      120.896414
9.284                  0.7050703      120.562823
9.285                0.705669859      120.230209
9.286                0.706271406      119.898573
9.287                0.706874893      119.567916
9.288                0.707480275      119.238238
9.289                0.708087506      118.909541
9.29                 0.708696538      118.581824
9.291                0.709307326      118.255089
9.292                0.709919824      117.929335
9.293                0.710533988      117.604563
9.294                0.711149771      117.280774
9.295                 0.71176713      116.957967
9.296                0.712386021      116.636143
9.297                0.713006398      116.315302
9.298                0.713628219      115.995444
9.299                 0.71425144       115.67657
9.3                  0.714876018      115.358678
9.301                 0.71550191      115.041768
9.302                0.716129074      114.725842
9.303                0.716757467      114.410897
9.304                0.717387048      114.096934
9.305                0.718017775      113.783953
9.306                0.718649608      113.471953
9.307                0.719282505      113.160934
9.308                0.719916427      112.850895
9.309                0.720551332      112.541835
9.31                 0.721187182      112.233754
9.311                0.721823936      111.926651
9.312                0.722461556      111.620525
9.313                0.723100004      111.315375
9.314                 0.72373924      111.011202
9.315                0.724379227      110.708002
9.316                0.725019927      110.405777
9.317                0.725661303      110.104524
9.318                0.726303318      109.804242
9.319                0.726945935      109.504931
9.32                 0.727589118      109.206589
9.321                0.728232832      108.909215
9.322                 0.72887704      108.612808
9.323                0.729521709      108.317367
9.324                0.730166801      108.022889
9.325                0.730812285      107.729375
9.326                0.731458124      107.436821
9.327                0.732104287      107.145228
9.328                0.732750738      106.854593
9.329                0.733397446      106.564914
9.33                 0.734044377      106.276191
9.331                  0.7346915      105.988422
9.332                0.735338782      105.701604
9.333                0.735986192      105.415737
9.334                0.736633699      105.130819
9.335                0.737281271      104.846847
9.336                0.737928879       104.56382
9.337                0.738576492      104.281736
9.338                 0.73922408      104.000594
9.339                0.739871614      103.720391
9.34                 0.740519065      103.441126
9.341                0.741166404      103.162796
9.342                0.741813603        102.8854
9.343                0.742460633      102.608936
9.344                0.743107468      102.333401
9.345                0.743754079      102.058793
9.346                0.744400439      101.785111
9.347                0.745046523      101.512353
9.348                0.745692303      101.240515
9.349                0.746337754      100.969597
9.35                 0.746982851      100.699595
9.351                0.747627567      100.430509
9.352                0.748271877      100.162334
9.353                0.748915759      99.8950698
9.354                0.749559186      99.6287134
9.355                0.750202135      99.3632626
9.356                0.750844582      99.0987151
9.357                0.751486505      98.8350685
9.358                 0.75212788      98.5723205
9.359                0.752768684      98.3104688
9.36                 0.753408896      98.0495109
9.361                0.754048493      97.7894444
9.362                0.754687453       97.530267
9.363                0.755325756      97.2719761
9.364                0.755963379      97.0145693
9.365                0.756600303      96.7580442
9.366                0.757236507      96.5023982
9.367                0.757871972      96.2476288
9.368                0.758506676      95.9937336
9.369                  0.7591406        95.74071
9.37                 0.759773727      95.4885554
9.371                0.760406035      95.2372674
9.372                0.761037508      94.9868433
9.373                0.761668126      94.7372805
9.374                0.762297872      94.4885765
9.375                0.762926728      94.2407287
9.376                0.763554677      93.9937344
9.377                0.764181701       93.747591
9.378                0.764807783       93.502296
9.379                0.765432908      93.2578465
9.38                 0.766057058      93.0142401
9.381                0.766680218       92.771474
9.382                0.767302372      92.5295456
9.383                0.767923504      92.2884522
9.384                  0.7685436      92.0481911
9.385                0.769162645      91.8087597
9.386                0.769780623      91.5701551
9.387                0.770397521      91.3323748
9.388                0.771013324       91.095416
9.389                0.771628018       90.859276
9.39                 0.772241591      90.6239521
9.391                0.772854028      90.3894416
9.392                0.773465317      90.1557417
9.393                0.774075444      89.9228496
9.394                0.774684397      89.6907628
9.395                0.775292164      89.4594783
9.396                0.775898733      89.2289935
