! TOUCHSTONE file generated by CST DESIGN STUDIO
! Date and time: Tue Feb  4 18:09:22 2025
! Project name: C:\Work\MatlabApps\UnitCellOptimizationMatlab\CST\unitcell.cst
! Tree item: Tasks\Sweep1\SPara1\S-Parameters
! Header version: 2024
! Port assignment regex: !\s*Touchstone port\s*([0-9]+)\s*=\s*(CST MWS port|CST DES external port|CST DES block port)\s*(.+)\s* \(\"(.*)\"\)(\s*mode\s*([0-9]+))?.*
! Touchstone port assignment:
! Touchstone port 1 = CST DES external port 1 ("")
# GHz S MA R 50
9                    0.864007573     -82.2418912
9.001                0.863572394     -82.3925446
9.002                0.863135924     -82.5436713
9.003                0.862698162     -82.6952731
9.004                0.862259103     -82.8473521
9.005                0.861818747     -82.9999099
9.006                0.861377089     -83.1529486
9.007                0.860934128     -83.3064701
9.008                 0.86048986     -83.4604762
9.009                0.860044284     -83.6149688
9.01                 0.859597396       -83.76995
9.011                0.859149195     -83.9254216
9.012                0.858699678     -84.0813855
9.013                0.858248841     -84.2378437
9.014                0.857796684     -84.3947981
9.015                0.857343204     -84.5522508
9.016                0.856888398     -84.7102036
9.017                0.856432264     -84.8686584
9.018                  0.8559748     -85.0276174
9.019                0.855516004     -85.1870824
9.02                 0.855055873     -85.3470555
9.021                0.854594406     -85.5075386
9.022                0.854131601     -85.6685337
9.023                0.853667455     -85.8300428
9.024                0.853201966      -85.992068
9.025                0.852735133     -86.1546112
9.026                0.852266954     -86.3176744
9.027                0.851797427     -86.4812598
9.028                 0.85132655     -86.6453692
9.029                0.850854322     -86.8100048
9.03                  0.85038074     -86.9751686
9.031                0.849905804     -87.1408626
9.032                0.849429512     -87.3070889
9.033                0.848951861     -87.4738495
9.034                0.848472852     -87.6411466
9.035                0.847992482     -87.8089821
9.036                 0.84751075     -87.9773582
9.037                0.847027655     -88.1462769
9.038                0.846543196     -88.3157403
9.039                0.846057371     -88.4857505
9.04                 0.845570179     -88.6563096
9.041                 0.84508162     -88.8274198
9.042                0.844591693      -88.999083
9.043                0.844100396     -89.1713015
9.044                0.843607728     -89.3440773
9.045                 0.84311369     -89.5174125
9.046                 0.84261828     -89.6913094
9.047                0.842121498       -89.86577
9.048                0.841623343     -90.0407965
9.049                0.841123814     -90.2163909
9.05                 0.840622912     -90.3925555
9.051                0.840120636     -90.5692924
9.052                0.839616986     -90.7466038
9.053                0.839111961     -90.9244918
9.054                0.838605561     -91.1029586
9.055                0.838097787     -91.2820063
9.056                0.837588638     -91.4616372
9.057                0.837078115     -91.6418534
9.058                0.836566218     -91.8226571
9.059                0.836052948     -92.0040505
9.06                 0.835538303     -92.1860357
9.061                0.835022286     -92.3686151
9.062                0.834504897     -92.5517907
9.063                0.833986135     -92.7355647
9.064                0.833466003     -92.9199395
9.065                0.832944501     -93.1049172
9.066                 0.83242163        -93.2905
9.067                 0.83189739     -93.4766901
9.068                0.831371784     -93.6634898
9.069                0.830844812     -93.8509013
9.07                 0.830316476     -94.0389268
9.071                0.829786776     -94.2275685
9.072                0.829255715     -94.4168287
9.073                0.828723295     -94.6067097
9.074                0.828189516     -94.7972136
9.075                0.827654381     -94.9883428
9.076                0.827117892     -95.1800994
9.077                0.826580051     -95.3724857
9.078                 0.82604086      -95.565504
9.079                0.825500321     -95.7591565
9.08                 0.824958437     -95.9534455
9.081                 0.82441521     -96.1483732
9.082                0.823870643     -96.3439419
9.083                0.823324739     -96.5401539
9.084                  0.8227775     -96.7370115
9.085                0.822228929     -96.9345168
9.086                 0.82167903     -97.1326723
9.087                0.821127806       -97.33148
9.088                0.820575261     -97.5309424
9.089                0.820021397     -97.7310617
9.09                 0.819466218     -97.9318401
9.091                0.818909728       -98.13328
9.092                0.818351932     -98.3353837
9.093                0.817792833     -98.5381533
9.094                0.817232434     -98.7415912
9.095                0.816670742     -98.9456996
9.096                0.816107759     -99.1504809
9.097                0.815543491     -99.3559373
9.098                0.814977942     -99.5620711
9.099                0.814411117     -99.7688846
9.1                  0.813843021       -99.97638
9.101                 0.81327366      -100.18456
9.102                0.812703038     -100.393426
9.103                0.812131161     -100.602981
9.104                0.811558035     -100.813227
9.105                0.810983666     -101.024166
9.106                0.810408059     -101.235801
9.107                 0.80983122     -101.448134
9.108                0.809253157     -101.661167
9.109                0.808673874     -101.874902
9.11                 0.808093379     -102.089342
9.111                0.807511679     -102.304489
9.112                 0.80692878     -102.520345
9.113                 0.80634469     -102.736912
9.114                0.805759415     -102.954194
9.115                0.805172964     -103.172191
9.116                0.804585343     -103.390906
9.117                0.803996561     -103.610342
9.118                0.803406625     -103.830501
9.119                0.802815544     -104.051384
9.12                 0.802223326     -104.272994
9.121                 0.80162998     -104.495334
9.122                0.801035513     -104.718406
9.123                0.800439935     -104.942211
9.124                0.799843256     -105.166753
9.125                0.799245484     -105.392032
9.126                0.798646628     -105.618052
9.127                0.798046699     -105.844815
9.128                0.797445706     -106.072322
9.129                0.796843659     -106.300576
9.13                 0.796240569      -106.52958
9.131                0.795636446     -106.759335
9.132                  0.7950313     -106.989843
9.133                0.794425142     -107.221107
9.134                0.793817984     -107.453128
9.135                0.793209837      -107.68591
9.136                0.792600712     -107.919454
9.137                 0.79199062     -108.153761
9.138                0.791379575     -108.388835
9.139                0.790767587     -108.624678
9.14                 0.790154669      -108.86129
9.141                0.789540834     -109.098676
9.142                0.788926095     -109.336836
9.143                0.788310463     -109.575772
9.144                0.787693954     -109.815487
9.145                 0.78707658     -110.055983
9.146                0.786458354     -110.297262
9.147                0.785839292     -110.539325
9.148                0.785219406     -110.782175
9.149                0.784598711     -111.025814
9.15                 0.783977222     -111.270244
9.151                0.783354954     -111.515466
9.152                0.782731921     -111.761483
9.153                 0.78210814     -112.008296
9.154                0.781483625     -112.255908
9.155                0.780858392      -112.50432
9.156                0.780232458     -112.753535
9.157                0.779605838     -113.003553
9.158                 0.77897855     -113.254378
9.159                0.778350609      -113.50601
9.16                 0.777722034     -113.758452
9.161                0.777092841     -114.011705
9.162                0.776463047     -114.265772
9.163                0.775832672     -114.520653
9.164                0.775201732     -114.776351
9.165                0.774570246     -115.032868
9.166                0.773938232     -115.290204
9.167                 0.77330571     -115.548363
9.168                0.772672699     -115.807345
9.169                0.772039217     -116.067152
9.17                 0.771405284     -116.327786
9.171                0.770770921     -116.589248
9.172                0.770136147     -116.851541
9.173                0.769500983     -117.114665
9.174                0.768865449     -117.378621
9.175                0.768229567     -117.643413
9.176                0.767593357      -117.90904
9.177                0.766956842     -118.175505
9.178                0.766320042     -118.442809
9.179                 0.76568298     -118.710953
9.18                 0.765045678     -118.979939
9.181                0.764408159     -119.249768
9.182                0.763770445     -119.520441
9.183                 0.76313256      -119.79196
9.184                0.762494527     -120.064326
9.185                0.761856369     -120.337541
9.186                0.761218112     -120.611604
9.187                0.760579778     -120.886519
9.188                0.759941392     -121.162285
9.189                0.759302979     -121.438904
9.19                 0.758664565     -121.716377
9.191                0.758026174     -121.994706
9.192                0.757387832      -122.27389
9.193                0.756749565     -122.553931
9.194                  0.7561114     -122.834831
9.195                0.755473362     -123.116589
9.196                0.754835478     -123.399208
9.197                0.754197775     -123.682687
9.198                0.753560281     -123.967027
9.199                0.752923024      -124.25223
9.2                   0.75228603     -124.538296
9.201                0.751649328     -124.825226
9.202                0.751012947     -125.113021
9.203                0.750376915      -125.40168
9.204                0.749741261     -125.691205
9.205                0.749106014     -125.981596
9.206                0.748471204     -126.272854
9.207                0.747836861     -126.564979
9.208                0.747203014     -126.857972
9.209                0.746569694     -127.151833
9.21                 0.745936932     -127.446562
9.211                0.745304758      -127.74216
9.212                0.744673203     -128.038627
9.213                  0.7440423     -128.335963
9.214                0.743412079     -128.634168
9.215                0.742782572     -128.933242
9.216                0.742153812     -129.233186
9.217                0.741525831     -129.533999
9.218                0.740898662     -129.835682
9.219                0.740272337     -130.138234
9.22                 0.739646891     -130.441655
9.221                0.739022356     -130.745945
9.222                0.738398766     -131.051104
9.223                0.737776155     -131.357132
9.224                0.737154558     -131.664027
9.225                0.736534008     -131.971791
9.226                0.735914542     -132.280421
9.227                0.735296192     -132.589919
9.228                0.734678996     -132.900282
9.229                0.734062987     -133.211512
9.23                 0.733448203     -133.523606
9.231                0.732834678     -133.836565
9.232                0.732222449     -134.150387
9.233                0.731611552     -134.465071
9.234                0.731002024     -134.780617
9.235                0.730393901     -135.097025
9.236                0.729787221     -135.414291
9.237                0.729182021     -135.732417
9.238                0.728578338       -136.0514
9.239                 0.72797621     -136.371239
9.24                 0.727375675     -136.691933
9.241                 0.72677677     -137.013481
9.242                0.726179534     -137.335882
9.243                0.725584005     -137.659133
9.244                0.724990223     -137.983233
9.245                0.724398224     -138.308181
9.246                 0.72380805     -138.633975
9.247                0.723219738     -138.960614
9.248                0.722633328     -139.288094
9.249                 0.72204886     -139.616416
9.25                 0.721466372     -139.945576
9.251                0.720885905     -140.275573
9.252                0.720307499     -140.606405
9.253                0.719731193     -140.938069
9.254                0.719157029     -141.270563
9.255                0.718585045     -141.603885
9.256                0.718015283     -141.938033
9.257                0.717447783     -142.273004
9.258                0.716882586     -142.608796
9.259                0.716319732     -142.945405
9.26                 0.715759263      -143.28283
9.261                0.715201218     -143.621068
9.262                0.714645641     -143.960116
9.263                0.714092571      -144.29997
9.264                0.713542049     -144.640629
9.265                0.712994118     -144.982088
9.266                0.712448818     -145.324346
9.267                0.711906191     -145.667398
9.268                0.711366278     -146.011241
9.269                0.710829121     -146.355872
9.27                 0.710294761     -146.701288
9.271                 0.70976324     -147.047485
9.272                0.709234599      -147.39446
9.273                0.708708881     -147.742208
9.274                0.708186126     -148.090726
9.275                0.707666377      -148.44001
9.276                0.707149674     -148.790057
9.277                 0.70663606     -149.140862
9.278                0.706125576     -149.492421
9.279                0.705618264      -149.84473
9.28                 0.705114165     -150.197785
9.281                0.704613321     -150.551581
9.282                0.704115773     -150.906114
9.283                0.703621562      -151.26138
9.284                 0.70313073     -151.617374
9.285                0.702643318      -151.97409
9.286                0.702159367     -152.331526
9.287                0.701678918     -152.689675
9.288                0.701202013     -153.048533
9.289                0.700728691     -153.408094
9.29                 0.700258994     -153.768355
9.291                0.699792962     -154.129309
9.292                0.699330636     -154.490951
9.293                0.698872056     -154.853276
9.294                0.698417262     -155.216278
9.295                0.697966294     -155.579952
9.296                0.697519192     -155.944293
9.297                0.697075996     -156.309295
9.298                0.696636744     -156.674951
9.299                0.696201478     -157.041257
9.3                  0.695770234     -157.408205
9.301                0.695343053     -157.775791
9.302                0.694919973     -158.144008
9.303                0.694501031      -158.51285
9.304                0.694086268      -158.88231
9.305                0.693675719     -159.252383
9.306                0.693269424     -159.623062
9.307                0.692867419      -159.99434
9.308                0.692469741      -160.36621
9.309                0.692076428     -160.738667
9.31                 0.691687515     -161.111704
9.311                 0.69130304     -161.485312
9.312                0.690923037     -161.859487
9.313                0.690547543      -162.23422
9.314                0.690176592     -162.609504
9.315                 0.68981022     -162.985333
9.316                0.689448462     -163.361699
9.317                 0.68909135     -163.738595
9.318                 0.68873892     -164.116014
9.319                0.688391205     -164.493948
9.32                 0.688048238     -164.872389
9.321                0.687710051      -165.25133
9.322                0.687376677     -165.630763
9.323                0.687048147     -166.010681
9.324                0.686724494     -166.391076
9.325                0.686405748     -166.771939
9.326                 0.68609194     -167.153263
9.327                  0.6857831     -167.535041
9.328                0.685479258     -167.917262
9.329                0.685180442     -168.299921
9.33                 0.684886683     -168.683007
9.331                0.684598008     -169.066514
9.332                0.684314444     -169.450432
9.333                 0.68403602     -169.834754
9.334                0.683762763      -170.21947
9.335                0.683494697     -170.604572
9.336                 0.68323185     -170.990052
9.337                0.682974247     -171.375901
9.338                0.682721913      -171.76211
9.339                0.682474871      -172.14867
9.34                 0.682233146     -172.535573
9.341                 0.68199676     -172.922809
9.342                0.681765737      -173.31037
9.343                0.681540099     -173.698247
9.344                0.681319866      -174.08643
9.345                 0.68110506     -174.474911
9.346                0.680895701      -174.86368
9.347                0.680691809     -175.252728
9.348                0.680493404     -175.642047
9.349                0.680300503     -176.031625
9.35                 0.680113125     -176.421455
9.351                0.679931287     -176.811527
9.352                0.679755006     -177.201831
9.353                0.679584298     -177.592358
9.354                0.679419179     -177.983099
9.355                0.679259663     -178.374044
9.356                0.679105765     -178.765183
9.357                0.678957498     -179.156506
9.358                0.678814876     -179.548005
9.359                 0.67867791      -179.93967
9.36                 0.678546613       179.66851
9.361                0.678420996      179.276543
9.362                0.678301069       178.88444
9.363                0.678186841      178.492211
9.364                0.678078323      178.099865
9.365                0.677975521      177.707411
9.366                0.677878445      177.314861
9.367                0.677787102      176.922223
9.368                0.677701497      176.529507
9.369                0.677621636      176.136724
9.37                 0.677547525      175.743883
9.371                0.677479169      175.350995
9.372                 0.67741657      174.958068
9.373                0.677359732      174.565113
9.374                0.677308658       174.17214
9.375                0.677263349      173.779159
9.376                0.677223806      173.386179
9.377                 0.67719003      172.993211
9.378                 0.67716202      172.600265
9.379                0.677139776      172.207349
9.38                 0.677123295      171.814476
9.381                0.677112576      171.421653
9.382                0.677107616      171.028891
9.383                0.677108411      170.636201
9.384                0.677114956      170.243591
9.385                0.677127247      169.851072
9.386                0.677145277      169.458653
9.387                0.677169042      169.066345
9.388                0.677198533      168.674157
9.389                0.677233743      168.282099
9.39                 0.677274664      167.890181
9.391                0.677321287      167.498412
9.392                0.677373602      167.106802
9.393                0.677431598      166.715362
9.394                0.677495266        166.3241
9.395                0.677564593      165.933026
9.396                0.677639568      165.542149
