! TOUCHSTONE file generated by CST DESIGN STUDIO
! Date and time: Tue Feb  4 18:09:34 2025
! Project name: C:\Work\MatlabApps\UnitCellOptimizationMatlab\CST\unitcell.cst
! Tree item: Tasks\Sweep1\SPara1\S-Parameters
! Header version: 2024
! Port assignment regex: !\s*Touchstone port\s*([0-9]+)\s*=\s*(CST MWS port|CST DES external port|CST DES block port)\s*(.+)\s* \(\"(.*)\"\)(\s*mode\s*([0-9]+))?.*
! Touchstone port assignment:
! Touchstone port 1 = CST DES external port 1 ("")
# GHz S MA R 50
9                    0.968895897      -39.309287
9.001                0.968862042       -39.35307
9.002                0.968828064     -39.3969338
9.003                0.968793962     -39.4408787
9.004                0.968759735     -39.4849049
9.005                0.968725384     -39.5290126
9.006                0.968690907     -39.5732021
9.007                0.968656304     -39.6174735
9.008                0.968621575     -39.6618272
9.009                0.968586719     -39.7062632
9.01                 0.968551735      -39.750782
9.011                0.968516624     -39.7953837
9.012                0.968481384     -39.8400685
9.013                0.968446016     -39.8848367
9.014                0.968410517     -39.9296884
9.015                0.968374889      -39.974624
9.016                0.968339131     -40.0196437
9.017                0.968303241     -40.0647477
9.018                 0.96826722     -40.1099363
9.019                0.968231067     -40.1552096
9.02                 0.968194782     -40.2005679
9.021                0.968158363     -40.2460115
9.022                0.968121811     -40.2915406
9.023                0.968085124     -40.3371555
9.024                0.968048303     -40.3828563
9.025                0.968011347     -40.4286434
9.026                0.967974255     -40.4745169
9.027                0.967937027     -40.5204772
9.028                0.967899661     -40.5665244
9.029                0.967862159     -40.6126589
9.03                 0.967824518     -40.6588808
9.031                0.967786739     -40.7051904
9.032                0.967748821     -40.7515879
9.033                0.967710763     -40.7980737
9.034                0.967672565     -40.8446479
9.035                0.967634226     -40.8913109
9.036                0.967595746     -40.9380628
9.037                0.967557124     -40.9849039
9.038                 0.96751836     -41.0318344
9.039                0.967479453     -41.0788548
9.04                 0.967440401      -41.125965
9.041                0.967401206     -41.1731656
9.042                0.967361866     -41.2204566
9.043                0.967322381     -41.2678384
9.044                0.967282749     -41.3153112
9.045                0.967242971     -41.3628753
9.046                0.967203046     -41.4105309
9.047                0.967162973     -41.4582783
9.048                0.967122752     -41.5061178
9.049                0.967082382     -41.5540496
9.05                 0.967041862     -41.6020741
9.051                0.967001192     -41.6501913
9.052                0.966960371     -41.6984018
9.053                0.966919399     -41.7467056
9.054                0.966878275     -41.7951031
9.055                0.966836998     -41.8435945
9.056                0.966795568     -41.8921801
9.057                0.966753984     -41.9408603
9.058                0.966712245     -41.9896352
9.059                0.966670352     -42.0385051
9.06                 0.966628302     -42.0874703
9.061                0.966586096     -42.1365311
9.062                0.966543733     -42.1856878
9.063                0.966501212     -42.2349406
9.064                0.966458533     -42.2842899
9.065                0.966415695     -42.3337358
9.066                0.966372697     -42.3832787
9.067                0.966329539     -42.4329189
9.068                 0.96628622     -42.4826567
9.069                0.966242739     -42.5324922
9.07                 0.966199095     -42.5824259
9.071                0.966155289      -42.632458
9.072                0.966111319     -42.6825888
9.073                0.966067185     -42.7328186
9.074                0.966022885     -42.7831476
9.075                 0.96597842     -42.8335762
9.076                0.965933789     -42.8841047
9.077                 0.96588899     -42.9347333
9.078                0.965844024     -42.9854623
9.079                0.965798889     -43.0362921
9.08                 0.965753585     -43.0872229
9.081                0.965708111     -43.1382551
9.082                0.965662466     -43.1893889
9.083                 0.96561665     -43.2406246
9.084                0.965570662     -43.2919625
9.085                0.965524501      -43.343403
9.086                0.965478167     -43.3949463
9.087                0.965431658     -43.4465927
9.088                0.965384975     -43.4983426
9.089                0.965338116     -43.5501962
9.09                  0.96529108     -43.6021539
9.091                0.965243868     -43.6542159
9.092                0.965196477     -43.7063827
9.093                0.965148908     -43.7586544
9.094                 0.96510116     -43.8110314
9.095                0.965053231      -43.863514
9.096                0.965005122     -43.9161025
9.097                0.964956831     -43.9687972
9.098                0.964908357     -44.0215986
9.099                0.964859701     -44.0745067
9.1                   0.96481086     -44.1275221
9.101                0.964761835      -44.180645
9.102                0.964712624     -44.2338757
9.103                0.964663227     -44.2872146
9.104                0.964613643     -44.3406619
9.105                0.964563871     -44.3942181
9.106                 0.96451391     -44.4478834
9.107                 0.96446376     -44.5016581
9.108                 0.96441342     -44.5555426
9.109                0.964362888     -44.6095372
9.11                 0.964312165     -44.6636423
9.111                0.964261249     -44.7178581
9.112                 0.96421014      -44.772185
9.113                0.964158836     -44.8266234
9.114                0.964107338     -44.8811736
9.115                0.964055643     -44.9358359
9.116                0.964003752     -44.9906106
9.117                0.963951663     -45.0454981
9.118                0.963899375     -45.1004987
9.119                0.963846888     -45.1556129
9.12                 0.963794201     -45.2108408
9.121                0.963741313     -45.2661829
9.122                0.963688224     -45.3216395
9.123                0.963634931     -45.3772109
9.124                0.963581435     -45.4328976
9.125                0.963527735     -45.4886998
9.126                0.963473829     -45.5446179
9.127                0.963419717     -45.6006523
9.128                0.963365398     -45.6568032
9.129                0.963310871     -45.7130712
9.13                 0.963256135     -45.7694564
9.131                 0.96320119     -45.8259594
9.132                0.963146034     -45.8825803
9.133                0.963090666     -45.9393197
9.134                0.963035086     -45.9961778
9.135                0.962979292      -46.053155
9.136                0.962923285     -46.1102517
9.137                0.962867062     -46.1674683
9.138                0.962810623     -46.2248051
9.139                0.962753967     -46.2822624
9.14                 0.962697093     -46.3398408
9.141                    0.96264     -46.3975404
9.142                0.962582688     -46.4553617
9.143                0.962525155     -46.5133052
9.144                  0.9624674      -46.571371
9.145                0.962409422     -46.6295597
9.146                0.962351221     -46.6878716
9.147                0.962292795      -46.746307
9.148                0.962234143     -46.8048665
9.149                0.962175266     -46.8635502
9.15                  0.96211616     -46.9223587
9.151                0.962056826     -46.9812923
9.152                0.961997263     -47.0403515
9.153                0.961937469     -47.0995365
9.154                0.961877444     -47.1588477
9.155                0.961817187     -47.2182857
9.156                0.961756696     -47.2778507
9.157                 0.96169597     -47.3375432
9.158                0.961635009     -47.3973635
9.159                0.961573812      -47.457312
9.16                 0.961512377     -47.5173892
9.161                0.961450704     -47.5775955
9.162                0.961388791     -47.6379312
9.163                0.961326638     -47.6983968
9.164                0.961264243     -47.7589926
9.165                0.961201605     -47.8197191
9.166                0.961138724     -47.8805766
9.167                0.961075598     -47.9415656
9.168                0.961012226     -48.0026866
9.169                0.960948607     -48.0639398
9.17                 0.960884741     -48.1253257
9.171                0.960820625     -48.1868448
9.172                0.960756259     -48.2484974
9.173                0.960691642      -48.310284
9.174                0.960626773      -48.372205
9.175                0.960561651     -48.4342608
9.176                0.960496274     -48.4964518
9.177                0.960430641     -48.5587785
9.178                0.960364752     -48.6212413
9.179                0.960298605     -48.6838406
9.18                 0.960232199     -48.7465768
9.181                0.960165533     -48.8094504
9.182                0.960098606     -48.8724619
9.183                0.960031417     -48.9356115
9.184                0.959963965     -48.9988999
9.185                0.959896248     -49.0623273
9.186                0.959828265     -49.1258944
9.187                0.959760015     -49.1896014
9.188                0.959691497     -49.2534489
9.189                0.959622711     -49.3174373
9.19                 0.959553654      -49.381567
9.191                0.959484325     -49.4458385
9.192                0.959414724     -49.5102522
9.193                0.959344849     -49.5748086
9.194                0.959274698     -49.6395082
9.195                0.959204272     -49.7043513
9.196                0.959133568     -49.7693385
9.197                0.959062586     -49.8344702
9.198                0.958991323     -49.8997469
9.199                 0.95891978     -49.9651691
9.2                  0.958847954     -50.0307371
9.201                0.958775845     -50.0964515
9.202                0.958703451     -50.1623127
9.203                0.958630771     -50.2283213
9.204                0.958557804     -50.2944776
9.205                0.958484548     -50.3607821
9.206                0.958411003     -50.4272354
9.207                0.958337167     -50.4938379
9.208                0.958263038     -50.5605901
9.209                0.958188616     -50.6274924
9.21                   0.9581139     -50.6945454
9.211                0.958038887     -50.7617495
9.212                0.957963577     -50.8291052
9.213                0.957887968      -50.896613
9.214                0.957812059     -50.9642734
9.215                0.957735849     -51.0320869
9.216                0.957659337      -51.100054
9.217                0.957582521     -51.1681751
9.218                0.957505399     -51.2364508
9.219                0.957427972     -51.3048816
9.22                 0.957350236      -51.373468
9.221                0.957272191     -51.4422104
9.222                0.957193836     -51.5111094
9.223                0.957115169     -51.5801655
9.224                0.957036189     -51.6493792
9.225                0.956956894      -51.718751
9.226                0.956877284     -51.7882814
9.227                0.956797356      -51.857971
9.228                0.956717109     -51.9278202
9.229                0.956636543     -51.9978296
9.23                 0.956555655     -52.0679997
9.231                0.956474445      -52.138331
9.232                 0.95639291      -52.208824
9.233                 0.95631105     -52.2794793
9.234                0.956228863     -52.3502974
9.235                0.956146347     -52.4212789
9.236                0.956063502     -52.4924242
9.237                0.955980325     -52.5637339
9.238                0.955896816     -52.6352085
9.239                0.955812973     -52.7068486
9.24                 0.955728794     -52.7786548
9.241                0.955644278     -52.8506275
9.242                0.955559424     -52.9227673
9.243                 0.95547423     -52.9950748
9.244                0.955388695     -53.0675505
9.245                0.955302817     -53.1401949
9.246                0.955216595     -53.2130086
9.247                0.955130027     -53.2859923
9.248                0.955043111     -53.3591463
9.249                0.954955847     -53.4324714
9.25                 0.954868233      -53.505968
9.251                0.954780267     -53.5796367
9.252                0.954691948     -53.6534781
9.253                0.954603275     -53.7274928
9.254                0.954514245     -53.8016813
9.255                0.954424857     -53.8760442
9.256                 0.95433511     -53.9505821
9.257                0.954245002     -54.0252955
9.258                0.954154532     -54.1001851
9.259                0.954063697     -54.1752514
9.26                 0.953972498      -54.250495
9.261                0.953880931     -54.3259166
9.262                0.953788996     -54.4015166
9.263                0.953696691     -54.4772957
9.264                0.953604014     -54.5532544
9.265                0.953510963     -54.6293935
9.266                0.953417538     -54.7057134
9.267                0.953323737     -54.7822147
9.268                0.953229557     -54.8588982
9.269                0.953134997     -54.9357643
9.27                 0.953040057     -55.0128138
9.271                0.952944733     -55.0900471
9.272                0.952849025      -55.167465
9.273                0.952752931      -55.245068
9.274                0.952656449     -55.3228567
9.275                0.952559578     -55.4008318
9.276                0.952462315     -55.4789939
9.277                 0.95236466     -55.5573437
9.278                0.952266611     -55.6358816
9.279                0.952168166     -55.7146085
9.28                 0.952069323     -55.7935249
9.281                 0.95197008     -55.8726314
9.282                0.951870437     -55.9519287
9.283                0.951770391     -56.0314174
9.284                0.951669941     -56.1110982
9.285                0.951569085     -56.1909717
9.286                0.951467821     -56.2710386
9.287                0.951366147     -56.3512995
9.288                0.951264063     -56.4317551
9.289                0.951161566     -56.5124059
9.29                 0.951058654     -56.5932528
9.291                0.950955326     -56.6742963
9.292                 0.95085158     -56.7555371
9.293                0.950747414     -56.8369758
9.294                0.950642826     -56.9186132
9.295                0.950537816     -57.0004499
9.296                0.950432381     -57.0824866
9.297                0.950326519      -57.164724
9.298                0.950220228     -57.2471626
9.299                0.950113507     -57.3298033
9.3                  0.950006355     -57.4126467
9.301                0.949898768     -57.4956935
9.302                0.949790746     -57.5789443
9.303                0.949682287     -57.6623999
9.304                0.949573389      -57.746061
9.305                 0.94946405     -57.8299282
9.306                0.949354268     -57.9140023
9.307                0.949244042      -57.998284
9.308                0.949133369     -58.0827739
9.309                0.949022249     -58.1674727
9.31                 0.948910678     -58.2523813
9.311                0.948798656     -58.3375003
9.312                0.948686181     -58.4228303
9.313                 0.94857325     -58.5083722
9.314                0.948459861     -58.5941267
9.315                0.948346014     -58.6800944
9.316                0.948231706     -58.7662762
9.317                0.948116936     -58.8526726
9.318                  0.9480017     -58.9392846
9.319                0.947885999     -59.0261127
9.32                 0.947769829     -59.1131578
9.321                0.947653189     -59.2004205
9.322                0.947536077     -59.2879017
9.323                0.947418491      -59.375602
9.324                 0.94730043     -59.4635223
9.325                 0.94718189     -59.5516633
9.326                0.947062872     -59.6400256
9.327                0.946943372     -59.7286102
9.328                0.946823389     -59.8174177
9.329                 0.94670292     -59.9064489
9.33                 0.946581965     -59.9957046
9.331                0.946460521     -60.0851855
9.332                0.946338585     -60.1748925
9.333                0.946216157     -60.2648262
9.334                0.946093235     -60.3549875
9.335                0.945969816     -60.4453772
9.336                0.945845898      -60.535996
9.337                 0.94572148     -60.6268447
9.338                0.945596559     -60.7179242
9.339                0.945471134     -60.8092352
9.34                 0.945345203     -60.9007784
9.341                0.945218764     -60.9925548
9.342                0.945091815      -61.084565
9.343                0.944964354       -61.17681
9.344                0.944836378     -61.2692905
9.345                0.944707887     -61.3620073
9.346                0.944578878     -61.4549613
9.347                0.944449349     -61.5481532
9.348                0.944319299     -61.6415839
9.349                0.944188724     -61.7352541
9.35                 0.944057624     -61.8291649
9.351                0.943925996     -61.9233168
9.352                0.943793839     -62.0177109
9.353                0.943661149     -62.1123479
9.354                0.943527927     -62.2072286
9.355                0.943394168     -62.3023539
9.356                0.943259873     -62.3977247
9.357                0.943125037     -62.4933418
9.358                 0.94298966      -62.589206
9.359                 0.94285374     -62.6853182
9.36                 0.942717274     -62.7816792
9.361                0.942580261       -62.87829
9.362                0.942442698     -62.9751513
9.363                0.942304584     -63.0722641
9.364                0.942165916     -63.1696292
9.365                0.942026693     -63.2672475
9.366                0.941886912     -63.3651198
9.367                0.941746572      -63.463247
9.368                 0.94160567     -63.5616301
9.369                0.941464205     -63.6602698
9.37                 0.941322175     -63.7591672
9.371                0.941179577      -63.858323
9.372                0.941036409     -63.9577382
9.373                 0.94089267     -64.0574137
9.374                0.940748358     -64.1573503
9.375                 0.94060347      -64.257549
9.376                0.940458004     -64.3580107
9.377                0.940311959     -64.4587362
9.378                0.940165332     -64.5597266
9.379                0.940018122     -64.6609826
9.38                 0.939870326     -64.7625053
9.381                0.939721943     -64.8642956
9.382                0.939572969     -64.9663543
9.383                0.939423405     -65.0686825
9.384                0.939273246      -65.171281
9.385                0.939122492     -65.2741507
9.386                 0.93897114     -65.3772927
9.387                0.938819188     -65.4807079
9.388                0.938666634     -65.5843971
9.389                0.938513477     -65.6883614
9.39                 0.938359714     -65.7926017
9.391                0.938205343     -65.8971189
9.392                0.938050362     -66.0019141
9.393                0.937894769     -66.1069881
9.394                0.937738562      -66.212342
9.395                0.937581739     -66.3179766
9.396                0.937424298     -66.4238931
