! TOUCHSTONE file generated by CST DESIGN STUDIO
! Date and time: Tue Feb  4 18:09:18 2025
! Project name: C:\Work\MatlabApps\UnitCellOptimizationMatlab\CST\unitcell.cst
! Tree item: Tasks\Sweep1\SPara1\S-Parameters
! Header version: 2024
! Port assignment regex: !\s*Touchstone port\s*([0-9]+)\s*=\s*(CST MWS port|CST DES external port|CST DES block port)\s*(.+)\s* \(\"(.*)\"\)(\s*mode\s*([0-9]+))?.*
! Touchstone port assignment:
! Touchstone port 1 = CST DES external port 1 ("")
# GHz S MA R 50
9                    0.784100232     -111.601298
9.001                0.783381239     -111.854602
9.002                0.782661294     -112.108745
9.003                0.781940415     -112.363731
9.004                0.781218621     -112.619561
9.005                0.780495933     -112.876237
9.006                 0.77977237     -113.133763
9.007                0.779047952     -113.392139
9.008                  0.7783227     -113.651368
9.009                0.777596635     -113.911453
9.01                 0.776869777     -114.172395
9.011                0.776142149     -114.434197
9.012                0.775413773      -114.69686
9.013                0.774684669     -114.960388
9.014                0.773954861     -115.224781
9.015                0.773224371     -115.490041
9.016                0.772493223     -115.756172
9.017                0.771761439     -116.023175
9.018                0.771029043     -116.291051
9.019                0.770296059     -116.559804
9.02                 0.769562512     -116.829434
9.021                0.768828426     -117.099944
9.022                0.768093825     -117.371336
9.023                0.767358736     -117.643611
9.024                0.766623183     -117.916771
9.025                0.765887193     -118.190819
9.026                0.765150792     -118.465756
9.027                0.764414006     -118.741583
9.028                0.763676862     -119.018304
9.029                0.762939387     -119.295918
9.03                 0.762201609     -119.574428
9.031                0.761463556     -119.853836
9.032                0.760725256     -120.134143
9.033                0.759986737     -120.415351
9.034                0.759248029     -120.697461
9.035                 0.75850916     -120.980476
9.036                 0.75777016     -121.264396
9.037                0.757031058     -121.549223
9.038                0.756291886     -121.834958
9.039                0.755552673     -122.121603
9.04                  0.75481345      -122.40916
9.041                 0.75407425     -122.697629
9.042                0.753335102     -122.987011
9.043                0.752596039     -123.277309
9.044                0.751857093     -123.568524
9.045                0.751118297     -123.860656
9.046                0.750379684     -124.153707
9.047                0.749641286     -124.447678
9.048                0.748903138     -124.742569
9.049                0.748165273     -125.038383
9.05                 0.747427726      -125.33512
9.051                 0.74669053     -125.632781
9.052                0.745953722     -125.931367
9.053                0.745217336     -126.230878
9.054                0.744481407     -126.531316
9.055                0.743745973     -126.832682
9.056                0.743011068     -127.134976
9.057                 0.74227673     -127.438198
9.058                0.741542994      -127.74235
9.059                  0.7408099     -128.047432
9.06                 0.740077484     -128.353445
9.061                0.739345783     -128.660389
9.062                0.738614837     -128.968265
9.063                0.737884683     -129.277072
9.064                0.737155361     -129.586812
9.065                0.736426909     -129.897485
9.066                0.735699368      -130.20909
9.067                0.734972777     -130.521629
9.068                0.734247175     -130.835101
9.069                0.733522604     -131.149506
9.07                 0.732799104     -131.464844
9.071                0.732076716     -131.781115
9.072                0.731355481      -132.09832
9.073                0.730635442     -132.416458
9.074                0.729916639     -132.735528
9.075                0.729199115     -133.055531
9.076                0.728482913     -133.376466
9.077                0.727768076     -133.698333
9.078                0.727054646     -134.021131
9.079                0.726342667      -134.34486
9.08                 0.725632182     -134.669519
9.081                0.724923235     -134.995108
9.082                0.724215871     -135.321625
9.083                0.723510134     -135.649071
9.084                0.722806068     -135.977443
9.085                0.722103719     -136.306742
9.086                0.721403132     -136.636966
9.087                0.720704351     -136.968114
9.088                0.720007424     -137.300184
9.089                0.719312395     -137.633177
9.09                 0.718619311      -137.96709
9.091                0.717928218     -138.301922
9.092                0.717239163     -138.637672
9.093                0.716552192     -138.974337
9.094                0.715867353     -139.311918
9.095                0.715184693     -139.650411
9.096                 0.71450426     -139.989815
9.097                  0.7138261     -140.330128
9.098                0.713150262     -140.671349
9.099                0.712476794     -141.013475
9.1                  0.711805743     -141.356504
9.101                0.711137159     -141.700434
9.102                0.710471089     -142.045264
9.103                0.709807583     -142.390989
9.104                0.709146689     -142.737609
9.105                0.708488455     -143.085121
9.106                0.707832932     -143.433521
9.107                0.707180169     -143.782808
9.108                0.706530214     -144.132978
9.109                0.705883117     -144.484029
9.11                 0.705238927     -144.835958
9.111                0.704597695     -145.188762
9.112                 0.70395947     -145.542438
9.113                0.703324301     -145.896982
9.114                0.702692239     -146.252391
9.115                0.702063334     -146.608662
9.116                0.701437635     -146.965791
9.117                0.700815192     -147.323775
9.118                0.700196056      -147.68261
9.119                0.699580277     -148.042292
9.12                 0.698967904     -148.402818
9.121                0.698358989     -148.764183
9.122                 0.69775358     -149.126384
9.123                0.697151729     -149.489416
9.124                0.696553485     -149.853275
9.125                0.695958898     -150.217957
9.126                0.695368018     -150.583457
9.127                0.694780896     -150.949771
9.128                0.694197581     -151.316894
9.129                0.693618124     -151.684821
9.13                 0.693042573     -152.053548
9.131                0.692470978     -152.423069
9.132                 0.69190339      -152.79338
9.133                0.691339858     -153.164475
9.134                 0.69078043      -153.53635
9.135                0.690225157     -153.908998
9.136                0.689674087     -154.282415
9.137                 0.68912727     -154.656595
9.138                0.688584753     -155.031532
9.139                0.688046587      -155.40722
9.14                 0.687512819     -155.783655
9.141                0.686983497     -156.160828
9.142                0.686458669     -156.538736
9.143                0.685938384     -156.917371
9.144                0.685422689     -157.296727
9.145                0.684911631     -157.676799
9.146                0.684405257     -158.057578
9.147                0.683903614      -158.43906
9.148                0.683406749     -158.821237
9.149                0.682914709     -159.204103
9.15                 0.682427538      -159.58765
9.151                0.681945283     -159.971872
9.152                0.681467989     -160.356761
9.153                0.680995701     -160.742312
9.154                0.680528464     -161.128515
9.155                0.680066323     -161.515364
9.156                 0.67960932     -161.902852
9.157                  0.6791575     -162.290971
9.158                0.678710906     -162.679713
9.159                0.678269581     -163.069071
9.16                 0.677833567     -163.459036
9.161                0.677402906     -163.849601
9.162                 0.67697764     -164.240758
9.163                 0.67655781     -164.632499
9.164                0.676143457     -165.024815
9.165                 0.67573462     -165.417698
9.166                 0.67533134      -165.81114
9.167                0.674933656     -166.205132
9.168                0.674541606     -166.599665
9.169                0.674155228     -166.994732
9.17                 0.673774561     -167.390323
9.171                0.673399642     -167.786429
9.172                0.673030507     -168.183042
9.173                0.672667192     -168.580152
9.174                0.672309733      -168.97775
9.175                0.671958165     -169.375828
9.176                0.671612522     -169.774375
9.177                0.671272838     -170.173383
9.178                0.670939146     -170.572842
9.179                0.670611479     -170.972742
9.18                 0.670289868     -171.373074
9.181                0.669974346     -171.773829
9.182                0.669664942     -172.174996
9.183                0.669361686     -172.576566
9.184                0.669064609     -172.978529
9.185                0.668773738     -173.380875
9.186                0.668489102     -173.783594
9.187                0.668210728     -174.186675
9.188                0.667938643     -174.590109
9.189                0.667672873     -174.993886
9.19                 0.667413442     -175.397994
9.191                0.667160376     -175.802425
9.192                0.666913698     -176.207167
9.193                0.666673431     -176.612209
9.194                0.666439598     -177.017543
9.195                 0.66621222     -177.423156
9.196                0.665991318     -177.829038
9.197                0.665776912     -178.235178
9.198                0.665569021     -178.641567
9.199                0.665367664     -179.048193
9.2                  0.665172859     -179.455044
9.201                0.664984622     -179.862112
9.202                 0.66480297      179.730617
9.203                0.664627918      179.323152
9.204                0.664459481      178.915504
9.205                0.664297673      178.507685
9.206                0.664142506      178.099705
9.207                0.663993992      177.691576
9.208                0.663852144      177.283309
9.209                0.663716971      176.874914
9.21                 0.663588484      176.466404
9.211                 0.66346669      176.057789
9.212                0.663351599       175.64908
9.213                0.663243217      175.240289
9.214                0.663141551      174.831426
9.215                0.663046607      174.422504
9.216                0.662958388      174.013533
9.217                  0.6628769      173.604525
9.218                0.662802145      173.195491
9.219                0.662734125      172.786442
9.22                 0.662672841       172.37739
9.221                0.662618295      171.968346
9.222                0.662570486       171.55932
9.223                0.662529413      171.150326
9.224                0.662495073      170.741373
9.225                0.662467464      170.332473
9.226                0.662446583      169.923637
9.227                0.662432424      169.514878
9.228                0.662424983      169.106205
9.229                0.662424253       168.69763
9.23                 0.662430227      168.289164
9.231                0.662442898      167.880819
9.232                0.662462257      167.472606
9.233                0.662488294      167.064536
9.234                   0.662521       166.65662
9.235                0.662560362      166.248868
9.236                0.662606369      165.841294
9.237                0.662659009      165.433906
9.238                0.662718267      165.026717
9.239                0.662784131      164.619737
9.24                 0.662856583      164.212978
9.241                0.662935609      163.806449
9.242                0.663021192      163.400163
9.243                0.663113315      162.994129
9.244                0.663211958      162.588359
9.245                0.663317104      162.182863
9.246                0.663428732      161.777653
9.247                0.663546822      161.372738
9.248                0.663671352      160.968129
9.249                0.663802302      160.563837
9.25                 0.663939647      160.159872
9.251                0.664083364      159.756245
9.252                 0.66423343      159.352965
9.253                 0.66438982      158.950044
9.254                0.664552507      158.547492
9.255                0.664721466      158.145318
9.256                0.664896669      157.743532
9.257                 0.66507809      157.342146
9.258                0.665265699      156.941168
9.259                0.665459468      156.540609
9.26                 0.665659367      156.140478
9.261                0.665865366      155.740786
9.262                0.666077434      155.341541
9.263                0.666295539      154.942754
9.264                 0.66651965      154.544433
9.265                0.666749734      154.146589
9.266                0.666985756       153.74923
9.267                0.667227685      153.352367
9.268                0.667475484      152.956007
9.269                0.667729119      152.560161
9.27                 0.667988555      152.164837
9.271                0.668253755      151.770045
9.272                0.668524682      151.375792
9.273                  0.6688013      150.982088
9.274                0.669083571      150.588942
9.275                0.669371456      150.196362
9.276                0.669664917      149.804356
9.277                0.669963915      149.412933
9.278                 0.67026841      149.022101
9.279                0.670578363      148.631869
9.28                 0.670893731      148.242245
9.281                0.671214476      147.853236
9.282                0.671540555       147.46485
9.283                0.671871926      147.077096
9.284                0.672208548       146.68998
9.285                0.672550377      146.303512
9.286                0.672897372      145.917698
9.287                0.673249487      145.532545
9.288                0.673606681      145.148061
9.289                0.673968909      144.764254
9.29                 0.674336127      144.381129
9.291                0.674708289      143.998696
9.292                0.675085351      143.616959
9.293                0.675467269      143.235927
9.294                0.675853995      142.855605
9.295                0.676245485      142.476002
9.296                0.676641693      142.097122
9.297                0.677042571      141.718972
9.298                0.677448074       141.34156
9.299                0.677858155       140.96489
9.3                  0.678272767       140.58897
9.301                0.678691862      140.213805
9.302                0.679115394      139.839401
9.303                0.679543314      139.465763
9.304                0.679975574      139.092899
9.305                0.680412128      138.720812
9.306                0.680852927       138.34951
9.307                0.681297922      137.978996
9.308                0.681747066      137.609277
9.309                0.682200309      137.240358
9.31                 0.682657604      136.872243
9.311                0.683118902      136.504938
9.312                0.683584153      136.138448
9.313                0.684053309      135.772777
9.314                0.684526322       135.40793
9.315                0.685003141      135.043912
9.316                0.685483719      134.680727
9.317                0.685968006       134.31838
9.318                0.686455953      133.956875
9.319                 0.68694751      133.596215
9.32                  0.68744263      133.236407
9.321                0.687941262      132.877452
9.322                0.688443358      132.519355
9.323                0.688948868      132.162121
9.324                0.689457744      131.805752
9.325                0.689969936      131.450252
9.326                0.690485396      131.095626
9.327                0.691004074      130.741875
9.328                0.691525922      130.389004
9.329                0.692050891      130.037016
9.33                 0.692578932      129.685914
9.331                0.693109996      129.335701
9.332                0.693644035       128.98638
9.333                0.694181001      128.637954
9.334                0.694720845      128.290425
9.335                0.695263519      127.943797
9.336                0.695808975      127.598072
9.337                0.696357164      127.253252
9.338                 0.69690804      126.909341
9.339                0.697461554      126.566339
9.34                 0.698017659      126.224251
9.341                0.698576308      125.883077
9.342                0.699137453      125.542819
9.343                0.699701047      125.203481
9.344                0.700267044      124.865063
9.345                0.700835396      124.527568
9.346                0.701406058      124.190998
9.347                0.701978983      123.855353
9.348                0.702554124      123.520636
9.349                0.703131437      123.186849
9.35                 0.703710875      122.853992
9.351                0.704292393      122.522067
9.352                0.704875946      122.191075
9.353                0.705461488      121.861018
9.354                0.706048976      121.531896
9.355                0.706638364      121.203712
9.356                0.707229608      120.876465
9.357                0.707822664      120.550157
9.358                0.708417489      120.224788
9.359                0.709014038       119.90036
9.36                 0.709612269      119.576872
9.361                0.710212139      119.254327
9.362                0.710813605      118.932724
9.363                0.711416624      118.612063
9.364                0.712021154      118.292346
9.365                0.712627154      117.973573
9.366                0.713234581      117.655743
9.367                0.713843395      117.338858
9.368                0.714453554      117.022917
9.369                0.715065018       116.70792
9.37                 0.715677746      116.393869
9.371                0.716291698      116.080762
9.372                0.716906834      115.768599
9.373                0.717523114      115.457381
9.374                  0.7181405      115.147108
9.375                0.718758952      114.837778
9.376                0.719378431      114.529393
9.377                  0.7199989      114.221951
9.378                0.720620321      113.915452
9.379                0.721242655      113.609895
9.38                 0.721865865      113.305281
9.381                0.722489914      113.001609
9.382                0.723114766      112.698878
9.383                0.723740384      112.397087
9.384                0.724366732      112.096236
9.385                0.724993774      111.796324
9.386                0.725621474       111.49735
9.387                0.726249798      111.199314
9.388                0.726878711      110.902214
9.389                0.727508178       110.60605
9.39                 0.728138165       110.31082
9.391                0.728768639      110.016524
9.392                0.729399565      109.723161
9.393                0.730030911      109.430729
9.394                0.730662644      109.139227
9.395                0.731294731      108.848655
9.396                 0.73192714      108.559011
