! TOUCHSTONE file generated by CST DESIGN STUDIO
! Date and time: Tue Feb  4 18:26:23 2025
! Project name: C:\Work\MatlabApps\UnitCellOptimizationMatlab\CST\unitcell.cst
! Tree item: Tasks\Sweep1\SPara1\S-Parameters
! Header version: 2024
! Port assignment regex: !\s*Touchstone port\s*([0-9]+)\s*=\s*(CST MWS port|CST DES external port|CST DES block port)\s*(.+)\s* \(\"(.*)\"\)(\s*mode\s*([0-9]+))?.*
! Touchstone port assignment:
! Touchstone port 1 = CST DES external port 1 ("")
# GHz S MA R 50
9                    0.982414113     -75.3167949
9.001                0.982371937     -75.4300129
9.002                0.982329634     -75.5435085
9.003                0.982287201     -75.6572823
9.004                 0.98224464     -75.7713354
9.005                 0.98220195     -75.8856683
9.006                 0.98215913     -76.0002821
9.007                 0.98211618     -76.1151776
9.008                  0.9820731     -76.2303555
9.009                 0.98202989     -76.3458167
9.01                 0.981986549      -76.461562
9.011                0.981943077     -76.5775924
9.012                0.981899474     -76.6939086
9.013                0.981855739     -76.8105115
9.014                0.981811873     -76.9274019
9.015                0.981767874     -77.0445806
9.016                0.981723744     -77.1620486
9.017                 0.98167948     -77.2798067
9.018                0.981635084     -77.3978557
9.019                0.981590554     -77.5161965
9.02                 0.981545891     -77.6348299
9.021                0.981501094     -77.7537569
9.022                0.981456163     -77.8729782
9.023                0.981411098     -77.9924947
9.024                0.981365898     -78.1123074
9.025                0.981320564      -78.232417
9.026                0.981275094     -78.3528244
9.027                0.981229489     -78.4735306
9.028                0.981183748     -78.5945363
9.029                0.981137872     -78.7158425
9.03                 0.981091859       -78.83745
9.031                 0.98104571     -78.9593597
9.032                0.980999424     -79.0815725
9.033                0.980953002     -79.2040893
9.034                0.980906442     -79.3269109
9.035                0.980859744     -79.4500383
9.036                 0.98081291     -79.5734723
9.037                0.980765937     -79.6972138
9.038                0.980718826     -79.8212637
9.039                0.980671576      -79.945623
9.04                 0.980624188     -80.0702924
9.041                0.980576661     -80.1952729
9.042                0.980528995     -80.3205654
9.043                0.980481189     -80.4461708
9.044                0.980433244     -80.5720899
9.045                0.980385159     -80.6983238
9.046                0.980336934     -80.8248733
9.047                0.980288569     -80.9517392
9.048                0.980240063     -81.0789226
9.049                0.980191417     -81.2064243
9.05                 0.980142629     -81.3342452
9.051                  0.9800937     -81.4623862
9.052                 0.98004463     -81.5908483
9.053                0.979995418     -81.7196324
9.054                0.979946065     -81.8487393
9.055                0.979896569     -81.9781701
9.056                0.979846932     -82.1079255
9.057                0.979797151     -82.2380066
9.058                0.979747229     -82.3684143
9.059                0.979697163     -82.4991495
9.06                 0.979646954      -82.630213
9.061                0.979596602     -82.7616059
9.062                0.979546107     -82.8933291
9.063                0.979495468     -83.0253835
9.064                0.979444685       -83.15777
9.065                0.979393759     -83.2904896
9.066                0.979342688     -83.4235431
9.067                0.979291473     -83.5569316
9.068                0.979240113      -83.690656
9.069                0.979188609     -83.8247171
9.07                  0.97913696      -83.959116
9.071                0.979085166     -84.0938536
9.072                0.979033227     -84.2289307
9.073                0.978981143     -84.3643485
9.074                0.978928913     -84.5001077
9.075                0.978876538     -84.6362094
9.076                0.978824017     -84.7726545
9.077                 0.97877135     -84.9094439
9.078                0.978718538     -85.0465786
9.079                0.978665579     -85.1840596
9.08                 0.978612474     -85.3218877
9.081                0.978559222     -85.4600639
9.082                0.978505824     -85.5985893
9.083                 0.97845228     -85.7374646
9.084                0.978398588      -85.876691
9.085                 0.97834475     -86.0162693
9.086                0.978290765     -86.1562005
9.087                0.978236633     -86.2964855
9.088                0.978182354     -86.4371254
9.089                0.978127928      -86.578121
9.09                 0.978073355     -86.7194733
9.091                0.978018634     -86.8611833
9.092                0.977963765      -87.003252
9.093                 0.97790875     -87.1456802
9.094                0.977853586      -87.288469
9.095                0.977798275     -87.4316193
9.096                0.977742816     -87.5751321
9.097                 0.97768721     -87.7190084
9.098                0.977631456      -87.863249
9.099                0.977575554      -88.007855
9.1                  0.977519504     -88.1528273
9.101                0.977463306      -88.298167
9.102                 0.97740696     -88.4438748
9.103                0.977350466     -88.5899519
9.104                0.977293825     -88.7363992
9.105                0.977237035     -88.8832177
9.106                0.977180097     -89.0304082
9.107                0.977123012     -89.1779718
9.108                0.977065778     -89.3259095
9.109                0.977008396     -89.4742222
9.11                 0.976950867     -89.6229108
9.111                 0.97689319     -89.7719764
9.112                0.976835364     -89.9214199
9.113                0.976777391     -90.0712423
9.114                 0.97671927     -90.2214445
9.115                0.976661001     -90.3720275
9.116                0.976602585     -90.5229922
9.117                0.976544021     -90.6743397
9.118                0.976485309     -90.8260709
9.119                 0.97642645     -90.9781867
9.12                 0.976367443     -91.1306882
9.121                0.976308289     -91.2835762
9.122                0.976248988     -91.4368518
9.123                0.976189539     -91.5905159
9.124                0.976129944     -91.7445695
9.125                0.976070201     -91.8990135
9.126                0.976010312     -92.0538489
9.127                0.975950276     -92.2090767
9.128                0.975890094     -92.3646978
9.129                0.975829765     -92.5207131
9.13                  0.97576929     -92.6771237
9.131                0.975708669     -92.8339305
9.132                0.975647901     -92.9911344
9.133                0.975586988     -93.1487364
9.134                 0.97552593     -93.3067375
9.135                0.975464726     -93.4651385
9.136                0.975403377     -93.6239406
9.137                0.975341883     -93.7831445
9.138                0.975280244     -93.9427513
9.139                 0.97521846     -94.1027619
9.14                 0.975156532     -94.2631773
9.141                0.975094461     -94.4239984
9.142                0.975032245     -94.5852261
9.143                0.974969885     -94.7468615
9.144                0.974907383     -94.9089053
9.145                0.974844737     -95.0713587
9.146                0.974781948     -95.2342224
9.147                0.974719017     -95.3974975
9.148                0.974655944     -95.5611849
9.149                0.974592728     -95.7252855
9.15                 0.974529371     -95.8898002
9.151                0.974465873     -96.0547301
9.152                0.974402234     -96.2200759
9.153                0.974338454     -96.3858387
9.154                0.974274534     -96.5520193
9.155                0.974210475     -96.7186187
9.156                0.974146275     -96.8856378
9.157                0.974081937     -97.0530775
9.158                 0.97401746     -97.2209388
9.159                0.973952844     -97.3892225
9.16                 0.973888091     -97.5579295
9.161                  0.9738232     -97.7270608
9.162                0.973758172     -97.8966173
9.163                0.973693007     -98.0665998
9.164                0.973627706     -98.2370093
9.165                0.973562269     -98.4078466
9.166                0.973496698     -98.5791127
9.167                0.973430991     -98.7508085
9.168                 0.97336515     -98.9229348
9.169                0.973299175     -99.0954925
9.17                 0.973233068     -99.2684824
9.171                0.973166827     -99.4419056
9.172                0.973100454     -99.6157628
9.173                 0.97303395      -99.790055
9.174                0.972967314     -99.9647829
9.175                0.972900548     -100.139947
9.176                0.972833652      -100.31555
9.177                0.972766627      -100.49159
9.178                0.972699473      -100.66807
9.179                0.972632191     -100.844989
9.18                 0.972564782      -101.02235
9.181                0.972497246     -101.200153
9.182                0.972429583     -101.378398
9.183                0.972361795     -101.557086
9.184                0.972293883     -101.736219
9.185                0.972225846     -101.915797
9.186                0.972157686      -102.09582
9.187                0.972089403     -102.276291
9.188                0.972020998     -102.457209
9.189                0.971952472     -102.638575
9.19                 0.971883826      -102.82039
9.191                0.971815059     -103.002656
9.192                0.971746174     -103.185372
9.193                0.971677171      -103.36854
9.194                0.971608051     -103.552159
9.195                0.971538814     -103.736232
9.196                0.971469462     -103.920759
9.197                0.971399994     -104.105741
9.198                0.971330413     -104.291178
9.199                0.971260719      -104.47707
9.2                  0.971190913      -104.66342
9.201                0.971120996     -104.850228
9.202                0.971050968     -105.037494
9.203                0.970980831     -105.225218
9.204                0.970910585     -105.413403
9.205                0.970840232     -105.602048
9.206                0.970769773     -105.791155
9.207                0.970699208     -105.980723
9.208                0.970628539     -106.170754
9.209                0.970557766     -106.361249
9.21                 0.970486891     -106.552207
9.211                0.970415915      -106.74363
9.212                0.970344838     -106.935519
9.213                0.970273662     -107.127873
9.214                0.970202389     -107.320695
9.215                0.970131018     -107.513983
9.216                0.970059551      -107.70774
9.217                 0.96998799     -107.901965
9.218                0.969916335      -108.09666
9.219                0.969844588     -108.291825
9.22                  0.96977275      -108.48746
9.221                0.969700822     -108.683566
9.222                0.969628805     -108.880144
9.223                0.969556701     -109.077194
9.224                 0.96948451     -109.274717
9.225                0.969412235     -109.472714
9.226                0.969339876     -109.671185
9.227                0.969267435      -109.87013
9.228                0.969194912      -110.06955
9.229                 0.96912231     -110.269446
9.23                  0.96904963     -110.469819
9.231                0.968976873     -110.670668
9.232                0.968904041     -110.871994
9.233                0.968831134     -111.073799
9.234                0.968758155     -111.276081
9.235                0.968685105     -111.478842
9.236                0.968611984     -111.682083
9.237                0.968538796     -111.885803
9.238                0.968465541     -112.090003
9.239                 0.96839222     -112.294684
9.24                 0.968318836     -112.499846
9.241                 0.96824539      -112.70549
9.242                0.968171883     -112.911615
9.243                0.968098317     -113.118223
9.244                0.968024694     -113.325313
9.245                0.967951015     -113.532887
9.246                0.967877281     -113.740944
9.247                0.967803496     -113.949485
9.248                0.967729659      -114.15851
9.249                0.967655774     -114.368019
9.25                 0.967581841     -114.578014
9.251                0.967507862     -114.788493
9.252                0.967433839     -114.999458
9.253                0.967359775     -115.210909
9.254                 0.96728567     -115.422846
9.255                0.967211526      -115.63527
9.256                0.967137346      -115.84818
9.257                 0.96706313     -116.061577
9.258                0.966988882     -116.275461
9.259                0.966914603     -116.489832
9.26                 0.966840294     -116.704691
9.261                0.966765958     -116.920038
9.262                0.966691597     -117.135873
9.263                0.966617212     -117.352196
9.264                0.966542805     -117.569007
9.265                 0.96646838     -117.786307
9.266                0.966393936     -118.004095
9.267                0.966319478     -118.222372
9.268                0.966245006     -118.441138
9.269                0.966170522     -118.660392
9.27                  0.96609603     -118.880136
9.271                 0.96602153     -119.100369
9.272                0.965947025     -119.321091
9.273                0.965872518     -119.542302
9.274                0.965798009     -119.764002
9.275                0.965723502     -119.986192
9.276                0.965648999     -120.208871
9.277                0.965574502     -120.432039
9.278                0.965500013     -120.655696
9.279                0.965425534     -120.879842
9.28                 0.965351068     -121.104478
9.281                0.965276617     -121.329602
9.282                0.965202184     -121.555215
9.283                0.965127769     -121.781318
9.284                0.965053377     -122.007908
9.285                0.964979009     -122.234988
9.286                0.964904668     -122.462556
9.287                0.964830356     -122.690612
9.288                0.964756076     -122.919156
9.289                0.964681829     -123.148188
9.29                 0.964607619     -123.377708
9.291                0.964533448     -123.607715
9.292                0.964459319     -123.838209
9.293                0.964385233      -124.06919
9.294                0.964311194     -124.300658
9.295                0.964237204     -124.532612
9.296                0.964163265     -124.765052
9.297                0.964089381     -124.997977
9.298                0.964015554     -125.231389
9.299                0.963941786     -125.465285
9.3                   0.96386808     -125.699665
9.301                0.963794439      -125.93453
9.302                0.963720865     -126.169878
9.303                0.963647362      -126.40571
9.304                0.963573931     -126.642025
9.305                0.963500576     -126.878822
9.306                  0.9634273     -127.116101
9.307                0.963354104     -127.353861
9.308                0.963280992     -127.592102
9.309                0.963207967     -127.830824
9.31                 0.963135032     -128.070025
9.311                0.963062189     -128.309705
9.312                0.962989441     -128.549864
9.313                0.962916791     -128.790501
9.314                0.962844242     -129.031615
9.315                0.962771797     -129.273206
9.316                0.962699459     -129.515272
9.317                 0.96262723     -129.757814
9.318                0.962555114     -130.000831
9.319                0.962483114     -130.244321
9.32                 0.962411233     -130.488284
9.321                0.962339473      -130.73272
9.322                0.962267837     -130.977627
9.323                0.962196329     -131.223004
9.324                0.962124952     -131.468852
9.325                0.962053709     -131.715168
9.326                0.961982602     -131.961953
9.327                0.961911635     -132.209204
9.328                0.961840812     -132.456922
9.329                0.961770134     -132.705105
9.33                 0.961699606     -132.953752
9.331                 0.96162923     -133.202863
9.332                0.961559009     -133.452436
9.333                0.961488947     -133.702471
9.334                0.961419047     -133.952965
9.335                0.961349312     -134.203919
9.336                0.961279745     -134.455331
9.337                 0.96121035       -134.7072
9.338                0.961141129     -134.959525
9.339                0.961072086     -135.212305
9.34                 0.961003225     -135.465538
9.341                0.960934547     -135.719223
9.342                0.960866058      -135.97336
9.343                0.960797759     -136.227947
9.344                0.960729655     -136.482982
9.345                0.960661748     -136.738464
9.346                0.960594042     -136.994393
9.347                 0.96052654     -137.250766
9.348                0.960459246     -137.507582
9.349                0.960392162     -137.764841
9.35                 0.960325293      -138.02254
9.351                0.960258641     -138.280678
9.352                 0.96019221     -138.539254
9.353                0.960126003     -138.798267
9.354                0.960060024     -139.057714
9.355                0.959994276     -139.317594
9.356                0.959928762     -139.577906
9.357                0.959863487     -139.838648
9.358                0.959798452     -140.099819
9.359                0.959733662     -140.361417
9.36                  0.95966912      -140.62344
9.361                0.959604829     -140.885887
9.362                0.959540793     -141.148756
9.363                0.959477016     -141.412046
9.364                  0.9594135     -141.675754
9.365                0.959350249     -141.939878
9.366                0.959287267     -142.204419
9.367                0.959224556     -142.469372
9.368                0.959162122     -142.734737
9.369                0.959099966     -143.000512
9.37                 0.959038092     -143.266695
9.371                0.958976504     -143.533283
9.372                0.958915205     -143.800276
9.373                0.958854199     -144.067671
9.374                0.958793489     -144.335466
9.375                0.958733079      -144.60366
9.376                0.958672972      -144.87225
9.377                 0.95861317     -145.141234
9.378                0.958553679      -145.41061
9.379                0.958494501     -145.680377
9.38                  0.95843564     -145.950531
9.381                0.958377099     -146.221072
9.382                0.958318882     -146.491996
9.383                0.958260991     -146.763302
9.384                0.958203431     -147.034988
9.385                0.958146205      -147.30705
9.386                0.958089316     -147.579488
9.387                0.958032768     -147.852299
9.388                0.957976563     -148.125481
9.389                0.957920707      -148.39903
9.39                 0.957865201     -148.672946
9.391                0.957810049     -148.947225
9.392                0.957755255     -149.221866
9.393                0.957700822     -149.496865
9.394                0.957646753     -149.772221
9.395                0.957593051     -150.047931
9.396                0.957539721     -150.323992
