! TOUCHSTONE file generated by CST DESIGN STUDIO
! Date and time: Tue Feb  4 18:26:28 2025
! Project name: C:\Work\MatlabApps\UnitCellOptimizationMatlab\CST\unitcell.cst
! Tree item: Tasks\Sweep1\SPara1\S-Parameters
! Header version: 2024
! Port assignment regex: !\s*Touchstone port\s*([0-9]+)\s*=\s*(CST MWS port|CST DES external port|CST DES block port)\s*(.+)\s* \(\"(.*)\"\)(\s*mode\s*([0-9]+))?.*
! Touchstone port assignment:
! Touchstone port 1 = CST DES external port 1 ("")
# GHz S MA R 50
9                    0.982890433     -70.6718002
9.001                0.982851684     -70.7745954
9.002                0.982812818     -70.8776376
9.003                0.982773835     -70.9809277
9.004                0.982734734     -71.0844664
9.005                0.982695515     -71.1882544
9.006                0.982656178     -71.2922925
9.007                0.982616722     -71.3965815
9.008                0.982577147     -71.5011221
9.009                0.982537453      -71.605915
9.01                  0.98249764     -71.7109612
9.011                0.982457706     -71.8162612
9.012                0.982417653     -71.9218159
9.013                0.982377479     -72.0276261
9.014                0.982337184     -72.1336925
9.015                0.982296768     -72.2400159
9.016                0.982256231      -72.346597
9.017                0.982215572     -72.4534368
9.018                0.982174792     -72.5605359
9.019                0.982133889     -72.6678951
9.02                 0.982092863     -72.7755153
9.021                0.982051714     -72.8833971
9.022                0.982010443     -72.9915415
9.023                0.981969047     -73.0999491
9.024                0.981927528     -73.2086208
9.025                0.981885885     -73.3175574
9.026                0.981844117     -73.4267597
9.027                0.981802225     -73.5362285
9.028                0.981760208     -73.6459646
9.029                0.981718065     -73.7559687
9.03                 0.981675796     -73.8662418
9.031                0.981633402     -73.9767845
9.032                0.981590882     -74.0875978
9.033                0.981548235     -74.1986825
9.034                0.981505461     -74.3100392
9.035                 0.98146256      -74.421669
9.036                0.981419532     -74.5335726
9.037                0.981376376     -74.6457507
9.038                0.981333092     -74.7582043
9.039                0.981289679     -74.8709342
9.04                 0.981246138     -74.9839411
9.041                0.981202469      -75.097226
9.042                 0.98115867     -75.2107897
9.043                0.981114741     -75.3246329
9.044                0.981070683     -75.4387566
9.045                0.981026495     -75.5531615
9.046                0.980982176     -75.6678486
9.047                0.980937727     -75.7828186
9.048                0.980893147     -75.8980724
9.049                0.980848436     -76.0136108
9.05                 0.980803593     -76.1294348
9.051                0.980758619     -76.2455451
9.052                0.980713512     -76.3619425
9.053                0.980668274     -76.4786281
9.054                0.980622902     -76.5956025
9.055                0.980577398     -76.7128667
9.056                0.980531761     -76.8304216
9.057                 0.98048599     -76.9482679
9.058                0.980440086     -77.0664066
9.059                0.980394047     -77.1848386
9.06                 0.980347875     -77.3035646
9.061                0.980301568     -77.4225856
9.062                0.980255126     -77.5419024
9.063                0.980208549      -77.661516
9.064                0.980161837     -77.7814271
9.065                0.980114989     -77.9016367
9.066                0.980068005     -78.0221456
9.067                0.980020886     -78.1429548
9.068                 0.97997363     -78.2640651
9.069                0.979926237     -78.3854774
9.07                 0.979878708     -78.5071926
9.071                0.979831041     -78.6292116
9.072                0.979783238     -78.7515352
9.073                0.979735296     -78.8741645
9.074                0.979687217     -78.9971001
9.075                   0.979639     -79.1203432
9.076                0.979590644     -79.2438945
9.077                 0.97954215     -79.3677549
9.078                0.979493517     -79.4919254
9.079                0.979444745     -79.6164069
9.08                 0.979395833     -79.7412002
9.081                0.979346782     -79.8663064
9.082                0.979297592     -79.9917262
9.083                0.979248261     -80.1174606
9.084                 0.97919879     -80.2435105
9.085                0.979149179     -80.3698769
9.086                0.979099427     -80.4965606
9.087                0.979049535     -80.6235625
9.088                0.978999501     -80.7508837
9.089                0.978949326     -80.8785249
9.09                 0.978899009     -81.0064872
9.091                0.978848551     -81.1347714
9.092                0.978797951     -81.2633785
9.093                0.978747208     -81.3923094
9.094                0.978696324     -81.5215651
9.095                0.978645297     -81.6511464
9.096                0.978594127     -81.7810543
9.097                0.978542814     -81.9112897
9.098                0.978491358     -82.0418536
9.099                0.978439759     -82.1727469
9.1                  0.978388016     -82.3039706
9.101                 0.97833613     -82.4355255
9.102                  0.9782841     -82.5674127
9.103                0.978231926      -82.699633
9.104                0.978179608     -82.8321874
9.105                0.978127145     -82.9650769
9.106                0.978074538     -83.0983024
9.107                0.978021786     -83.2318649
9.108                 0.97796889     -83.3657652
9.109                0.977915848     -83.5000044
9.11                 0.977862662     -83.6345834
9.111                 0.97780933     -83.7695032
9.112                0.977755853     -83.9047647
9.113                 0.97770223     -84.0403688
9.114                0.977648461     -84.1763166
9.115                0.977594547     -84.3126089
9.116                0.977540487     -84.4492468
9.117                 0.97748628     -84.5862312
9.118                0.977431928      -84.723563
9.119                0.977377429     -84.8612433
9.12                 0.977322784      -84.999273
9.121                0.977267992      -85.137653
9.122                0.977213053     -85.2763843
9.123                0.977157968     -85.4154679
9.124                0.977102736     -85.5549048
9.125                0.977047358     -85.6946959
9.126                0.976991832     -85.8348422
9.127                0.976936159     -85.9753446
9.128                0.976880339     -86.1162042
9.129                0.976824371     -86.2574219
9.13                 0.976768257     -86.3989986
9.131                0.976711995     -86.5409354
9.132                0.976655585     -86.6832333
9.133                0.976599028     -86.8258931
9.134                0.976542324     -86.9689159
9.135                0.976485472     -87.1123026
9.136                0.976428472     -87.2560543
9.137                0.976371325     -87.4001719
9.138                 0.97631403     -87.5446564
9.139                0.976256588     -87.6895087
9.14                 0.976198998     -87.8347298
9.141                 0.97614126     -87.9803208
9.142                0.976083374     -88.1262826
9.143                 0.97602534     -88.2726161
9.144                0.975967159     -88.4193224
9.145                 0.97590883     -88.5664025
9.146                0.975850354     -88.7138572
9.147                 0.97579173     -88.8616877
9.148                0.975732958     -89.0098948
9.149                0.975674038     -89.1584796
9.15                 0.975614971     -89.3074431
9.151                0.975555757     -89.4567862
9.152                0.975496395     -89.6065098
9.153                0.975436885     -89.7566151
9.154                0.975377229     -89.9071029
9.155                0.975317425     -90.0579743
9.156                0.975257473     -90.2092303
9.157                0.975197375     -90.3608717
9.158                 0.97513713     -90.5128996
9.159                0.975076737     -90.6653151
9.16                 0.975016198     -90.8181189
9.161                0.974955513     -90.9713122
9.162                 0.97489468      -91.124896
9.163                0.974833701     -91.2788711
9.164                0.974772576     -91.4332386
9.165                0.974711305     -91.5879995
9.166                0.974649888     -91.7431546
9.167                0.974588324     -91.8987051
9.168                0.974526616     -92.0546519
9.169                0.974464761      -92.210996
9.17                 0.974402761     -92.3677383
9.171                0.974340616     -92.5248798
9.172                0.974278326     -92.6824215
9.173                0.974215892     -92.8403644
9.174                0.974153312     -92.9987093
9.175                0.974090589     -93.1574574
9.176                0.974027721     -93.3166096
9.177                0.973964709     -93.4761668
9.178                0.973901554       -93.63613
9.179                0.973838256     -93.7965002
9.18                 0.973774814     -93.9572784
9.181                0.973711229     -94.1184654
9.182                0.973647502     -94.2800624
9.183                0.973583632     -94.4420701
9.184                0.973519621     -94.6044896
9.185                0.973455468     -94.7673219
9.186                0.973391173     -94.9305679
9.187                0.973326738     -95.0942286
9.188                0.973262161     -95.2583049
9.189                0.973197445     -95.4227977
9.19                 0.973132588      -95.587708
9.191                0.973067591     -95.7530369
9.192                0.973002456     -95.9187851
9.193                0.972937181     -96.0849537
9.194                0.972871768     -96.2515435
9.195                0.972806217     -96.4185557
9.196                0.972740528     -96.5859909
9.197                0.972674702     -96.7538503
9.198                0.972608739     -96.9221348
9.199                0.972542639     -97.0908452
9.2                  0.972476404     -97.2599825
9.201                0.972410033     -97.4295476
9.202                0.972343527     -97.5995415
9.203                0.972276886     -97.7699651
9.204                0.972210112     -97.9408192
9.205                0.972143204     -98.1121048
9.206                0.972076162     -98.2838229
9.207                0.972008989     -98.4559743
9.208                0.971941683     -98.6285599
9.209                0.971874246     -98.8015807
9.21                 0.971806679     -98.9750374
9.211                0.971738981     -99.1489312
9.212                0.971671153     -99.3232627
9.213                0.971603196      -99.498033
9.214                0.971535111     -99.6732428
9.215                0.971466898     -99.8488931
9.216                0.971398557     -100.024985
9.217                0.971330091     -100.201519
9.218                0.971261498     -100.378496
9.219                 0.97119278     -100.555917
9.22                 0.971123937     -100.733783
9.221                0.971054971     -100.912094
9.222                0.970985882     -101.090852
9.223                 0.97091667     -101.270058
9.224                0.970847336     -101.449712
9.225                0.970777881     -101.629815
9.226                0.970708307     -101.810368
9.227                0.970638613     -101.991371
9.228                  0.9705688     -102.172826
9.229                0.970498869     -102.354734
9.23                 0.970428822     -102.537095
9.231                0.970358658      -102.71991
9.232                0.970288379      -102.90318
9.233                0.970217986     -103.086905
9.234                0.970147479     -103.271088
9.235                0.970076859     -103.455727
9.236                0.970006127     -103.640824
9.237                0.969935285      -103.82638
9.238                0.969864333     -104.012396
9.239                0.969793271     -104.198873
9.24                 0.969722102      -104.38581
9.241                0.969650825     -104.573209
9.242                0.969579442     -104.761072
9.243                0.969507955     -104.949397
9.244                0.969436363     -105.138187
9.245                0.969364668     -105.327441
9.246                0.969292871     -105.517162
9.247                0.969220973     -105.707348
9.248                0.969148975     -105.898002
9.249                0.969076879     -106.089124
9.25                 0.969004684     -106.280714
9.251                0.968932394     -106.472773
9.252                0.968860007     -106.665303
9.253                0.968787527     -106.858302
9.254                0.968714954     -107.051773
9.255                0.968642288     -107.245716
9.256                0.968569532     -107.440132
9.257                0.968496687     -107.635021
9.258                0.968423753     -107.830384
9.259                0.968350732     -108.026221
9.26                 0.968277626     -108.222534
9.261                0.968204435     -108.419322
9.262                0.968131161     -108.616587
9.263                0.968057806     -108.814329
9.264                0.967984369     -109.012548
9.265                0.967910854     -109.211246
9.266                0.967837261     -109.410422
9.267                0.967763592     -109.610078
9.268                0.967689848     -109.810214
9.269                 0.96761603     -110.010831
9.27                 0.967542141     -110.211928
9.271                 0.96746818     -110.413507
9.272                0.967394151     -110.615568
9.273                0.967320054     -110.818112
9.274                0.967245891     -111.021139
9.275                0.967171663      -111.22465
9.276                0.967097372     -111.428645
9.277                 0.96702302     -111.633124
9.278                0.966948608     -111.838089
9.279                0.966874137     -112.043539
9.28                  0.96679961     -112.249475
9.281                0.966725028     -112.455898
9.282                0.966650393     -112.662808
9.283                0.966575706     -112.870205
9.284                0.966500969      -113.07809
9.285                0.966426183     -113.286463
9.286                0.966351351     -113.495324
9.287                0.966276475     -113.704675
9.288                0.966201555     -113.914514
9.289                0.966126594     -114.124844
9.29                 0.966051593     -114.335663
9.291                0.965976555     -114.546973
9.292                0.965901482     -114.758774
9.293                0.965826374     -114.971065
9.294                0.965751234     -115.183848
9.295                0.965676064     -115.397122
9.296                0.965600866     -115.610888
9.297                0.965525642     -115.825147
9.298                0.965450393     -116.039898
9.299                0.965375122     -116.255141
9.3                  0.965299831     -116.470877
9.301                0.965224522     -116.687106
9.302                0.965149196     -116.903829
9.303                0.965073856     -117.121045
9.304                0.964998504     -117.338754
9.305                0.964923141     -117.556957
9.306                0.964847771     -117.775655
9.307                0.964772395     -117.994846
9.308                0.964697016     -118.214531
9.309                0.964621635     -118.434711
9.31                 0.964546254     -118.655386
9.311                0.964470877     -118.876554
9.312                0.964395505     -119.098217
9.313                 0.96432014     -119.320375
9.314                0.964244784     -119.543028
9.315                0.964169441     -119.766175
9.316                0.964094112     -119.989817
9.317                  0.9640188     -120.213953
9.318                0.963943507     -120.438584
9.319                0.963868235      -120.66371
9.32                 0.963792986      -120.88933
9.321                0.963717764     -121.115445
9.322                 0.96364257     -121.342054
9.323                0.963567408     -121.569158
9.324                0.963492278     -121.796755
9.325                0.963417185     -122.024847
9.326                 0.96334213     -122.253432
9.327                0.963267116     -122.482512
9.328                0.963192145     -122.712085
9.329                0.963117221     -122.942151
9.33                 0.963042345     -123.172711
9.331                 0.96296752     -123.403763
9.332                 0.96289275     -123.635308
9.333                0.962818035     -123.867346
9.334                 0.96274338     -124.099876
9.335                0.962668787     -124.332897
9.336                0.962594258     -124.566411
9.337                0.962519796     -124.800415
9.338                0.962445404      -125.03491
9.339                0.962371085     -125.269896
9.34                 0.962296841     -125.505372
9.341                0.962222676     -125.741338
9.342                0.962148591     -125.977793
9.343                0.962074591     -126.214737
9.344                0.962000677     -126.452169
9.345                0.961926852     -126.690089
9.346                 0.96185312     -126.928497
9.347                0.961779483     -127.167392
9.348                0.961705945     -127.406773
9.349                0.961632507      -127.64664
9.35                 0.961559174     -127.886992
9.351                0.961485947     -128.127829
9.352                0.961412831      -128.36915
9.353                0.961339827     -128.610955
9.354                 0.96126694     -128.853242
9.355                0.961194171     -129.096012
9.356                0.961121525     -129.339263
9.357                0.961049003     -129.582995
9.358                 0.96097661     -129.827207
9.359                0.960904348     -130.071898
9.36                 0.960832221     -130.317068
9.361                0.960760231     -130.562715
9.362                0.960688381      -130.80884
9.363                0.960616675      -131.05544
9.364                0.960545117     -131.302516
9.365                0.960473708     -131.550067
9.366                0.960402453      -131.79809
9.367                0.960331354     -132.046587
9.368                0.960260415     -132.295555
9.369                0.960189638     -132.544994
9.37                 0.960119028     -132.794903
9.371                0.960048588      -133.04528
9.372                 0.95997832     -133.296126
9.373                0.959908228     -133.547438
9.374                0.959838316     -133.799215
9.375                0.959768586     -134.051457
9.376                0.959699042     -134.304163
9.377                0.959629687     -134.557331
9.378                0.959560525      -134.81096
9.379                 0.95949156      -135.06505
9.38                 0.959422793     -135.319598
9.381                0.959354229     -135.574604
9.382                0.959285871     -135.830066
9.383                0.959217723     -136.085984
9.384                0.959149788     -136.342355
9.385                0.959082069     -136.599179
9.386                 0.95901457     -136.856454
9.387                0.958947294     -137.114179
9.388                0.958880245     -137.372352
9.389                0.958813426     -137.630973
9.39                  0.95874684     -137.890039
9.391                0.958680492      -138.14955
9.392                0.958614384     -138.409504
9.393                 0.95854852     -138.669898
9.394                0.958482904     -138.930733
9.395                0.958417538     -139.192006
9.396                0.958352427     -139.453716
