! TOUCHSTONE file generated by CST DESIGN STUDIO
! Date and time: Tue Feb  4 18:26:21 2025
! Project name: C:\Work\MatlabApps\UnitCellOptimizationMatlab\CST\unitcell.cst
! Tree item: Tasks\Sweep1\SPara1\S-Parameters
! Header version: 2024
! Port assignment regex: !\s*Touchstone port\s*([0-9]+)\s*=\s*(CST MWS port|CST DES external port|CST DES block port)\s*(.+)\s* \(\"(.*)\"\)(\s*mode\s*([0-9]+))?.*
! Touchstone port assignment:
! Touchstone port 1 = CST DES external port 1 ("")
# GHz S MA R 50
9                     0.98226768     -76.7730606
9.001                0.982224415     -76.8896916
9.002                0.982181019       -77.00661
9.003                0.982137491     -77.1238165
9.004                0.982093832      -77.241312
9.005                 0.98205004     -77.3590974
9.006                0.982006116     -77.4771736
9.007                0.981962059     -77.5955413
9.008                0.981917869     -77.7142014
9.009                0.981873546     -77.8331548
9.01                 0.981829089     -77.9524024
9.011                0.981784499      -78.071945
9.012                0.981739774     -78.1917834
9.013                0.981694915     -78.3119186
9.014                0.981649922     -78.4323515
9.015                0.981604793     -78.5530827
9.016                 0.98155953     -78.6741134
9.017                0.981514131     -78.7954443
9.018                0.981468596     -78.9170762
9.019                0.981422925     -79.0390102
9.02                 0.981377119      -79.161247
9.021                0.981331175     -79.2837875
9.022                0.981285095     -79.4066326
9.023                0.981238878     -79.5297833
9.024                0.981192524     -79.6532403
9.025                0.981146033     -79.7770046
9.026                0.981099404     -79.9010771
9.027                0.981052636     -80.0254586
9.028                0.981005731       -80.15015
9.029                0.980958687     -80.2751523
9.03                 0.980911505     -80.4004663
9.031                0.980864183      -80.526093
9.032                0.980816723     -80.6520332
9.033                0.980769123     -80.7782878
9.034                0.980721383     -80.9048577
9.035                0.980673504     -81.0317439
9.036                0.980625485     -81.1589472
9.037                0.980577325     -81.2864686
9.038                0.980529025     -81.4143089
9.039                0.980480584     -81.5424691
9.04                 0.980432002       -81.67095
9.041                0.980383279     -81.7997527
9.042                0.980334415     -81.9288779
9.043                0.980285409     -82.0583267
9.044                0.980236261     -82.1880999
9.045                0.980186971     -82.3181984
9.046                0.980137539     -82.4486233
9.047                0.980087965     -82.5793753
9.048                0.980038248     -82.7104554
9.049                0.979988388     -82.8418646
9.05                 0.979938386     -82.9736038
9.051                 0.97988824     -83.1056739
9.052                0.979837951     -83.2380757
9.053                0.979787518     -83.3708104
9.054                0.979736941     -83.5038787
9.055                0.979686221     -83.6372816
9.056                0.979635357     -83.7710201
9.057                0.979584348     -83.9050951
9.058                0.979533195     -84.0395075
9.059                0.979481898     -84.1742583
9.06                 0.979430456     -84.3093483
9.061                0.979378868     -84.4447786
9.062                0.979327136     -84.5805501
9.063                0.979275259     -84.7166636
9.064                0.979223236     -84.8531203
9.065                0.979171068     -84.9899209
9.066                0.979118755     -85.1270665
9.067                0.979066295      -85.264558
9.068                 0.97901369     -85.4023963
9.069                0.978960939     -85.5405824
9.07                 0.978908041     -85.6791173
9.071                0.978854998     -85.8180018
9.072                0.978801808      -85.957237
9.073                0.978748471     -86.0968237
9.074                0.978694988      -86.236763
9.075                0.978641359     -86.3770558
9.076                0.978587582      -86.517703
9.077                0.978533659     -86.6587056
9.078                0.978479589     -86.8000646
9.079                0.978425371     -86.9417809
9.08                 0.978371007     -87.0838554
9.081                0.978316495     -87.2262892
9.082                0.978261837     -87.3690831
9.083                 0.97820703     -87.5122382
9.084                0.978152077     -87.6557554
9.085                0.978096976     -87.7996356
9.086                0.978041727     -87.9438799
9.087                0.977986331     -88.0884891
9.088                0.977930787     -88.2334642
9.089                0.977875096     -88.3788062
9.09                 0.977819257     -88.5245161
9.091                 0.97776327     -88.6705948
9.092                0.977707136     -88.8170433
9.093                0.977650853     -88.9638625
9.094                0.977594424     -89.1110534
9.095                0.977537846      -89.258617
9.096                 0.97748112     -89.4065542
9.097                0.977424247      -89.554866
9.098                0.977367226     -89.7035533
9.099                0.977310057     -89.8526171
9.1                  0.977252741     -90.0020584
9.101                0.977195277     -90.1518782
9.102                0.977137665     -90.3020773
9.103                0.977079906     -90.4526568
9.104                0.977021999     -90.6036176
9.105                0.976963945     -90.7549607
9.106                0.976905743     -90.9066871
9.107                0.976847394     -91.0587976
9.108                0.976788897     -91.2112933
9.109                0.976730253     -91.3641751
9.11                 0.976671463     -91.5174441
9.111                0.976612525      -91.671101
9.112                 0.97655344      -91.825147
9.113                0.976494208     -91.9795829
9.114                0.976434829     -92.1344098
9.115                0.976375304     -92.2896285
9.116                0.976315633       -92.44524
9.117                0.976255815     -92.6012453
9.118                0.976195851     -92.7576454
9.119                 0.97613574     -92.9144412
9.12                 0.976075484     -93.0716336
9.121                0.976015082     -93.2292236
9.122                0.975954535     -93.3872122
9.123                0.975893842     -93.5456003
9.124                0.975833004     -93.7043888
9.125                 0.97577202     -93.8635787
9.126                0.975710892     -94.0231709
9.127                 0.97564962     -94.1831665
9.128                0.975588203     -94.3435663
9.129                0.975526641     -94.5043712
9.13                 0.975464936     -94.6655823
9.131                0.975403087     -94.8272004
9.132                0.975341095     -94.9892266
9.133                0.975278959     -95.1516616
9.134                0.975216681     -95.3145066
9.135                 0.97515426     -95.4777623
9.136                0.975091696     -95.6414297
9.137                0.975028991     -95.8055099
9.138                0.974966143     -95.9700036
9.139                0.974903155     -96.1349118
9.14                 0.974840025     -96.3002355
9.141                0.974776754     -96.4659755
9.142                0.974713343     -96.6321328
9.143                0.974649791     -96.7987083
9.144                  0.9745861     -96.9657029
9.145                 0.97452227     -97.1331176
9.146                  0.9744583     -97.3009531
9.147                0.974394192     -97.4692106
9.148                0.974329945     -97.6378908
9.149                0.974265561     -97.8069946
9.15                  0.97420104      -97.976523
9.151                0.974136381     -98.1464768
9.152                0.974071586      -98.316857
9.153                0.974006654     -98.4876645
9.154                0.973941588     -98.6589001
9.155                0.973876385     -98.8305647
9.156                0.973811049     -99.0026592
9.157                0.973745578     -99.1751844
9.158                0.973679973     -99.3481414
9.159                0.973614235     -99.5215309
9.16                 0.973548365     -99.6953537
9.161                0.973482362     -99.8696109
9.162                0.973416228     -100.044303
9.163                0.973349963     -100.219431
9.164                0.973283567     -100.394997
9.165                0.973217041     -100.570999
9.166                0.973150387     -100.747441
9.167                0.973083603     -100.924322
9.168                0.973016692     -101.101643
9.169                0.972949653     -101.279405
9.17                 0.972882487     -101.457609
9.171                0.972815195     -101.636256
9.172                0.972747778     -101.815346
9.173                0.972680235     -101.994881
9.174                0.972612569      -102.17486
9.175                0.972544779     -102.355286
9.176                0.972476867     -102.536159
9.177                0.972408833      -102.71748
9.178                0.972340677     -102.899248
9.179                0.972272401     -103.081466
9.18                 0.972204005     -103.264134
9.181                 0.97213549     -103.447253
9.182                0.972066858     -103.630824
9.183                0.971998107     -103.814846
9.184                0.971929241     -103.999322
9.185                0.971860258     -104.184252
9.186                0.971791161     -104.369636
9.187                 0.97172195     -104.555476
9.188                0.971652626     -104.741771
9.189                0.971583189     -104.928524
9.19                 0.971513642     -105.115734
9.191                0.971443984     -105.303403
9.192                0.971374216      -105.49153
9.193                 0.97130434     -105.680117
9.194                0.971234356     -105.869165
9.195                0.971164266     -106.058674
9.196                 0.97109407     -106.248645
9.197                 0.97102377     -106.439078
9.198                0.970953366     -106.629975
9.199                0.970882859     -106.821335
9.2                  0.970812252      -107.01316
9.201                0.970741543      -107.20545
9.202                0.970670735     -107.398207
9.203                 0.97059983     -107.591429
9.204                0.970528826     -107.785119
9.205                0.970457727     -107.979277
9.206                0.970386533     -108.173903
9.207                0.970315246     -108.368998
9.208                0.970243866     -108.564563
9.209                0.970172394     -108.760598
9.21                 0.970100832     -108.957104
9.211                0.970029182     -109.154082
9.212                0.969957443     -109.351531
9.213                0.969885619     -109.549453
9.214                0.969813709     -109.747849
9.215                0.969741715     -109.946718
9.216                0.969669639     -110.146061
9.217                0.969597481     -110.345879
9.218                0.969525244     -110.546173
9.219                0.969452927     -110.746942
9.22                 0.969380534     -110.948188
9.221                0.969308065     -111.149911
9.222                0.969235522     -111.352111
9.223                0.969162905     -111.554788
9.224                0.969090217     -111.757945
9.225                0.969017459      -111.96158
9.226                0.968944632     -112.165694
9.227                0.968871738     -112.370288
9.228                0.968798779     -112.575362
9.229                0.968725755     -112.780916
9.23                 0.968652669     -112.986952
9.231                0.968579521     -113.193469
9.232                0.968506315     -113.400467
9.233                 0.96843305     -113.607948
9.234                 0.96835973     -113.815911
9.235                0.968286354     -114.024357
9.236                0.968212926     -114.233287
9.237                0.968139446       -114.4427
9.238                0.968065917     -114.652597
9.239                 0.96799234     -114.862978
9.24                 0.967918717     -115.073844
9.241                0.967845049     -115.285194
9.242                0.967771339      -115.49703
9.243                0.967697588     -115.709351
9.244                0.967623798     -115.922157
9.245                 0.96754997      -116.13545
9.246                0.967476107     -116.349228
9.247                 0.96740221     -116.563493
9.248                0.967328282     -116.778245
9.249                0.967254323     -116.993483
9.25                 0.967180337     -117.209208
9.251                0.967106325      -117.42542
9.252                0.967032289      -117.64212
9.253                 0.96695823     -117.859307
9.254                0.966884151     -118.076981
9.255                0.966810055     -118.295144
9.256                0.966735942     -118.513794
9.257                0.966661815     -118.732932
9.258                0.966587676     -118.952558
9.259                0.966513527     -119.172671
9.26                  0.96643937     -119.393273
9.261                0.966365207     -119.614364
9.262                 0.96629104     -119.835942
9.263                0.966216873     -120.058008
9.264                0.966142705     -120.280563
9.265                0.966068541     -120.503606
9.266                0.965994382     -120.727136
9.267                 0.96592023     -120.951155
9.268                0.965846088     -121.175662
9.269                0.965771957     -121.400657
9.27                  0.96569784      -121.62614
9.271                 0.96562374      -121.85211
9.272                0.965549659     -122.078568
9.273                0.965475598     -122.305513
9.274                0.965401561     -122.532946
9.275                 0.96532755     -122.760866
9.276                0.965253566     -122.989273
9.277                0.965179614     -123.218166
9.278                0.965105694     -123.447546
9.279                 0.96503181     -123.677412
9.28                 0.964957963     -123.907765
9.281                0.964884157     -124.138603
9.282                0.964810394     -124.369927
9.283                0.964736676     -124.601735
9.284                0.964663006     -124.834029
9.285                0.964589387     -125.066807
9.286                0.964515821      -125.30007
9.287                 0.96444231     -125.533816
9.288                0.964368858     -125.768046
9.289                0.964295466     -126.002758
9.29                 0.964222138     -126.237954
9.291                0.964148876     -126.473631
9.292                0.964075683      -126.70979
9.293                0.964002562      -126.94643
9.294                0.963929515     -127.183552
9.295                0.963856545     -127.421153
9.296                0.963783655     -127.659234
9.297                0.963710847     -127.897794
9.298                0.963638125     -128.136833
9.299                 0.96356549     -128.376349
9.3                  0.963492947     -128.616343
9.301                0.963420497     -128.856814
9.302                0.963348144     -129.097761
9.303                0.963275891     -129.339184
9.304                0.963203739     -129.581081
9.305                0.963131693     -129.823452
9.306                0.963059756     -130.066297
9.307                0.962987929     -130.309614
9.308                0.962916216     -130.553403
9.309                 0.96284462     -130.797663
9.31                 0.962773145     -131.042393
9.311                0.962701792     -131.287593
9.312                0.962630565     -131.533261
9.313                0.962559467     -131.779398
9.314                0.962488501     -132.026001
9.315                 0.96241767      -132.27307
9.316                0.962346978     -132.520604
9.317                0.962276426     -132.768602
9.318                0.962206019     -133.017063
9.319                0.962135759     -133.265986
9.32                  0.96206565     -133.515371
9.321                0.961995694     -133.765216
9.322                0.961925895     -134.015519
9.323                0.961856256     -134.266281
9.324                0.961786779       -134.5175
9.325                 0.96171747     -134.769174
9.326                0.961648329     -135.021304
9.327                0.961579361     -135.273886
9.328                0.961510569     -135.526921
9.329                0.961441956     -135.780407
9.33                 0.961373526     -136.034344
9.331                0.961305281     -136.288728
9.332                0.961237224     -136.543561
9.333                 0.96116936     -136.798839
9.334                0.961101691     -137.054562
9.335                0.961034221     -137.310729
9.336                0.960966952     -137.567338
9.337                0.960899889     -137.824388
9.338                0.960833034     -138.081877
9.339                0.960766391     -138.339804
9.34                 0.960699963     -138.598167
9.341                0.960633754     -138.856966
9.342                0.960567766     -139.116198
9.343                0.960502004     -139.375863
9.344                 0.96043647     -139.635958
9.345                0.960371168     -139.896482
9.346                0.960306101     -140.157433
9.347                0.960241273      -140.41881
9.348                0.960176687     -140.680611
9.349                0.960112346     -140.942835
9.35                 0.960048254      -141.20548
9.351                0.959984414     -141.468544
9.352                 0.95992083     -141.732026
9.353                0.959857504     -141.995923
9.354                0.959794441     -142.260234
9.355                0.959731644     -142.524958
9.356                0.959669116     -142.790091
9.357                 0.95960686     -143.055634
9.358                 0.95954488     -143.321583
9.359                 0.95948318     -143.587937
9.36                 0.959421762     -143.854694
9.361                0.959360631     -144.121852
9.362                0.959299789      -144.38941
9.363                 0.95923924     -144.657364
9.364                0.959178988     -144.925713
9.365                0.959119036     -145.194456
9.366                0.959059386      -145.46359
9.367                0.959000044     -145.733112
9.368                0.958941011     -146.003022
9.369                0.958882292     -146.273317
9.37                  0.95882389     -146.543994
9.371                0.958765808     -146.815052
9.372                 0.95870805     -147.086488
9.373                0.958650619     -147.358301
9.374                0.958593518     -147.630487
9.375                0.958536751     -147.903046
9.376                0.958480321     -148.175973
9.377                0.958424232     -148.449268
9.378                0.958368487     -148.722928
9.379                0.958313089     -148.996951
9.38                 0.958258041     -149.271333
9.381                0.958203348     -149.546074
9.382                0.958149012      -149.82117
9.383                0.958095036     -150.096619
9.384                0.958041424     -150.372418
9.385                 0.95798818     -150.648566
9.386                0.957935306     -150.925059
9.387                0.957882806     -151.201895
9.388                0.957830683     -151.479072
9.389                 0.95777894     -151.756587
9.39                  0.95772758     -152.034437
9.391                0.957676608      -152.31262
9.392                0.957626025     -152.591133
9.393                0.957575836     -152.869974
9.394                0.957526043      -153.14914
9.395                 0.95747665     -153.428628
9.396                0.957427659     -153.708435
