! TOUCHSTONE file generated by CST DESIGN STUDIO
! Date and time: Tue Feb  4 18:26:18 2025
! Project name: C:\Work\MatlabApps\UnitCellOptimizationMatlab\CST\unitcell.cst
! Tree item: Tasks\Sweep1\SPara1\S-Parameters
! Header version: 2024
! Port assignment regex: !\s*Touchstone port\s*([0-9]+)\s*=\s*(CST MWS port|CST DES external port|CST DES block port)\s*(.+)\s* \(\"(.*)\"\)(\s*mode\s*([0-9]+))?.*
! Touchstone port assignment:
! Touchstone port 1 = CST DES external port 1 ("")
# GHz S MA R 50
9                    0.982003191     -79.4440599
9.001                 0.98195795     -79.5671023
9.002                0.981912573     -79.6904504
9.003                0.981867061     -79.8141051
9.004                0.981821412     -79.9380674
9.005                0.981775626     -80.0623381
9.006                0.981729704     -80.1869181
9.007                0.981683644     -80.3118083
9.008                0.981637448     -80.4370096
9.009                0.981591114     -80.5625229
9.01                 0.981544642      -80.688349
9.011                0.981498032      -80.814489
9.012                0.981451284     -80.9409436
9.013                0.981404398     -81.0677138
9.014                0.981357373     -81.1948005
9.015                0.981310209     -81.3222046
9.016                0.981262906      -81.449927
9.017                0.981215463     -81.5779685
9.018                0.981167881     -81.7063302
9.019                0.981120159     -81.8350129
9.02                 0.981072297     -81.9640175
9.021                0.981024294      -82.093345
9.022                0.980976152     -82.2229962
9.023                0.980927868     -82.3529721
9.024                0.980879444     -82.4832736
9.025                0.980830878     -82.6139016
9.026                0.980782171      -82.744857
9.027                0.980733322     -82.8761407
9.028                0.980684332     -83.0077537
9.029                  0.9806352      -83.139697
9.03                 0.980585926     -83.2719713
9.031                0.980536509     -83.4045777
9.032                 0.98048695      -83.537517
9.033                0.980437248     -83.6707903
9.034                0.980387403     -83.8043984
9.035                0.980337415     -83.9383422
9.036                0.980287284     -84.0726228
9.037                 0.98023701      -84.207241
9.038                0.980186592     -84.3421977
9.039                 0.98013603      -84.477494
9.04                 0.980085324     -84.6131306
9.041                0.980034474     -84.7491087
9.042                 0.97998348     -84.8854291
9.043                0.979932341     -85.0220927
9.044                0.979881058     -85.1591005
9.045                 0.97982963     -85.2964535
9.046                0.979778057     -85.4341526
9.047                0.979726339     -85.5721987
9.048                0.979674477     -85.7105927
9.049                0.979622468     -85.8493357
9.05                 0.979570315     -85.9884285
9.051                0.979518016     -86.1278722
9.052                0.979465571     -86.2676676
9.053                0.979412981     -86.4078157
9.054                0.979360244     -86.5483175
9.055                0.979307362     -86.6891738
9.056                0.979254333     -86.8303858
9.057                0.979201159     -86.9719543
9.058                0.979147838     -87.1138802
9.059                0.979094371     -87.2561646
9.06                 0.979040757     -87.3988083
9.061                0.978986996     -87.5418123
9.062                0.978933089     -87.6851777
9.063                0.978879036     -87.8289053
9.064                0.978824835     -87.9729961
9.065                0.978770488      -88.117451
9.066                0.978715994      -88.262271
9.067                0.978661352     -88.4074571
9.068                0.978606564     -88.5530103
9.069                0.978551629     -88.6989314
9.07                 0.978496547     -88.8452214
9.071                0.978441317     -88.9918814
9.072                 0.97838594     -89.1389122
9.073                0.978330416     -89.2863148
9.074                0.978274745     -89.4340902
9.075                0.978218927     -89.5822393
9.076                0.978162962     -89.7307631
9.077                0.978106849     -89.8796625
9.078                0.978050589     -90.0289386
9.079                0.977994181     -90.1785922
9.08                 0.977937627     -90.3286244
9.081                0.977880925      -90.479036
9.082                0.977824076     -90.6298281
9.083                0.977767081     -90.7810016
9.084                0.977709937     -90.9325575
9.085                0.977652647     -91.0844966
9.086                 0.97759521     -91.2368201
9.087                0.977537626     -91.3895287
9.088                0.977479895     -91.5426236
9.089                0.977422017     -91.6961056
9.09                 0.977363993     -91.8499757
9.091                0.977305821     -92.0042348
9.092                0.977247504     -92.1588839
9.093                0.977189039     -92.3139241
9.094                0.977130429     -92.4693561
9.095                0.977071672      -92.625181
9.096                0.977012769     -92.7813997
9.097                0.976953719     -92.9380131
9.098                0.976894524     -93.0950223
9.099                0.976835184     -93.2524281
9.1                  0.976775697     -93.4102316
9.101                0.976716065     -93.5684336
9.102                0.976656288     -93.7270351
9.103                0.976596366     -93.8860371
9.104                0.976536298     -94.0454405
9.105                0.976476086     -94.2052462
9.106                0.976415729     -94.3654551
9.107                0.976355228     -94.5260683
9.108                0.976294583     -94.6870867
9.109                0.976233794     -94.8485111
9.11                 0.976172861     -95.0103425
9.111                0.976111784     -95.1725819
9.112                0.976050564     -95.3352302
9.113                0.975989201     -95.4982883
9.114                0.975927696     -95.6617572
9.115                0.975866047     -95.8256377
9.116                0.975804257     -95.9899308
9.117                0.975742325     -96.1546375
9.118                0.975680251     -96.3197585
9.119                0.975618035      -96.485295
9.12                 0.975555678     -96.6512477
9.121                0.975493181     -96.8176176
9.122                0.975430543     -96.9844056
9.123                0.975367766     -97.1516126
9.124                0.975304848     -97.3192396
9.125                0.975241791     -97.4872873
9.126                0.975178595     -97.6557568
9.127                0.975115261     -97.8246489
9.128                0.975051788     -97.9939646
9.129                0.974988177     -98.1637046
9.13                 0.974924429       -98.33387
9.131                0.974860544     -98.5044616
9.132                0.974796522     -98.6754803
9.133                0.974732364     -98.8469269
9.134                 0.97466807     -99.0188024
9.135                0.974603641     -99.1911076
9.136                0.974539077     -99.3638434
9.137                0.974474379     -99.5370107
9.138                0.974409546     -99.7106104
9.139                0.974344581     -99.8846432
9.14                 0.974279483      -100.05911
9.141                0.974214252     -100.234012
9.142                 0.97414889      -100.40935
9.143                0.974083396     -100.585124
9.144                0.974017771     -100.761336
9.145                0.973952017     -100.937986
9.146                0.973886133     -101.115075
9.147                 0.97382012     -101.292604
9.148                0.973753978     -101.470574
9.149                0.973687709     -101.648986
9.15                 0.973621313      -101.82784
9.151                 0.97355479     -102.007137
9.152                0.973488141     -102.186879
9.153                0.973421367     -102.367065
9.154                0.973354469     -102.547697
9.155                0.973287447     -102.728776
9.156                0.973220301     -102.910302
9.157                0.973153033     -103.092276
9.158                0.973085644     -103.274699
9.159                0.973018134     -103.457571
9.16                 0.972950503     -103.640894
9.161                0.972882753     -103.824668
9.162                0.972814884     -104.008895
9.163                0.972746898     -104.193574
9.164                0.972678794     -104.378706
9.165                0.972610574     -104.564293
9.166                0.972542239     -104.750334
9.167                0.972473789     -104.936832
9.168                0.972405225     -105.123785
9.169                0.972336548     -105.311196
9.17                  0.97226776     -105.499065
9.171                 0.97219886     -105.687393
9.172                 0.97212985     -105.876179
9.173                0.972060731     -106.065426
9.174                0.971991504     -106.255134
9.175                0.971922169     -106.445302
9.176                0.971852728     -106.635933
9.177                0.971783182     -106.827027
9.178                0.971713531     -107.018584
9.179                0.971643777     -107.210605
9.18                  0.97157392     -107.403091
9.181                0.971503963     -107.596042
9.182                0.971433904      -107.78946
9.183                0.971363747     -107.983343
9.184                0.971293492     -108.177695
9.185                 0.97122314     -108.372514
9.186                0.971152691     -108.567801
9.187                0.971082149     -108.763558
9.188                0.971011512     -108.959784
9.189                0.970940783     -109.156481
9.19                 0.970869963     -109.353648
9.191                0.970799053     -109.551287
9.192                0.970728055     -109.749398
9.193                0.970656968     -109.947982
9.194                0.970585796     -110.147038
9.195                0.970514538     -110.346569
9.196                0.970443196     -110.546573
9.197                0.970371772     -110.747052
9.198                0.970300267     -110.948006
9.199                0.970228682     -111.149436
9.2                  0.970157019     -111.351342
9.201                0.970085278     -111.553725
9.202                0.970013462     -111.756585
9.203                0.969941571     -111.959922
9.204                0.969869608     -112.163737
9.205                0.969797573     -112.368031
9.206                0.969725467     -112.572804
9.207                0.969653294     -112.778057
9.208                0.969581053     -112.983789
9.209                0.969508746     -113.190001
9.21                 0.969436376     -113.396693
9.211                0.969363943     -113.603867
9.212                0.969291449     -113.811522
9.213                0.969218895     -114.019659
9.214                0.969146284     -114.228278
9.215                0.969073616     -114.437379
9.216                0.969000894     -114.646962
9.217                0.968928119     -114.857029
9.218                0.968855293     -115.067579
9.219                0.968782417     -115.278613
9.22                 0.968709493     -115.490131
9.221                0.968636522     -115.702133
9.222                0.968563507     -115.914619
9.223                 0.96849045      -116.12759
9.224                0.968417351     -116.341046
9.225                0.968344214     -116.554987
9.226                0.968271039     -116.769413
9.227                0.968197828     -116.984325
9.228                0.968124584     -117.199723
9.229                0.968051307     -117.415607
9.23                 0.967978001     -117.631977
9.231                0.967904667     -117.848833
9.232                0.967831306     -118.066175
9.233                0.967757921     -118.284004
9.234                0.967684514     -118.502319
9.235                0.967611087     -118.721121
9.236                0.967537641      -118.94041
9.237                0.967464179     -119.160186
9.238                0.967390702     -119.380449
9.239                0.967317213     -119.601199
9.24                 0.967243714     -119.822435
9.241                0.967170207     -120.044159
9.242                0.967096694     -120.266369
9.243                0.967023177     -120.489067
9.244                0.966949658     -120.712252
9.245                 0.96687614     -120.935923
9.246                0.966802624     -121.160081
9.247                0.966729113     -121.384726
9.248                0.966655608     -121.609858
9.249                0.966582113     -121.835476
9.25                  0.96650863     -122.061581
9.251                 0.96643516     -122.288172
9.252                0.966361706     -122.515249
9.253                 0.96628827     -122.742812
9.254                0.966214855     -122.970861
9.255                0.966141463     -123.199396
9.256                0.966068096     -123.428416
9.257                0.965994757     -123.657921
9.258                0.965921447     -123.887911
9.259                0.965848171     -124.118386
9.26                 0.965774929     -124.349345
9.261                0.965701725     -124.580788
9.262                 0.96562856     -124.812715
9.263                0.965555438     -125.045126
9.264                 0.96548236     -125.278019
9.265                 0.96540933     -125.511395
9.266                 0.96533635     -125.745254
9.267                0.965263422     -125.979594
9.268                0.965190549     -126.214416
9.269                0.965117734      -126.44972
9.27                 0.965044979     -126.685503
9.271                0.964972287     -126.921767
9.272                 0.96489966     -127.158511
9.273                0.964827101     -127.395734
9.274                0.964754613     -127.633435
9.275                0.964682199     -127.871614
9.276                0.964609861     -128.110271
9.277                0.964537601     -128.349405
9.278                0.964465424     -128.589016
9.279                0.964393331     -128.829102
9.28                 0.964321325     -129.069663
9.281                0.964249409     -129.310699
9.282                0.964177586     -129.552208
9.283                0.964105858      -129.79419
9.284                0.964034229     -130.036645
9.285                0.963962702     -130.279572
9.286                0.963891278     -130.522969
9.287                0.963819962     -130.766836
9.288                0.963748756     -131.011173
9.289                0.963677662     -131.255978
9.29                 0.963606684     -131.501251
9.291                0.963535826     -131.746991
9.292                0.963465089     -131.993197
9.293                0.963394476     -132.239867
9.294                0.963323992     -132.487002
9.295                0.963253638       -132.7346
9.296                0.963183418      -132.98266
9.297                0.963113334     -133.231182
9.298                0.963043391     -133.480164
9.299                 0.96297359     -133.729605
9.3                  0.962903935     -133.979504
9.301                 0.96283443      -134.22986
9.302                0.962765076     -134.480673
9.303                0.962695878      -134.73194
9.304                0.962626837     -134.983662
9.305                0.962557959     -135.235836
9.306                0.962489245     -135.488461
9.307                0.962420699     -135.741537
9.308                0.962352324     -135.995062
9.309                0.962284122     -136.249035
9.31                 0.962216099     -136.503455
9.311                0.962148255      -136.75832
9.312                0.962080596     -137.013629
9.313                0.962013123     -137.269381
9.314                0.961945841     -137.525574
9.315                0.961878751     -137.782207
9.316                0.961811859     -138.039279
9.317                0.961745166     -138.296789
9.318                0.961678677     -138.554734
9.319                0.961612394     -138.813113
9.32                  0.96154632     -139.071926
9.321                 0.96148046      -139.33117
9.322                0.961414816     -139.590843
9.323                0.961349391     -139.850946
9.324                0.961284189     -140.111475
9.325                0.961219214     -140.372429
9.326                0.961154468     -140.633807
9.327                0.961089954     -140.895606
9.328                0.961025677     -141.157826
9.329                 0.96096164     -141.420465
9.33                 0.960897845     -141.683521
9.331                0.960834296     -141.946992
9.332                0.960770997     -142.210876
9.333                0.960707951     -142.475172
9.334                0.960645161     -142.739878
9.335                 0.96058263     -143.004992
9.336                0.960520363     -143.270513
9.337                0.960458361     -143.536437
9.338                 0.96039663     -143.802765
9.339                0.960335171     -144.069492
9.34                 0.960273988     -144.336619
9.341                0.960213086     -144.604142
9.342                0.960152466      -144.87206
9.343                0.960092133     -145.140371
9.344                 0.96003209     -145.409073
9.345                0.959972339     -145.678163
9.346                0.959912886      -145.94764
9.347                0.959853732     -146.217501
9.348                0.959794881     -146.487745
9.349                0.959736337     -146.758369
9.35                 0.959678103     -147.029371
9.351                0.959620183     -147.300749
9.352                0.959562579     -147.572501
9.353                0.959505294     -147.844625
9.354                0.959448333     -148.117118
9.355                0.959391699     -148.389977
9.356                0.959335395     -148.663202
9.357                0.959279424     -148.936788
9.358                0.959223789     -149.210735
9.359                0.959168494      -149.48504
9.36                 0.959113543       -149.7597
9.361                0.959058938     -150.034712
9.362                0.959004683     -150.310075
9.363                 0.95895078     -150.585787
9.364                0.958897234     -150.861843
9.365                0.958844047     -151.138243
9.366                0.958791224     -151.414983
9.367                0.958738766     -151.692062
9.368                0.958686677     -151.969475
9.369                0.958634961     -152.247222
9.37                  0.95858362     -152.525298
9.371                0.958532658     -152.803703
9.372                0.958482078     -153.082432
9.373                0.958431883     -153.361484
9.374                0.958382076     -153.640855
9.375                0.958332661     -153.920543
9.376                 0.95828364     -154.200545
9.377                0.958235017     -154.480858
9.378                0.958186794     -154.761481
9.379                0.958138976     -155.042408
9.38                 0.958091563     -155.323639
9.381                0.958044561     -155.605171
9.382                0.957997972     -155.886999
9.383                0.957951798     -156.169122
9.384                0.957906044     -156.451536
9.385                0.957860711     -156.734239
9.386                0.957815802     -157.017228
9.387                0.957771322     -157.300499
9.388                0.957727272      -157.58405
9.389                0.957683655     -157.867878
9.39                 0.957640475     -158.151979
9.391                0.957597733     -158.436351
9.392                0.957555434     -158.720991
9.393                 0.95751358     -159.005895
9.394                0.957472173     -159.291061
9.395                0.957431216     -159.576485
9.396                0.957390712     -159.862164
