! TOUCHSTONE file generated by CST DESIGN STUDIO
! Date and time: Tue Feb  4 18:23:12 2025
! Project name: C:\Work\MatlabApps\UnitCellOptimizationMatlab\CST\unitcell.cst
! Tree item: Tasks\Sweep1\SPara1\S-Parameters
! Header version: 2024
! Port assignment regex: !\s*Touchstone port\s*([0-9]+)\s*=\s*(CST MWS port|CST DES external port|CST DES block port)\s*(.+)\s* \(\"(.*)\"\)(\s*mode\s*([0-9]+))?.*
! Touchstone port assignment:
! Touchstone port 1 = CST DES external port 1 ("")
# GHz S MA R 50
9                    0.962330616     -57.5693328
9.001                0.962247903     -57.6474459
9.002                0.962164922     -57.7257375
9.003                0.962081673      -57.804208
9.004                0.961998155      -57.882858
9.005                0.961914366     -57.9616881
9.006                0.961830306      -58.040699
9.007                0.961745974     -58.1198911
9.008                 0.96166137      -58.199265
9.009                0.961576491     -58.2788214
9.01                 0.961491337     -58.3585607
9.011                0.961405908     -58.4384836
9.012                0.961320202     -58.5185907
9.013                0.961234219     -58.5988826
9.014                0.961147957     -58.6793597
9.015                0.961061416     -58.7600228
9.016                0.960974595     -58.8408725
9.017                0.960887493     -58.9219092
9.018                0.960800109     -59.0031337
9.019                0.960712441     -59.0845465
9.02                  0.96062449     -59.1661482
9.021                0.960536254     -59.2479394
9.022                0.960447733     -59.3299208
9.023                0.960358925     -59.4120929
9.024                0.960269829     -59.4944563
9.025                0.960180444     -59.5770117
9.026                0.960090771     -59.6597597
9.027                0.960000806     -59.7427009
9.028                0.959910551     -59.8258359
9.029                0.959820003     -59.9091654
9.03                 0.959729162     -59.9926899
9.031                0.959638027     -60.0764101
9.032                0.959546597     -60.1603266
9.033                 0.95945487       -60.24444
9.034                0.959362847      -60.328751
9.035                0.959270526     -60.4132603
9.036                0.959177905     -60.4979684
9.037                0.959084985      -60.582876
9.038                0.958991764     -60.6679837
9.039                0.958898241     -60.7532923
9.04                 0.958804415     -60.8388022
9.041                0.958710286     -60.9245142
9.042                0.958615851      -61.010429
9.043                0.958521111     -61.0965471
9.044                0.958426064     -61.1828693
9.045                 0.95833071     -61.2693962
9.046                0.958235047     -61.3561284
9.047                0.958139074     -61.4430667
9.048                 0.95804279     -61.5302116
9.049                0.957946195     -61.6175639
9.05                 0.957849287     -61.7051243
9.051                0.957752066     -61.7928933
9.052                0.957654529     -61.8808717
9.053                0.957556678     -61.9690602
9.054                0.957458509     -62.0574594
9.055                0.957360023       -62.14607
9.056                0.957261218     -62.2348928
9.057                0.957162094     -62.3239283
9.058                0.957062648     -62.4131773
9.059                0.956962882     -62.5026404
9.06                 0.956862792     -62.5923185
9.061                0.956762379     -62.6822121
9.062                0.956661641     -62.7723219
9.063                0.956560577     -62.8626488
9.064                0.956459186     -62.9531933
9.065                0.956357468     -63.0439561
9.066                 0.95625542     -63.1349381
9.067                0.956153043     -63.2261399
9.068                0.956050335     -63.3175622
9.069                0.955947295     -63.4092057
9.07                 0.955843922     -63.5010711
9.071                0.955740215     -63.5931593
9.072                0.955636173     -63.6854708
9.073                0.955531794     -63.7780065
9.074                0.955427079      -63.870767
9.075                0.955322025     -63.9637532
9.076                0.955216632     -64.0569656
9.077                0.955110899     -64.1504051
9.078                0.955004825     -64.2440724
9.079                0.954898408     -64.3379683
9.08                 0.954791647     -64.4320934
9.081                0.954684543     -64.5264486
9.082                0.954577092     -64.6210346
9.083                0.954469295     -64.7158521
9.084                 0.95436115     -64.8109019
9.085                0.954252657     -64.9061848
9.086                0.954143813     -65.0017015
9.087                0.954034619     -65.0974528
9.088                0.953925073     -65.1934394
9.089                0.953815174     -65.2896622
9.09                  0.95370492     -65.3861218
9.091                0.953594312     -65.4828191
9.092                0.953483347     -65.5797548
9.093                0.953372025     -65.6769298
9.094                0.953260345     -65.7743448
9.095                0.953148305     -65.8720005
9.096                0.953035904     -65.9698978
9.097                0.952923142     -66.0680375
9.098                0.952810017     -66.1664204
9.099                0.952696529     -66.2650472
9.1                  0.952582675     -66.3639188
9.101                0.952468456     -66.4630359
9.102                0.952353869     -66.5623993
9.103                0.952238915       -66.66201
9.104                0.952123591     -66.7618686
9.105                0.952007896      -66.861976
9.106                0.951891831      -66.962333
9.107                0.951775393     -67.0629404
9.108                0.951658581     -67.1637991
9.109                0.951541395     -67.2649098
9.11                 0.951423832     -67.3662735
9.111                0.951305893     -67.4678908
9.112                0.951187576     -67.5697627
9.113                 0.95106888       -67.67189
9.114                0.950949804     -67.7742735
9.115                0.950830346      -67.876914
9.116                0.950710506     -67.9798125
9.117                0.950590283     -68.0829697
9.118                0.950469675     -68.1863865
9.119                0.950348681     -68.2900637
9.12                 0.950227301     -68.3940023
9.121                0.950105533      -68.498203
9.122                0.949983376     -68.6026667
9.123                0.949860828     -68.7073944
9.124                 0.94973789     -68.8123867
9.125                0.949614559     -68.9176447
9.126                0.949490835     -69.0231691
9.127                0.949366717      -69.128961
9.128                0.949242203      -69.235021
9.129                0.949117292     -69.3413502
9.13                 0.948991983     -69.4479493
9.131                0.948866276     -69.5548194
9.132                0.948740169     -69.6619612
9.133                 0.94861366     -69.7693756
9.134                 0.94848675     -69.8770637
9.135                0.948359436     -69.9850261
9.136                0.948231717     -70.0932639
9.137                0.948103594      -70.201778
9.138                0.947975063     -70.3105692
9.139                0.947846126     -70.4196385
9.14                 0.947716779     -70.5289868
9.141                0.947587022     -70.6386149
9.142                0.947456855     -70.7485239
9.143                0.947326275     -70.8587146
9.144                0.947195282     -70.9691879
9.145                0.947063876     -71.0799448
9.146                0.946932053     -71.1909862
9.147                0.946799815      -71.302313
9.148                0.946667158     -71.4139262
9.149                0.946534084     -71.5258267
9.15                 0.946400589     -71.6380154
9.151                0.946266674     -71.7504933
9.152                0.946132337     -71.8632614
9.153                0.945997577     -71.9763205
9.154                0.945862393     -72.0896716
9.155                0.945726784     -72.2033157
9.156                0.945590749     -72.3172538
9.157                0.945454287     -72.4314868
9.158                0.945317396     -72.5460156
9.159                0.945180076     -72.6608413
9.16                 0.945042325     -72.7759647
9.161                0.944904144     -72.8913869
9.162                0.944765529     -73.0071089
9.163                0.944626481     -73.1231315
9.164                0.944486998     -73.2394559
9.165                0.944347079     -73.3560829
9.166                0.944206724     -73.4730137
9.167                0.944065931      -73.590249
9.168                0.943924699     -73.7077901
9.169                0.943783027     -73.8256377
9.17                 0.943640914      -73.943793
9.171                0.943498359     -74.0622569
9.172                0.943355361     -74.1810305
9.173                0.943211919     -74.3001148
9.174                0.943068032     -74.4195106
9.175                0.942923699     -74.5392192
9.176                0.942778918     -74.6592414
9.177                 0.94263369     -74.7795784
9.178                0.942488012      -74.900231
9.179                0.942341884     -75.0212004
9.18                 0.942195305     -75.1424876
9.181                0.942048274     -75.2640935
9.182                 0.94190079     -75.3860193
9.183                0.941752851      -75.508266
9.184                0.941604458     -75.6308346
9.185                0.941455608     -75.7537261
9.186                0.941306301     -75.8769415
9.187                0.941156536     -76.0004821
9.188                0.941006312     -76.1243486
9.189                0.940855628     -76.2485424
9.19                 0.940704484     -76.3730643
9.191                0.940552877     -76.4979154
9.192                0.940400807     -76.6230969
9.193                0.940248274     -76.7486097
9.194                0.940095276     -76.8744549
9.195                0.939941812     -77.0006336
9.196                0.939787881     -77.1271469
9.197                0.939633483     -77.2539959
9.198                0.939478617     -77.3811815
9.199                0.939323282     -77.5087049
9.2                  0.939167476     -77.6365673
9.201                0.939011199     -77.7647695
9.202                 0.93885445     -77.8933129
9.203                0.938697229     -78.0221983
9.204                0.938539533      -78.151427
9.205                0.938381364         -78.281
9.206                0.938222718     -78.4109184
9.207                0.938063597     -78.5411834
9.208                0.937903998     -78.6717959
9.209                0.937743921     -78.8027572
9.21                 0.937583366     -78.9340683
9.211                0.937422331     -79.0657304
9.212                0.937260816     -79.1977446
9.213                 0.93709882     -79.3301119
9.214                0.936936341     -79.4628335
9.215                 0.93677338     -79.5959105
9.216                0.936609935      -79.729344
9.217                0.936446007     -79.8631352
9.218                0.936281593     -79.9972852
9.219                0.936116693     -80.1317951
9.22                 0.935951307     -80.2666661
9.221                0.935785434     -80.4018993
9.222                0.935619073     -80.5374958
9.223                0.935452223     -80.6734567
9.224                0.935284884     -80.8097833
9.225                0.935117054     -80.9464766
9.226                0.934948735     -81.0835378
9.227                0.934779924     -81.2209681
9.228                 0.93461062     -81.3587685
9.229                0.934440825     -81.4969404
9.23                 0.934270536     -81.6354847
9.231                0.934099753     -81.7744027
9.232                0.933928476     -81.9136956
9.233                0.933756704     -82.0533644
9.234                0.933584436     -82.1934104
9.235                0.933411672     -82.3338348
9.236                0.933238412     -82.4746386
9.237                0.933064654     -82.6158231
9.238                0.932890398     -82.7573894
9.239                0.932715645     -82.8993388
9.24                 0.932540392     -83.0416724
9.241                 0.93236464     -83.1843913
9.242                0.932188388     -83.3274968
9.243                0.932011637     -83.4709901
9.244                0.931834384     -83.6148722
9.245                0.931656631     -83.7591445
9.246                0.931478376     -83.9038081
9.247                0.931299619     -84.0488642
9.248                 0.93112036      -84.194314
9.249                0.930940598     -84.3401587
9.25                 0.930760334     -84.4863994
9.251                0.930579566     -84.6330375
9.252                0.930398295      -84.780074
9.253                0.930216519     -84.9275102
9.254                 0.93003424     -85.0753473
9.255                0.929851456     -85.2235864
9.256                0.929668168     -85.3722289
9.257                0.929484374     -85.5212759
9.258                0.929300076     -85.6707286
9.259                0.929115272     -85.8205882
9.26                 0.928929962      -85.970856
9.261                0.928744147     -86.1215331
9.262                0.928557827     -86.2726208
9.263                   0.928371     -86.4241203
9.264                0.928183667     -86.5760327
9.265                0.927995828     -86.7283594
9.266                0.927807483     -86.8811016
9.267                0.927618632     -87.0342604
9.268                0.927429275     -87.1878371
9.269                0.927239412     -87.3418329
9.27                 0.927049042     -87.4962491
9.271                0.926858166     -87.6510868
9.272                0.926666784     -87.8063473
9.273                0.926474897     -87.9620318
9.274                0.926282503     -88.1181416
9.275                0.926089603     -88.2746778
9.276                0.925896198     -88.4316417
9.277                0.925702288     -88.5890346
9.278                0.925507872     -88.7468577
9.279                0.925312952     -88.9051121
9.28                 0.925117527     -89.0637992
9.281                0.924921597     -89.2229202
9.282                0.924725163     -89.3824762
9.283                0.924528225     -89.5424686
9.284                0.924330784     -89.7028985
9.285                 0.92413284     -89.8637673
9.286                0.923934393     -90.0250761
9.287                0.923735444     -90.1868262
9.288                0.923535993     -90.3490188
9.289                 0.92333604     -90.5116551
9.29                 0.923135587     -90.6747364
9.291                0.922934634      -90.838264
9.292                0.922733181      -91.002239
9.293                0.922531228     -91.1666626
9.294                0.922328777     -91.3315362
9.295                0.922125828      -91.496861
9.296                0.921922383     -91.6626382
9.297                 0.92171844      -91.828869
9.298                0.921514002     -91.9955546
9.299                0.921309069     -92.1626964
9.3                  0.921103641     -92.3302955
9.301                 0.92089772     -92.4983532
9.302                0.920691307     -92.6668706
9.303                0.920484402     -92.8358491
9.304                0.920277007     -93.0052898
9.305                0.920069121     -93.1751941
9.306                0.919860747      -93.345563
9.307                0.919651886     -93.5163979
9.308                0.919442537        -93.6877
9.309                0.919232703     -93.8594705
9.31                 0.919022385     -94.0317105
9.311                0.918811583     -94.2044215
9.312                0.918600299     -94.3776045
9.313                0.918388534     -94.5512607
9.314                 0.91817629     -94.7253915
9.315                0.917963567      -94.899998
9.316                0.917750367     -95.0750814
9.317                0.917536692      -95.250643
9.318                0.917322542     -95.4266839
9.319                 0.91710792     -95.6032054
9.32                 0.916892826     -95.7802087
9.321                0.916677263      -95.957695
9.322                0.916461232     -96.1356654
9.323                0.916244733     -96.3141212
9.324                 0.91602777     -96.4930636
9.325                0.915810344     -96.6724938
9.326                0.915592456      -96.852413
9.327                0.915374108     -97.0328223
9.328                0.915155303      -97.213723
9.329                0.914936041     -97.3951162
9.33                 0.914716325     -97.5770031
9.331                0.914496156     -97.7593849
9.332                0.914275537     -97.9422628
9.333                 0.91405447      -98.125638
9.334                0.913832957     -98.3095115
9.335                0.913610999     -98.4938847
9.336                0.913388599     -98.6787585
9.337                0.913165759     -98.8641343
9.338                0.912942482     -99.0500132
9.339                 0.91271877     -99.2363962
9.34                 0.912494624     -99.4232846
9.341                0.912270048     -99.6106795
9.342                0.912045043     -99.7985821
9.343                0.911819613     -99.9869934
9.344                0.911593759     -100.175915
9.345                0.911367485     -100.365347
9.346                0.911140793     -100.555291
9.347                0.910913685     -100.745749
9.348                0.910686164     -100.936721
9.349                0.910458234     -101.128209
9.35                 0.910229896     -101.320213
9.351                0.910001154     -101.512735
9.352                0.909772011     -101.705775
9.353                0.909542469     -101.899336
9.354                0.909312532     -102.093417
9.355                0.909082203     -102.288021
9.356                0.908851484     -102.483147
9.357                0.908620379     -102.678798
9.358                0.908388891     -102.874974
9.359                0.908157024     -103.071676
9.36                  0.90792478     -103.268906
9.361                0.907692164     -103.466664
9.362                0.907459178     -103.664951
9.363                0.907225826     -103.863768
9.364                0.906992112     -104.063118
9.365                0.906758039     -104.262999
9.366                0.906523611     -104.463414
9.367                0.906288832     -104.664364
9.368                0.906053705     -104.865848
9.369                0.905818234      -105.06787
9.37                 0.905582423     -105.270428
9.371                0.905346276     -105.473525
9.372                0.905109798     -105.677162
9.373                0.904872991     -105.881338
9.374                0.904635861     -106.086056
9.375                0.904398411     -106.291316
9.376                0.904160646     -106.497119
9.377                 0.90392257     -106.703467
9.378                0.903684187     -106.910359
9.379                0.903445502     -107.117796
9.38                 0.903206519     -107.325781
9.381                0.902967244     -107.534313
9.382                0.902727679     -107.743393
9.383                0.902487831     -107.953023
9.384                0.902247704     -108.163203
9.385                0.902007303     -108.373934
9.386                0.901766632     -108.585217
9.387                0.901525696     -108.797053
9.388                0.901284501     -109.009442
9.389                0.901043052     -109.222385
9.39                 0.900801353     -109.435884
9.391                0.900559411     -109.649938
9.392                0.900317229     -109.864549
9.393                0.900074814     -110.079717
9.394                0.899832171     -110.295444
9.395                0.899589306     -110.511729
9.396                0.899346223     -110.728574
