! TOUCHSTONE file generated by CST DESIGN STUDIO
! Date and time: Tue Feb  4 18:23:09 2025
! Project name: C:\Work\MatlabApps\UnitCellOptimizationMatlab\CST\unitcell.cst
! Tree item: Tasks\Sweep1\SPara1\S-Parameters
! Header version: 2024
! Port assignment regex: !\s*Touchstone port\s*([0-9]+)\s*=\s*(CST MWS port|CST DES external port|CST DES block port)\s*(.+)\s* \(\"(.*)\"\)(\s*mode\s*([0-9]+))?.*
! Touchstone port assignment:
! Touchstone port 1 = CST DES external port 1 ("")
# GHz S MA R 50
9                    0.957378695     -65.6036842
9.001                0.957275146     -65.6993269
9.002                0.957171261     -65.7952049
9.003                0.957067037     -65.8913188
9.004                0.956962475     -65.9876694
9.005                0.956857572     -66.0842575
9.006                0.956752328     -66.1810839
9.007                0.956646741     -66.2781493
9.008                0.956540811     -66.3754545
9.009                0.956434536     -66.4730003
9.01                 0.956327915     -66.5707874
9.011                0.956220947     -66.6688167
9.012                 0.95611363     -66.7670889
9.013                0.956005965     -66.8656049
9.014                0.955897948     -66.9643654
9.015                 0.95578958     -67.0633712
9.016                0.955680859     -67.1626231
9.017                0.955571784     -67.2621219
9.018                0.955462354     -67.3618685
9.019                0.955352567     -67.4618635
9.02                 0.955242423     -67.5621079
9.021                 0.95513192     -67.6626025
9.022                0.955021057      -67.763348
9.023                0.954909833     -67.8643453
9.024                0.954798247     -67.9655951
9.025                0.954686297     -68.0670984
9.026                0.954573982     -68.1688559
9.027                0.954461302     -68.2708685
9.028                0.954348255      -68.373137
9.029                0.954234839     -68.4756622
9.03                 0.954121054      -68.578445
9.031                0.954006899     -68.6814862
9.032                0.953892372     -68.7847866
9.033                0.953777471     -68.8883472
9.034                0.953662197     -68.9921686
9.035                0.953546547     -69.0962518
9.036                0.953430521     -69.2005977
9.037                0.953314117      -69.305207
9.038                0.953197334     -69.4100807
9.039                0.953080171     -69.5152196
9.04                 0.952962626     -69.6206246
9.041                0.952844699     -69.7262965
9.042                0.952726388     -69.8322362
9.043                0.952607692     -69.9384446
9.044                 0.95248861     -70.0449225
9.045                0.952369141     -70.1516708
9.046                0.952249283     -70.2586904
9.047                0.952129035     -70.3659822
9.048                0.952008397     -70.4735471
9.049                0.951887366     -70.5813859
9.05                 0.951765941     -70.6894996
9.051                0.951644122      -70.797889
9.052                0.951521908      -70.906555
9.053                0.951399296     -71.0154986
9.054                0.951276286     -71.1247205
9.055                0.951152876     -71.2342219
9.056                0.951029066     -71.3440034
9.057                0.950904854     -71.4540661
9.058                0.950780239     -71.5644108
9.059                0.950655219     -71.6750386
9.06                 0.950529794     -71.7859502
9.061                0.950403963     -71.8971466
9.062                0.950277723     -72.0086287
9.063                0.950151074     -72.1203976
9.064                0.950024015      -72.232454
9.065                0.949896545     -72.3447989
9.066                0.949768661     -72.4574332
9.067                0.949640364      -72.570358
9.068                0.949511652     -72.6835741
9.069                0.949382523     -72.7970824
9.07                 0.949252976      -72.910884
9.071                0.949123011     -73.0249797
9.072                0.948992626     -73.1393706
9.073                 0.94886182     -73.2540575
9.074                0.948730591     -73.3690414
9.075                0.948598939     -73.4843233
9.076                0.948466861     -73.5999042
9.077                0.948334358     -73.7157849
9.078                0.948201428     -73.8319665
9.079                 0.94806807       -73.94845
9.08                 0.947934281     -74.0652363
9.081                0.947800062     -74.1823264
9.082                0.947665412     -74.2997212
9.083                0.947530328     -74.4174218
9.084                 0.94739481     -74.5354291
9.085                0.947258856     -74.6537441
9.086                0.947122466     -74.7723679
9.087                0.946985637     -74.8913013
9.088                 0.94684837     -75.0105454
9.089                0.946710663     -75.1301012
9.09                 0.946572514     -75.2499697
9.091                0.946433923     -75.3701519
9.092                0.946294888     -75.4906488
9.093                0.946155409     -75.6114613
9.094                0.946015483     -75.7325906
9.095                0.945875111     -75.8540376
9.096                 0.94573429     -75.9758034
9.097                0.945593019     -76.0978889
9.098                0.945451298     -76.2202952
9.099                0.945309126     -76.3430233
9.1                    0.9451665     -76.4660742
9.101                0.945023421      -76.589449
9.102                0.944879886     -76.7131486
9.103                0.944735896     -76.8371742
9.104                0.944591448     -76.9615268
9.105                0.944446541     -77.0862073
9.106                0.944301175     -77.2112169
9.107                0.944155349     -77.3365565
9.108                 0.94400906     -77.4622273
9.109                0.943862309     -77.5882303
9.11                 0.943715094     -77.7145665
9.111                0.943567414      -77.841237
9.112                0.943419268     -77.9682429
9.113                0.943270654     -78.0955851
9.114                0.943121573     -78.2232648
9.115                0.942972022      -78.351283
9.116                0.942822001     -78.4796409
9.117                0.942671508     -78.6083394
9.118                0.942520543     -78.7373796
9.119                0.942369105     -78.8667627
9.12                 0.942217192     -78.9964896
9.121                0.942064804     -79.1265616
9.122                0.941911939     -79.2569795
9.123                0.941758596     -79.3877446
9.124                0.941604775      -79.518858
9.125                0.941450475     -79.6503206
9.126                0.941295694     -79.7821337
9.127                0.941140432     -79.9142982
9.128                0.940984687     -80.0468154
9.129                0.940828459     -80.1796862
9.13                 0.940671746     -80.3129118
9.131                0.940514548     -80.4464933
9.132                0.940356864     -80.5804319
9.133                0.940198693     -80.7147285
9.134                0.940040033     -80.8493844
9.135                0.939880885     -80.9844006
9.136                0.939721247     -81.1197782
9.137                0.939561118     -81.2555184
9.138                0.939400497     -81.3916223
9.139                0.939239384     -81.5280909
9.14                 0.939077778     -81.6649255
9.141                0.938915677     -81.8021272
9.142                0.938753081      -81.939697
9.143                0.938589989     -82.0776362
9.144                0.938426401     -82.2159457
9.145                0.938262315     -82.3546269
9.146                0.938097731     -82.4936807
9.147                0.937932648     -82.6331084
9.148                0.937767064     -82.7729111
9.149                0.937600981     -82.9130899
9.15                 0.937434395      -83.053646
9.151                0.937267308     -83.1945804
9.152                0.937099718     -83.3358945
9.153                0.936931624     -83.4775892
9.154                0.936763026     -83.6196658
9.155                0.936593924     -83.7621254
9.156                0.936424315     -83.9049692
9.157                0.936254201     -84.0481983
9.158                0.936083579     -84.1918139
9.159                 0.93591245     -84.3358171
9.16                 0.935740813     -84.4802091
9.161                0.935568667     -84.6249911
9.162                0.935396012     -84.7701642
9.163                0.935222847     -84.9157295
9.164                0.935049171     -85.0616884
9.165                0.934874985     -85.2080419
9.166                0.934700287     -85.3547911
9.167                0.934525077     -85.5019374
9.168                0.934349355     -85.6494817
9.169                0.934173119     -85.7974254
9.17                 0.933996371     -85.9457696
9.171                0.933819108     -86.0945155
9.172                0.933641331     -86.2436642
9.173                0.933463039     -86.3932169
9.174                0.933284233     -86.5431748
9.175                0.933104911     -86.6935392
9.176                0.932925073     -86.8443111
9.177                0.932744719     -86.9954917
9.178                0.932563849     -87.1470823
9.179                0.932382462     -87.2990841
9.18                 0.932200558     -87.4514981
9.181                0.932018136     -87.6043257
9.182                0.931835198      -87.757568
9.183                0.931651741     -87.9112261
9.184                0.931467767     -88.0653013
9.185                0.931283275     -88.2197948
9.186                0.931098264     -88.3747078
9.187                0.930912735     -88.5300414
9.188                0.930726688     -88.6857968
9.189                0.930540122     -88.8419753
9.19                 0.930353038     -88.9985781
9.191                0.930165435     -89.1556062
9.192                0.929977314      -89.313061
9.193                0.929788674     -89.4709437
9.194                0.929599515     -89.6292553
9.195                0.929409838     -89.7879972
9.196                0.929219642     -89.9471705
9.197                0.929028928     -90.1067764
9.198                0.928837696     -90.2668161
9.199                0.928645945     -90.4272909
9.2                  0.928453677     -90.5882018
9.201                0.928260892     -90.7495502
9.202                0.928067588     -90.9113371
9.203                0.927873768     -91.0735639
9.204                0.927679431     -91.2362317
9.205                0.927484577     -91.3993416
9.206                0.927289207      -91.562895
9.207                0.927093321      -91.726893
9.208                 0.92689692     -91.8913367
9.209                0.926700003     -92.0562275
9.21                 0.926502572     -92.2215664
9.211                0.926304627     -92.3873547
9.212                0.926106169     -92.5535936
9.213                0.925907197     -92.7202843
9.214                0.925707713     -92.8874279
9.215                0.925507717     -93.0550257
9.216                 0.92530721     -93.2230788
9.217                0.925106192     -93.3915885
9.218                0.924904664     -93.5605559
9.219                0.924702628     -93.7299822
9.22                 0.924500083     -93.8998686
9.221                 0.92429703     -94.0702163
9.222                0.924093471     -94.2410265
9.223                0.923889406     -94.4123003
9.224                0.923684836      -94.584039
9.225                0.923479762     -94.7562437
9.226                0.923274184     -94.9289157
9.227                0.923068105     -95.1020559
9.228                0.922861525     -95.2756658
9.229                0.922654445     -95.4497464
9.23                 0.922446866     -95.6242989
9.231                0.922238789     -95.7993244
9.232                0.922030216     -95.9748242
9.233                0.921821148     -96.1507994
9.234                0.921611585     -96.3272512
9.235                 0.92140153     -96.5041807
9.236                0.921190983     -96.6815892
9.237                0.920979947     -96.8594776
9.238                0.920768422     -97.0378473
9.239                0.920556409     -97.2166993
9.24                 0.920343912     -97.3960349
9.241                0.920130929     -97.5758551
9.242                0.919917465     -97.7561611
9.243                0.919703519      -97.936954
9.244                0.919489095     -98.1182351
9.245                0.919274192     -98.3000053
9.246                0.919058814     -98.4822659
9.247                0.918842962     -98.6650179
9.248                0.918626638     -98.8482626
9.249                0.918409843      -99.032001
9.25                  0.91819258     -99.2162342
9.251                 0.91797485     -99.4009633
9.252                0.917756656     -99.5861896
9.253                   0.917538     -99.7719139
9.254                0.917318884     -99.9581376
9.255                0.917099309     -100.144862
9.256                0.916879278     -100.332087
9.257                0.916658794     -100.519815
9.258                0.916437858     -100.708047
9.259                0.916216473     -100.896783
9.26                 0.915994641     -101.086025
9.261                0.915772365     -101.275775
9.262                0.915549647     -101.466032
9.263                 0.91532649     -101.656798
9.264                0.915102896     -101.848074
9.265                0.914878869     -102.039861
9.266                0.914654409      -102.23216
9.267                0.914429521     -102.424973
9.268                0.914204208     -102.618299
9.269                0.913978471     -102.812141
9.27                 0.913752314       -103.0065
9.271                 0.91352574     -103.201375
9.272                0.913298751     -103.396769
9.273                0.913071351     -103.592682
9.274                0.912843544     -103.789116
9.275                0.912615331     -103.986071
9.276                0.912386716     -104.183548
9.277                0.912157703     -104.381548
9.278                0.911928295     -104.580073
9.279                0.911698495     -104.779123
9.28                 0.911468307     -104.978699
9.281                0.911237734     -105.178802
9.282                0.911006779     -105.379433
9.283                0.910775447     -105.580593
9.284                0.910543741     -105.782283
9.285                0.910311664     -105.984505
9.286                0.910079221     -106.187257
9.287                0.909846415     -106.390543
9.288                 0.90961325     -106.594362
9.289                0.909379731     -106.798716
9.29                  0.90914586     -107.003605
9.291                0.908911642      -107.20903
9.292                0.908677082     -107.414992
9.293                0.908442184     -107.621493
9.294                0.908206951     -107.828532
9.295                0.907971388      -108.03611
9.296                0.907735499      -108.24423
9.297                 0.90749929      -108.45289
9.298                0.907262764     -108.662093
9.299                0.907025926     -108.871838
9.3                   0.90678878     -109.082127
9.301                0.906551332     -109.292961
9.302                0.906313586      -109.50434
9.303                0.906075546     -109.716265
9.304                0.905837219     -109.928737
9.305                0.905598608     -110.141756
9.306                0.905359719     -110.355323
9.307                0.905120556      -110.56944
9.308                0.904881126     -110.784106
9.309                0.904641433     -110.999322
9.31                 0.904401482     -111.215089
9.311                0.904161279     -111.431408
9.312                0.903920829      -111.64828
9.313                0.903680138     -111.865704
9.314                0.903439212     -112.083683
9.315                0.903198055     -112.302215
9.316                0.902956674     -112.521302
9.317                0.902715074     -112.740945
9.318                0.902473261     -112.961144
9.319                0.902231241     -113.181899
9.32                  0.90198902     -113.403212
9.321                0.901746605     -113.625083
9.322                   0.901504     -113.847512
9.323                0.901261213     -114.070499
9.324                0.901018249     -114.294046
9.325                0.900775115     -114.518153
9.326                0.900531818      -114.74282
9.327                0.900288363     -114.968048
9.328                0.900044757     -115.193837
9.329                0.899801007     -115.420187
9.33                  0.89955712       -115.6471
9.331                0.899313102     -115.874575
9.332                0.899068959     -116.102614
9.333                  0.8988247     -116.331215
9.334                0.898580331      -116.56038
9.335                0.898335858     -116.790109
9.336                 0.89809129     -117.020402
9.337                0.897846632      -117.25126
9.338                0.897601893     -117.482682
9.339                 0.89735708      -117.71467
9.34                   0.8971122     -117.947223
9.341                 0.89686726     -118.180342
9.342                0.896622268     -118.414027
9.343                0.896377232     -118.648278
9.344                0.896132159     -118.883095
9.345                0.895887058     -119.118479
9.346                0.895641935     -119.354429
9.347                0.895396799     -119.590946
9.348                0.895151657      -119.82803
9.349                0.894906519     -120.065681
9.35                 0.894661391       -120.3039
9.351                0.894416282     -120.542685
9.352                  0.8941712     -120.782037
9.353                0.893926154     -121.021957
9.354                0.893681152     -121.262444
9.355                0.893436203     -121.503498
9.356                0.893191314      -121.74512
9.357                0.892946495     -121.987308
9.358                0.892701754     -122.230064
9.359                  0.8924571     -122.473387
9.36                 0.892212542     -122.717276
9.361                0.891968088     -122.961733
9.362                0.891723749     -123.206756
9.363                0.891479531     -123.452345
9.364                0.891235446     -123.698501
9.365                0.890991501     -123.945222
9.366                0.890747707      -124.19251
9.367                0.890504072     -124.440363
9.368                0.890260606     -124.688781
9.369                0.890017318     -124.937764
9.37                 0.889774218     -125.187312
9.371                0.889531316     -125.437424
9.372                 0.88928862       -125.6881
9.373                0.889046141     -125.939339
9.374                0.888803889     -126.191142
9.375                0.888561873     -126.443507
9.376                0.888320103     -126.696434
9.377                 0.88807859     -126.949923
9.378                0.887837342     -127.203974
9.379                0.887596371     -127.458584
9.38                 0.887355687     -127.713755
9.381                0.887115299     -127.969486
9.382                0.886875219     -128.225775
9.383                0.886635456     -128.482623
9.384                 0.88639602     -128.740028
9.385                0.886156923      -128.99799
9.386                0.885918175     -129.256509
9.387                0.885679787     -129.515583
9.388                0.885441768     -129.775211
9.389                0.885204131     -130.035394
9.39                 0.884966885     -130.296129
9.391                0.884730041     -130.557417
9.392                0.884493611     -130.819257
9.393                0.884257605     -131.081647
9.394                0.884022034     -131.344586
9.395                 0.88378691     -131.608074
9.396                0.883552243      -131.87211
