! TOUCHSTONE file generated by CST DESIGN STUDIO
! Date and time: Tue Feb  4 16:07:09 2025
! Project name: C:\Work\MatlabApps\UnitCellOptimizationMatlab\CST\unitcell.cst
! Tree item: Tasks\Sweep1\SPara1\S-Parameters
! Header version: 2024
! Port assignment regex: !\s*Touchstone port\s*([0-9]+)\s*=\s*(CST MWS port|CST DES external port|CST DES block port)\s*(.+)\s* \(\"(.*)\"\)(\s*mode\s*([0-9]+))?.*
! Touchstone port assignment:
! Touchstone port 1 = CST DES external port 1 ("")
# GHz S MA R 50
9                    0.946118429      -84.610813
9.001                0.945969907     -84.7535651
9.002                0.945820942     -84.8966985
9.003                0.945671533     -85.0402146
9.004                0.945521679     -85.1841144
9.005                 0.94537138      -85.328399
9.006                0.945220635     -85.4730695
9.007                0.945069445     -85.6181272
9.008                0.944917807     -85.7635732
9.009                0.944765723     -85.9094085
9.01                 0.944613191     -86.0556344
9.011                0.944460211     -86.2022519
9.012                0.944306782     -86.3492622
9.013                0.944152905     -86.4966665
9.014                0.943998578     -86.6444658
9.015                0.943843801     -86.7926614
9.016                0.943688574     -86.9412544
9.017                0.943532896     -87.0902459
9.018                0.943376768     -87.2396371
9.019                0.943220188     -87.3894291
9.02                 0.943063156     -87.5396231
9.021                0.942905673     -87.6902202
9.022                0.942747737     -87.8412216
9.023                0.942589348     -87.9926285
9.024                0.942430507     -88.1444419
9.025                0.942271212     -88.2966631
9.026                0.942111464     -88.4492931
9.027                0.941951262     -88.6023333
9.028                0.941790607     -88.7557846
9.029                0.941629497     -88.9096483
9.03                 0.941467933     -89.0639255
9.031                0.941305915     -89.2186175
9.032                0.941143442     -89.3737252
9.033                0.940980514       -89.52925
9.034                0.940817131      -89.685193
9.035                0.940653294     -89.8415552
9.036                0.940489002      -89.998338
9.037                0.940324254     -90.1555424
9.038                0.940159052     -90.3131696
9.039                0.939993394     -90.4712208
9.04                 0.939827281     -90.6296971
9.041                0.939660713     -90.7885998
9.042                 0.93949369     -90.9479298
9.043                0.939326212     -91.1076885
9.044                0.939158279      -91.267877
9.045                0.938989891     -91.4284964
9.046                0.938821048      -91.589548
9.047                0.938651751     -91.7510328
9.048                   0.938482      -91.912952
9.049                0.938311794     -92.0753068
9.05                 0.938141134     -92.2380984
9.051                 0.93797002     -92.4013279
9.052                0.937798453     -92.5649964
9.053                0.937626433     -92.7291052
9.054                0.937453959     -92.8936553
9.055                0.937281033      -93.058648
9.056                0.937107655     -93.2240844
9.057                0.936933824     -93.3899656
9.058                0.936759542     -93.5562929
9.059                0.936584809     -93.7230673
9.06                 0.936409625       -93.89029
9.061                0.936233991     -94.0579622
9.062                0.936057907     -94.2260851
9.063                0.935881374     -94.3946596
9.064                0.935704393     -94.5636871
9.065                0.935526963     -94.7331687
9.066                0.935349086     -94.9031055
9.067                0.935170761     -95.0734986
9.068                0.934991991     -95.2443493
9.069                0.934812775     -95.4156585
9.07                 0.934633114     -95.5874276
9.071                0.934453009     -95.7596575
9.072                0.934272461     -95.9323495
9.073                 0.93409147     -96.1055047
9.074                0.933910037     -96.2791242
9.075                0.933728164     -96.4532091
9.076                 0.93354585     -96.6277607
9.077                0.933363098     -96.8027799
9.078                0.933179907     -96.9782679
9.079                0.932996279     -97.1542259
9.08                 0.932812215     -97.3306549
9.081                0.932627716     -97.5075561
9.082                0.932442783     -97.6849306
9.083                0.932257416     -97.8627795
9.084                0.932071618     -98.0411039
9.085                 0.93188539     -98.2199049
9.086                0.931698731     -98.3991836
9.087                0.931511645     -98.5789411
9.088                0.931324131     -98.7591785
9.089                0.931136192     -98.9398969
9.09                 0.930947829     -99.1210974
9.091                0.930759042     -99.3027811
9.092                0.930569834      -99.484949
9.093                0.930380206     -99.6676022
9.094                0.930190159     -99.8507419
9.095                0.929999695     -100.034369
9.096                0.929808816     -100.218485
9.097                0.929617522      -100.40309
9.098                0.929425816     -100.588186
9.099                0.929233699     -100.773773
9.1                  0.929041174     -100.959854
9.101                0.928848241     -101.146428
9.102                0.928654902     -101.333497
9.103                 0.92846116     -101.521062
9.104                0.928267016     -101.709124
9.105                0.928072471     -101.897684
9.106                0.927877529     -102.086743
9.107                0.927682191     -102.276301
9.108                0.927486459     -102.466361
9.109                0.927290334     -102.656923
9.11                  0.92709382     -102.847988
9.111                0.926896918     -103.039556
9.112                0.926699631      -103.23163
9.113                 0.92650196      -103.42421
9.114                0.926303908     -103.617296
9.115                0.926105477     -103.810891
9.116                 0.92590667     -104.004994
9.117                0.925707488     -104.199608
9.118                0.925507935     -104.394732
9.119                0.925308013     -104.590368
9.12                 0.925107725     -104.786516
9.121                0.924907072     -104.983179
9.122                0.924706058     -105.180355
9.123                0.924504685     -105.378048
9.124                0.924302957     -105.576256
9.125                0.924100875     -105.774982
9.126                0.923898442     -105.974226
9.127                0.923695662     -106.173989
9.128                0.923492538     -106.374272
9.129                0.923289071     -106.575076
9.13                 0.923085266     -106.776402
9.131                0.922881125      -106.97825
9.132                0.922676651     -107.180622
9.133                0.922471848     -107.383518
9.134                0.922266719     -107.586939
9.135                0.922061267     -107.790886
9.136                0.921855495      -107.99536
9.137                0.921649407     -108.200361
9.138                0.921443005     -108.405891
9.139                0.921236294      -108.61195
9.14                 0.921029278     -108.818538
9.141                0.920821958     -109.025658
9.142                 0.92061434     -109.233309
9.143                0.920406427     -109.441492
9.144                0.920198222     -109.650208
9.145                0.919989729     -109.859458
9.146                0.919780952     -110.069242
9.147                0.919571896     -110.279562
9.148                0.919362563     -110.490417
9.149                0.919152958     -110.701809
9.15                 0.918943085     -110.913738
9.151                0.918732948     -111.126205
9.152                0.918522551      -111.33921
9.153                0.918311898     -111.552755
9.154                0.918100994     -111.766839
9.155                0.917889843     -111.981464
9.156                0.917678449      -112.19663
9.157                0.917466817     -112.412338
9.158                0.917254951     -112.628588
9.159                0.917042856     -112.845381
9.16                 0.916830536     -113.062717
9.161                0.916617996     -113.280598
9.162                0.916405241     -113.499023
9.163                0.916192275     -113.717993
9.164                0.915979103     -113.937508
9.165                0.915765731      -114.15757
9.166                0.915552162     -114.378178
9.167                0.915338403     -114.599333
9.168                0.915124458     -114.821036
9.169                0.914910332     -115.043287
9.17                 0.914696031     -115.266086
9.171                 0.91448156     -115.489434
9.172                0.914266923     -115.713331
9.173                0.914052127     -115.937777
9.174                0.913837177     -116.162774
9.175                0.913622078     -116.388321
9.176                0.913406836     -116.614419
9.177                0.913191457     -116.841068
9.178                0.912975946     -117.068268
9.179                0.912760308      -117.29602
9.18                  0.91254455     -117.524324
9.181                0.912328678      -117.75318
9.182                0.912112697     -117.982589
9.183                0.911896614      -118.21255
9.184                0.911680434     -118.443064
9.185                0.911464163     -118.674131
9.186                0.911247809     -118.905752
9.187                0.911031376     -119.137926
9.188                0.910814871     -119.370654
9.189                0.910598301     -119.603936
9.19                 0.910381672     -119.837772
9.191                0.910164991     -120.072162
9.192                0.909948263     -120.307105
9.193                0.909731496     -120.542604
9.194                0.909514697     -120.778656
9.195                0.909297871     -121.015262
9.196                0.909081026     -121.252423
9.197                0.908864168     -121.490138
9.198                0.908647305     -121.728408
9.199                0.908430444     -121.967232
9.2                  0.908213591     -122.206609
9.201                0.907996753     -122.446541
9.202                0.907779938     -122.687027
9.203                0.907563154     -122.928067
9.204                0.907346406     -123.169661
9.205                0.907129703     -123.411808
9.206                0.906913052     -123.654508
9.207                0.906696461     -123.897762
9.208                0.906479936     -124.141568
9.209                0.906263486     -124.385928
9.21                 0.906047118     -124.630839
9.211                 0.90583084     -124.876303
9.212                 0.90561466     -125.122319
9.213                0.905398585     -125.368887
9.214                0.905182624     -125.616005
9.215                0.904966784     -125.863675
9.216                0.904751073     -126.111894
9.217                0.904535499     -126.360664
9.218                0.904320072     -126.609984
9.219                0.904104798     -126.859852
9.22                 0.903889685     -127.110269
9.221                0.903674743     -127.361235
9.222                 0.90345998     -127.612748
9.223                0.903245404     -127.864808
9.224                0.903031023     -128.117414
9.225                0.902816846     -128.370566
9.226                0.902602882     -128.624264
9.227                0.902389139     -128.878506
9.228                0.902175626     -129.133292
9.229                0.901962352     -129.388622
9.23                 0.901749326     -129.644494
9.231                0.901536555     -129.900908
9.232                 0.90132405     -130.157862
9.233                0.901111819     -130.415357
9.234                0.900899872     -130.673392
9.235                0.900688217     -130.931965
9.236                0.900476863     -131.191076
9.237                 0.90026582     -131.450723
9.238                0.900055097     -131.710907
9.239                0.899844703     -131.971625
9.24                 0.899634647     -132.232877
9.241                 0.89942494     -132.494663
9.242                0.899215589      -132.75698
9.243                0.899006606     -133.019828
9.244                0.898797998     -133.283206
9.245                0.898589777     -133.547113
9.246                0.898381951     -133.811547
9.247                 0.89817453     -134.076508
9.248                0.897967524     -134.341994
9.249                0.897760942     -134.608004
9.25                 0.897554795     -134.874537
9.251                0.897349091     -135.141592
9.252                0.897143842     -135.409167
9.253                0.896939057      -135.67726
9.254                0.896734746     -135.945872
9.255                0.896530918     -136.214999
9.256                0.896327584     -136.484641
9.257                0.896124755     -136.754797
9.258                0.895922439     -137.025465
9.259                0.895720647     -137.296643
9.26                  0.89551939     -137.568329
9.261                0.895318677     -137.840524
9.262                0.895118519     -138.113224
9.263                0.894918927     -138.386428
9.264                0.894719909     -138.660135
9.265                0.894521477     -138.934343
9.266                0.894323641     -139.209049
9.267                0.894126411     -139.484254
9.268                0.893929798     -139.759954
9.269                0.893733812     -140.036148
9.27                 0.893538464     -140.312834
9.271                0.893343764      -140.59001
9.272                0.893149722     -140.867675
9.273                 0.89295635     -141.145827
9.274                0.892763657     -141.424463
9.275                0.892571655     -141.703582
9.276                0.892380353     -141.983181
9.277                0.892189763     -142.263259
9.278                0.891999894     -142.543814
9.279                0.891810759     -142.824843
9.28                 0.891622366     -143.106344
9.281                0.891434727     -143.388316
9.282                0.891247853     -143.670756
9.283                0.891061754     -143.953662
9.284                0.890876441     -144.237032
9.285                0.890691924     -144.520863
9.286                0.890508214     -144.805153
9.287                0.890325323       -145.0899
9.288                 0.89014326     -145.375102
9.289                0.889962036     -145.660755
9.29                 0.889781662     -145.946859
9.291                0.889602148     -146.233409
9.292                0.889423506     -146.520405
9.293                0.889245746     -146.807843
9.294                0.889068878      -147.09572
9.295                0.888892914     -147.384035
9.296                0.888717863     -147.672785
9.297                0.888543737     -147.961966
9.298                0.888370547     -148.251577
9.299                0.888198302     -148.541614
9.3                  0.888027013     -148.832076
9.301                0.887856692     -149.122959
9.302                0.887687348      -149.41426
9.303                0.887518992     -149.705977
9.304                0.887351634     -149.998106
9.305                0.887185286     -150.290646
9.306                0.887019957     -150.583593
9.307                0.886855659     -150.876944
9.308                0.886692401     -151.170696
9.309                0.886530193     -151.464846
9.31                 0.886369047     -151.759392
9.311                0.886208973      -152.05433
9.312                 0.88604998     -152.349657
9.313                 0.88589208      -152.64537
9.314                0.885735282     -152.941466
9.315                0.885579596     -153.237942
9.316                0.885425033     -153.534794
9.317                0.885271603      -153.83202
9.318                0.885119316     -154.129616
9.319                0.884968182     -154.427579
9.32                 0.884818211     -154.725906
9.321                0.884669412     -155.024592
9.322                0.884521797     -155.323636
9.323                0.884375374     -155.623033
9.324                0.884230153     -155.922781
9.325                0.884086144     -156.222875
9.326                0.883943357     -156.523312
9.327                0.883801801     -156.824089
9.328                0.883661487     -157.125202
9.329                0.883522422     -157.426649
9.33                 0.883384618     -157.728424
9.331                0.883248082     -158.030524
9.332                0.883112826     -158.332947
9.333                0.882978856     -158.635688
9.334                0.882846184     -158.938743
9.335                0.882714818      -159.24211
9.336                0.882584767     -159.545784
9.337                 0.88245604     -159.849761
9.338                0.882328646     -160.154037
9.339                0.882202593      -160.45861
9.34                 0.882077891     -160.763474
9.341                0.881954548     -161.068627
9.342                0.881832573     -161.374064
9.343                0.881711974     -161.679782
9.344                0.881592759     -161.985776
9.345                0.881474937     -162.292043
9.346                0.881358517     -162.598578
9.347                0.881243505     -162.905378
9.348                0.881129911     -163.212438
9.349                0.881017742     -163.519755
9.35                 0.880907006     -163.827325
9.351                0.880797711     -164.135143
9.352                0.880689865     -164.443205
9.353                0.880583474     -164.751507
9.354                0.880478548     -165.060046
9.355                0.880375092     -165.368817
9.356                0.880273115     -165.677815
9.357                0.880172623     -165.987037
9.358                0.880073624     -166.296478
9.359                0.879976124     -166.606135
9.36                 0.879880131     -166.916002
9.361                0.879785651     -167.226075
9.362                0.879692691     -167.536352
9.363                0.879601257     -167.846826
9.364                0.879511356     -168.157493
9.365                0.879422994      -168.46835
9.366                0.879336178     -168.779392
9.367                0.879250912     -169.090614
9.368                0.879167205     -169.402013
9.369                 0.87908506     -169.713583
9.37                 0.879004485     -170.025321
9.371                0.878925484     -170.337222
9.372                0.878848063     -170.649281
9.373                0.878772228     -170.961494
9.374                0.878697983     -171.273856
9.375                0.878625334     -171.586364
9.376                0.878554286     -171.899012
9.377                0.878484844     -172.211795
9.378                0.878417012     -172.524711
9.379                0.878350796     -172.837753
9.38                 0.878286199     -173.150917
9.381                0.878223226       -173.4642
9.382                0.878161882     -173.777595
9.383                0.878102169     -174.091099
9.384                0.878044093     -174.404707
9.385                0.877987658     -174.718414
9.386                0.877932866     -175.032216
9.387                0.877879721     -175.346108
9.388                0.877828228     -175.660086
9.389                0.877778388     -175.974144
9.39                 0.877730206     -176.288279
9.391                0.877683685     -176.602485
9.392                0.877638827     -176.916758
9.393                0.877595634     -177.231094
9.394                0.877554111     -177.545487
9.395                0.877514259     -177.859932
9.396                 0.87747608     -178.174426
