! TOUCHSTONE file generated by CST DESIGN STUDIO
! Date and time: Tue Feb  4 16:07:22 2025
! Project name: C:\Work\MatlabApps\UnitCellOptimizationMatlab\CST\unitcell.cst
! Tree item: Tasks\Sweep1\SPara1\S-Parameters
! Header version: 2024
! Port assignment regex: !\s*Touchstone port\s*([0-9]+)\s*=\s*(CST MWS port|CST DES external port|CST DES block port)\s*(.+)\s* \(\"(.*)\"\)(\s*mode\s*([0-9]+))?.*
! Touchstone port assignment:
! Touchstone port 1 = CST DES external port 1 ("")
# GHz S MA R 50
9                    0.963291099     -51.8382783
9.001                 0.96322178     -51.9047914
9.002                 0.96315225     -51.9714469
9.003                0.963082511     -52.0382454
9.004                 0.96301256     -52.1051873
9.005                0.962942396      -52.172273
9.006                 0.96287202      -52.239503
9.007                0.962801431     -52.3068777
9.008                0.962730627     -52.3743976
9.009                0.962659609     -52.4420632
9.01                 0.962588374     -52.5098747
9.011                0.962516924     -52.5778328
9.012                0.962445256     -52.6459379
9.013                 0.96237337     -52.7141904
9.014                0.962301266     -52.7825908
9.015                0.962228942     -52.8511395
9.016                0.962156398     -52.9198371
9.017                0.962083634     -52.9886838
9.018                0.962010647     -53.0576803
9.019                0.961937439      -53.126827
9.02                 0.961864007     -53.1961244
9.021                0.961790351     -53.2655729
9.022                0.961716471     -53.3351729
9.023                0.961642365     -53.4049251
9.024                0.961568033     -53.4748298
9.025                0.961493475     -53.5448874
9.026                0.961418688     -53.6150986
9.027                0.961343673     -53.6854637
9.028                0.961268429     -53.7559833
9.029                0.961192954     -53.8266578
9.03                 0.961117249     -53.8974878
9.031                0.961041313     -53.9684736
9.032                0.960965144     -54.0396158
9.033                0.960888741     -54.1109149
9.034                0.960812105     -54.1823714
9.035                0.960735234     -54.2539857
9.036                0.960658127     -54.3257583
9.037                0.960580784     -54.3976898
9.038                0.960503204     -54.4697807
9.039                0.960425386     -54.5420314
9.04                 0.960347329     -54.6144424
9.041                0.960269033     -54.6870143
9.042                0.960190496     -54.7597476
9.043                0.960111718     -54.8326427
9.044                0.960032697     -54.9057002
9.045                0.959953434     -54.9789205
9.046                0.959873928     -55.0523043
9.047                0.959794177      -55.125852
9.048                 0.95971418     -55.1995641
9.049                0.959633937     -55.2734411
9.05                 0.959553448     -55.3474836
9.051                 0.95947271     -55.4216921
9.052                0.959391724     -55.4960671
9.053                0.959310488     -55.5706092
9.054                0.959229002     -55.6453188
9.055                0.959147264     -55.7201965
9.056                0.959065275     -55.7952428
9.057                0.958983033     -55.8704583
9.058                0.958900537     -55.9458435
9.059                0.958817786     -56.0213989
9.06                  0.95873478     -56.0971251
9.061                0.958651517     -56.1730226
9.062                0.958567997     -56.2490919
9.063                0.958484219     -56.3253337
9.064                0.958400182     -56.4017484
9.065                0.958315886     -56.4783366
9.066                0.958231328     -56.5550989
9.067                0.958146509     -56.6320357
9.068                0.958061428     -56.7091478
9.069                0.957976083     -56.7864355
9.07                 0.957890474     -56.8638995
9.071                0.957804599     -56.9415404
9.072                0.957718459     -57.0193587
9.073                0.957632052     -57.0973549
9.074                0.957545377     -57.1755297
9.075                0.957458433     -57.2538835
9.076                 0.95737122     -57.3324171
9.077                0.957283736     -57.4111309
9.078                0.957195981     -57.4900255
9.079                0.957107953     -57.5691016
9.08                 0.957019652     -57.6483596
9.081                0.956931077     -57.7278002
9.082                0.956842226     -57.8074239
9.083                  0.9567531     -57.8872314
9.084                0.956663697     -57.9672232
9.085                0.956574016        -58.0474
9.086                0.956484056     -58.1277622
9.087                0.956393816     -58.2083105
9.088                0.956303296     -58.2890456
9.089                0.956212494      -58.369968
9.09                 0.956121409     -58.4510782
9.091                0.956030041      -58.532377
9.092                0.955938389     -58.6138649
9.093                0.955846451     -58.6955425
9.094                0.955754227     -58.7774105
9.095                0.955661716     -58.8594694
9.096                0.955568916     -58.9417198
9.097                0.955475827     -59.0241625
9.098                0.955382448     -59.1067979
9.099                0.955288778     -59.1896268
9.1                  0.955194816     -59.2726497
9.101                 0.95510056     -59.3558673
9.102                0.955006011     -59.4392801
9.103                0.954911167     -59.5228889
9.104                0.954816026     -59.6066943
9.105                0.954720589     -59.6906969
9.106                0.954624854     -59.7748973
9.107                0.954528819     -59.8592961
9.108                0.954432485     -59.9438941
9.109                 0.95433585     -60.0286919
9.11                 0.954238914     -60.1136901
9.111                0.954141674     -60.1988893
9.112                 0.95404413     -60.2842902
9.113                0.953946282     -60.3698935
9.114                0.953848127     -60.4556998
9.115                0.953749666     -60.5417098
9.116                0.953650897     -60.6279241
9.117                0.953551819     -60.7143435
9.118                0.953452431     -60.8009685
9.119                0.953352732     -60.8877998
9.12                 0.953252721     -60.9748381
9.121                0.953152397     -61.0620842
9.122                 0.95305176     -61.1495385
9.123                0.952950807     -61.2372019
9.124                0.952849538      -61.325075
9.125                0.952747952     -61.4131585
9.126                0.952646048     -61.5014531
9.127                0.952543826     -61.5899595
9.128                0.952441282     -61.6786783
9.129                0.952338418     -61.7676102
9.13                 0.952235232      -61.856756
9.131                0.952131722     -61.9461164
9.132                0.952027888     -62.0356919
9.133                0.951923729     -62.1254834
9.134                0.951819243     -62.2154916
9.135                 0.95171443     -62.3057171
9.136                0.951609288     -62.3961607
9.137                0.951503817     -62.4868231
9.138                0.951398015     -62.5777049
9.139                0.951291882     -62.6688069
9.14                 0.951185416     -62.7601299
9.141                0.951078616     -62.8516745
9.142                0.950971481     -62.9434415
9.143                0.950864011     -63.0354316
9.144                0.950756203     -63.1276456
9.145                0.950648058     -63.2200841
9.146                0.950539573     -63.3127479
9.147                0.950430748     -63.4056377
9.148                0.950321582     -63.4987543
9.149                0.950212074     -63.5920984
9.15                 0.950102222     -63.6856708
9.151                0.949992026     -63.7794722
9.152                0.949881484     -63.8735034
9.153                0.949770596      -63.967765
9.154                0.949659359      -64.062258
9.155                0.949547774      -64.156983
9.156                0.949435839     -64.2519408
9.157                0.949323553     -64.3471321
9.158                0.949210915     -64.4425578
9.159                0.949097924     -64.5382185
9.16                 0.948984579     -64.6341151
9.161                0.948870878     -64.7302484
9.162                0.948756821      -64.826619
9.163                0.948642406     -64.9232279
9.164                0.948527632     -65.0200757
9.165                0.948412499     -65.1171633
9.166                0.948297005     -65.2144915
9.167                0.948181149      -65.312061
9.168                0.948064929     -65.4098726
9.169                0.947948346     -65.5079272
9.17                 0.947831397     -65.6062255
9.171                0.947714082     -65.7047683
9.172                  0.9475964     -65.8035564
9.173                0.947478348     -65.9025907
9.174                0.947359927      -66.001872
9.175                0.947241135      -66.101401
9.176                0.947121971     -66.2011786
9.177                0.947002434     -66.3012056
9.178                0.946882523     -66.4014828
9.179                0.946762237     -66.5020111
9.18                 0.946641574     -66.6027912
9.181                0.946520533      -66.703824
9.182                0.946399114     -66.8051104
9.183                0.946277315     -66.9066511
9.184                0.946155135      -67.008447
9.185                0.946032573      -67.110499
9.186                0.945909628     -67.2128078
9.187                0.945786298     -67.3153744
9.188                0.945662584     -67.4181996
9.189                0.945538482     -67.5212842
9.19                 0.945413993     -67.6246291
9.191                0.945289115     -67.7282351
9.192                0.945163847     -67.8321031
9.193                0.945038188      -67.936234
9.194                0.944912137     -68.0406286
9.195                0.944785693     -68.1452879
9.196                0.944658854     -68.2502126
9.197                 0.94453162     -68.3554036
9.198                0.944403989     -68.4608619
9.199                 0.94427596     -68.5665883
9.2                  0.944147532     -68.6725836
9.201                0.944018704     -68.7788489
9.202                0.943889475     -68.8853849
9.203                0.943759844     -68.9921926
9.204                0.943629809     -69.0992728
9.205                 0.94349937     -69.2066264
9.206                0.943368525     -69.3142544
9.207                0.943237273     -69.4221577
9.208                0.943105614     -69.5303371
9.209                0.942973545     -69.6387935
9.21                 0.942841066      -69.747528
9.211                0.942708176     -69.8565413
9.212                0.942574873     -69.9658344
9.213                0.942441157     -70.0754083
9.214                0.942307026     -70.1852638
9.215                 0.94217248     -70.2954019
9.216                0.942037516     -70.4058235
9.217                0.941902135     -70.5165296
9.218                0.941766334      -70.627521
9.219                0.941630114     -70.7387988
9.22                 0.941493472     -70.8503637
9.221                0.941356407     -70.9622169
9.222                0.941218919     -71.0743593
9.223                0.941081006     -71.1867917
9.224                0.940942668     -71.2995152
9.225                0.940803902     -71.4125307
9.226                0.940664709     -71.5258391
9.227                0.940525087     -71.6394415
9.228                0.940385034     -71.7533387
9.229                0.940244551     -71.8675318
9.23                 0.940103634     -71.9820218
9.231                0.939962285     -72.0968095
9.232                0.939820501      -72.211896
9.233                0.939678281     -72.3272822
9.234                0.939535625     -72.4429692
9.235                0.939392531     -72.5589579
9.236                0.939248998     -72.6752493
9.237                0.939105025     -72.7918445
9.238                0.938960612     -72.9087443
9.239                0.938815756     -73.0259498
9.24                 0.938670457     -73.1434619
9.241                0.938524714     -73.2612818
9.242                0.938378526     -73.3794104
9.243                0.938231891     -73.4978486
9.244                0.938084809     -73.6165976
9.245                0.937937279     -73.7356583
9.246                0.937789299     -73.8550318
9.247                0.937640869      -73.974719
9.248                0.937491987      -74.094721
9.249                0.937342653     -74.2150388
9.25                 0.937192866     -74.3356735
9.251                0.937042623      -74.456626
9.252                0.936891926     -74.5778975
9.253                0.936740771     -74.6994889
9.254                0.936589159     -74.8214012
9.255                0.936437088     -74.9436356
9.256                0.936284558     -75.0661931
9.257                0.936131567     -75.1890747
9.258                0.935978115     -75.3122814
9.259                  0.9358242     -75.4358144
9.26                 0.935669821     -75.5596747
9.261                0.935514978     -75.6838633
9.262                 0.93535967     -75.8083813
9.263                0.935203895     -75.9332298
9.264                0.935047652     -76.0584098
9.265                0.934890941     -76.1839225
9.266                0.934733761     -76.3097688
9.267                0.934576111     -76.4359499
9.268                 0.93441799     -76.5624668
9.269                0.934259396     -76.6893207
9.27                 0.934100329     -76.8165125
9.271                0.933940789     -76.9440435
9.272                0.933780774     -77.0719146
9.273                0.933620283      -77.200127
9.274                0.933459315     -77.3286818
9.275                 0.93329787     -77.4575801
9.276                0.933135947      -77.586823
9.277                0.932973544     -77.7164115
9.278                0.932810662     -77.8463468
9.279                0.932647298       -77.97663
9.28                 0.932483453     -78.1072622
9.281                0.932319125     -78.2382445
9.282                0.932154314     -78.3695781
9.283                0.931989018      -78.501264
9.284                0.931823238     -78.6333035
9.285                0.931656972     -78.7656975
9.286                0.931490219     -78.8984472
9.287                0.931322979     -79.0315539
9.288                 0.93115525     -79.1650185
9.289                0.930987033     -79.2988422
9.29                 0.930818326     -79.4330263
9.291                0.930649128     -79.5675717
9.292                 0.93047944     -79.7024797
9.293                 0.93030926     -79.8377514
9.294                0.930138587     -79.9733879
9.295                0.929967421     -80.1093905
9.296                0.929795761     -80.2457602
9.297                0.929623606     -80.3824982
9.298                0.929450956     -80.5196056
9.299                0.929277811     -80.6570837
9.3                  0.929104168     -80.7949335
9.301                0.928930029     -80.9331564
9.302                0.928755392     -81.0717533
9.303                0.928580256     -81.2107255
9.304                0.928404622     -81.3500742
9.305                0.928228488     -81.4898005
9.306                0.928051853     -81.6299056
9.307                0.927874719     -81.7703907
9.308                0.927697083     -81.9112569
9.309                0.927518945     -82.0525055
9.31                 0.927340305     -82.1941377
9.311                0.927161162     -82.3361545
9.312                0.926981517     -82.4785573
9.313                0.926801367     -82.6213471
9.314                0.926620714     -82.7645252
9.315                0.926439556     -82.9080929
9.316                0.926257893     -83.0520512
9.317                0.926075724     -83.1964013
9.318                 0.92589305     -83.3411446
9.319                 0.92570987     -83.4862821
9.32                 0.925526184     -83.6318152
9.321                 0.92534199     -83.7777449
9.322                 0.92515729     -83.9240725
9.323                0.924972082     -84.0707992
9.324                0.924786366     -84.2179263
9.325                0.924600142     -84.3654549
9.326                 0.92441341     -84.5133862
9.327                 0.92422617     -84.6617215
9.328                0.924038421      -84.810462
9.329                0.923850163     -84.9596089
9.33                 0.923661396     -85.1091634
9.331                 0.92347212     -85.2591267
9.332                0.923282335     -85.4095001
9.333                 0.92309204     -85.5602849
9.334                0.922901235     -85.7114821
9.335                0.922709921     -85.8630931
9.336                0.922518097     -86.0151191
9.337                0.922325763     -86.1675613
9.338                 0.92213292     -86.3204209
9.339                0.921939567     -86.4736992
9.34                 0.921745704     -86.6273975
9.341                0.921551331     -86.7815168
9.342                0.921356449     -86.9360586
9.343                0.921161057      -87.091024
9.344                0.920965156     -87.2464142
9.345                0.920768745     -87.4022306
9.346                0.920571826     -87.5584742
9.347                0.920374397     -87.7151465
9.348                 0.92017646     -87.8722486
9.349                0.919978014     -88.0297818
9.35                  0.91977906     -88.1877472
9.351                0.919579598     -88.3461463
9.352                0.919379628     -88.5049801
9.353                0.919179151       -88.66425
9.354                0.918978168     -88.8239572
9.355                0.918776677     -88.9841029
9.356                 0.91857468     -89.1446884
9.357                0.918372178      -89.305715
9.358                0.918169171     -89.4671838
9.359                0.917965658     -89.6290961
9.36                 0.917761642     -89.7914533
9.361                0.917557121     -89.9542565
9.362                0.917352098     -90.1175069
9.363                0.917146572     -90.2812059
9.364                0.916940544     -90.4453546
9.365                0.916734016     -90.6099544
9.366                0.916526986     -90.7750064
9.367                0.916319457      -90.940512
9.368                0.916111429     -91.1064723
9.369                0.915902902     -91.2728886
9.37                 0.915693878     -91.4397622
9.371                0.915484358     -91.6070943
9.372                0.915274341     -91.7748862
9.373                 0.91506383      -91.943139
9.374                0.914852826     -92.1118541
9.375                0.914641328     -92.2810327
9.376                0.914429338     -92.4506761
9.377                0.914216858     -92.6207853
9.378                0.914003888     -92.7913619
9.379                 0.91379043     -92.9624068
9.38                 0.913576484     -93.1339215
9.381                0.913362051     -93.3059071
9.382                0.913147134     -93.4783648
9.383                0.912931733      -93.651296
9.384                0.912715849     -93.8247018
9.385                0.912499484     -93.9985835
9.386                 0.91228264     -94.1729423
9.387                0.912065317     -94.3477794
9.388                0.911847517     -94.5230961
9.389                0.911629242     -94.6988936
9.39                 0.911410493     -94.8751731
9.391                0.911191271     -95.0519358
9.392                0.910971579      -95.229183
9.393                0.910751417     -95.4069159
9.394                0.910530788     -95.5851356
9.395                0.910309694     -95.7638435
9.396                0.910088135     -95.9430407
