! TOUCHSTONE file generated by CST DESIGN STUDIO
! Date and time: Tue Feb  4 18:27:28 2025
! Project name: C:\Work\MatlabApps\UnitCellOptimizationMatlab\CST\unitcell.cst
! Tree item: Tasks\Sweep1\SPara1\S-Parameters
! Header version: 2024
! Port assignment regex: !\s*Touchstone port\s*([0-9]+)\s*=\s*(CST MWS port|CST DES external port|CST DES block port)\s*(.+)\s* \(\"(.*)\"\)(\s*mode\s*([0-9]+))?.*
! Touchstone port assignment:
! Touchstone port 1 = CST DES external port 1 ("")
# GHz S MA R 50
9                     0.92476783     -62.4629487
9.001                0.924566305     -62.5599549
9.002                 0.92436398     -62.6572269
9.003                0.924160853     -62.7547657
9.004                0.923956919     -62.8525725
9.005                0.923752177     -62.9506481
9.006                0.923546622     -63.0489936
9.007                 0.92334025       -63.14761
9.008                 0.92313306     -63.2464983
9.009                0.922925046     -63.3456597
9.01                 0.922716207      -63.445095
9.011                0.922506537     -63.5448054
9.012                0.922296034     -63.6447919
9.013                0.922084695     -63.7450556
9.014                0.921872516     -63.8455974
9.015                0.921659494     -63.9464186
9.016                0.921445624       -64.04752
9.017                0.921230904     -64.1489029
9.018                 0.92101533     -64.2505683
9.019                0.920798898     -64.3525172
9.02                 0.920581606     -64.4547507
9.021                0.920363449       -64.55727
9.022                0.920144424      -64.660076
9.023                0.919924527       -64.76317
9.024                0.919703755      -64.866553
9.025                0.919482104     -64.9702262
9.026                 0.91925957     -65.0741905
9.027                0.919036151     -65.1784472
9.028                0.918811842     -65.2829974
9.029                 0.91858664     -65.3878422
9.03                 0.918360541     -65.4929827
9.031                0.918133541     -65.5984201
9.032                0.917905637     -65.7041554
9.033                0.917676825     -65.8101899
9.034                0.917447102     -65.9165248
9.035                0.917216463      -66.023161
9.036                0.916984906     -66.1300999
9.037                0.916752425     -66.2373425
9.038                0.916519019     -66.3448901
9.039                0.916284682     -66.4527439
9.04                 0.916049411     -66.5609049
9.041                0.915813203     -66.6693744
9.042                0.915576053     -66.7781536
9.043                0.915337958     -66.8872436
9.044                0.915098914     -66.9966458
9.045                0.914858917     -67.1063612
9.046                0.914617964     -67.2163911
9.047                0.914376051     -67.3267367
9.048                0.914133173     -67.4373992
9.049                0.913889327     -67.5483798
9.05                 0.913644509     -67.6596799
9.051                0.913398716     -67.7713005
9.052                0.913151943     -67.8832431
9.053                0.912904186     -67.9955087
9.054                0.912655442     -68.1080987
9.055                0.912405707     -68.2210143
9.056                0.912154977     -68.3342567
9.057                0.911903247     -68.4478273
9.058                0.911650515     -68.5617274
9.059                0.911396776     -68.6759581
9.06                 0.911142026     -68.7905208
9.061                0.910886261     -68.9054168
9.062                0.910629477     -69.0206473
9.063                0.910371671     -69.1362137
9.064                0.910112838     -69.2521173
9.065                0.909852975     -69.3683594
9.066                0.909592077     -69.4849412
9.067                 0.90933014     -69.6018642
9.068                0.909067161     -69.7191296
9.069                0.908803135     -69.8367388
9.07                 0.908538058     -69.9546931
9.071                0.908271927     -70.0729939
9.072                0.908004737     -70.1916425
9.073                0.907736485     -70.3106403
9.074                0.907467166     -70.4299886
9.075                0.907196776     -70.5496888
9.076                0.906925311     -70.6697422
9.077                0.906652767     -70.7901503
9.078                0.906379141     -70.9109145
9.079                0.906104427      -71.032036
9.08                 0.905828623     -71.1535164
9.081                0.905551723      -71.275357
9.082                0.905273724     -71.3975592
9.083                0.904994621     -71.5201244
9.084                0.904714411     -71.6430541
9.085                 0.90443309     -71.7663497
9.086                0.904150653     -71.8900126
9.087                0.903867096     -72.0140442
9.088                0.903582416      -72.138446
9.089                0.903296607     -72.2632194
9.09                 0.903009666     -72.3883659
9.091                0.902721589      -72.513887
9.092                0.902432372      -72.639784
9.093                 0.90214201     -72.7660586
9.094                  0.9018505      -72.892712
9.095                0.901557837     -73.0197459
9.096                0.901264017     -73.1471618
9.097                0.900969036      -73.274961
9.098                 0.90067289     -73.4031452
9.099                0.900375575     -73.5317158
9.1                  0.900077086     -73.6606743
9.101                 0.89977742     -73.7900223
9.102                0.899476572     -73.9197612
9.103                0.899174538     -74.0498927
9.104                0.898871314     -74.1804182
9.105                0.898566896     -74.3113393
9.106                 0.89826128     -74.4426575
9.107                0.897954461     -74.5743744
9.108                0.897646436     -74.7064916
9.109                  0.8973372     -74.8390105
9.11                 0.897026749     -74.9719329
9.111                 0.89671508     -75.1052602
9.112                0.896402187     -75.2389941
9.113                0.896088067     -75.3731361
9.114                0.895772715     -75.5076878
9.115                0.895456129     -75.6426509
9.116                0.895138302      -75.778027
9.117                0.894819232     -75.9138176
9.118                0.894498914     -76.0500244
9.119                0.894177344      -76.186649
9.12                 0.893854518      -76.323693
9.121                0.893530432     -76.4611581
9.122                0.893205082      -76.599046
9.123                0.892878464     -76.7373583
9.124                0.892550573     -76.8760966
9.125                0.892221406     -77.0152626
9.126                0.891890958      -77.154858
9.127                0.891559226     -77.2948844
9.128                0.891226205     -77.4353436
9.129                0.890891892     -77.5762373
9.13                 0.890556282      -77.717567
9.131                0.890219371     -77.8593346
9.132                0.889881156     -78.0015417
9.133                0.889541632     -78.1441901
9.134                0.889200795     -78.2872814
9.135                0.888858642     -78.4308174
9.136                0.888515168     -78.5747999
9.137                 0.88817037     -78.7192305
9.138                0.887824244     -78.8641111
9.139                0.887476785     -79.0094433
9.14                  0.88712799      -79.155229
9.141                0.886777854     -79.3014698
9.142                0.886426375     -79.4481676
9.143                0.886073548     -79.5953241
9.144                0.885719369     -79.7429412
9.145                0.885363835     -79.8910205
9.146                0.885006941      -80.039564
9.147                0.884648684     -80.1885733
9.148                0.884289061     -80.3380504
9.149                0.883928066      -80.487997
9.15                 0.883565697      -80.638415
9.151                0.883201951     -80.7893061
9.152                0.882836822     -80.9406722
9.153                0.882470308     -81.0925152
9.154                0.882102405     -81.2448368
9.155                0.881733109      -81.397639
9.156                0.881362417     -81.5509236
9.157                0.880990324     -81.7046924
9.158                0.880616829     -81.8589473
9.159                0.880241926     -82.0136903
9.16                 0.879865613     -82.1689231
9.161                0.879487886     -82.3246477
9.162                0.879108742      -82.480866
9.163                0.878728177     -82.6375798
9.164                0.878346187     -82.7947911
9.165                 0.87796277     -82.9525017
9.166                0.877577922     -83.1107137
9.167                 0.87719164     -83.2694288
9.168                0.876803921     -83.4286491
9.169                0.876414761     -83.5883765
9.17                 0.876024157     -83.7486129
9.171                0.875632105     -83.9093602
9.172                0.875238604     -84.0706205
9.173                0.874843649     -84.2323956
9.174                0.874447238     -84.3946876
9.175                0.874049368     -84.5574984
9.176                0.873650035       -84.72083
9.177                0.873249237     -84.8846843
9.178                0.872846971     -85.0490634
9.179                0.872443234     -85.2139692
9.18                 0.872038023     -85.3794037
9.181                0.871631335      -85.545369
9.182                0.871223168     -85.7118671
9.183                0.870813519     -85.8788999
9.184                0.870402385     -86.0464694
9.185                0.869989764     -86.2145778
9.186                0.869575653     -86.3832271
9.187                 0.86916005     -86.5524192
9.188                0.868742952     -86.7221562
9.189                0.868324356     -86.8924402
9.19                 0.867904261     -87.0632732
9.191                0.867482664     -87.2346572
9.192                0.867059563     -87.4065944
9.193                0.866634956     -87.5790868
9.194                 0.86620884     -87.7521365
9.195                0.865781214     -87.9257455
9.196                0.865352075     -88.0999159
9.197                0.864921422     -88.2746498
9.198                0.864489252     -88.4499494
9.199                0.864055564     -88.6258166
9.2                  0.863620356     -88.8022537
9.201                0.863183626     -88.9792627
9.202                0.862745373     -89.1568457
9.203                0.862305595     -89.3350048
9.204                 0.86186429     -89.5137421
9.205                0.861421457     -89.6930599
9.206                0.860977095     -89.8729601
9.207                0.860531202      -90.053445
9.208                0.860083777     -90.2345167
9.209                0.859634819     -90.4161772
9.21                 0.859184327     -90.5984289
9.211                  0.8587323     -90.7812737
9.212                0.858278736     -90.9647139
9.213                0.857823636     -91.1487516
9.214                0.857366997      -91.333389
9.215                 0.85690882     -91.5186282
9.216                0.856449104     -91.7044714
9.217                0.855987848     -91.8909208
9.218                0.855525051     -92.0779786
9.219                0.855060715     -92.2656468
9.22                 0.854594837     -92.4539278
9.221                0.854127418     -92.6428237
9.222                0.853658458     -92.8323367
9.223                0.853187956     -93.0224689
9.224                0.852715914     -93.2132226
9.225                 0.85224233        -93.4046
9.226                0.851767206     -93.5966032
9.227                0.851290541     -93.7892345
9.228                0.850812336      -93.982496
9.229                0.850332592       -94.17639
9.23                 0.849851309     -94.3709187
9.231                0.849368488     -94.5660842
9.232                 0.84888413     -94.7618889
9.233                0.848398235     -94.9583349
9.234                0.847910806     -95.1554244
9.235                0.847421842     -95.3531596
9.236                0.846931346     -95.5515429
9.237                0.846439318     -95.7505763
9.238                0.845945761     -95.9502621
9.239                0.845450676     -96.1506025
9.24                 0.844954064     -96.3515998
9.241                0.844455927     -96.5532562
9.242                0.843956268     -96.7555739
9.243                0.843455088     -96.9585551
9.244                0.842952391     -97.1622021
9.245                0.842448177     -97.3665171
9.246                 0.84194245     -97.5715023
9.247                0.841435212     -97.7771599
9.248                0.840926465     -97.9834922
9.249                0.840416214     -98.1905014
9.25                  0.83990446     -98.3981898
9.251                0.839391207     -98.6065595
9.252                0.838876459     -98.8156127
9.253                0.838360217     -99.0253518
9.254                0.837842487     -99.2357789
9.255                0.837323272     -99.4468962
9.256                0.836802575      -99.658706
9.257                0.836280401     -99.8712105
9.258                0.835756753     -100.084412
9.259                0.835231637     -100.298312
9.26                 0.834705056     -100.512914
9.261                0.834177014      -100.72822
9.262                0.833647518     -100.944231
9.263                0.833116571      -101.16095
9.264                0.832584178     -101.378379
9.265                0.832050345     -101.596521
9.266                0.831515078     -101.815377
9.267                0.830978381      -102.03495
9.268                0.830440261     -102.255242
9.269                0.829900722     -102.476255
9.27                 0.829359772     -102.697991
9.271                0.828817416     -102.920453
9.272                0.828273662     -103.143642
9.273                0.827728514     -103.367562
9.274                0.827181981     -103.592213
9.275                0.826634068     -103.817598
9.276                0.826084784      -104.04372
9.277                0.825534135      -104.27058
9.278                0.824982128     -104.498181
9.279                0.824428772     -104.726524
9.28                 0.823874075     -104.955613
9.281                0.823318043     -105.185448
9.282                0.822760686     -105.416032
9.283                0.822202011     -105.647367
9.284                0.821642029     -105.879456
9.285                0.821080746       -106.1123
9.286                0.820518172     -106.345902
9.287                0.819954317     -106.580263
9.288                0.819389189     -106.815385
9.289                0.818822799     -107.051271
9.29                 0.818255156     -107.287923
9.291                 0.81768627     -107.525343
9.292                0.817116151     -107.763532
9.293                 0.81654481     -108.002493
9.294                0.815972258     -108.242228
9.295                0.815398505     -108.482738
9.296                0.814823562     -108.724026
9.297                0.814247441     -108.966094
9.298                0.813670153     -109.208944
9.299                0.813091711     -109.452577
9.3                  0.812512125     -109.696996
9.301                0.811931408     -109.942202
9.302                0.811349573     -110.188197
9.303                0.810766632     -110.434984
9.304                0.810182598     -110.682564
9.305                0.809597485     -110.930939
9.306                0.809011305     -111.180111
9.307                0.808424072     -111.430081
9.308                  0.8078358     -111.680852
9.309                0.807246504     -111.932426
9.31                 0.806656197     -112.184803
9.311                0.806064893     -112.437987
9.312                0.805472609     -112.691977
9.313                0.804879359     -112.946778
9.314                0.804285158     -113.202389
9.315                0.803690022     -113.458813
9.316                0.803093966     -113.716052
9.317                0.802497007     -113.974107
9.318                0.801899161      -114.23298
9.319                0.801300445     -114.492672
9.32                 0.800700875     -114.753185
9.321                0.800100469      -115.01452
9.322                0.799499243      -115.27668
9.323                0.798897216     -115.539666
9.324                0.798294406     -115.803479
9.325                 0.79769083      -116.06812
9.326                0.797086507     -116.333592
9.327                0.796481456     -116.599895
9.328                0.795875696     -116.867032
9.329                0.795269246     -117.135003
9.33                 0.794662125     -117.403809
9.331                0.794054353     -117.673454
9.332                 0.79344595     -117.943936
9.333                0.792836938     -118.215258
9.334                0.792227335     -118.487422
9.335                0.791617163     -118.760428
9.336                0.791006444     -119.034277
9.337                0.790395199     -119.308972
9.338                0.789783448     -119.584512
9.339                0.789171216     -119.860899
9.34                 0.788558523     -120.138135
9.341                0.787945392     -120.416219
9.342                0.787331847     -120.695154
9.343                0.786717909     -120.974941
9.344                0.786103604     -121.255579
9.345                0.785488953     -121.537071
9.346                0.784873982     -121.819417
9.347                0.784258715     -122.102618
9.348                0.783643176     -122.386675
9.349                 0.78302739     -122.671589
9.35                 0.782411382      -122.95736
9.351                0.781795178     -123.243989
9.352                0.781178803     -123.531477
9.353                0.780562283     -123.819825
9.354                0.779945645     -124.109032
9.355                0.779328914     -124.399101
9.356                0.778712119     -124.690031
9.357                0.778095286     -124.981823
9.358                0.777478442     -125.274477
9.359                0.776861616     -125.567994
9.36                 0.776244834     -125.862375
9.361                0.775628126     -126.157618
9.362                 0.77501152     -126.453726
9.363                0.774395045     -126.750697
9.364                 0.77377873     -127.048533
9.365                0.773162604     -127.347234
9.366                0.772546697     -127.646799
9.367                0.771931039     -127.947229
9.368                0.771315661     -128.248523
9.369                0.770700592     -128.550683
9.37                 0.770085863     -128.853707
9.371                0.769471506     -129.157595
9.372                0.768857552     -129.462348
9.373                0.768244033     -129.767966
9.374                 0.76763098     -130.074447
9.375                0.767018426     -130.381793
9.376                0.766406402     -130.690001
9.377                0.765794943     -130.999073
9.378                 0.76518408     -131.309007
9.379                0.764573846     -131.619803
9.38                 0.763964276     -131.931461
9.381                0.763355403      -132.24398
9.382                0.762747261     -132.557358
9.383                0.762139885     -132.871597
9.384                0.761533308     -133.186694
9.385                0.760927565     -133.502649
9.386                0.760322692     -133.819461
9.387                0.759718723     -134.137129
9.388                0.759115695     -134.455652
9.389                0.758513642      -134.77503
9.39                 0.757912601      -135.09526
9.391                0.757312607     -135.416342
9.392                0.756713698     -135.738274
9.393                 0.75611591     -136.061056
9.394                0.755519279     -136.384685
9.395                0.754923843     -136.709161
9.396                0.754329639     -137.034482
