! TOUCHSTONE file generated by CST DESIGN STUDIO
! Date and time: Tue Feb  4 18:27:30 2025
! Project name: C:\Work\MatlabApps\UnitCellOptimizationMatlab\CST\unitcell.cst
! Tree item: Tasks\Sweep1\SPara1\S-Parameters
! Header version: 2024
! Port assignment regex: !\s*Touchstone port\s*([0-9]+)\s*=\s*(CST MWS port|CST DES external port|CST DES block port)\s*(.+)\s* \(\"(.*)\"\)(\s*mode\s*([0-9]+))?.*
! Touchstone port assignment:
! Touchstone port 1 = CST DES external port 1 ("")
# GHz S MA R 50
9                    0.942319148     -55.9381271
9.001                0.942178557      -56.017765
9.002                0.942037424     -56.0976021
9.003                0.941895746      -56.177639
9.004                 0.94175352     -56.2578765
9.005                0.941610744     -56.3383154
9.006                0.941467415     -56.4189562
9.007                0.941323532     -56.4997998
9.008                0.941179093     -56.5808468
9.009                0.941034094     -56.6620981
9.01                 0.940888533     -56.7435542
9.011                0.940742408     -56.8252159
9.012                0.940595717      -56.907084
9.013                0.940448458     -56.9891593
9.014                0.940300627     -57.0714423
9.015                0.940152222      -57.153934
9.016                0.940003242     -57.2366349
9.017                0.939853683      -57.319546
9.018                0.939703543     -57.4026678
9.019                 0.93955282     -57.4860013
9.02                 0.939401511     -57.5695471
9.021                0.939249614      -57.653306
9.022                0.939097126     -57.7372787
9.023                0.938944045     -57.8214661
9.024                0.938790368     -57.9058689
9.025                0.938636093     -57.9904879
9.026                0.938481217     -58.0753238
9.027                0.938325738     -58.1603775
9.028                0.938169654     -58.2456497
9.029                0.938012961     -58.3311412
9.03                 0.937855657     -58.4168528
9.031                0.937697739     -58.5027852
9.032                0.937539205     -58.5889394
9.033                0.937380053     -58.6753161
9.034                 0.93722028      -58.761916
9.035                0.937059882       -58.84874
9.036                0.936898859      -58.935789
9.037                0.936737206     -59.0230637
9.038                0.936574921     -59.1105649
9.039                0.936412002     -59.1982935
9.04                 0.936248446     -59.2862503
9.041                 0.93608425     -59.3744361
9.042                0.935919411     -59.4628517
9.043                0.935753928      -59.551498
9.044                0.935587796     -59.6403759
9.045                0.935421014     -59.7294861
9.046                0.935253579     -59.8188295
9.047                0.935085488      -59.908407
9.048                0.934916738     -59.9982194
9.049                0.934747327     -60.0882675
9.05                 0.934577251     -60.1785523
9.051                0.934406508     -60.2690746
9.052                0.934235096     -60.3598353
9.053                 0.93406301     -60.4508351
9.054                 0.93389025     -60.5420751
9.055                0.933716811     -60.6335561
9.056                 0.93354269     -60.7252789
9.057                0.933367886     -60.8172445
9.058                0.933192396     -60.9094537
9.059                0.933016215     -61.0019075
9.06                 0.932839342     -61.0946067
9.061                0.932661774     -61.1875522
9.062                0.932483507      -61.280745
9.063                0.932304539     -61.3741859
9.064                0.932124867     -61.4678759
9.065                0.931944488     -61.5618159
9.066                0.931763399     -61.6560067
9.067                0.931581597     -61.7504494
9.068                0.931399079     -61.8451448
9.069                0.931215842     -61.9400939
9.07                 0.931031884     -62.0352977
9.071                  0.9308472     -62.1307569
9.072                0.930661789     -62.2264727
9.073                0.930475647      -62.322446
9.074                0.930288772     -62.4186776
9.075                0.930101159     -62.5151686
9.076                0.929912806     -62.6119199
9.077                0.929723711     -62.7089325
9.078                0.929533869     -62.8062073
9.079                0.929343279     -62.9037454
9.08                 0.929151936     -63.0015476
9.081                0.928959838      -63.099615
9.082                0.928766982     -63.1979486
9.083                0.928573364     -63.2965493
9.084                0.928378982     -63.3954182
9.085                0.928183831     -63.4945562
9.086                 0.92798791     -63.5939644
9.087                0.927791215     -63.6936437
9.088                0.927593743     -63.7935951
9.089                0.927395491     -63.8938197
9.09                 0.927196455     -63.9943185
9.091                0.926996632     -64.0950925
9.092                0.926796019     -64.1961427
9.093                0.926594613     -64.2974702
9.094                0.926392411      -64.399076
9.095                0.926189409     -64.5009611
9.096                0.925985604     -64.6031266
9.097                0.925780993     -64.7055736
9.098                0.925575573      -64.808303
9.099                 0.92536934     -64.9113159
9.1                  0.925162292     -65.0146135
9.101                0.924954424     -65.1181967
9.102                0.924745733     -65.2220666
9.103                0.924536217     -65.3262244
9.104                0.924325871      -65.430671
9.105                0.924114693     -65.5354076
9.106                 0.92390268     -65.6404353
9.107                0.923689827     -65.7457551
9.108                0.923476131     -65.8513682
9.109                 0.92326159     -65.9572756
9.11                 0.923046199     -66.0634784
9.111                0.922829956     -66.1699779
9.112                0.922612857      -66.276775
9.113                0.922394898     -66.3838709
9.114                0.922176076     -66.4912667
9.115                0.921956388     -66.5989636
9.116                 0.92173583     -66.7069627
9.117                  0.9215144     -66.8152651
9.118                0.921292092     -66.9238719
9.119                0.921068904     -67.0327844
9.12                 0.920844833     -67.1420036
9.121                0.920619875     -67.2515308
9.122                0.920394026     -67.3613671
9.123                0.920167284     -67.4715136
9.124                0.919939643     -67.5819715
9.125                0.919711102      -67.692742
9.126                0.919481656     -67.8038263
9.127                0.919251303     -67.9152256
9.128                0.919020037      -68.026941
9.129                0.918787857     -68.1389738
9.13                 0.918554757     -68.2513252
9.131                0.918320736     -68.3639963
9.132                0.918085789     -68.4769883
9.133                0.917849912     -68.5903026
9.134                0.917613102     -68.7039402
9.135                0.917375356     -68.8179025
9.136                 0.91713667     -68.9321906
9.137                 0.91689704     -69.0468059
9.138                0.916656463     -69.1617494
9.139                0.916414934     -69.2770226
9.14                 0.916172452     -69.3926265
9.141                0.915929011     -69.5085626
9.142                0.915684608      -69.624832
9.143                0.915439239      -69.741436
9.144                0.915192902     -69.8583758
9.145                0.914945592     -69.9756529
9.146                0.914697305     -70.0932683
9.147                0.914448038     -70.2112235
9.148                0.914197788     -70.3295197
9.149                 0.91394655     -70.4481581
9.15                 0.913694321     -70.5671402
9.151                0.913441097     -70.6864672
9.152                0.913186875     -70.8061404
9.153                 0.91293165     -70.9261611
9.154                 0.91267542     -71.0465307
9.155                 0.91241818     -71.1672505
9.156                0.912159927     -71.2883218
9.157                0.911900656     -71.4097459
9.158                0.911640366     -71.5315242
9.159                 0.91137905     -71.6536581
9.16                 0.911116707     -71.7761488
9.161                0.910853331     -71.8989979
9.162                 0.91058892     -72.0222065
9.163                 0.91032347     -72.1457761
9.164                0.910056977      -72.269708
9.165                0.909789436     -72.3940037
9.166                0.909520845     -72.5186645
9.167                  0.9092512     -72.6436918
9.168                0.908980497     -72.7690871
9.169                0.908708732     -72.8948516
9.17                 0.908435902     -73.0209868
9.171                0.908162002     -73.1474941
9.172                0.907887029      -73.274375
9.173                 0.90761098     -73.4016309
9.174                 0.90733385     -73.5292631
9.175                0.907055635     -73.6572731
9.176                0.906776333     -73.7856624
9.177                0.906495938     -73.9144324
9.178                0.906214449     -74.0435846
9.179                 0.90593186     -74.1731203
9.18                 0.905648167     -74.3030411
9.181                0.905363368     -74.4333485
9.182                0.905077459     -74.5640438
9.183                0.904790435     -74.6951286
9.184                0.904502293     -74.8266044
9.185                 0.90421303     -74.9584726
9.186                0.903922641     -75.0907347
9.187                0.903631122     -75.2233923
9.188                0.903338471     -75.3564468
9.189                0.903044683     -75.4898998
9.19                 0.902749754     -75.6237527
9.191                0.902453682     -75.7580071
9.192                0.902156461     -75.8926645
9.193                0.901858089     -76.0277264
9.194                0.901558562     -76.1631944
9.195                0.901257875     -76.2990701
9.196                0.900956026     -76.4353549
9.197                0.900653011     -76.5720504
9.198                0.900348825     -76.7091582
9.199                0.900043466     -76.8466798
9.2                  0.899736929     -76.9846168
9.201                0.899429211     -77.1229708
9.202                0.899120308     -77.2617434
9.203                0.898810217     -77.4009361
9.204                0.898498934     -77.5405506
9.205                0.898186456     -77.6805884
9.206                0.897872778     -77.8210512
9.207                0.897557897     -77.9619405
9.208                 0.89724181      -78.103258
9.209                0.896924513     -78.2450052
9.21                 0.896606002     -78.3871839
9.211                0.896286273     -78.5297956
9.212                0.895965325      -78.672842
9.213                0.895643151     -78.8163247
9.214                 0.89531975     -78.9602454
9.215                0.894995118     -79.1046057
9.216                0.894669251     -79.2494073
9.217                0.894342145     -79.3946518
9.218                0.894013798     -79.5403409
9.219                0.893684205     -79.6864763
9.22                 0.893353364     -79.8330596
9.221                 0.89302127     -79.9800926
9.222                0.892687921      -80.127577
9.223                0.892353314     -80.2755144
9.224                0.892017443     -80.4239065
9.225                0.891680308      -80.572755
9.226                0.891341903     -80.7220617
9.227                0.891002226     -80.8718283
9.228                0.890661273     -81.0220565
9.229                0.890319041      -81.172748
9.23                 0.889975528     -81.3239046
9.231                0.889630729     -81.4755279
9.232                0.889284641     -81.6276198
9.233                0.888937262      -81.780182
9.234                0.888588587     -81.9332162
9.235                0.888238615     -82.0867243
9.236                0.887887341     -82.2407079
9.237                0.887534763     -82.3951689
9.238                0.887180878      -82.550109
9.239                0.886825682     -82.7055299
9.24                 0.886469173     -82.8614336
9.241                0.886111348     -83.0178217
9.242                0.885752203     -83.1746962
9.243                0.885391736     -83.3320587
9.244                0.885029944      -83.489911
9.245                0.884666824     -83.6482551
9.246                0.884302373     -83.8070927
9.247                0.883936588     -83.9664256
9.248                0.883569467     -84.1262557
9.249                0.883201007     -84.2865848
9.25                 0.882831205     -84.4474147
9.251                0.882460058     -84.6087472
9.252                0.882087564     -84.7705843
9.253                 0.88171372     -84.9329278
9.254                0.881338524     -85.0957794
9.255                0.880961973     -85.2591412
9.256                0.880584065     -85.4230149
9.257                0.880204797     -85.5874024
9.258                0.879824167     -85.7523057
9.259                0.879442172     -85.9177265
9.26                  0.87905881     -86.0836667
9.261                0.878674079     -86.2501283
9.262                0.878287977     -86.4171132
9.263                0.877900501     -86.5846231
9.264                 0.87751165     -86.7526601
9.265                 0.87712142     -86.9212261
9.266                0.876729811     -87.0903229
9.267                0.876336819     -87.2599525
9.268                0.875942444     -87.4301167
9.269                0.875546683     -87.6008176
9.27                 0.875149535      -87.772057
9.271                0.874750997     -87.9438369
9.272                0.874351067     -88.1161592
9.273                0.873949745     -88.2890258
9.274                0.873547029     -88.4624387
9.275                0.873142916     -88.6363999
9.276                0.872737405     -88.8109112
9.277                0.872330496     -88.9859747
9.278                0.871922186     -89.1615922
9.279                0.871512473     -89.3377658
9.28                 0.871101358     -89.5144975
9.281                0.870688838     -89.6917891
9.282                0.870274913     -89.8696427
9.283                0.869859581     -90.0480602
9.284                0.869442841     -90.2270437
9.285                0.869024692      -90.406595
9.286                0.868605133     -90.5867163
9.287                0.868184164     -90.7674094
9.288                0.867761784     -90.9486764
9.289                0.867337992     -91.1305192
9.29                 0.866912787     -91.3129399
9.291                0.866486168     -91.4959404
9.292                0.866058136     -91.6795228
9.293                 0.86562869      -91.863689
9.294                0.865197829     -92.0484412
9.295                0.864765553     -92.2337812
9.296                0.864331863      -92.419711
9.297                0.863896757     -92.6062328
9.298                0.863460237     -92.7933486
9.299                0.863022301     -92.9810602
9.3                   0.86258295     -93.1693698
9.301                0.862142185     -93.3582794
9.302                0.861700005      -93.547791
9.303                0.861256411     -93.7379066
9.304                0.860811404     -93.9286283
9.305                0.860364983     -94.1199581
9.306                0.859917151      -94.311898
9.307                0.859467906       -94.50445
9.308                0.859017251     -94.6976162
9.309                0.858565187     -94.8913987
9.31                 0.858111713     -95.0857994
9.311                0.857656832     -95.2808203
9.312                0.857200545     -95.4764636
9.313                0.856742852     -95.6727313
9.314                0.856283756     -95.8696253
9.315                0.855823258     -96.0671478
9.316                0.855361359     -96.2653007
9.317                0.854898061     -96.4640862
9.318                0.854433367     -96.6635062
9.319                0.853967278     -96.8635627
9.32                 0.853499796     -97.0642579
9.321                0.853030923     -97.2655938
9.322                0.852560662     -97.4675723
9.323                0.852089014     -97.6701955
9.324                0.851615983     -97.8734655
9.325                0.851141572     -98.0773843
9.326                0.850665782      -98.281954
9.327                0.850188617     -98.4871764
9.328                 0.84971008     -98.6930538
9.329                0.849230174     -98.8995881
9.33                 0.848748902     -99.1067813
9.331                0.848266267     -99.3146354
9.332                0.847782273     -99.5231525
9.333                0.847296924     -99.7323347
9.334                0.846810223     -99.9421838
9.335                0.846322175     -100.152702
9.336                0.845832782     -100.363891
9.337                0.845342051     -100.575753
9.338                0.844849983     -100.788291
9.339                0.844356585     -101.001505
9.34                 0.843861861     -101.215399
9.341                0.843365815     -101.429973
9.342                0.842868452      -101.64523
9.343                0.842369777     -101.861173
9.344                0.841869796     -102.077802
9.345                0.841368514     -102.295121
9.346                0.840865935      -102.51313
9.347                0.840362067     -102.731833
9.348                0.839856913      -102.95123
9.349                0.839350481     -103.171324
9.35                 0.838842777     -103.392117
9.351                0.838333806      -103.61361
9.352                0.837823575     -103.835807
9.353                 0.83731209     -104.058708
9.354                0.836799359     -104.282315
9.355                0.836285387     -104.506631
9.356                0.835770183     -104.731657
9.357                0.835253753     -104.957395
9.358                0.834736104     -105.183848
9.359                0.834217245     -105.411017
9.36                 0.833697182     -105.638903
9.361                0.833175924      -105.86751
9.362                0.832653479     -106.096838
9.363                0.832129854      -106.32689
9.364                0.831605059     -106.557667
9.365                0.831079102     -106.789171
9.366                0.830551992     -107.021404
9.367                0.830023737     -107.254368
9.368                0.829494347     -107.488065
9.369                0.828963832     -107.722497
9.37                 0.828432199     -107.957664
9.371                 0.82789946      -108.19357
9.372                0.827365624     -108.430215
9.373                0.826830702     -108.667603
9.374                0.826294703     -108.905733
9.375                0.825757638     -109.144608
9.376                0.825219517     -109.384231
9.377                0.824680353     -109.624601
9.378                0.824140154     -109.865722
9.379                0.823598934     -110.107595
9.38                 0.823056703     -110.350221
9.381                0.822513473     -110.593602
9.382                0.821969256     -110.837741
9.383                0.821424064     -111.082637
9.384                0.820877909     -111.328294
9.385                0.820330804     -111.574712
9.386                0.819782761     -111.821894
9.387                0.819233795      -112.06984
9.388                0.818683916     -112.318553
9.389                 0.81813314     -112.568033
9.39                 0.817581479     -112.818283
9.391                0.817028948     -113.069304
9.392                 0.81647556     -113.321097
9.393                 0.81592133     -113.573663
9.394                0.815366272     -113.827005
9.395                0.814810401     -114.081124
9.396                0.814253731     -114.336021
