! TOUCHSTONE file generated by CST DESIGN STUDIO
! Date and time: Tue Feb  4 18:27:34 2025
! Project name: C:\Work\MatlabApps\UnitCellOptimizationMatlab\CST\unitcell.cst
! Tree item: Tasks\Sweep1\SPara1\S-Parameters
! Header version: 2024
! Port assignment regex: !\s*Touchstone port\s*([0-9]+)\s*=\s*(CST MWS port|CST DES external port|CST DES block port)\s*(.+)\s* \(\"(.*)\"\)(\s*mode\s*([0-9]+))?.*
! Touchstone port assignment:
! Touchstone port 1 = CST DES external port 1 ("")
# GHz S MA R 50
9                    0.964588086     -46.4694754
9.001                0.964514511     -46.5278993
9.002                 0.96444066     -46.5864454
9.003                 0.96436653      -46.645114
9.004                0.964292121     -46.7039055
9.005                0.964217432     -46.7628204
9.006                0.964142462      -46.821859
9.007                 0.96406721     -46.8810216
9.008                0.963991675     -46.9403088
9.009                0.963915855     -46.9997208
9.01                  0.96383975     -47.0592581
9.011                0.963763358     -47.1189211
9.012                0.963686679     -47.1787101
9.013                0.963609711     -47.2386256
9.014                0.963532454     -47.2986679
9.015                0.963454907     -47.3588375
9.016                0.963377067     -47.4191347
9.017                0.963298935       -47.47956
9.018                0.963220509     -47.5401137
9.019                0.963141788     -47.6007964
9.02                  0.96306277     -47.6616082
9.021                0.962983456     -47.7225498
9.022                0.962903843     -47.7836214
9.023                0.962823931     -47.8448236
9.024                0.962743719     -47.9061567
9.025                0.962663205     -47.9676211
9.026                0.962582388     -48.0292172
9.027                0.962501267     -48.0909456
9.028                0.962419841     -48.1528065
9.029                0.962338109     -48.2148004
9.03                  0.96225607     -48.2769278
9.031                0.962173723      -48.339189
9.032                0.962091066     -48.4015845
9.033                0.962008098     -48.4641148
9.034                0.961924818     -48.5267801
9.035                0.961841225     -48.5895811
9.036                0.961757318     -48.6525181
9.037                0.961673096     -48.7155915
9.038                0.961588557     -48.7788018
9.039                  0.9615037     -48.8421494
9.04                 0.961418524     -48.9056348
9.041                0.961333028     -48.9692585
9.042                0.961247211     -49.0330207
9.043                0.961161071     -49.0969221
9.044                0.961074607      -49.160963
9.045                0.960987818     -49.2251439
9.046                0.960900703     -49.2894652
9.047                0.960813261     -49.3539275
9.048                 0.96072549     -49.4185311
9.049                0.960637389     -49.4832765
9.05                 0.960548956     -49.5481642
9.051                0.960460192     -49.6131946
9.052                0.960371093     -49.6783682
9.053                 0.96028166     -49.7436855
9.054                 0.96019189     -49.8091469
9.055                0.960101783     -49.8747528
9.056                0.960011337     -49.9405039
9.057                0.959920551     -50.0064004
9.058                0.959829424      -50.072443
9.059                0.959737954     -50.1386321
9.06                  0.95964614     -50.2049681
9.061                0.959553981     -50.2714515
9.062                0.959461476     -50.3380828
9.063                0.959368622     -50.4048626
9.064                0.959275419     -50.4717912
9.065                0.959181866     -50.5388692
9.066                0.959087961     -50.6060971
9.067                0.958993703     -50.6734753
9.068                 0.95889909     -50.7410043
9.069                0.958804121     -50.8086847
9.07                 0.958708795     -50.8765169
9.071                 0.95861311     -50.9445014
9.072                0.958517066     -51.0126388
9.073                 0.95842066     -51.0809295
9.074                0.958323891      -51.149374
9.075                0.958226758     -51.2179729
9.076                 0.95812926     -51.2867266
9.077                0.958031395     -51.3556357
9.078                0.957933161     -51.4247007
9.079                0.957834558      -51.493922
9.08                 0.957735583     -51.5633002
9.081                0.957636236     -51.6328359
9.082                0.957536515     -51.7025295
9.083                0.957436419     -51.7723816
9.084                0.957335946     -51.8423927
9.085                0.957235094     -51.9125632
9.086                0.957133863     -51.9828939
9.087                 0.95703225     -52.0533851
9.088                0.956930255     -52.1240374
9.089                0.956827875     -52.1948513
9.09                  0.95672511     -52.2658275
9.091                0.956621958     -52.3369664
9.092                0.956518417     -52.4082685
9.093                0.956414486     -52.4797344
9.094                0.956310164     -52.5513647
9.095                0.956205448     -52.6231599
9.096                0.956100338     -52.6951206
9.097                0.955994832     -52.7672472
9.098                0.955888928     -52.8395404
9.099                0.955782624     -52.9120008
9.1                   0.95567592     -52.9846288
9.101                0.955568814     -53.0574251
9.102                0.955461304     -53.1303901
9.103                0.955353388     -53.2035246
9.104                0.955245066     -53.2768289
9.105                0.955136335     -53.3503038
9.106                0.955027194     -53.4239498
9.107                0.954917641     -53.4977674
9.108                0.954807675     -53.5717573
9.109                0.954697294       -53.64592
9.11                 0.954586496      -53.720256
9.111                 0.95447528     -53.7947661
9.112                0.954363645     -53.8694508
9.113                0.954251588     -53.9443106
9.114                0.954139109     -54.0193461
9.115                0.954026204      -54.094558
9.116                0.953912874     -54.1699469
9.117                0.953799115     -54.2455133
9.118                0.953684927     -54.3212578
9.119                0.953570307     -54.3971811
9.12                 0.953455255     -54.4732837
9.121                0.953339768     -54.5495663
9.122                0.953223845     -54.6260295
9.123                0.953107484     -54.7026739
9.124                0.952990683     -54.7795001
9.125                0.952873441     -54.8565087
9.126                0.952755756     -54.9337003
9.127                0.952637625     -55.0110757
9.128                0.952519049     -55.0886353
9.129                0.952400024     -55.1663798
9.13                 0.952280549       -55.24431
9.131                0.952160622     -55.3224263
9.132                0.952040242     -55.4007294
9.133                0.951919406       -55.47922
9.134                0.951798114     -55.5578987
9.135                0.951676362     -55.6367661
9.136                 0.95155415      -55.715823
9.137                0.951431476     -55.7950699
9.138                0.951308337     -55.8745075
9.139                0.951184733     -55.9541365
9.14                  0.95106066     -56.0339575
9.141                0.950936118     -56.1139712
9.142                0.950811105     -56.1941782
9.143                0.950685618     -56.2745792
9.144                0.950559656     -56.3551749
9.145                0.950433217     -56.4359659
9.146                0.950306299     -56.5169529
9.147                0.950178901     -56.5981367
9.148                 0.95005102     -56.6795178
9.149                0.949922654     -56.7610969
9.15                 0.949793803     -56.8428748
9.151                0.949664462     -56.9248522
9.152                0.949534632     -57.0070296
9.153                 0.94940431     -57.0894079
9.154                0.949273494     -57.1719876
9.155                0.949142182     -57.2547696
9.156                0.949010372     -57.3377545
9.157                0.948878063      -57.420943
9.158                0.948745251     -57.5043358
9.159                0.948611937     -57.5879336
9.16                 0.948478116     -57.6717372
9.161                0.948343788     -57.7557472
9.162                0.948208951     -57.8399644
9.163                0.948073602     -57.9243895
9.164                0.947937739     -58.0090233
9.165                0.947801361     -58.0938664
9.166                0.947664466     -58.1789195
9.167                0.947527051     -58.2641835
9.168                0.947389115     -58.3496591
9.169                0.947250655     -58.4353469
9.17                 0.947111669     -58.5212477
9.171                0.946972156     -58.6073624
9.172                0.946832113     -58.6936915
9.173                0.946691539      -58.780236
9.174                 0.94655043     -58.8669965
9.175                0.946408786     -58.9539737
9.176                0.946266604     -59.0411686
9.177                0.946123882     -59.1285817
9.178                0.945980618     -59.2162139
9.179                0.945836809      -59.304066
9.18                 0.945692455     -59.3921387
9.181                0.945547551     -59.4804328
9.182                0.945402098     -59.5689491
9.183                0.945256091     -59.6576884
9.184                 0.94510953     -59.7466514
9.185                0.944962412     -59.8358389
9.186                0.944814734     -59.9252518
9.187                0.944666496     -60.0148908
9.188                0.944517694     -60.1047568
9.189                0.944368326     -60.1948504
9.19                  0.94421839     -60.2851726
9.191                0.944067885     -60.3757241
9.192                0.943916807     -60.4665058
9.193                0.943765155     -60.5575185
9.194                0.943612926     -60.6487629
9.195                0.943460118       -60.74024
9.196                0.943306729     -60.8319505
9.197                0.943152757     -60.9238952
9.198                  0.9429982      -61.016075
9.199                0.942843054     -61.1084908
9.2                  0.942687319     -61.2011433
9.201                0.942530991     -61.2940335
9.202                0.942374068      -61.387162
9.203                0.942216549     -61.4805299
9.204                 0.94205843      -61.574138
9.205                 0.94189971      -61.667987
9.206                0.941740386     -61.7620779
9.207                0.941580456     -61.8564115
9.208                0.941419917     -61.9509888
9.209                0.941258768     -62.0458104
9.21                 0.941097005     -62.1408775
9.211                0.940934627     -62.2361907
9.212                0.940771632      -62.331751
9.213                0.940608016     -62.4275593
9.214                0.940443778     -62.5236165
9.215                0.940278914     -62.6199234
9.216                0.940113424     -62.7164809
9.217                0.939947304       -62.81329
9.218                0.939780551     -62.9103515
9.219                0.939613165     -63.0076664
9.22                 0.939445141     -63.1052355
9.221                0.939276478     -63.2030598
9.222                0.939107174     -63.3011402
9.223                0.938937225     -63.3994776
9.224                 0.93876663     -63.4980729
9.225                0.938595385      -63.596927
9.226                 0.93842349      -63.696041
9.227                 0.93825094     -63.7954156
9.228                0.938077734     -63.8950519
9.229                0.937903869     -63.9949508
9.23                 0.937729342     -64.0951132
9.231                0.937554152     -64.1955401
9.232                0.937378295     -64.2962324
9.233                 0.93720177     -64.3971912
9.234                0.937024573     -64.4984173
9.235                0.936846703     -64.5999117
9.236                0.936668156     -64.7016754
9.237                 0.93648893     -64.8037093
9.238                0.936309022     -64.9060145
9.239                0.936128431     -65.0085919
9.24                 0.935947153     -65.1114425
9.241                0.935765186     -65.2145673
9.242                0.935582527     -65.3179673
9.243                0.935399174     -65.4216434
9.244                0.935215124     -65.5255967
9.245                0.935030375     -65.6298281
9.246                0.934844924     -65.7343387
9.247                0.934658768     -65.8391296
9.248                0.934471905     -65.9442016
9.249                0.934284333     -66.0495558
9.25                 0.934096048     -66.1551933
9.251                0.933907047      -66.261115
9.252                 0.93371733      -66.367322
9.253                0.933526892     -66.4738154
9.254                0.933335731     -66.5805961
9.255                0.933143844     -66.6876653
9.256                0.932951229     -66.7950239
9.257                0.932757884      -66.902673
9.258                0.932563805     -67.0106137
9.259                0.932368989      -67.118847
9.26                 0.932173435      -67.227374
9.261                0.931977139     -67.3361957
9.262                0.931780099     -67.4453133
9.263                0.931582312     -67.5547277
9.264                0.931383776     -67.6644402
9.265                0.931184487     -67.7744517
9.266                0.930984443     -67.8847633
9.267                0.930783641     -67.9953762
9.268                0.930582079     -68.1062914
9.269                0.930379754     -68.2175101
9.27                 0.930176663     -68.3290333
9.271                0.929972804     -68.4408621
9.272                0.929768173     -68.5529977
9.273                0.929562768     -68.6654412
9.274                0.929356586     -68.7781937
9.275                0.929149624     -68.8912563
9.276                 0.92894188     -69.0046302
9.277                0.928733351     -69.1183164
9.278                0.928524035     -69.2323162
9.279                0.928313927     -69.3466307
9.28                 0.928103027     -69.4612609
9.281                 0.92789133     -69.5762082
9.282                0.927678834     -69.6914735
9.283                0.927465537     -69.8070582
9.284                0.927251435     -69.9229633
9.285                0.927036526       -70.03919
9.286                0.926820807     -70.1557395
9.287                0.926604275      -70.272613
9.288                0.926386927     -70.3898116
9.289                0.926168761     -70.5073365
9.29                 0.925949774      -70.625189
9.291                0.925729962     -70.7433702
9.292                0.925509324     -70.8618813
9.293                0.925287856     -70.9807235
9.294                0.925065556     -71.0998981
9.295                0.924842421     -71.2194062
9.296                0.924618447     -71.3392491
9.297                0.924393633     -71.4594279
9.298                0.924167975      -71.579944
9.299                 0.92394147     -71.7007985
9.3                  0.923714116     -71.8219927
9.301                 0.92348591     -71.9435277
9.302                0.923256849      -72.065405
9.303                 0.92302693     -72.1876256
9.304                0.922796151     -72.3101909
9.305                0.922564508     -72.4331021
9.306                0.922331999     -72.5563605
9.307                0.922098621     -72.6799673
9.308                0.921864371     -72.8039238
9.309                0.921629246     -72.9282313
9.31                 0.921393243     -73.0528911
9.311                0.921156361     -73.1779045
9.312                0.920918595     -73.3032726
9.313                0.920679943     -73.4289969
9.314                0.920440402     -73.5550787
9.315                 0.92019997     -73.6815191
9.316                0.919958643     -73.8083197
9.317                0.919716419     -73.9354815
9.318                0.919473294      -74.063006
9.319                0.919229267     -74.1908946
9.32                 0.918984334     -74.3191484
9.321                0.918738493     -74.4477688
9.322                 0.91849174     -74.5767573
9.323                0.918244074     -74.7061151
9.324                 0.91799549     -74.8358435
9.325                0.917745987     -74.9659439
9.326                0.917495561     -75.0964177
9.327                 0.91724421     -75.2272662
9.328                 0.91699193     -75.3584908
9.329                 0.91673872     -75.4900928
9.33                 0.916484577     -75.6220736
9.331                0.916229497     -75.7544346
9.332                0.915973478     -75.8871772
9.333                0.915716517     -76.0203028
9.334                0.915458611     -76.1538127
9.335                0.915199758     -76.2877083
9.336                0.914939955      -76.421991
9.337                0.914679199     -76.5566623
9.338                0.914417487     -76.6917236
9.339                0.914154817     -76.8271762
9.34                 0.913891186     -76.9630215
9.341                0.913626592     -77.0992611
9.342                0.913361031     -77.2358963
9.343                0.913094501     -77.3729285
9.344                0.912826999     -77.5103592
9.345                0.912558522     -77.6481898
9.346                0.912289069     -77.7864218
9.347                0.912018636     -77.9250566
9.348                 0.91174722     -78.0640956
9.349                 0.91147482     -78.2035404
9.35                 0.911201432     -78.3433924
9.351                0.910927053      -78.483653
9.352                0.910651682     -78.6243237
9.353                0.910375315      -78.765406
9.354                 0.91009795     -78.9069014
9.355                0.909819585     -79.0488113
9.356                0.909540217     -79.1911373
9.357                0.909259843     -79.3338808
9.358                 0.90897846     -79.4770434
9.359                0.908696067     -79.6206265
9.36                 0.908412661     -79.7646316
9.361                0.908128239     -79.9090602
9.362                0.907842799     -80.0539139
9.363                0.907556338     -80.1991943
9.364                0.907268855     -80.3449027
9.365                0.906980346     -80.4910407
9.366                0.906690809     -80.6376099
9.367                0.906400241     -80.7846118
9.368                0.906108642     -80.9320479
9.369                0.905816007     -81.0799198
9.37                 0.905522335      -81.228229
9.371                0.905227623     -81.3769772
9.372                0.904931869     -81.5261657
9.373                0.904635071     -81.6757963
9.374                0.904337227     -81.8258704
9.375                0.904038334     -81.9763896
9.376                 0.90373839     -82.1273556
9.377                0.903437393     -82.2787698
9.378                 0.90313534     -82.4306339
9.379                0.902832231     -82.5829495
9.38                 0.902528061     -82.7357181
9.381                 0.90222283     -82.8889413
9.382                0.901916536     -83.0426208
9.383                0.901609175     -83.1967581
9.384                0.901300747     -83.3513548
9.385                0.900991248     -83.5064125
9.386                0.900680678      -83.661933
9.387                0.900369034     -83.8179177
9.388                0.900056315     -83.9743683
9.389                0.899742517     -84.1312864
9.39                 0.899427641     -84.2886736
9.391                0.899111683     -84.4465316
9.392                0.898794641     -84.6048621
9.393                0.898476515     -84.7636666
9.394                0.898157302     -84.9229468
9.395                0.897837001     -85.0827043
9.396                0.897515609     -85.2429408
