! TOUCHSTONE file generated by CST DESIGN STUDIO
! Date and time: Tue Feb  4 18:27:32 2025
! Project name: C:\Work\MatlabApps\UnitCellOptimizationMatlab\CST\unitcell.cst
! Tree item: Tasks\Sweep1\SPara1\S-Parameters
! Header version: 2024
! Port assignment regex: !\s*Touchstone port\s*([0-9]+)\s*=\s*(CST MWS port|CST DES external port|CST DES block port)\s*(.+)\s* \(\"(.*)\"\)(\s*mode\s*([0-9]+))?.*
! Touchstone port assignment:
! Touchstone port 1 = CST DES external port 1 ("")
# GHz S MA R 50
9                    0.955116131     -50.7161129
9.001                0.955018252      -50.783559
9.002                 0.95491998     -50.8511595
9.003                0.954821311     -50.9189148
9.004                0.954722246     -50.9868256
9.005                0.954622781     -51.0548923
9.006                0.954522915     -51.1231155
9.007                0.954422648     -51.1914956
9.008                0.954321976     -51.2600331
9.009                0.954220899     -51.3287287
9.01                 0.954119415     -51.3975828
9.011                0.954017522     -51.4665959
9.012                0.953915219     -51.5357686
9.013                0.953812504     -51.6051013
9.014                0.953709375     -51.6745947
9.015                0.953605831     -51.7442493
9.016                0.953501871     -51.8140655
9.017                0.953397491      -51.884044
9.018                0.953292692     -51.9541853
9.019                 0.95318747     -52.0244898
9.02                 0.953081825     -52.0949582
9.021                0.952975755     -52.1655911
9.022                0.952869257     -52.2363888
9.023                0.952762331     -52.3073521
9.024                0.952654974     -52.3784815
9.025                0.952547186     -52.4497774
9.026                0.952438963     -52.5212405
9.027                0.952330305     -52.5928714
9.028                 0.95222121     -52.6646706
9.029                0.952111675     -52.7366386
9.03                   0.9520017      -52.808776
9.031                0.951891282     -52.8810834
9.032                0.951780419     -52.9535614
9.033                0.951669111     -53.0262106
9.034                0.951557355     -53.0990314
9.035                0.951445149     -53.1720246
9.036                0.951332491     -53.2451906
9.037                0.951219381     -53.3185301
9.038                0.951105815     -53.3920437
9.039                0.950991792     -53.4657319
9.04                 0.950877311     -53.5395953
9.041                0.950762369     -53.6136345
9.042                0.950646964     -53.6878502
9.043                0.950531096     -53.7622429
9.044                0.950414761     -53.8368132
9.045                0.950297958     -53.9115617
9.046                0.950180686     -53.9864891
9.047                0.950062942     -54.0615959
9.048                0.949944724     -54.1368827
9.049                0.949826031     -54.2123502
9.05                 0.949706861      -54.287999
9.051                0.949587211     -54.3638297
9.052                 0.94946708      -54.439843
9.053                0.949346466     -54.5160393
9.054                0.949225368     -54.5924195
9.055                0.949103782      -54.668984
9.056                0.948981707     -54.7457336
9.057                0.948859142     -54.8226689
9.058                0.948736084     -54.8997905
9.059                0.948612531      -54.977099
9.06                 0.948488482     -55.0545951
9.061                0.948363934     -55.1322795
9.062                0.948238886     -55.2101528
9.063                0.948113335     -55.2882156
9.064                0.947987279     -55.3664686
9.065                0.947860717     -55.4449125
9.066                0.947733646     -55.5235479
9.067                0.947606064     -55.6023754
9.068                 0.94747797     -55.6813959
9.069                0.947349361     -55.7606098
9.07                 0.947220236     -55.8400179
9.071                0.947090592     -55.9196209
9.072                0.946960427     -55.9994194
9.073                0.946829739     -56.0794142
9.074                0.946698526     -56.1596058
9.075                0.946566786     -56.2399951
9.076                0.946434517     -56.3205826
9.077                0.946301717     -56.4013691
9.078                0.946168384     -56.4823553
9.079                0.946034515     -56.5635419
9.08                 0.945900109     -56.6449295
9.081                0.945765163      -56.726519
9.082                0.945629676     -56.8083109
9.083                0.945493644      -56.890306
9.084                0.945357067     -56.9725051
9.085                0.945219941     -57.0549088
9.086                0.945082265     -57.1375178
9.087                0.944944037     -57.2203329
9.088                0.944805254     -57.3033549
9.089                0.944665914     -57.3865844
9.09                 0.944526015     -57.4700222
9.091                0.944385555      -57.553669
9.092                0.944244531     -57.6375256
9.093                0.944102942     -57.7215927
9.094                0.943960784      -57.805871
9.095                0.943818057     -57.8903614
9.096                0.943674757     -57.9750646
9.097                0.943530883     -58.0599813
9.098                0.943386432     -58.1451123
9.099                0.943241402     -58.2304583
9.1                   0.94309579     -58.3160203
9.101                0.942949595     -58.4017988
9.102                0.942802814     -58.4877948
9.103                0.942655444     -58.5740089
9.104                0.942507484      -58.660442
9.105                0.942358931     -58.7470949
9.106                0.942209783     -58.8339684
9.107                0.942060037     -58.9210632
9.108                0.941909691     -59.0083802
9.109                0.941758743     -59.0959202
9.11                  0.94160719      -59.183684
9.111                0.941455031     -59.2716725
9.112                0.941302261     -59.3598864
9.113                 0.94114888     -59.4483265
9.114                0.940994885     -59.5369938
9.115                0.940840273     -59.6258891
9.116                0.940685042     -59.7150132
9.117                0.940529189     -59.8043669
9.118                0.940372712     -59.8939511
9.119                0.940215609     -59.9837668
9.12                 0.940057876     -60.0738146
9.121                0.939899511     -60.1640957
9.122                0.939740512     -60.2546107
9.123                0.939580876     -60.3453606
9.124                0.939420601     -60.4363463
9.125                0.939259684     -60.5275687
9.126                0.939098121     -60.6190287
9.127                0.938935911     -60.7107273
9.128                 0.93877305     -60.8026653
9.129                0.938609537     -60.8948436
9.13                 0.938445367     -60.9872634
9.131                0.938280538     -61.0799254
9.132                0.938115047     -61.1728306
9.133                 0.93794889     -61.2659801
9.134                0.937782066     -61.3593747
9.135                 0.93761457     -61.4530156
9.136                0.937446399     -61.5469037
9.137                 0.93727755       -61.64104
9.138                0.937108019     -61.7354256
9.139                0.936937802     -61.8300614
9.14                 0.936766896     -61.9249487
9.141                0.936595296     -62.0200884
9.142                0.936422998     -62.1154816
9.143                0.936249997     -62.2111294
9.144                0.936076289      -62.307033
9.145                0.935901868     -62.4031936
9.146                0.935726729     -62.4996122
9.147                0.935550866     -62.5962901
9.148                0.935374272     -62.6932285
9.149                 0.93519694     -62.7904286
9.15                 0.935018863     -62.8878917
9.151                0.934840031      -62.985619
9.152                0.934660436     -63.0836119
9.153                0.934480066     -63.1818716
9.154                 0.93429891     -63.2803996
9.155                0.934116955      -63.379197
9.156                0.933934186     -63.4782654
9.157                0.933750586     -63.5776061
9.158                0.933566137     -63.6772203
9.159                0.933380817     -63.7771096
9.16                 0.933194602     -63.8772751
9.161                0.933007464     -63.9777181
9.162                0.932819373     -64.0784397
9.163                0.932630294     -64.1794408
9.164                0.932440185     -64.2807223
9.165                0.932249004     -64.3822846
9.166                0.932056702     -64.4841277
9.167                0.931863223     -64.5862513
9.168                 0.93166851     -64.6886543
9.169                0.931472503     -64.7913347
9.17                 0.931275139     -64.8942898
9.171                0.931076358     -64.9975155
9.172                0.930876111     -65.1010062
9.173                0.930674359     -65.2047551
9.174                0.930471089     -65.3087537
9.175                0.930266321     -65.4129923
9.176                0.930060119     -65.5174602
9.177                0.929852604     -65.6221467
9.178                0.929643956     -65.7270421
9.179                0.929434418      -65.832139
9.18                 0.929224284     -65.9374338
9.181                0.929013877     -66.0429284
9.182                 0.92880352     -66.1486302
9.183                0.928593502     -66.2545527
9.184                0.928384045      -66.360714
9.185                 0.92817528     -66.4671352
9.186                0.927967241     -66.5738385
9.187                 0.92775987     -66.6808446
9.188                0.927553035     -66.7881715
9.189                0.927346556     -66.8958333
9.19                 0.927140229     -67.0038402
9.191                0.926933845     -67.1121988
9.192                 0.92672721     -67.2209121
9.193                0.926520149     -67.3299811
9.194                0.926312515     -67.4394049
9.195                0.926104189     -67.5491816
9.196                0.925895077     -67.6593088
9.197                0.925685105      -67.769784
9.198                0.925474221     -67.8806045
9.199                0.925262386     -67.9917681
9.2                  0.925049574     -68.1032729
9.201                0.924835769     -68.2151174
9.202                0.924620963     -68.3273004
9.203                 0.92440515     -68.4398212
9.204                0.924188332     -68.5526796
9.205                0.923970511     -68.6658756
9.206                0.923751694     -68.7794097
9.207                0.923531885     -68.8932824
9.208                0.923311094      -69.007495
9.209                0.923089327     -69.1220488
9.21                 0.922866596     -69.2369454
9.211                0.922642907     -69.3521868
9.212                0.922418272     -69.4677753
9.213                  0.9221927     -69.5837135
9.214                0.921966202     -69.7000042
9.215                0.921738787     -69.8166509
9.216                0.921510469     -69.9336572
9.217                 0.92128126     -70.0510273
9.218                0.921051172      -70.168766
9.219                0.920820222     -70.2868786
9.22                 0.920588425     -70.4053712
9.221                0.920355801     -70.5242508
9.222                0.920122371     -70.6435255
9.223                0.919888161     -70.7632047
9.224                  0.9196532     -70.8832993
9.225                0.919417525     -71.0038224
9.226                0.919181179     -71.1247896
9.227                0.918944213     -71.2462195
9.228                0.918706694     -71.3681354
9.229                0.918468703     -71.4905659
9.23                 0.918230343     -71.6135469
9.231                0.917991751     -71.7371248
9.232                0.917753103     -71.8613598
9.233                0.917514639     -71.9863326
9.234                0.917276687     -72.1121533
9.235                0.917039712     -72.2389765
9.236                0.916804397     -72.3670275
9.237                0.916571778     -72.4966472
9.238                0.916343518      -72.628378
9.239                0.916122455       -72.76314
9.24                 0.915913867     -72.9026297
9.241                0.915728796     -73.0503584
9.242                0.915594886     -73.2149712
9.243                0.915606229       -73.42504
9.244                0.916419227     -73.8645399
9.245                0.911230102      -71.945095
9.246                0.913242027     -73.2586547
9.247                0.913353873      -73.525365
9.248                0.913242697     -73.7070679
9.249                0.913061366     -73.8638099
9.25                 0.912848626     -74.0100245
9.251                0.912618829     -74.1509313
9.252                0.912378515     -74.2888771
9.253                 0.91213109     -74.4250737
9.254                0.911878501     -74.5602102
9.255                0.911621942     -74.6947079
9.256                0.911362184     -74.8288389
9.257                 0.91109975      -74.962787
9.258                0.910835002     -75.0966812
9.259                0.910568203     -75.2306144
9.26                 0.910299544     -75.3646559
9.261                0.910029172      -75.498858
9.262                0.909757197     -75.6332614
9.263                0.909483705     -75.7678982
9.264                0.909208763      -75.902794
9.265                0.908932426     -76.0379699
9.266                0.908654736      -76.173443
9.267                0.908375729     -76.3092277
9.268                0.908095433     -76.4453364
9.269                0.907813871     -76.5817794
9.27                 0.907531062     -76.7185657
9.271                0.907247022     -76.8557033
9.272                0.906961765      -76.993199
9.273                0.906675301     -77.1310591
9.274                0.906387639     -77.2692891
9.275                0.906098786      -77.407894
9.276                0.905808748     -77.5468783
9.277                0.905517532     -77.6862463
9.278                0.905225139     -77.8260018
9.279                0.904931575     -77.9661484
9.28                 0.904636841     -78.1066896
9.281                0.904340939     -78.2476284
9.282                0.904043871     -78.3889679
9.283                0.903745637     -78.5307109
9.284                0.903446239     -78.6728602
9.285                0.903145677     -78.8154183
9.286                0.902843951     -78.9583878
9.287                0.902541059     -79.1017711
9.288                0.902237003     -79.2455706
9.289                0.901931782     -79.3897885
9.29                 0.901625393      -79.534427
9.291                0.901317837     -79.6794884
9.292                0.901009112     -79.8249747
9.293                0.900699218     -79.9708881
9.294                0.900388152     -80.1172307
9.295                0.900075913     -80.2640043
9.296                  0.8997625      -80.411211
9.297                0.899447911     -80.5588528
9.298                0.899132144     -80.7069317
9.299                0.898815198     -80.8554495
9.3                   0.89849707     -81.0044082
9.301                 0.89817776     -81.1538096
9.302                0.897857265     -81.3036556
9.303                0.897535583     -81.4539481
9.304                0.897212712      -81.604689
9.305                0.896888651     -81.7558801
9.306                0.896563397     -81.9075232
9.307                0.896236949     -82.0596201
9.308                0.895909304     -82.2121727
9.309                 0.89558046     -82.3651829
9.31                 0.895250416     -82.5186523
9.311                 0.89491917     -82.6725828
9.312                0.894586718     -82.8269763
9.313                0.894253061     -82.9818344
9.314                0.893918194     -83.1371591
9.315                0.893582118     -83.2929521
9.316                0.893244828     -83.4492152
9.317                0.892906325     -83.6059502
9.318                0.892566605     -83.7631589
9.319                0.892225666      -83.920843
9.32                 0.891883507     -84.0790045
9.321                0.891540126      -84.237645
9.322                0.891195521     -84.3967664
9.323                 0.89084969     -84.5563704
9.324                0.890502632     -84.7164588
9.325                0.890154343     -84.8770336
9.326                0.889804823     -85.0380963
9.327                0.889454071     -85.1996489
9.328                0.889102083     -85.3616931
9.329                0.888748858     -85.5242307
9.33                 0.888394395     -85.6872636
9.331                0.888038692     -85.8507935
9.332                0.887681748     -86.0148222
9.333                 0.88732356     -86.1793516
9.334                0.886964128     -86.3443835
9.335                0.886603449     -86.5099196
9.336                0.886241523     -86.6759618
9.337                0.885878347     -86.8425119
9.338                0.885513921     -87.0095717
9.339                0.885148242      -87.177143
9.34                 0.884781311     -87.3452277
9.341                0.884413124     -87.5138275
9.342                0.884043682     -87.6829443
9.343                0.883672982       -87.85258
9.344                0.883301024     -88.0227364
9.345                0.882927807     -88.1934152
9.346                0.882553329     -88.3646183
9.347                 0.88217759     -88.5363476
9.348                0.881800588      -88.708605
9.349                0.881422323     -88.8813921
9.35                 0.881042793      -89.054711
9.351                0.880661999     -89.2285634
9.352                0.880279938     -89.4029512
9.353                 0.87989661     -89.5778762
9.354                0.879512016     -89.7533403
9.355                0.879126153     -89.9293453
9.356                0.878739021     -90.1058931
9.357                0.878350621     -90.2829856
9.358                0.877960951     -90.4606246
9.359                0.877570011      -90.638812
9.36                   0.8771778     -90.8175497
9.361                 0.87678432     -90.9968394
9.362                0.876389568     -91.1766832
9.363                0.875993545     -91.3570828
9.364                0.875596252     -91.5380401
9.365                0.875197687      -91.719557
9.366                0.874797852     -91.9016354
9.367                0.874396745     -92.0842771
9.368                0.873994368      -92.267484
9.369                0.873590721     -92.4512581
9.37                 0.873185803     -92.6356011
9.371                0.872779615      -92.820515
9.372                0.872372158     -93.0060017
9.373                0.871963433      -93.192063
9.374                0.871553439     -93.3787008
9.375                0.871142178      -93.565917
9.376                 0.87072965     -93.7537134
9.377                0.870315856     -93.9420921
9.378                0.869900797     -94.1310548
9.379                0.869484474     -94.3206035
9.38                 0.869066888       -94.51074
9.381                0.868648041     -94.7014662
9.382                0.868227933     -94.8927841
9.383                0.867806566     -95.0846954
9.384                 0.86738394     -95.2772022
9.385                0.866960059     -95.4703062
9.386                0.866534923     -95.6640094
9.387                0.866108534     -95.8583136
9.388                0.865680894     -96.0532208
9.389                0.865252004     -96.2487328
9.39                 0.864821866     -96.4448516
9.391                0.864390484     -96.6415789
9.392                0.863957858     -96.8389167
9.393                0.863523991      -97.036867
9.394                0.863088885     -97.2354314
9.395                0.862652543      -97.434612
9.396                0.862214967     -97.6344106
