! TOUCHSTONE file generated by CST DESIGN STUDIO
! Date and time: Tue Feb  4 18:11:19 2025
! Project name: C:\Work\MatlabApps\UnitCellOptimizationMatlab\CST\unitcell.cst
! Tree item: Tasks\Sweep1\SPara1\S-Parameters
! Header version: 2024
! Port assignment regex: !\s*Touchstone port\s*([0-9]+)\s*=\s*(CST MWS port|CST DES external port|CST DES block port)\s*(.+)\s* \(\"(.*)\"\)(\s*mode\s*([0-9]+))?.*
! Touchstone port assignment:
! Touchstone port 1 = CST DES external port 1 ("")
# GHz S MA R 50
9                    0.964533111     -53.2739199
9.001                0.964465346     -53.3430339
9.002                0.964397375     -53.4122984
9.003                0.964329196      -53.481714
9.004                 0.96426081     -53.5512811
9.005                0.964192215     -53.6210002
9.006                0.964123411     -53.6908717
9.007                0.964054398     -53.7608961
9.008                0.963985173     -53.8310739
9.009                0.963915738     -53.9014055
9.01                  0.96384609     -53.9718915
9.011                 0.96377623     -54.0425323
9.012                0.963706156     -54.1133284
9.013                0.963635867     -54.1842803
9.014                0.963565364     -54.2553885
9.015                0.963494645     -54.3266534
9.016                 0.96342371     -54.3980756
9.017                0.963352558     -54.4696555
9.018                0.963281188     -54.5413936
9.019                0.963209599     -54.6132905
9.02                  0.96313779     -54.6853466
9.021                0.963065762     -54.7575623
9.022                0.962993512     -54.8299383
9.023                0.962921041      -54.902475
9.024                0.962848348     -54.9751729
9.025                0.962775431     -55.0480326
9.026                0.962702291     -55.1210544
9.027                0.962628925      -55.194239
9.028                0.962555335     -55.2675869
9.029                0.962481518     -55.3410984
9.03                 0.962407474     -55.4147743
9.031                0.962333202      -55.488615
9.032                0.962258702     -55.5626209
9.033                0.962183973     -55.6367927
9.034                0.962109013     -55.7111308
9.035                0.962033822     -55.7856358
9.036                  0.9619584     -55.8603082
9.037                0.961882746     -55.9351484
9.038                0.961806858     -56.0101572
9.039                0.961730736     -56.0853349
9.04                 0.961654379     -56.1606821
9.041                0.961577787     -56.2361994
9.042                0.961500958     -56.3118873
9.043                0.961423892     -56.3877463
9.044                0.961346588     -56.4637769
9.045                0.961269045     -56.5399798
9.046                0.961191263     -56.6163553
9.047                0.961113239     -56.6929042
9.048                0.961034975      -56.769627
9.049                0.960956469     -56.8465241
9.05                 0.960877719     -56.9235962
9.051                0.960798726     -57.0008438
9.052                0.960719489     -57.0782674
9.053                0.960640006     -57.1558677
9.054                0.960560277     -57.2336451
9.055                  0.9604803     -57.3116003
9.056                0.960400076     -57.3897337
9.057                0.960319603     -57.4680461
9.058                0.960238881     -57.5465378
9.059                0.960157908     -57.6252096
9.06                 0.960076684      -57.704062
9.061                0.959995207     -57.7830955
9.062                0.959913478     -57.8623108
9.063                0.959831495     -57.9417084
9.064                0.959749258     -58.0212889
9.065                0.959666764     -58.1010528
9.066                0.959584015     -58.1810008
9.067                0.959501008     -58.2611335
9.068                0.959417743     -58.3414514
9.069                0.959334219     -58.4219552
9.07                 0.959250436     -58.5026453
9.071                0.959166391     -58.5835225
9.072                0.959082085     -58.6645873
9.073                0.958997517     -58.7458404
9.074                0.958912685     -58.8272822
9.075                0.958827589     -58.9089135
9.076                0.958742228     -58.9907348
9.077                0.958656601     -59.0727468
9.078                0.958570707       -59.15495
9.079                0.958484546     -59.2373451
9.08                 0.958398116     -59.3199326
9.081                0.958311416     -59.4027133
9.082                0.958224445     -59.4856877
9.083                0.958137204     -59.5688564
9.084                 0.95804969     -59.6522201
9.085                0.957961903     -59.7357794
9.086                0.957873842      -59.819535
9.087                0.957785506     -59.9034874
9.088                0.957696894     -59.9876372
9.089                0.957608005     -60.0719852
9.09                 0.957518839      -60.156532
9.091                0.957429393     -60.2412782
9.092                0.957339669     -60.3262244
9.093                0.957249664     -60.4113713
9.094                0.957159377     -60.4967195
9.095                0.957068808     -60.5822697
9.096                0.956977956     -60.6680226
9.097                 0.95688682     -60.7539788
9.098                0.956795399     -60.8401389
9.099                0.956703691     -60.9265036
9.1                  0.956611697     -61.0130737
9.101                0.956519414     -61.0998496
9.102                0.956426843     -61.1868321
9.103                0.956333982     -61.2740219
9.104                 0.95624083     -61.3614197
9.105                0.956147386     -61.4490261
9.106                 0.95605365     -61.5368417
9.107                 0.95595962     -61.6248674
9.108                0.955865296     -61.7131036
9.109                0.955770676     -61.8015512
9.11                 0.955675759     -61.8902109
9.111                0.955580545     -61.9790832
9.112                0.955485032     -62.0681689
9.113                0.955389221     -62.1574687
9.114                0.955293108     -62.2469833
9.115                0.955196695     -62.3367133
9.116                0.955099979     -62.4266596
9.117                 0.95500296     -62.5168227
9.118                0.954905636     -62.6072034
9.119                0.954808008     -62.6978024
9.12                 0.954710073     -62.7886204
9.121                0.954611831     -62.8796581
9.122                 0.95451328     -62.9709163
9.123                0.954414421     -63.0623956
9.124                0.954315251     -63.1540967
9.125                 0.95421577     -63.2460205
9.126                0.954115977     -63.3381676
9.127                0.954015871     -63.4305387
9.128                0.953915451     -63.5231345
9.129                0.953814716     -63.6159559
9.13                 0.953713664     -63.7090035
9.131                0.953612296     -63.8022781
9.132                0.953510609     -63.8957804
9.133                0.953408603     -63.9895112
9.134                0.953306277     -64.0834712
9.135                 0.95320363     -64.1776611
9.136                0.953100661     -64.2720817
9.137                0.952997368     -64.3667338
9.138                0.952893751     -64.4616181
9.139                 0.95278981     -64.5567354
9.14                 0.952685542     -64.6520864
9.141                0.952580946     -64.7476718
9.142                0.952476023     -64.8434926
9.143                 0.95237077     -64.9395494
9.144                0.952265187     -65.0358429
9.145                0.952159273     -65.1323741
9.146                0.952053026     -65.2291436
9.147                0.951946446     -65.3261522
9.148                0.951839531     -65.4234008
9.149                0.951732282       -65.52089
9.15                 0.951624695     -65.6186207
9.151                0.951516772     -65.7165937
9.152                0.951408509     -65.8148098
9.153                0.951299908     -65.9132697
9.154                0.951190965     -66.0119743
9.155                0.951081682     -66.1109243
9.156                0.950972055     -66.2101206
9.157                0.950862085      -66.309564
9.158                 0.95075177     -66.4092552
9.159                0.950641109     -66.5091952
9.16                 0.950530102     -66.6093846
9.161                0.950418747     -66.7098244
9.162                0.950307043     -66.8105153
9.163                0.950194989     -66.9114582
9.164                0.950082584     -67.0126539
9.165                0.949969827     -67.1141032
9.166                0.949856717     -67.2158069
9.167                0.949743253     -67.3177659
9.168                0.949629434     -67.4199811
9.169                0.949515259     -67.5224532
9.17                 0.949400726      -67.625183
9.171                0.949285836     -67.7281716
9.172                0.949170586     -67.8314196
9.173                0.949054975      -67.934928
9.174                0.948939004     -68.0386976
9.175                0.948822669     -68.1427292
9.176                0.948705972     -68.2470237
9.177                 0.94858891      -68.351582
9.178                0.948471482     -68.4564049
9.179                0.948353687     -68.5614934
9.18                 0.948235525     -68.6668482
9.181                0.948116995     -68.7724702
9.182                0.947998094     -68.8783604
9.183                0.947878823     -68.9845196
9.184                 0.94775918     -69.0909486
9.185                0.947639163     -69.1976485
9.186                0.947518773     -69.3046199
9.187                0.947398008     -69.4118639
9.188                0.947276867     -69.5193814
9.189                0.947155349     -69.6271731
9.19                 0.947033452     -69.7352401
9.191                0.946911177     -69.8435832
9.192                0.946788521     -69.9522034
9.193                0.946665484     -70.0611015
9.194                0.946542065     -70.1702784
9.195                0.946418262     -70.2797351
9.196                0.946294075     -70.3894725
9.197                0.946169502     -70.4994914
9.198                0.946044543     -70.6097929
9.199                0.945919197     -70.7203778
9.2                  0.945793461      -70.831247
9.201                0.945667337     -70.9424016
9.202                0.945540821     -71.0538424
9.203                0.945413914     -71.1655703
9.204                0.945286615     -71.2775864
9.205                0.945158922     -71.3898915
9.206                0.945030833     -71.5024866
9.207                 0.94490235     -71.6153726
9.208                0.944773469     -71.7285504
9.209                0.944644191     -71.8420211
9.21                 0.944514513     -71.9557857
9.211                0.944384436     -72.0698449
9.212                0.944253958     -72.1841999
9.213                0.944123078     -72.2988515
9.214                0.943991796     -72.4138007
9.215                0.943860109     -72.5290486
9.216                0.943728018     -72.6445961
9.217                 0.94359552     -72.7604441
9.218                0.943462616     -72.8765936
9.219                0.943329303     -72.9930456
9.22                 0.943195582     -73.1098012
9.221                0.943061451     -73.2268612
9.222                0.942926909     -73.3442267
9.223                0.942791955     -73.4618987
9.224                0.942656589     -73.5798782
9.225                0.942520808     -73.6981661
9.226                0.942384613     -73.8167634
9.227                0.942248001     -73.9356712
9.228                0.942110973     -74.0548905
9.229                0.941973527     -74.1744223
9.23                 0.941835663     -74.2942676
9.231                0.941697379     -74.4144274
9.232                0.941558674     -74.5349027
9.233                0.941419548     -74.6556945
9.234                0.941279999      -74.776804
9.235                0.941140026      -74.898232
9.236                 0.94099963     -75.0199797
9.237                0.940858807      -75.142048
9.238                0.940717559      -75.264438
9.239                0.940575883     -75.3871507
9.24                 0.940433779     -75.5101872
9.241                0.940291247     -75.6335485
9.242                0.940148284     -75.7572357
9.243                 0.94000489     -75.8812498
9.244                0.939861065     -76.0055919
9.245                0.939716806      -76.130263
9.246                0.939572115     -76.2552641
9.247                0.939426989     -76.3805964
9.248                0.939281427     -76.5062608
9.249                0.939135429     -76.6322586
9.25                 0.938988995     -76.7585906
9.251                0.938842122     -76.8852581
9.252                 0.93869481      -77.012262
9.253                0.938547059     -77.1396035
9.254                0.938398868     -77.2672836
9.255                0.938250235     -77.3953034
9.256                 0.93810116     -77.5236639
9.257                0.937951642     -77.6523664
9.258                 0.93780168     -77.7814118
9.259                0.937651273     -77.9108013
9.26                 0.937500421      -78.040536
9.261                0.937349123     -78.1706168
9.262                0.937197378     -78.3010451
9.263                0.937045186     -78.4318218
9.264                0.936892544      -78.562948
9.265                0.936739454     -78.6944249
9.266                0.936585913     -78.8262535
9.267                0.936431922     -78.9584351
9.268                0.936277479     -79.0909706
9.269                0.936122584     -79.2238613
9.27                 0.935967235     -79.3571082
9.271                0.935811434     -79.4907124
9.272                0.935655177     -79.6246752
9.273                0.935498466     -79.7589975
9.274                0.935341299     -79.8936806
9.275                0.935183675     -80.0287255
9.276                0.935025595     -80.1641335
9.277                0.934867056     -80.2999055
9.278                 0.93470806     -80.4360429
9.279                0.934548604     -80.5725467
9.28                 0.934388688      -80.709418
9.281                0.934228313     -80.8466581
9.282                0.934067476      -80.984268
9.283                0.933906178     -81.1222489
9.284                0.933744418     -81.2606019
9.285                0.933582196     -81.3993283
9.286                 0.93341951     -81.5384292
9.287                 0.93325636     -81.6779056
9.288                0.933092747     -81.8177589
9.289                0.932928668     -81.9579901
9.29                 0.932764125     -82.0986005
9.291                0.932599115     -82.2395911
9.292                0.932433639     -82.3809632
9.293                0.932267697     -82.5227179
9.294                0.932101288     -82.6648564
9.295                0.931934411     -82.8073798
9.296                0.931767066     -82.9502895
9.297                0.931599252     -83.0935864
9.298                 0.93143097     -83.2372719
9.299                0.931262218      -83.381347
9.3                  0.931092997     -83.5258131
9.301                0.930923306     -83.6706712
9.302                0.930753145     -83.8159226
9.303                0.930582513     -83.9615684
9.304                 0.93041141     -84.1076098
9.305                0.930239836     -84.2540481
9.306                0.930067791     -84.4008844
9.307                0.929895273     -84.5481199
9.308                0.929722284     -84.6957558
9.309                0.929548823     -84.8437934
9.31                 0.929374889     -84.9922338
9.311                0.929200482     -85.1410782
9.312                0.929025603     -85.2903278
9.313                0.928850251     -85.4399839
9.314                0.928674425     -85.5900476
9.315                0.928498126     -85.7405201
9.316                0.928321354     -85.8914027
9.317                0.928144109     -86.0426966
9.318                 0.92796639      -86.194403
9.319                0.927788198     -86.3465231
9.32                 0.927609531      -86.499058
9.321                0.927430392     -86.6520091
9.322                0.927250778     -86.8053776
9.323                0.927070692     -86.9591646
9.324                0.926890131     -87.1133714
9.325                0.926709098     -87.2679992
9.326                 0.92652759     -87.4230492
9.327                 0.92634561     -87.5785227
9.328                0.926163157     -87.7344208
9.329                 0.92598023     -87.8907448
9.33                 0.925796831     -88.0474959
9.331                0.925612959     -88.2046754
9.332                0.925428615     -88.3622844
9.333                0.925243799     -88.5203242
9.334                0.925058511      -88.678796
9.335                0.924872751     -88.8377011
9.336                0.924686521     -88.9970407
9.337                0.924499819     -89.1568159
9.338                0.924312647     -89.3170281
9.339                0.924125004     -89.4776784
9.34                 0.923936892     -89.6387681
9.341                0.923748311     -89.8002984
9.342                0.923559261     -89.9622705
9.343                0.923369742     -90.1246857
9.344                0.923179756     -90.2875452
9.345                0.922989302     -90.4508503
9.346                0.922798382     -90.6146021
9.347                0.922606996     -90.7788019
9.348                0.922415144     -90.9434508
9.349                0.922222827     -91.1085503
9.35                 0.922030046     -91.2741014
9.351                0.921836802     -91.4401054
9.352                0.921643095     -91.6065635
9.353                0.921448926     -91.7734769
9.354                0.921254296      -91.940847
9.355                0.921059206     -92.1086748
9.356                0.920863656     -92.2769616
9.357                0.920667648     -92.4457087
9.358                0.920471182     -92.6149173
9.359                0.920274259     -92.7845886
9.36                  0.92007688     -92.9547237
9.361                0.919879047     -93.1253241
9.362                 0.91968076     -93.2963907
9.363                0.919482021     -93.4679249
9.364                 0.91928283     -93.6399279
9.365                0.919083189     -93.8124009
9.366                0.918883099     -93.9853451
9.367                 0.91868256     -94.1587618
9.368                0.918481575      -94.332652
9.369                0.918280145     -94.5070171
9.37                  0.91807827     -94.6818583
9.371                0.917875953     -94.8571767
9.372                0.917673194     -95.0329735
9.373                0.917469996       -95.20925
9.374                0.917266358     -95.3860074
9.375                0.917062284     -95.5632468
9.376                0.916857775     -95.7409695
9.377                0.916652831     -95.9191766
9.378                0.916447455     -96.0978693
9.379                0.916241649     -96.2770488
9.38                 0.916035414     -96.4567163
9.381                0.915828751      -96.636873
9.382                0.915621663     -96.8175201
9.383                0.915414151     -96.9986587
9.384                0.915206217       -97.18029
9.385                0.914997864     -97.3624152
9.386                0.914789092     -97.5450354
9.387                0.914579904     -97.7281518
9.388                0.914370303     -97.9117656
9.389                0.914160289     -98.0958779
9.39                 0.913949865     -98.2804899
9.391                0.913739034     -98.4656027
9.392                0.913527797     -98.6512175
9.393                0.913316157     -98.8373354
9.394                0.913104115     -99.0239575
9.395                0.912891675     -99.2110851
9.396                0.912678838     -99.3987191
