! TOUCHSTONE file generated by CST DESIGN STUDIO
! Date and time: Tue Feb  4 18:11:21 2025
! Project name: C:\Work\MatlabApps\UnitCellOptimizationMatlab\CST\unitcell.cst
! Tree item: Tasks\Sweep1\SPara1\S-Parameters
! Header version: 2024
! Port assignment regex: !\s*Touchstone port\s*([0-9]+)\s*=\s*(CST MWS port|CST DES external port|CST DES block port)\s*(.+)\s* \(\"(.*)\"\)(\s*mode\s*([0-9]+))?.*
! Touchstone port assignment:
! Touchstone port 1 = CST DES external port 1 ("")
# GHz S MA R 50
9                     0.96642424     -49.7024807
9.001                0.966364772     -49.7652701
9.002                0.966305126      -49.828191
9.003                0.966245299     -49.8912436
9.004                0.966185291     -49.9544285
9.005                0.966125102      -50.017746
9.006                 0.96606473     -50.0811964
9.007                0.966004176     -50.1447803
9.008                0.965943439     -50.2084981
9.009                0.965882518       -50.27235
9.01                 0.965821413     -50.3363366
9.011                0.965760122     -50.4004583
9.012                0.965698646     -50.4647154
9.013                0.965636983     -50.5291084
9.014                0.965575133     -50.5936377
9.015                0.965513095     -50.6583036
9.016                 0.96545087     -50.7231068
9.017                0.965388455     -50.7880474
9.018                 0.96532585     -50.8531261
9.019                0.965263056     -50.9183431
9.02                  0.96520007      -50.983699
9.021                0.965136893      -51.049194
9.022                0.965073524     -51.1148288
9.023                0.965009962     -51.1806037
9.024                0.964946206      -51.246519
9.025                0.964882256     -51.3125754
9.026                0.964818111     -51.3787731
9.027                0.964753771     -51.4451127
9.028                0.964689235     -51.5115945
9.029                0.964624501     -51.5782191
9.03                 0.964559571     -51.6449868
9.031                0.964494442      -51.711898
9.032                0.964429114     -51.7789533
9.033                0.964363587     -51.8461531
9.034                0.964297859     -51.9134978
9.035                 0.96423193     -51.9809879
9.036                  0.9641658     -52.0486238
9.037                0.964099468      -52.116406
9.038                0.964032932     -52.1843348
9.039                0.963966193     -52.2524109
9.04                  0.96389925     -52.3206346
9.041                0.963832101     -52.3890064
9.042                0.963764747     -52.4575268
9.043                0.963697186     -52.5261961
9.044                0.963629418      -52.595015
9.045                0.963561442     -52.6639838
9.046                0.963493258      -52.733103
9.047                0.963424864     -52.8023731
9.048                 0.96335626     -52.8717945
9.049                0.963287446     -52.9413677
9.05                  0.96321842     -53.0110933
9.051                0.963149181     -53.0809716
9.052                 0.96307973     -53.1510031
9.053                0.963010065     -53.2211884
9.054                0.962940186     -53.2915279
9.055                0.962870092     -53.3620221
9.056                0.962799782     -53.4326714
9.057                0.962729255     -53.5034764
9.058                0.962658511     -53.5744376
9.059                0.962587549     -53.6455554
9.06                 0.962516368     -53.7168303
9.061                0.962444967     -53.7882628
9.062                0.962373347     -53.8598534
9.063                0.962301505     -53.9316027
9.064                0.962229441      -54.003511
9.065                0.962157155      -54.075579
9.066                0.962084645     -54.1478071
9.067                0.962011912     -54.2201958
9.068                0.961938953     -54.2927456
9.069                0.961865769      -54.365457
9.07                 0.961792358     -54.4383306
9.071                 0.96171872     -54.5113668
9.072                0.961644855     -54.5845662
9.073                 0.96157076     -54.6579292
9.074                0.961496436     -54.7314565
9.075                0.961421882     -54.8051485
9.076                0.961347097     -54.8790057
9.077                 0.96127208     -54.9530286
9.078                 0.96119683     -55.0272178
9.079                0.961121347     -55.1015739
9.08                 0.961045629     -55.1760973
9.081                0.960969677     -55.2507885
9.082                0.960893489     -55.3256482
9.083                0.960817064     -55.4006767
9.084                0.960740401     -55.4758748
9.085                0.960663501     -55.5512428
9.086                0.960586361     -55.6267814
9.087                0.960508981     -55.7024911
9.088                0.960431361     -55.7783725
9.089                0.960353499      -55.854426
9.09                 0.960275395     -55.9306522
9.091                0.960197048     -56.0070517
9.092                0.960118457     -56.0836251
9.093                0.960039621     -56.1603728
9.094                0.959960539     -56.2372955
9.095                0.959881211     -56.3143936
9.096                0.959801635     -56.3916679
9.097                0.959721812     -56.4691187
9.098                0.959641739     -56.5467468
9.099                0.959561417     -56.6245526
9.1                  0.959480844     -56.7025367
9.101                0.959400019     -56.7806997
9.102                0.959318942     -56.8590422
9.103                0.959237612     -56.9375647
9.104                0.959156028     -57.0162678
9.105                0.959074188     -57.0951522
9.106                0.958992093     -57.1742183
9.107                0.958909742     -57.2534668
9.108                0.958827132     -57.3328982
9.109                0.958744265     -57.4125131
9.11                 0.958661138     -57.4923122
9.111                0.958577751      -57.572296
9.112                0.958494103     -57.6524651
9.113                0.958410193     -57.7328202
9.114                 0.95832602     -57.8133617
9.115                0.958241584     -57.8940903
9.116                0.958156883     -57.9750066
9.117                0.958071917     -58.0561113
9.118                0.957986684     -58.1374049
9.119                0.957901184      -58.218888
9.12                 0.957815416     -58.3005612
9.121                0.957729379     -58.3824252
9.122                0.957643072     -58.4644806
9.123                0.957556494      -58.546728
9.124                0.957469645      -58.629168
9.125                0.957382523     -58.7118012
9.126                0.957295127     -58.7946282
9.127                0.957207457     -58.8776498
9.128                0.957119511     -58.9608665
9.129                 0.95703129     -59.0442789
9.13                 0.956942791     -59.1278877
9.131                0.956854013     -59.2116935
9.132                0.956764957      -59.295697
9.133                0.956675621     -59.3798988
9.134                0.956586004     -59.4642995
9.135                0.956496105     -59.5488999
9.136                0.956405923     -59.6337004
9.137                0.956315458     -59.7187019
9.138                0.956224708     -59.8039049
9.139                0.956133672       -59.88931
9.14                  0.95604235     -59.9749181
9.141                 0.95595074     -60.0607296
9.142                0.955858842     -60.1467454
9.143                0.955766654     -60.2329659
9.144                0.955674176      -60.319392
9.145                0.955581407     -60.4060243
9.146                0.955488345     -60.4928634
9.147                0.955394991       -60.57991
9.148                0.955301342     -60.6671648
9.149                0.955207398     -60.7546285
9.15                 0.955113157     -60.8423018
9.151                 0.95501862     -60.9301853
9.152                0.954923785     -61.0182798
9.153                 0.95482865     -61.1065859
9.154                0.954733216     -61.1951042
9.155                0.954637481     -61.2838356
9.156                0.954541443     -61.3727807
9.157                0.954445103     -61.4619403
9.158                0.954348459     -61.5513149
9.159                 0.95425151     -61.6409053
9.16                 0.954154255     -61.7307122
9.161                0.954056693     -61.8207364
9.162                0.953958823     -61.9109785
9.163                0.953860645     -62.0014392
9.164                0.953762156     -62.0921194
9.165                0.953663357     -62.1830196
9.166                0.953564245     -62.2741406
9.167                0.953464821     -62.3654831
9.168                0.953365083     -62.4570479
9.169                 0.95326503     -62.5488357
9.17                 0.953164661     -62.6408473
9.171                0.953063975     -62.7330832
9.172                0.952962972     -62.8255444
9.173                0.952861649     -62.9182315
9.174                0.952760006     -63.0111453
9.175                0.952658043     -63.1042865
9.176                0.952555757     -63.1976558
9.177                0.952453149     -63.2912541
9.178                0.952350216     -63.3850821
9.179                0.952246958     -63.4791405
9.18                 0.952143375     -63.5734301
9.181                0.952039464     -63.6679516
9.182                0.951935225     -63.7627058
9.183                0.951830656     -63.8576935
9.184                0.951725758     -63.9529155
9.185                0.951620528     -64.0483725
9.186                0.951514966     -64.1440652
9.187                0.951409071     -64.2399946
9.188                0.951302842     -64.3361613
9.189                0.951196276     -64.4325661
9.19                 0.951089375     -64.5292098
9.191                0.950982136     -64.6260933
9.192                0.950874559     -64.7232172
9.193                0.950766642     -64.8205824
9.194                0.950658384     -64.9181898
9.195                0.950549785       -65.01604
9.196                0.950440842     -65.1141339
9.197                0.950331557     -65.2124722
9.198                0.950221926     -65.3110559
9.199                0.950111949     -65.4098857
9.2                  0.950001626     -65.5089624
9.201                0.949890954     -65.6082868
9.202                0.949779934     -65.7078598
9.203                0.949668563     -65.8076822
9.204                0.949556841     -65.9077548
9.205                0.949444767     -66.0080784
9.206                 0.94933234     -66.1086538
9.207                0.949219558      -66.209482
9.208                0.949106421     -66.3105637
9.209                0.948992928     -66.4118997
9.21                 0.948879077     -66.5134909
9.211                0.948764867     -66.6153382
9.212                0.948650298     -66.7174424
9.213                0.948535368     -66.8198043
9.214                0.948420076     -66.9224248
9.215                0.948304421     -67.0253047
9.216                0.948188402      -67.128445
9.217                0.948072019     -67.2318464
9.218                0.947955269     -67.3355099
9.219                0.947838152     -67.4394363
9.22                 0.947720667     -67.5436264
9.221                0.947602813     -67.6480812
9.222                0.947484588     -67.7528015
9.223                0.947365992     -67.8577882
9.224                0.947247023     -67.9630421
9.225                0.947127681     -68.0685642
9.226                0.947007964     -68.1743554
9.227                0.946887872     -68.2804165
9.228                0.946767403     -68.3867484
9.229                0.946646555     -68.4933521
9.23                 0.946525329     -68.6002283
9.231                0.946403723     -68.7073781
9.232                0.946281736     -68.8148024
9.233                0.946159367     -68.9225019
9.234                0.946036615     -69.0304777
9.235                0.945913478     -69.1387307
9.236                0.945789957     -69.2472617
9.237                0.945666048     -69.3560718
9.238                0.945541753     -69.4651617
9.239                0.945417068     -69.5745325
9.24                 0.945291995     -69.6841851
9.241                 0.94516653     -69.7941203
9.242                0.945040674     -69.9043392
9.243                0.944914425     -70.0148427
9.244                0.944787783     -70.1256316
9.245                0.944660745     -70.2367071
9.246                0.944533311     -70.3480699
9.247                0.944405481     -70.4597211
9.248                0.944277252     -70.5716615
9.249                0.944148625     -70.6838922
9.25                 0.944019597     -70.7964142
9.251                0.943890168     -70.9092283
9.252                0.943760337     -71.0223355
9.253                0.943630102     -71.1357368
9.254                0.943499463     -71.2494333
9.255                0.943368419     -71.3634257
9.256                0.943236968     -71.4777152
9.257                 0.94310511     -71.5923026
9.258                0.942972843     -71.7071891
9.259                0.942840167     -71.8223755
9.26                  0.94270708     -71.9378628
9.261                0.942573581     -72.0536521
9.262                 0.94243967     -72.1697443
9.263                0.942305346     -72.2861405
9.264                0.942170606     -72.4028416
9.265                0.942035451     -72.5198486
9.266                0.941899879     -72.6371625
9.267                0.941763889     -72.7547844
9.268                0.941627481     -72.8727152
9.269                0.941490653      -72.990956
9.27                 0.941353404     -73.1095078
9.271                0.941215733     -73.2283716
9.272                 0.94107764     -73.3475484
9.273                0.940939123     -73.4670393
9.274                0.940800181     -73.5868452
9.275                0.940660813     -73.7069673
9.276                0.940521019     -73.8274065
9.277                0.940380797     -73.9481639
9.278                0.940240146     -74.0692405
9.279                0.940099066     -74.1906374
9.28                 0.939957555     -74.3123556
9.281                0.939815612     -74.4343961
9.282                0.939673237     -74.5567601
9.283                0.939530429     -74.6794486
9.284                0.939387186     -74.8024625
9.285                0.939243507     -74.9258031
9.286                0.939099392     -75.0494713
9.287                 0.93895484     -75.1734683
9.288                 0.93880985      -75.297795
9.289                0.938664421     -75.4224526
9.29                 0.938518552     -75.5474421
9.291                0.938372241     -75.6727646
9.292                0.938225489     -75.7984213
9.293                0.938078294     -75.9244131
9.294                0.937930656     -76.0507411
9.295                0.937782573     -76.1774066
9.296                0.937634045     -76.3044105
9.297                 0.93748507     -76.4317539
9.298                0.937335648     -76.5594379
9.299                0.937185778     -76.6874637
9.3                  0.937035459     -76.8158324
9.301                0.936884691      -76.944545
9.302                0.936733472     -77.0736026
9.303                0.936581801     -77.2030064
9.304                0.936429678     -77.3327575
9.305                0.936277102     -77.4628571
9.306                0.936124073     -77.5933061
9.307                0.935970588     -77.7241058
9.308                0.935816648     -77.8552572
9.309                0.935662252     -77.9867615
9.31                 0.935507399     -78.1186199
9.311                0.935352088     -78.2508334
9.312                0.935196318     -78.3834033
9.313                0.935040089     -78.5163305
9.314                  0.9348834     -78.6496164
9.315                 0.93472625     -78.7832619
9.316                0.934568639     -78.9172684
9.317                0.934410565     -79.0516368
9.318                0.934252028     -79.1863684
9.319                0.934093028     -79.3214644
9.32                 0.933933563     -79.4569258
9.321                0.933773633     -79.5927538
9.322                0.933613238     -79.7289497
9.323                0.933452376     -79.8655145
9.324                0.933291047     -80.0024494
9.325                 0.93312925     -80.1397557
9.326                0.932966985     -80.2774344
9.327                0.932804251     -80.4154867
9.328                0.932641047     -80.5539139
9.329                0.932477374      -80.692717
9.33                 0.932313229     -80.8318974
9.331                0.932148614     -80.9714561
9.332                0.931983527     -81.1113943
9.333                0.931817967     -81.2517133
9.334                0.931651934     -81.3924142
9.335                0.931485428     -81.5334982
9.336                0.931318448     -81.6749665
9.337                0.931150994     -81.8168204
9.338                0.930983064     -81.9590609
9.339                 0.93081466     -82.1016893
9.34                 0.930645779     -82.2447069
9.341                0.930476422     -82.3881147
9.342                0.930306589     -82.5319141
9.343                0.930136278     -82.6761062
9.344                 0.92996549     -82.8206923
9.345                0.929794224     -82.9656735
9.346                 0.92962248      -83.111051
9.347                0.929450257     -83.2568262
9.348                0.929277556     -83.4030001
9.349                0.929104375     -83.5495741
9.35                 0.928930714     -83.6965493
9.351                0.928756574      -83.843927
9.352                0.928581954     -83.9917084
9.353                0.928406853     -84.1398947
9.354                0.928231272     -84.2884871
9.355                0.928055209      -84.437487
9.356                0.927878666     -84.5868954
9.357                0.927701642     -84.7367137
9.358                0.927524136     -84.8869431
9.359                0.927346149     -85.0375848
9.36                 0.927167681     -85.1886401
9.361                 0.92698873     -85.3401102
9.362                0.926809298     -85.4919963
9.363                0.926629383     -85.6442997
9.364                0.926448987     -85.7970216
9.365                0.926268109     -85.9501633
9.366                0.926086749      -86.103726
9.367                0.925904907      -86.257711
9.368                0.925722583     -86.4121195
9.369                0.925539777     -86.5669527
9.37                 0.925356489      -86.722212
9.371                 0.92517272     -86.8778986
9.372                0.924988468     -87.0340137
9.373                0.924803736     -87.1905585
9.374                0.924618522     -87.3475344
9.375                0.924432827     -87.5049426
9.376                0.924246651     -87.6627843
9.377                0.924059994     -87.8210609
9.378                0.923872857     -87.9797734
9.379                0.923685239     -88.1389234
9.38                 0.923497142     -88.2985119
9.381                0.923308565     -88.4585402
9.382                0.923119509     -88.6190096
9.383                0.922929975     -88.7799214
9.384                0.922739961     -88.9412768
9.385                 0.92254947     -89.1030772
9.386                0.922358502     -89.2653236
9.387                0.922167056     -89.4280175
9.388                0.921975133       -89.59116
9.389                0.921782735     -89.7547525
9.39                 0.921589861     -89.9187961
9.391                0.921396512     -90.0832922
9.392                0.921202689     -90.2482421
9.393                0.921008393     -90.4136469
9.394                0.920813623      -90.579508
9.395                0.920618381     -90.7458266
9.396                0.920422668     -90.9126039
