! TOUCHSTONE file generated by CST DESIGN STUDIO
! Date and time: Tue Feb  4 18:11:05 2025
! Project name: C:\Work\MatlabApps\UnitCellOptimizationMatlab\CST\unitcell.cst
! Tree item: Tasks\Sweep1\SPara1\S-Parameters
! Header version: 2024
! Port assignment regex: !\s*Touchstone port\s*([0-9]+)\s*=\s*(CST MWS port|CST DES external port|CST DES block port)\s*(.+)\s* \(\"(.*)\"\)(\s*mode\s*([0-9]+))?.*
! Touchstone port assignment:
! Touchstone port 1 = CST DES external port 1 ("")
# GHz S MA R 50
9                    0.949128696       -84.37688
9.001                0.948988228     -84.5185985
9.002                0.948847344     -84.6606945
9.003                0.948706044     -84.8031691
9.004                0.948564329     -84.9460234
9.005                0.948422196     -85.0892586
9.006                0.948279646     -85.2328758
9.007                0.948136678     -85.3768761
9.008                0.947993292     -85.5212605
9.009                0.947849487     -85.6660304
9.01                 0.947705263     -85.8111867
9.011                 0.94756062     -85.9567306
9.012                0.947415556     -86.1026632
9.013                0.947270071     -86.2489857
9.014                0.947124166     -86.3956992
9.015                0.946977839     -86.5428048
9.016                 0.94683109     -86.6903036
9.017                0.946683919     -86.8381969
9.018                0.946536325     -86.9864857
9.019                0.946388309     -87.1351712
9.02                 0.946239869     -87.2842545
9.021                0.946091006     -87.4337367
9.022                0.945941719      -87.583619
9.023                0.945792007     -87.7339026
9.024                0.945641871     -87.8845885
9.025                0.945491311      -88.035678
9.026                0.945340325     -88.1871721
9.027                0.945188914      -88.339072
9.028                0.945037078     -88.4913789
9.029                0.944884815     -88.6440939
9.03                 0.944732127     -88.7972182
9.031                0.944579013     -88.9507528
9.032                0.944425473      -89.104699
9.033                0.944271506     -89.2590579
9.034                0.944117113     -89.4138306
9.035                0.943962293     -89.5690184
9.036                0.943807046     -89.7246222
9.037                0.943651373     -89.8806434
9.038                0.943495272      -90.037083
9.039                0.943338745     -90.1939423
9.04                  0.94318179     -90.3512222
9.041                0.943024409     -90.5089241
9.042                0.942866601     -90.6670491
9.043                0.942708365     -90.8255982
9.044                0.942549703     -90.9845727
9.045                0.942390614     -91.1439737
9.046                0.942231098     -91.3038024
9.047                0.942071156     -91.4640599
9.048                0.941910787     -91.6247473
9.049                0.941749992     -91.7858659
9.05                  0.94158877     -91.9474168
9.051                0.941427122      -92.109401
9.052                0.941265049     -92.2718199
9.053                 0.94110255     -92.4346744
9.054                0.940939625     -92.5979658
9.055                0.940776275     -92.7616952
9.056                0.940612501     -92.9258638
9.057                0.940448302     -93.0904728
9.058                0.940283679     -93.2555231
9.059                0.940118632     -93.4210161
9.06                 0.939953161     -93.5869528
9.061                0.939787268     -93.7533344
9.062                0.939620951     -93.9201621
9.063                0.939454213     -94.0874369
9.064                0.939287053       -94.25516
9.065                0.939119472     -94.4233326
9.066                 0.93895147     -94.5919558
9.067                0.938783048     -94.7610307
9.068                0.938614206     -94.9305585
9.069                0.938444945     -95.1005403
9.07                 0.938275266     -95.2709772
9.071                 0.93810517     -95.4418703
9.072                0.937934656     -95.6132209
9.073                0.937763726       -95.78503
9.074                 0.93759238     -95.9572987
9.075                 0.93742062     -96.1300282
9.076                0.937248445     -96.3032196
9.077                0.937075857      -96.476874
9.078                0.936902857     -96.6509925
9.079                0.936729445     -96.8255762
9.08                 0.936555623     -97.0006263
9.081                 0.93638139     -97.1761439
9.082                 0.93620675       -97.35213
9.083                0.936031701     -97.5285858
9.084                0.935856245     -97.7055124
9.085                0.935680384     -97.8829108
9.086                0.935504118     -98.0607822
9.087                0.935327449     -98.2391277
9.088                0.935150377     -98.4179484
9.089                0.934972904     -98.5972453
9.09                 0.934795031     -98.7770195
9.091                0.934616759     -98.9572721
9.092                0.934438089     -99.1380042
9.093                0.934259023     -99.3192169
9.094                0.934079563     -99.5009112
9.095                0.933899708     -99.6830882
9.096                0.933719462      -99.865749
9.097                0.933538825     -100.048895
9.098                0.933357798     -100.232526
9.099                0.933176384     -100.416645
9.1                  0.932994583     -100.601251
9.101                0.932812398     -100.786346
9.102                 0.93262983     -100.971932
9.103                 0.93244688     -101.158009
9.104                0.932263551     -101.344577
9.105                0.932079844     -101.531639
9.106                 0.93189576     -101.719195
9.107                0.931711302     -101.907247
9.108                0.931526471     -102.095794
9.109                0.931341269     -102.284839
9.11                 0.931155699     -102.474382
9.111                0.930969761     -102.664424
9.112                0.930783459     -102.854966
9.113                0.930596794      -103.04601
9.114                0.930409767     -103.237555
9.115                0.930222382     -103.429604
9.116                 0.93003464     -103.622157
9.117                0.929846544     -103.815215
9.118                0.929658096     -104.008779
9.119                0.929469297      -104.20285
9.12                 0.929280151     -104.397429
9.121                 0.92909066     -104.592517
9.122                0.928900825     -104.788115
9.123                 0.92871065     -104.984223
9.124                0.928520137     -105.180843
9.125                0.928329289     -105.377976
9.126                0.928138107     -105.575622
9.127                0.927946595     -105.773782
9.128                0.927754756     -105.972458
9.129                0.927562591     -106.171649
9.13                 0.927370104     -106.371358
9.131                0.927177298     -106.571585
9.132                0.926984175      -106.77233
9.133                0.926790738     -106.973595
9.134                 0.92659699      -107.17538
9.135                0.926402934     -107.377687
9.136                0.926208574     -107.580515
9.137                0.926013911     -107.783867
9.138                 0.92581895     -107.987742
9.139                0.925623693     -108.192142
9.14                 0.925428144     -108.397067
9.141                0.925232306     -108.602518
9.142                0.925036182     -108.808496
9.143                0.924839775     -109.015002
9.144                0.924643089     -109.222036
9.145                0.924446128     -109.429599
9.146                0.924248895     -109.637692
9.147                0.924051393     -109.846316
9.148                0.923853626     -110.055471
9.149                0.923655597     -110.265158
9.15                 0.923457312     -110.475377
9.151                0.923258772      -110.68613
9.152                0.923059982     -110.897418
9.153                0.922860946     -111.109239
9.154                0.922661667     -111.321597
9.155                 0.92246215      -111.53449
9.156                0.922262399      -111.74792
9.157                0.922062418     -111.961887
9.158                 0.92186221     -112.176393
9.159                 0.92166178     -112.391436
9.16                 0.921461133     -112.607019
9.161                0.921260272     -112.823141
9.162                0.921059202     -113.039804
9.163                0.920857927     -113.257008
9.164                0.920656452     -113.474752
9.165                0.920454781     -113.693039
9.166                0.920252919     -113.911868
9.167                0.920050869     -114.131239
9.168                0.919848638     -114.351154
9.169                 0.91964623     -114.571613
9.17                 0.919443649     -114.792616
9.171                  0.9192409     -115.014164
9.172                0.919037989     -115.236257
9.173                0.918834919     -115.458896
9.174                0.918631697      -115.68208
9.175                0.918428327     -115.905811
9.176                0.918224814     -116.130088
9.177                0.918021164     -116.354913
9.178                0.917817381     -116.580285
9.179                0.917613471     -116.806205
9.18                 0.917409439     -117.032672
9.181                0.917205291     -117.259689
9.182                0.917001032     -117.487254
9.183                0.916796668     -117.715367
9.184                0.916592204      -117.94403
9.185                0.916387646     -118.173243
9.186                0.916182999     -118.403005
9.187                 0.91597827     -118.633317
9.188                0.915773464     -118.864178
9.189                0.915568586     -119.095591
9.19                 0.915363643     -119.327553
9.191                0.915158642     -119.560066
9.192                0.914953587      -119.79313
9.193                0.914748485     -120.026744
9.194                0.914543342     -120.260909
9.195                0.914338164     -120.495625
9.196                0.914132958     -120.730892
9.197                 0.91392773      -120.96671
9.198                0.913722486     -121.203079
9.199                0.913517233     -121.439998
9.2                  0.913311977     -121.677469
9.201                0.913106724     -121.915491
9.202                0.912901482     -122.154064
9.203                0.912696258     -122.393187
9.204                0.912491057     -122.632861
9.205                0.912285886     -122.873086
9.206                0.912080754     -123.113861
9.207                0.911875665     -123.355186
9.208                0.911670628     -123.597061
9.209                0.911465649     -123.839486
9.21                 0.911260736     -124.082461
9.211                0.911055895     -124.325986
9.212                0.910851134     -124.570059
9.213                 0.91064646     -124.814682
9.214                 0.91044188     -125.059853
9.215                0.910237402     -125.305572
9.216                0.910033034     -125.551839
9.217                0.909828781     -125.798654
9.218                0.909624653     -126.046016
9.219                0.909420657     -126.293925
9.22                   0.9092168      -126.54238
9.221                 0.90901309     -126.791381
9.222                0.908809535     -127.040927
9.223                0.908606143     -127.291019
9.224                0.908402921     -127.541654
9.225                0.908199878     -127.792834
9.226                0.907997021     -128.044557
9.227                0.907794359     -128.296822
9.228                0.907591899      -128.54963
9.229                 0.90738965     -128.802979
9.23                 0.907187619     -129.056869
9.231                0.906985816     -129.311299
9.232                0.906784248     -129.566269
9.233                0.906582924     -129.821777
9.234                0.906381852     -130.077823
9.235                0.906181041     -130.334406
9.236                0.905980499     -130.591525
9.237                0.905780234      -130.84918
9.238                0.905580255      -131.10737
9.239                0.905380571     -131.366093
9.24                 0.905181191     -131.625349
9.241                0.904982123     -131.885138
9.242                0.904783376     -132.145457
9.243                0.904584959     -132.406306
9.244                0.904386881     -132.667684
9.245                 0.90418915      -132.92959
9.246                0.903991776     -133.192023
9.247                0.903794768     -133.454981
9.248                0.903598134     -133.718465
9.249                0.903401884     -133.982472
9.25                 0.903206026     -134.247001
9.251                0.903010571     -134.512051
9.252                0.902815527     -134.777622
9.253                0.902620904     -135.043711
9.254                 0.90242671     -135.310317
9.255                0.902232955      -135.57744
9.256                0.902039649     -135.845078
9.257                0.901846801     -136.113228
9.258                 0.90165442     -136.381891
9.259                0.901462516     -136.651065
9.26                 0.901271098     -136.920748
9.261                0.901080176     -137.190939
9.262                 0.90088976     -137.461636
9.263                0.900699858     -137.732837
9.264                0.900510482     -138.004542
9.265                0.900321639     -138.276748
9.266                0.900133341     -138.549455
9.267                0.899945596     -138.822659
9.268                0.899758415     -139.096361
9.269                0.899571806     -139.370557
9.27                 0.899385781     -139.645247
9.271                0.899200349     -139.920428
9.272                 0.89901552     -140.196099
9.273                0.898831303     -140.472258
9.274                0.898647708     -140.748902
9.275                0.898464746     -141.026031
9.276                0.898282427     -141.303643
9.277                0.898100759     -141.581734
9.278                0.897919754     -141.860305
9.279                0.897739421     -142.139351
9.28                  0.89755977     -142.418872
9.281                0.897380811     -142.698865
9.282                0.897202554     -142.979329
9.283                 0.89702501     -143.260261
9.284                0.896848187     -143.541659
9.285                0.896672097      -143.82352
9.286                 0.89649675     -144.105844
9.287                0.896322155     -144.388627
9.288                0.896148322     -144.671867
9.289                0.895975262     -144.955562
9.29                 0.895802984      -145.23971
9.291                0.895631499     -145.524307
9.292                0.895460817     -145.809353
9.293                0.895290947     -146.094845
9.294                  0.8951219     -146.380779
9.295                0.894953687     -146.667154
9.296                0.894786316     -146.953967
9.297                0.894619798     -147.241216
9.298                0.894454143     -147.528897
9.299                0.894289362     -147.817009
9.3                  0.894125463     -148.105549
9.301                0.893962458     -148.394515
9.302                0.893800356     -148.683902
9.303                0.893639167      -148.97371
9.304                  0.8934789     -149.263935
9.305                0.893319567     -149.554573
9.306                0.893161177     -149.845624
9.307                 0.89300374     -150.137083
9.308                0.892847265     -150.428948
9.309                0.892691763     -150.721217
9.31                 0.892537243     -151.013885
9.311                0.892383716      -151.30695
9.312                 0.89223119      -151.60041
9.313                0.892079676     -151.894261
9.314                0.891929184       -152.1885
9.315                0.891779723     -152.483124
9.316                0.891631303      -152.77813
9.317                0.891483933     -153.073515
9.318                0.891337623     -153.369276
9.319                0.891192383      -153.66541
9.32                 0.891048222     -153.961913
9.321                0.890905149     -154.258782
9.322                0.890763174     -154.556015
9.323                0.890622307     -154.853607
9.324                0.890482556     -155.151555
9.325                0.890343932     -155.449857
9.326                0.890206442     -155.748508
9.327                0.890070097     -156.047506
9.328                0.889934905     -156.346846
9.329                0.889800876     -156.646527
9.33                 0.889668019     -156.946543
9.331                0.889536342     -157.246891
9.332                0.889405854     -157.547569
9.333                0.889276565     -157.848572
9.334                0.889148483     -158.149897
9.335                0.889021617      -158.45154
9.336                0.888895976     -158.753498
9.337                0.888771568     -159.055767
9.338                0.888648401     -159.358343
9.339                0.888526485     -159.661223
9.34                 0.888405827     -159.964403
9.341                0.888286436     -160.267879
9.342                 0.88816832     -160.571648
9.343                0.888051487     -160.875705
9.344                0.887935946     -161.180047
9.345                0.887821704      -161.48467
9.346                 0.88770877      -161.78957
9.347                0.887597151     -162.094743
9.348                0.887486855     -162.400186
9.349                 0.88737789     -162.705893
9.35                 0.887270263     -163.011863
9.351                0.887163982     -163.318089
9.352                0.887059055     -163.624569
9.353                0.886955488     -163.931299
9.354                 0.88685329     -164.238274
9.355                0.886752466      -164.54549
9.356                0.886653025     -164.852943
9.357                0.886554973      -165.16063
9.358                0.886458317     -165.468545
9.359                0.886363065     -165.776686
9.36                 0.886269222     -166.085047
9.361                0.886176795     -166.393624
9.362                0.886085792     -166.702414
9.363                0.885996217     -167.011412
9.364                0.885908078     -167.320613
9.365                0.885821381     -167.630015
9.366                0.885736132     -167.939611
9.367                0.885652337     -168.249399
9.368                0.885570001     -168.559373
9.369                0.885489132      -168.86953
9.37                 0.885409733     -169.179865
9.371                0.885331811     -169.490373
9.372                0.885255371     -169.801051
9.373                0.885180419     -170.111893
9.374                 0.88510696     -170.422897
9.375                0.885034999     -170.734056
9.376                0.884964541     -171.045367
9.377                 0.88489559     -171.356825
9.378                0.884828152     -171.668426
9.379                0.884762232     -171.980166
9.38                 0.884697833     -172.292039
9.381                 0.88463496     -172.604042
9.382                0.884573618     -172.916169
9.383                0.884513811     -173.228417
9.384                0.884455542     -173.540781
9.385                0.884398816     -173.853256
9.386                0.884343636     -174.165837
9.387                0.884290006     -174.478521
9.388                 0.88423793     -174.791303
9.389                0.884187411     -175.104177
9.39                 0.884138452      -175.41714
9.391                0.884091057     -175.730187
9.392                0.884045229     -176.043313
9.393                 0.88400097     -176.356514
9.394                0.883958283     -176.669785
9.395                0.883917171     -176.983121
9.396                0.883877637     -177.296518
