! TOUCHSTONE file generated by CST DESIGN STUDIO
! Date and time: Tue Feb  4 18:11:12 2025
! Project name: C:\Work\MatlabApps\UnitCellOptimizationMatlab\CST\unitcell.cst
! Tree item: Tasks\Sweep1\SPara1\S-Parameters
! Header version: 2024
! Port assignment regex: !\s*Touchstone port\s*([0-9]+)\s*=\s*(CST MWS port|CST DES external port|CST DES block port)\s*(.+)\s* \(\"(.*)\"\)(\s*mode\s*([0-9]+))?.*
! Touchstone port assignment:
! Touchstone port 1 = CST DES external port 1 ("")
# GHz S MA R 50
9                    0.956556022     -68.6628832
9.001                0.956450915     -68.7644997
9.002                 0.95634548     -68.8663684
9.003                0.956239714       -68.96849
9.004                0.956133617     -69.0708653
9.005                0.956027187     -69.1734951
9.006                0.955920425     -69.2763803
9.007                0.955813329     -69.3795217
9.008                0.955705897     -69.4829201
9.009                0.955598129     -69.5865764
9.01                 0.955490024     -69.6904912
9.011                0.955381581     -69.7946656
9.012                0.955272799     -69.8991003
9.013                0.955163677     -70.0037961
9.014                0.955054214     -70.1087539
9.015                0.954944408     -70.2139745
9.016                 0.95483426     -70.3194588
9.017                0.954723768     -70.4252076
9.018                 0.95461293     -70.5312218
9.019                0.954501747     -70.6375021
9.02                 0.954390217     -70.7440495
9.021                0.954278338     -70.8508649
9.022                0.954166111      -70.957949
9.023                0.954053534     -71.0653027
9.024                0.953940606      -71.172927
9.025                0.953827326     -71.2808226
9.026                0.953713692     -71.3889904
9.027                0.953599706     -71.4974314
9.028                0.953485364     -71.6061463
9.029                0.953370666      -71.715136
9.03                 0.953255611     -71.8244015
9.031                0.953140199     -71.9339436
9.032                0.953024428     -72.0437632
9.033                0.952908297     -72.1538612
9.034                0.952791805     -72.2642384
9.035                0.952674951     -72.3748959
9.036                0.952557735     -72.4858343
9.037                0.952440155     -72.5970547
9.038                 0.95232221      -72.708558
9.039                  0.9522039     -72.8203451
9.04                 0.952085223     -72.9324168
9.041                0.951966178      -73.044774
9.042                0.951846764     -73.1574178
9.043                0.951726982     -73.2703489
9.044                0.951606828     -73.3835684
9.045                0.951486303      -73.497077
9.046                0.951365406     -73.6108759
9.047                0.951244135     -73.7249658
9.048                0.951122489     -73.8393477
9.049                0.951000469     -73.9540225
9.05                 0.950878072     -74.0689912
9.051                0.950755298     -74.1842546
9.052                0.950632145     -74.2998138
9.053                0.950508613     -74.4156697
9.054                0.950384701     -74.5318232
9.055                0.950260408     -74.6482752
9.056                0.950135733     -74.7650267
9.057                0.950010676     -74.8820787
9.058                0.949885234     -74.9994321
9.059                0.949759407     -75.1170878
9.06                 0.949633194     -75.2350469
9.061                0.949506595     -75.3533102
9.062                0.949379608     -75.4718787
9.063                0.949252233     -75.5907535
9.064                0.949124467     -75.7099354
9.065                0.948996312     -75.8294255
9.066                0.948867765     -75.9492247
9.067                0.948738826      -76.069334
9.068                0.948609494     -76.1897543
9.069                0.948479767     -76.3104867
9.07                 0.948349646     -76.4315321
9.071                0.948219129     -76.5528915
9.072                0.948088215     -76.6745659
9.073                0.947956903     -76.7965564
9.074                0.947825193     -76.9188638
9.075                0.947693083     -77.0414891
9.076                0.947560573     -77.1644335
9.077                0.947427661     -77.2876979
9.078                0.947294348     -77.4112832
9.079                0.947160632     -77.5351905
9.08                 0.947026512     -77.6594208
9.081                0.946891987     -77.7839751
9.082                0.946757056     -77.9088545
9.083                 0.94662172     -78.0340598
9.084                0.946485976     -78.1595922
9.085                0.946349824     -78.2854527
9.086                0.946213263     -78.4116423
9.087                0.946076292      -78.538162
9.088                0.945938911     -78.6650129
9.089                0.945801119     -78.7921959
9.09                 0.945662914     -78.9197121
9.091                0.945524296     -79.0475626
9.092                0.945385265     -79.1757484
9.093                0.945245819     -79.3042705
9.094                0.945105958     -79.4331299
9.095                 0.94496568     -79.5623277
9.096                0.944824986      -79.691865
9.097                0.944683874     -79.8217428
9.098                0.944542344     -79.9519621
9.099                0.944400394      -80.082524
9.1                  0.944258025     -80.2134296
9.101                0.944115235     -80.3446799
9.102                0.943972023      -80.476276
9.103                0.943828389     -80.6082189
9.104                0.943684333     -80.7405097
9.105                0.943539853     -80.8731495
9.106                0.943394949     -81.0061392
9.107                0.943249619     -81.1394801
9.108                0.943103864     -81.2731732
9.109                0.942957683     -81.4072195
9.11                 0.942811075     -81.5416202
9.111                 0.94266404     -81.6763762
9.112                0.942516576     -81.8114887
9.113                0.942368683     -81.9469588
9.114                 0.94222036     -82.0827875
9.115                0.942071608      -82.218976
9.116                0.941922424     -82.3555253
9.117                 0.94177281     -82.4924365
9.118                0.941622763     -82.6297108
9.119                0.941472283     -82.7673491
9.12                 0.941321371     -82.9053526
9.121                0.941170025     -83.0437224
9.122                0.941018244     -83.1824597
9.123                0.940866029     -83.3215654
9.124                0.940713379     -83.4610407
9.125                0.940560292     -83.6008867
9.126                 0.94040677     -83.7411046
9.127                 0.94025281     -83.8816953
9.128                0.940098413     -84.0226601
9.129                0.939943578         -84.164
9.13                 0.939788305     -84.3057162
9.131                0.939632593     -84.4478098
9.132                0.939476442     -84.5902819
9.133                0.939319852     -84.7331335
9.134                0.939162821     -84.8763659
9.135                 0.93900535     -85.0199802
9.136                0.938847438     -85.1639774
9.137                0.938689085     -85.3083587
9.138                0.938530291     -85.4531253
9.139                0.938371054     -85.5982782
9.14                 0.938211376     -85.7438186
9.141                0.938051254     -85.8897476
9.142                 0.93789069     -86.0360663
9.143                0.937729683     -86.1827759
9.144                0.937568232     -86.3298775
9.145                0.937406338     -86.4773723
9.146                   0.937244     -86.6252613
9.147                0.937081217     -86.7735457
9.148                 0.93691799     -86.9222267
9.149                0.936754319     -87.0713054
9.15                 0.936590202      -87.220783
9.151                0.936425641     -87.3706605
9.152                0.936260635     -87.5209391
9.153                0.936095183       -87.67162
9.154                0.935929287     -87.8227043
9.155                0.935762944     -87.9741931
9.156                0.935596156     -88.1260876
9.157                0.935428923      -88.278389
9.158                0.935261244     -88.4310984
9.159                0.935093119     -88.5842169
9.16                 0.934924548     -88.7377456
9.161                0.934755532     -88.8916859
9.162                 0.93458607     -89.0460387
9.163                0.934416162     -89.2008052
9.164                0.934245809     -89.3559866
9.165                 0.93407501     -89.5115841
9.166                0.933903766     -89.6675987
9.167                0.933732077     -89.8240317
9.168                0.933559942     -89.9808842
9.169                0.933387363     -90.1381573
9.17                 0.933214339     -90.2958522
9.171                 0.93304087     -90.4539701
9.172                0.932866957      -90.612512
9.173                0.932692599     -90.7714793
9.174                0.932517798     -90.9308729
9.175                0.932342553     -91.0906941
9.176                0.932166865      -91.250944
9.177                0.931990734     -91.4116237
9.178                0.931814161     -91.5727345
9.179                0.931637145     -91.7342774
9.18                 0.931459688     -91.8962537
9.181                0.931281789     -92.0586644
9.182                0.931103449     -92.2215108
9.183                0.930924669     -92.3847939
9.184                0.930745449     -92.5485149
9.185                 0.93056579      -92.712675
9.186                0.930385691     -92.8772754
9.187                0.930205155     -93.0423171
9.188                0.930024181     -93.2078013
9.189                0.929842769     -93.3737291
9.19                 0.929660922     -93.5401018
9.191                0.929478638     -93.7069204
9.192                 0.92929592      -93.874186
9.193                0.929112767        -94.0419
9.194                0.928929181     -94.2100633
9.195                0.928745162      -94.378677
9.196                0.928560711     -94.5477425
9.197                0.928375829     -94.7172607
9.198                0.928190517     -94.8872328
9.199                0.928004776       -95.05766
9.2                  0.927818606     -95.2285434
9.201                0.927632009     -95.3998841
9.202                0.927444986     -95.5716832
9.203                0.927257537     -95.7439419
9.204                0.927069664     -95.9166613
9.205                0.926881367     -96.0898425
9.206                0.926692649     -96.2634866
9.207                0.926503509     -96.4375948
9.208                 0.92631395     -96.6121682
9.209                0.926123972     -96.7872078
9.21                 0.925933577     -96.9627148
9.211                0.925742766     -97.1386904
9.212                 0.92555154     -97.3151355
9.213                  0.9253599     -97.4920514
9.214                0.925167849      -97.669439
9.215                0.924975387     -97.8472996
9.216                0.924782515     -98.0256342
9.217                0.924589236     -98.2044439
9.218                0.924395551     -98.3837298
9.219                0.924201462      -98.563493
9.22                 0.924006969     -98.7437345
9.221                0.923812075     -98.9244555
9.222                0.923616781     -99.1056569
9.223                0.923421088       -99.28734
9.224                   0.923225     -99.4695057
9.225                0.923028517     -99.6521552
9.226                0.922831641     -99.8352894
9.227                0.922634375      -100.01891
9.228                0.922436719     -100.203017
9.229                0.922238676     -100.387611
9.23                 0.922040249     -100.572695
9.231                0.921841438     -100.758269
9.232                0.921642245     -100.944334
9.233                0.921442674     -101.130891
9.234                0.921242726     -101.317942
9.235                0.921042404     -101.505486
9.236                0.920841709     -101.693526
9.237                0.920640643     -101.882062
9.238                 0.92043921     -102.071095
9.239                0.920237411     -102.260626
9.24                 0.920035248     -102.450656
9.241                0.919832725     -102.641187
9.242                0.919629844     -102.832219
9.243                0.919426606     -103.023752
9.244                0.919223015      -103.21579
9.245                0.919019074     -103.408331
9.246                0.918814784     -103.601377
9.247                0.918610149     -103.794929
9.248                0.918405172     -103.988989
9.249                0.918199854     -104.183556
9.25                 0.917994199     -104.378632
9.251                 0.91778821     -104.574218
9.252                 0.91758189     -104.770314
9.253                0.917375242     -104.966923
9.254                0.917168268     -105.164044
9.255                0.916960972     -105.361678
9.256                0.916753356     -105.559827
9.257                0.916545425      -105.75849
9.258                0.916337181     -105.957671
9.259                0.916128627     -106.157368
9.26                 0.915919767     -106.357583
9.261                0.915710604     -106.558317
9.262                0.915501141      -106.75957
9.263                0.915291383     -106.961344
9.264                0.915081331     -107.163639
9.265                0.914870991     -107.366456
9.266                0.914660366     -107.569796
9.267                0.914449458      -107.77366
9.268                0.914238273     -107.978049
9.269                0.914026813     -108.182963
9.27                 0.913815083     -108.388403
9.271                0.913603086      -108.59437
9.272                0.913390827     -108.800865
9.273                0.913178308     -109.007888
9.274                0.912965535      -109.21544
9.275                0.912752512     -109.423522
9.276                0.912539242     -109.632135
9.277                0.912325729      -109.84128
9.278                0.912111979     -110.050956
9.279                0.911897995     -110.261165
9.28                 0.911683781     -110.471908
9.281                0.911469343     -110.683185
9.282                0.911254684     -110.894997
9.283                0.911039809     -111.107344
9.284                0.910824722     -111.320227
9.285                0.910609429     -111.533647
9.286                0.910393933     -111.747605
9.287                0.910178241       -111.9621
9.288                0.909962355     -112.177134
9.289                0.909746282     -112.392707
9.29                 0.909530027      -112.60882
9.291                0.909313593     -112.825474
9.292                0.909096987     -113.042668
9.293                0.908880213     -113.260404
9.294                0.908663277     -113.478681
9.295                0.908446183     -113.697501
9.296                0.908228938     -113.916865
9.297                0.908011545     -114.136771
9.298                0.907794012     -114.357221
9.299                0.907576343     -114.578216
9.3                  0.907358543     -114.799756
9.301                0.907140619     -115.021841
9.302                0.906922576     -115.244472
9.303                0.906704419     -115.467648
9.304                0.906486155     -115.691371
9.305                0.906267789     -115.915642
9.306                0.906049327     -116.140459
9.307                0.905830775     -116.365824
9.308                0.905612139     -116.591737
9.309                0.905393425     -116.818198
9.31                 0.905174639     -117.045207
9.311                0.904955788     -117.272766
9.312                0.904736877     -117.500873
9.313                0.904517914      -117.72953
9.314                0.904298903     -117.958736
9.315                0.904079853     -118.188493
9.316                0.903860768     -118.418799
9.317                0.903641657     -118.649656
9.318                0.903422524     -118.881062
9.319                0.903203378      -119.11302
9.32                 0.902984225     -119.345528
9.321                0.902765071     -119.578587
9.322                0.902545924     -119.812197
9.323                 0.90232679     -120.046358
9.324                0.902107677      -120.28107
9.325                0.901888591     -120.516333
9.326                0.901669539     -120.752147
9.327                 0.90145053     -120.988512
9.328                0.901231569     -121.225429
9.329                0.901012664     -121.462897
9.33                 0.900793824     -121.700916
9.331                0.900575054     -121.939486
9.332                0.900356363     -122.178607
9.333                0.900137757     -122.418279
9.334                0.899919246     -122.658501
9.335                0.899700835     -122.899274
9.336                0.899482534     -123.140598
9.337                 0.89926435     -123.382472
9.338                 0.89904629     -123.624897
9.339                0.898828363     -123.867871
9.34                 0.898610576     -124.111394
9.341                0.898392938     -124.355468
9.342                0.898175457      -124.60009
9.343                 0.89795814     -124.845261
9.344                0.897740997     -125.090981
9.345                0.897524034     -125.337249
9.346                0.897307262     -125.584064
9.347                0.897090687     -125.831427
9.348                0.896874318     -126.079337
9.349                0.896658165     -126.327794
9.35                 0.896442235     -126.576797
9.351                0.896226537     -126.826345
9.352                0.896011079     -127.076439
9.353                0.895795871     -127.327077
9.354                0.895580922     -127.578259
9.355                0.895366239     -127.829985
9.356                0.895151832     -128.082254
9.357                 0.89493771     -128.335065
9.358                0.894723882     -128.588418
9.359                0.894510357     -128.842312
9.36                 0.894297143     -129.096746
9.361                0.894084251      -129.35172
9.362                0.893871689     -129.607233
9.363                0.893659467     -129.863284
9.364                0.893447594     -130.119873
9.365                0.893236079     -130.376998
9.366                0.893024932     -130.634658
9.367                0.892814161     -130.892854
9.368                0.892603778     -131.151584
9.369                 0.89239379     -131.410846
9.37                 0.892184209     -131.670641
9.371                0.891975043     -131.930967
9.372                0.891766302     -132.191824
9.373                0.891557996     -132.453209
9.374                0.891350134     -132.715123
9.375                0.891142727     -132.977564
9.376                0.890935785     -133.240531
9.377                0.890729316     -133.504022
9.378                0.890523332     -133.768038
9.379                0.890317842     -134.032576
9.38                 0.890112856     -134.297636
9.381                0.889908385     -134.563216
9.382                0.889704438     -134.829315
9.383                0.889501026     -135.095931
9.384                0.889298159     -135.363064
9.385                0.889095846     -135.630712
9.386                0.888894099     -135.898873
9.387                0.888692927     -136.167547
9.388                0.888492342     -136.436732
9.389                0.888292352     -136.706426
9.39                 0.888092969     -136.976628
9.391                0.887894203     -137.247336
9.392                0.887696065      -137.51855
9.393                0.887498565     -137.790267
9.394                0.887301713     -138.062485
9.395                0.887105521     -138.335204
9.396                0.886909998     -138.608422
