! TOUCHSTONE file generated by CST DESIGN STUDIO
! Date and time: Tue Feb  4 16:15:18 2025
! Project name: C:\Work\MatlabApps\UnitCellOptimizationMatlab\CST\unitcell.cst
! Tree item: Tasks\Sweep1\SPara1\S-Parameters
! Header version: 2024
! Port assignment regex: !\s*Touchstone port\s*([0-9]+)\s*=\s*(CST MWS port|CST DES external port|CST DES block port)\s*(.+)\s* \(\"(.*)\"\)(\s*mode\s*([0-9]+))?.*
! Touchstone port assignment:
! Touchstone port 1 = CST DES external port 1 ("")
# GHz S MA R 50
9                    0.894717459     -98.6271411
9.001                0.894428732     -98.8317874
9.002                0.894138965     -99.0370873
9.003                 0.89384816     -99.2430428
9.004                0.893556316     -99.4496555
9.005                0.893263433     -99.6569273
9.006                0.892969511     -99.8648599
9.007                0.892674553     -100.073455
9.008                0.892378557     -100.282715
9.009                0.892081524     -100.492641
9.01                 0.891783456     -100.703236
9.011                0.891484353       -100.9145
9.012                0.891184215     -101.126435
9.013                0.890883045     -101.339045
9.014                0.890580843     -101.552329
9.015                0.890277609      -101.76629
9.016                0.889973347      -101.98093
9.017                0.889668056      -102.19625
9.018                0.889361738     -102.412252
9.019                0.889054395     -102.628939
9.02                 0.888746028      -102.84631
9.021                 0.88843664     -103.064369
9.022                0.888126232     -103.283117
9.023                0.887814806     -103.502556
9.024                0.887502364     -103.722687
9.025                0.887188908     -103.943512
9.026                 0.88687444     -104.165033
9.027                0.886558964     -104.387251
9.028                0.886242481     -104.610168
9.029                0.885924993     -104.833786
9.03                 0.885606505     -105.058106
9.031                0.885287018     -105.283129
9.032                0.884966535     -105.508859
9.033                 0.88464506     -105.735295
9.034                0.884322595      -105.96244
9.035                0.883999144     -106.190295
9.036                 0.88367471     -106.418863
9.037                0.883349297     -106.648143
9.038                0.883022909     -106.878138
9.039                0.882695549      -107.10885
9.04                  0.88236722      -107.34028
9.041                0.882037928     -107.572429
9.042                0.881707676     -107.805299
9.043                0.881376469     -108.038891
9.044                 0.88104431     -108.273207
9.045                0.880711204     -108.508249
9.046                0.880377157     -108.744017
9.047                0.880042172     -108.980514
9.048                0.879706255     -109.217739
9.049                0.879369411     -109.455696
9.05                 0.879031644     -109.694385
9.051                0.878692961     -109.933808
9.052                0.878353367     -110.173966
9.053                0.878012866      -110.41486
9.054                0.877671466     -110.656492
9.055                0.877329172     -110.898862
9.056                 0.87698599     -111.141973
9.057                0.876641925     -111.385825
9.058                0.876296986      -111.63042
9.059                0.875951177     -111.875758
9.06                 0.875604506     -112.121842
9.061                0.875256979     -112.368672
9.062                0.874908603      -112.61625
9.063                0.874559386     -112.864575
9.064                0.874209334     -113.113651
9.065                0.873858455     -113.363478
9.066                0.873506756     -113.614056
9.067                0.873154246     -113.865387
9.068                0.872800931     -114.117472
9.069                0.872446821     -114.370312
9.07                 0.872091922     -114.623908
9.071                0.871736245     -114.878261
9.072                0.871379796     -115.133372
9.073                0.871022585     -115.389242
9.074                 0.87066462     -115.645871
9.075                0.870305911     -115.903261
9.076                0.869946466     -116.161412
9.077                0.869586295     -116.420326
9.078                0.869225408     -116.680002
9.079                0.868863814     -116.940443
9.08                 0.868501522     -117.201648
9.081                0.868138544     -117.463618
9.082                0.867774889     -117.726355
9.083                0.867410567     -117.989858
9.084                0.867045589     -118.254128
9.085                0.866679966     -118.519167
9.086                0.866313708     -118.784973
9.087                0.865946827      -119.05155
9.088                0.865579334     -119.318895
9.089                 0.86521124     -119.587011
9.09                 0.864842557     -119.855897
9.091                0.864473296     -120.125555
9.092                 0.86410347     -120.395984
9.093                0.863733091     -120.667185
9.094                 0.86336217     -120.939158
9.095                0.862990721     -121.211903
9.096                0.862618757     -121.485422
9.097                0.862246289     -121.759713
9.098                0.861873331     -122.034778
9.099                0.861499896     -122.310617
9.1                  0.861125998     -122.587228
9.101                0.860751651     -122.864614
9.102                0.860376867     -123.142774
9.103                0.860001661     -123.421707
9.104                0.859626048     -123.701415
9.105                0.859250041     -123.981896
9.106                0.858873655     -124.263151
9.107                0.858496904      -124.54518
9.108                0.858119805     -124.827983
9.109                0.857742371     -125.111559
9.11                 0.857364618     -125.395908
9.111                0.856986561     -125.681031
9.112                0.856608216     -125.966926
9.113                  0.8562296     -126.253594
9.114                0.855850727     -126.541034
9.115                0.855471615     -126.829245
9.116                0.855092279     -127.118228
9.117                0.854712736     -127.407981
9.118                0.854333003     -127.698505
9.119                0.853953096     -127.989799
9.12                 0.853573034     -128.281861
9.121                0.853192833     -128.574692
9.122                0.852812511     -128.868291
9.123                0.852432085     -129.162657
9.124                0.852051574      -129.45779
9.125                0.851670995     -129.753687
9.126                0.851290366      -130.05035
9.127                0.850909707     -130.347776
9.128                0.850529035     -130.645965
9.129                 0.85014837     -130.944915
9.13                  0.84976773     -131.244627
9.131                0.849387135     -131.545098
9.132                0.849006603     -131.846327
9.133                0.848626155     -132.148314
9.134                0.848245809     -132.451057
9.135                0.847865587     -132.754555
9.136                0.847485507     -133.058806
9.137                 0.84710559      -133.36381
9.138                0.846725857     -133.669564
9.139                0.846346328     -133.976067
9.14                 0.845967023     -134.283319
9.141                0.845587963     -134.591316
9.142                 0.84520917     -134.900058
9.143                0.844830664     -135.209543
9.144                0.844452468     -135.519769
9.145                0.844074601     -135.830735
9.146                0.843697087     -136.142438
9.147                0.843319947     -136.454877
9.148                0.842943202      -136.76805
9.149                0.842566876     -137.081954
9.15                 0.842190989     -137.396588
9.151                0.841815565      -137.71195
9.152                0.841440627     -138.028038
9.153                0.841066196     -138.344849
9.154                0.840692296     -138.662381
9.155                0.840318949     -138.980632
9.156                 0.83994618       -139.2996
9.157                 0.83957401     -139.619281
9.158                0.839202463     -139.939674
9.159                0.838831564     -140.260777
9.16                 0.838461335     -140.582586
9.161                  0.8380918     -140.905098
9.162                0.837722983     -141.228312
9.163                0.837354909     -141.552225
9.164                  0.8369876     -141.876833
9.165                0.836621082     -142.202134
9.166                0.836255379     -142.528125
9.167                0.835890514     -142.854803
9.168                0.835526514     -143.182165
9.169                0.835163401     -143.510207
9.17                 0.834801202     -143.838928
9.171                 0.83443994     -144.168323
9.172                0.834079641     -144.498389
9.173                0.833720329     -144.829123
9.174                0.833362031     -145.160521
9.175                 0.83300477     -145.492581
9.176                0.832648572     -145.825299
9.177                0.832293462      -146.15867
9.178                0.831939466     -146.492692
9.179                0.831586609     -146.827361
9.18                 0.831234916     -147.162673
9.181                0.830884414     -147.498624
9.182                0.830535127     -147.835211
9.183                0.830187081      -148.17243
9.184                0.829840302     -148.510276
9.185                0.829494816     -148.848745
9.186                0.829150648     -149.187834
9.187                0.828807823     -149.527539
9.188                0.828466369     -149.867855
9.189                 0.82812631     -150.208777
9.19                 0.827787673     -150.550302
9.191                0.827450483     -150.892426
9.192                0.827114766     -151.235143
9.193                0.826780548      -151.57845
9.194                0.826447855     -151.922341
9.195                0.826116712     -152.266813
9.196                0.825787146      -152.61186
9.197                0.825459181     -152.957478
9.198                0.825132845     -153.303662
9.199                0.824808163     -153.650407
9.2                   0.82448516     -153.997708
9.201                0.824163862     -154.345561
9.202                0.823844295      -154.69396
9.203                0.823526484       -155.0429
9.204                0.823210456     -155.392376
9.205                0.822896234     -155.742383
9.206                0.822583846     -156.092916
9.207                0.822273316     -156.443969
9.208                 0.82196467     -156.795537
9.209                0.821657932     -157.147614
9.21                 0.821353128     -157.500196
9.211                0.821050284     -157.853277
9.212                0.820749423      -158.20685
9.213                0.820450571     -158.560911
9.214                0.820153753     -158.915453
9.215                0.819858993     -159.270472
9.216                0.819566316     -159.625961
9.217                0.819275747     -159.981914
9.218                0.818987309     -160.338325
9.219                0.818701027     -160.695189
9.22                 0.818416924       -161.0525
9.221                0.818135026      -161.41025
9.222                0.817855355     -161.768436
9.223                0.817577935     -162.127049
9.224                0.817302791     -162.486084
9.225                0.817029944     -162.845535
9.226                0.816759418     -163.205396
9.227                0.816491237     -163.565659
9.228                0.816225423     -163.926319
9.229                0.815961998      -164.28737
9.23                 0.815700986     -164.648804
9.231                0.815442408     -165.010615
9.232                0.815186286     -165.372797
9.233                0.814932643     -165.735342
9.234                  0.8146815     -166.098246
9.235                0.814432879     -166.461499
9.236                  0.8141868     -166.825097
9.237                0.813943285     -167.189031
9.238                0.813702355     -167.553296
9.239                 0.81346403     -167.917884
9.24                 0.813228331     -168.282788
9.241                0.812995277     -168.648002
9.242                 0.81276489     -169.013518
9.243                0.812537187     -169.379329
9.244                0.812312189     -169.745429
9.245                0.812089915      -170.11181
9.246                0.811870384     -170.478464
9.247                0.811653614     -170.845386
9.248                0.811439623     -171.212567
9.249                 0.81122843     -171.580001
9.25                 0.811020053      -171.94768
9.251                0.810814509     -172.315596
9.252                0.810611815     -172.683743
9.253                0.810411988     -173.052113
9.254                0.810215045     -173.420698
9.255                0.810021002     -173.789492
9.256                0.809829875     -174.158486
9.257                0.809641681     -174.527674
9.258                0.809456433     -174.897047
9.259                0.809274149     -175.266599
9.26                 0.809094842     -175.636321
9.261                0.808918526     -176.006206
9.262                0.808745217     -176.376247
9.263                0.808574927     -176.746435
9.264                0.808407671     -177.116764
9.265                0.808243462     -177.487225
9.266                0.808082312     -177.857811
9.267                0.807924234     -178.228514
9.268                0.807769241     -178.599327
9.269                0.807617343     -178.970241
9.27                 0.807468553     -179.341249
9.271                0.807322882     -179.712343
9.272                 0.80718034      179.916484
9.273                0.807040939      179.545241
9.274                0.806904687      179.173934
9.275                0.806771596      178.802573
9.276                0.806641673      178.431165
9.277                0.806514929      178.059717
9.278                0.806391372      177.688237
9.279                 0.80627101      177.316734
9.28                 0.806153851      176.945215
9.281                0.806039903      176.573688
9.282                0.805929173       176.20216
9.283                0.805821668       175.83064
9.284                0.805717394      175.459135
9.285                0.805616358      175.087654
9.286                0.805518565      174.716203
9.287                 0.80542402      174.344792
9.288                0.805332729      173.973427
9.289                0.805244696      173.602116
9.29                 0.805159925      173.230868
9.291                0.805078421       172.85969
9.292                0.805000186       172.48859
9.293                0.804925225      172.117576
9.294                0.804853538      171.746655
9.295                 0.80478513      171.375835
9.296                0.804720002      171.005125
9.297                0.804658155      170.634531
9.298                0.804599591      170.264061
9.299                0.804544311      169.893724
9.3                  0.804492315      169.523526
9.301                0.804443604      169.153476
9.302                0.804398176      168.783581
9.303                0.804356032      168.413849
9.304                0.804317171      168.044288
9.305                 0.80428159      167.674904
9.306                0.804249289      167.305706
9.307                0.804220266      166.936701
9.308                0.804194517      166.567897
9.309                 0.80417204        166.1993
9.31                 0.804152832       165.83092
9.311                 0.80413689      165.462762
9.312                0.804124209      165.094835
9.313                0.804114785      164.727146
9.314                0.804108614      164.359702
9.315                0.804105691      163.992511
9.316                0.804106009      163.625579
9.317                0.804109565      163.258914
9.318                0.804116351      162.892524
9.319                0.804126362      162.526416
9.32                  0.80413959      162.160595
9.321                0.804156029      161.795071
9.322                0.804175671       161.42985
9.323                0.804198509      161.064939
9.324                0.804224534      160.700344
9.325                0.804253739      160.336074
9.326                0.804286114      159.972134
9.327                0.804321651      159.608532
9.328                 0.80436034      159.245275
9.329                0.804402172      158.882369
9.33                 0.804447136      158.519821
9.331                0.804495223      158.157638
9.332                0.804546422      157.795827
9.333                0.804600722      157.434394
9.334                0.804658112      157.073346
9.335                 0.80471858      156.712689
9.336                0.804782116       156.35243
9.337                0.804848706      155.992575
9.338                0.804918338      155.633131
9.339                0.804991001      155.274104
9.34                  0.80506668        154.9155
9.341                0.805145364      154.557326
9.342                0.805227038      154.199588
9.343                0.805311689      153.842292
9.344                0.805399303      153.485444
9.345                0.805489866       153.12905
9.346                0.805583363      152.773116
9.347                 0.80567978      152.417648
9.348                0.805779102      152.062652
9.349                0.805881314      151.708134
9.35                   0.8059864      151.354099
9.351                0.806094345      151.000554
9.352                0.806205132      150.647504
9.353                0.806318747      150.294954
9.354                0.806435172       149.94291
9.355                0.806554391      149.591378
9.356                0.806676388      149.240364
9.357                0.806801146      148.889871
9.358                0.806928646      148.539907
9.359                0.807058873      148.190476
9.36                 0.807191809      147.841583
9.361                0.807327436      147.493233
9.362                0.807465736      147.145432
9.363                0.807606691      146.798185
9.364                0.807750284      146.451497
9.365                0.807896495      146.105372
9.366                0.808045306      145.759815
9.367                0.808196699      145.414832
9.368                0.808350654      145.070427
9.369                0.808507153      144.726605
9.37                 0.808666177      144.383369
9.371                0.808827706      144.040726
9.372                 0.80899172      143.698679
9.373                0.809158202      143.357233
9.374                 0.80932713      143.016393
9.375                0.809498485      142.676162
9.376                0.809672247      142.336544
9.377                0.809848396      141.997545
9.378                0.810026912      141.659168
9.379                0.810207775      141.321417
9.38                 0.810390964      140.984297
9.381                 0.81057646      140.647811
9.382                 0.81076424      140.311963
9.383                0.810954286      139.976757
9.384                0.811146576      139.642198
9.385                 0.81134109      139.308287
9.386                0.811537806       138.97503
9.387                0.811736704       138.64243
9.388                0.811937763       138.31049
9.389                0.812140961      137.979213
9.39                 0.812346278      137.648605
9.391                0.812553693      137.318666
9.392                0.812763184      136.989402
9.393                0.812974731      136.660815
9.394                0.813188311      136.332908
9.395                0.813403904      136.005685
9.396                0.813621488      135.679148
