! TOUCHSTONE file generated by CST DESIGN STUDIO
! Date and time: Tue Feb  4 16:15:31 2025
! Project name: C:\Work\MatlabApps\UnitCellOptimizationMatlab\CST\unitcell.cst
! Tree item: Tasks\Sweep1\SPara1\S-Parameters
! Header version: 2024
! Port assignment regex: !\s*Touchstone port\s*([0-9]+)\s*=\s*(CST MWS port|CST DES external port|CST DES block port)\s*(.+)\s* \(\"(.*)\"\)(\s*mode\s*([0-9]+))?.*
! Touchstone port assignment:
! Touchstone port 1 = CST DES external port 1 ("")
# GHz S MA R 50
9                    0.965698872     -48.7183521
9.001                0.965598201     -48.7807194
9.002                0.965497623     -48.8431847
9.003                0.965397134     -48.9057503
9.004                0.965296734     -48.9684186
9.005                0.965196416     -49.0311917
9.006                0.965096178     -49.0940716
9.007                0.964996013     -49.1570603
9.008                0.964895914     -49.2201596
9.009                0.964795876     -49.2833713
9.01                 0.964695891     -49.3466971
9.011                0.964595951     -49.4101386
9.012                0.964496049     -49.4736974
9.013                0.964396177     -49.5373749
9.014                0.964296327     -49.6011724
9.015                 0.96419649     -49.6650914
9.016                0.964096659     -49.7291332
9.017                0.963996824     -49.7932988
9.018                0.963896979     -49.8575896
9.019                0.963797113     -49.9220067
9.02                 0.963697221     -49.9865511
9.021                0.963597292     -50.0512239
9.022                0.963497319     -50.1160261
9.023                0.963397295     -50.1809587
9.024                0.963297212     -50.2460225
9.025                0.963197061     -50.3112186
9.026                0.963096836     -50.3765477
9.027                0.962996529     -50.4420108
9.028                0.962896133     -50.5076087
9.029                0.962795641      -50.573342
9.03                 0.962695046     -50.6392118
9.031                0.962594341     -50.7052186
9.032                 0.96249352     -50.7713632
9.033                0.962392576     -50.8376464
9.034                0.962291504     -50.9040688
9.035                0.962190296     -50.9706312
9.036                0.962088947     -51.0373342
9.037                0.961987452     -51.1041785
9.038                0.961885804     -51.1711647
9.039                0.961783998     -51.2382934
9.04                 0.961682029     -51.3055654
9.041                0.961579891     -51.3729812
9.042                0.961477579     -51.4405414
9.043                0.961375089     -51.5082466
9.044                0.961272415     -51.5760974
9.045                0.961169553     -51.6440945
9.046                0.961066498     -51.7122383
9.047                0.960963245     -51.7805295
9.048                0.960859791     -51.8489687
9.049                0.960756131     -51.9175563
9.05                 0.960652261      -51.986293
9.051                0.960548176     -52.0551794
9.052                0.960443873     -52.1242159
9.053                0.960339348     -52.1934031
9.054                0.960234597     -52.2627415
9.055                0.960129616     -52.3322318
9.056                0.960024403     -52.4018745
9.057                0.959918953       -52.47167
9.058                0.959813262      -52.541619
9.059                0.959707328     -52.6117219
9.06                 0.959601148     -52.6819794
9.061                0.959494718     -52.7523918
9.062                0.959388034     -52.8229599
9.063                0.959281095      -52.893684
9.064                0.959173896     -52.9645648
9.065                0.959066435     -53.0356027
9.066                 0.95895871     -53.1067984
9.067                0.958850717     -53.1781522
9.068                0.958742453     -53.2496648
9.069                0.958633916     -53.3213367
9.07                 0.958525104     -53.3931685
9.071                0.958416013     -53.4651606
9.072                0.958306641     -53.5373135
9.073                0.958196986     -53.6096279
9.074                0.958087045     -53.6821043
9.075                0.957976816     -53.7547431
9.076                0.957866296     -53.8275449
9.077                0.957755484     -53.9005104
9.078                0.957644376     -53.9736399
9.079                 0.95753297      -54.046934
9.08                 0.957421266     -54.1203934
9.081                0.957309259     -54.1940184
9.082                0.957196948     -54.2678097
9.083                0.957084332     -54.3417678
9.084                0.956971407     -54.4158933
9.085                0.956858173     -54.4901867
9.086                0.956744626     -54.5646485
9.087                0.956630765     -54.6392793
9.088                0.956516588     -54.7140797
9.089                0.956402094     -54.7890502
9.09                 0.956287279     -54.8641914
9.091                0.956172143     -54.9395038
9.092                0.956056684     -55.0149879
9.093                0.955940899     -55.0906444
9.094                0.955824787     -55.1664739
9.095                0.955708346     -55.2424767
9.096                0.955591575     -55.3186537
9.097                0.955474472     -55.3950052
9.098                0.955357034      -55.471532
9.099                 0.95523926     -55.5482344
9.1                   0.95512115     -55.6251133
9.101                  0.9550027      -55.702169
9.102                0.954883909     -55.7794022
9.103                0.954764777     -55.8568135
9.104                  0.9546453     -55.9344035
9.105                0.954525478     -56.0121727
9.106                0.954405309     -56.0901218
9.107                0.954284791     -56.1682513
9.108                0.954163923     -56.2465618
9.109                0.954042703     -56.3250539
9.11                  0.95392113     -56.4037283
9.111                0.953799202     -56.4825854
9.112                0.953676919      -56.561626
9.113                0.953554277     -56.6408507
9.114                0.953431276       -56.72026
9.115                0.953307915     -56.7998545
9.116                0.953184192     -56.8796349
9.117                0.953060105     -56.9596018
9.118                0.952935653     -57.0397558
9.119                0.952810834     -57.1200975
9.12                 0.952685648     -57.2006276
9.121                0.952560093     -57.2813466
9.122                0.952434167     -57.3622552
9.123                0.952307869     -57.4433541
9.124                0.952181197     -57.5246439
9.125                0.952054151     -57.6061251
9.126                0.951926729     -57.6877985
9.127                0.951798929     -57.7696647
9.128                 0.95167075     -57.8517244
9.129                0.951542191     -57.9339781
9.13                  0.95141325     -58.0164266
9.131                0.951283927     -58.0990704
9.132                0.951154219     -58.1819103
9.133                0.951024126     -58.2649469
9.134                0.950893646     -58.3481809
9.135                0.950762777     -58.4316129
9.136                0.950631519     -58.5152436
9.137                 0.95049987     -58.5990737
9.138                0.950367829     -58.6831038
9.139                0.950235394     -58.7673346
9.14                 0.950102564     -58.8517668
9.141                0.949969339     -58.9364011
9.142                0.949835716     -59.0212382
9.143                0.949701694     -59.1062787
9.144                0.949567272     -59.1915233
9.145                0.949432449     -59.2769728
9.146                0.949297223     -59.3626278
9.147                0.949161594     -59.4484891
9.148                0.949025559     -59.5345573
9.149                0.948889118     -59.6208331
9.15                 0.948752269     -59.7073172
9.151                0.948615011     -59.7940104
9.152                0.948477343     -59.8809134
9.153                0.948339263     -59.9680269
9.154                 0.94820077     -60.0553515
9.155                0.948061863     -60.1428881
9.156                0.947922541     -60.2306374
9.157                0.947782802        -60.3186
9.158                0.947642645     -60.4067768
9.159                0.947502069     -60.4951684
9.16                 0.947361072     -60.5837756
9.161                0.947219654     -60.6725991
9.162                0.947077812     -60.7616397
9.163                0.946935546     -60.8508981
9.164                0.946792855     -60.9403751
9.165                0.946649736     -61.0300714
9.166                 0.94650619     -61.1199878
9.167                0.946362214      -61.210125
9.168                0.946217807     -61.3004839
9.169                0.946072968     -61.3910651
9.17                 0.945927696     -61.4818695
9.171                 0.94578199     -61.5728978
9.172                0.945635847     -61.6641508
9.173                0.945489268     -61.7556292
9.174                 0.94534225     -61.8473339
9.175                0.945194792     -61.9392657
9.176                0.945046894     -62.0314253
9.177                0.944898553     -62.1238135
9.178                0.944749769     -62.2164311
9.179                0.944600539     -62.3092789
9.18                 0.944450864     -62.4023578
9.181                0.944300741     -62.4956685
9.182                 0.94415017     -62.5892118
9.183                0.943999148     -62.6829885
9.184                0.943847676     -62.7769996
9.185                 0.94369575     -62.8712457
9.186                0.943543371     -62.9657277
9.187                0.943390537     -63.0604464
9.188                0.943237246     -63.1554027
9.189                0.943083497     -63.2505973
9.19                 0.942929289     -63.3460312
9.191                0.942774621     -63.4417052
9.192                0.942619491     -63.5376201
9.193                0.942463898     -63.6337767
9.194                 0.94230784     -63.7301759
9.195                0.942151317     -63.8268186
9.196                0.941994327     -63.9237055
9.197                0.941836869     -64.0208377
9.198                0.941678941     -64.1182159
9.199                0.941520541      -64.215841
9.2                   0.94136167     -64.3137138
9.201                0.941202325     -64.4118353
9.202                0.941042505     -64.5102063
9.203                0.940882208     -64.6088277
9.204                0.940721434     -64.7077004
9.205                0.940560181     -64.8068253
9.206                0.940398448     -64.9062032
9.207                0.940236233     -65.0058351
9.208                0.940073534     -65.1057218
9.209                0.939910352     -65.2058643
9.21                 0.939746683     -65.3062635
9.211                0.939582528     -65.4069202
9.212                0.939417884     -65.5078354
9.213                 0.93925275     -65.6090101
9.214                0.939087125      -65.710445
9.215                0.938921007     -65.8121412
9.216                0.938754395     -65.9140995
9.217                0.938587288      -66.016321
9.218                0.938419685     -66.1188065
9.219                0.938251583     -66.2215569
9.22                 0.938082981     -66.3245733
9.221                0.937913879     -66.4278565
9.222                0.937744275     -66.5314076
9.223                0.937574167     -66.6352274
9.224                0.937403554     -66.7393169
9.225                0.937232434     -66.8436771
9.226                0.937060807     -66.9483089
9.227                 0.93688867     -67.0532134
9.228                0.936716023     -67.1583914
9.229                0.936542863      -67.263844
9.23                  0.93636919     -67.3695721
9.231                0.936195003     -67.4755767
9.232                0.936020299     -67.5818589
9.233                0.935845077     -67.6884195
9.234                0.935669336     -67.7952596
9.235                0.935493075     -67.9023802
9.236                0.935316291     -68.0097822
9.237                0.935138985     -68.1174668
9.238                0.934961153     -68.2254348
9.239                0.934782795     -68.3336874
9.24                  0.93460391     -68.4422254
9.241                0.934424495       -68.55105
9.242                 0.93424455     -68.6601622
9.243                0.934064073      -68.769563
9.244                0.933883062     -68.8792534
9.245                0.933701516     -68.9892345
9.246                0.933519434     -69.0995072
9.247                0.933336814     -69.2100727
9.248                0.933153655      -69.320932
9.249                0.932969956     -69.4320862
9.25                 0.932785714     -69.5435362
9.251                0.932600928     -69.6552832
9.252                0.932415598     -69.7673282
9.253                0.932229721     -69.8796722
9.254                0.932043296     -69.9923165
9.255                0.931856321     -70.1052619
9.256                0.931668796     -70.2185097
9.257                0.931480718     -70.3320608
9.258                0.931292086     -70.4459164
9.259                0.931102899     -70.5600776
9.26                 0.930913156     -70.6745454
9.261                0.930722854     -70.7893209
9.262                0.930531992     -70.9044053
9.263                0.930340569     -71.0197997
9.264                0.930148584     -71.1355051
9.265                0.929956034     -71.2515227
9.266                0.929762919     -71.3678535
9.267                0.929569236     -71.4844988
9.268                0.929374985     -71.6014596
9.269                0.929180164     -71.7187371
9.27                 0.928984772     -71.8363324
9.271                0.928788806     -71.9542466
9.272                0.928592266     -72.0724809
9.273                 0.92839515     -72.1910364
9.274                0.928197457     -72.3099143
9.275                0.927999185     -72.4291156
9.276                0.927800332     -72.5486417
9.277                0.927600898     -72.6684935
9.278                 0.92740088     -72.7886724
9.279                0.927200278     -72.9091794
9.28                 0.926999089     -73.0300158
9.281                0.926797313     -73.1511826
9.282                0.926594947     -73.2726812
9.283                0.926391991     -73.3945126
9.284                0.926188442     -73.5166781
9.285                  0.9259843     -73.6391788
9.286                0.925779563      -73.762016
9.287                0.925574229     -73.8851908
9.288                0.925368297     -74.0087044
9.289                0.925161766     -74.1325581
9.29                 0.924954634     -74.2567531
9.291                  0.9247469     -74.3812905
9.292                0.924538562     -74.5061717
9.293                0.924329618     -74.6313977
9.294                0.924120068     -74.7569699
9.295                 0.92390991     -74.8828895
9.296                0.923699142     -75.0091577
9.297                0.923487763     -75.1357757
9.298                0.923275771     -75.2627448
9.299                0.923063166     -75.3900662
9.3                  0.922849945     -75.5177412
9.301                0.922636108     -75.6457711
9.302                0.922421652      -75.774157
9.303                0.922206577     -75.9029003
9.304                0.921990881     -76.0320022
9.305                0.921774563      -76.161464
9.306                 0.92155762      -76.291287
9.307                0.921340053     -76.4214724
9.308                0.921121859     -76.5520215
9.309                0.920903037     -76.6829356
9.31                 0.920683585      -76.814216
9.311                0.920463503      -76.945864
9.312                0.920242789     -77.0778808
9.313                0.920021442     -77.2102679
9.314                0.919799459     -77.3430264
9.315                0.919576841     -77.4761577
9.316                0.919353585     -77.6096631
9.317                 0.91912969     -77.7435439
9.318                0.918905155     -77.8778014
9.319                0.918679979      -78.012437
9.32                  0.91845416      -78.147452
9.321                0.918227696     -78.2828476
9.322                0.918000588     -78.4186253
9.323                0.917772832     -78.5547864
9.324                0.917544429     -78.6913322
9.325                0.917315377     -78.8282641
9.326                0.917085674     -78.9655833
9.327                 0.91685532     -79.1032913
9.328                0.916624312     -79.2413895
9.329                0.916392651     -79.3798791
9.33                 0.916160334     -79.5187615
9.331                 0.91592736     -79.6580381
9.332                0.915693729     -79.7977104
9.333                0.915459439     -79.9377795
9.334                0.915224488      -80.078247
9.335                0.914988876     -80.2191141
9.336                0.914752602     -80.3603823
9.337                0.914515664      -80.502053
9.338                0.914278062     -80.6441276
9.339                0.914039793     -80.7866074
9.34                 0.913800858     -80.9294939
9.341                0.913561255     -81.0727884
9.342                0.913320982     -81.2164923
9.343                 0.91308004     -81.3606071
9.344                0.912838426     -81.5051342
9.345                 0.91259614     -81.6500749
9.346                0.912353181     -81.7954308
9.347                0.912109547     -81.9412031
9.348                0.911865239     -82.0873934
9.349                0.911620254     -82.2340031
9.35                 0.911374592     -82.3810335
9.351                0.911128252     -82.5284862
9.352                0.910881233     -82.6763626
9.353                0.910633534      -82.824664
9.354                0.910385155      -82.973392
9.355                0.910136093      -83.122548
9.356                 0.90988635     -83.2721334
9.357                0.909635923     -83.4221497
9.358                0.909384812     -83.5725983
9.359                0.909133016     -83.7234807
9.36                 0.908880534     -83.8747984
9.361                0.908627366     -84.0265528
9.362                0.908373511     -84.1787454
9.363                0.908118968     -84.3313776
9.364                0.907863737      -84.484451
9.365                0.907607816     -84.6379669
9.366                0.907351206      -84.791927
9.367                0.907093905     -84.9463325
9.368                0.906835914     -85.1011851
9.369                 0.90657723     -85.2564862
9.37                 0.906317855     -85.4122373
9.371                0.906057787     -85.5684399
9.372                0.905797026     -85.7250954
9.373                0.905535571     -85.8822054
9.374                0.905273423     -86.0397714
9.375                 0.90501058     -86.1977949
9.376                0.904747042     -86.3562773
9.377                0.904482808     -86.5152202
9.378                 0.90421788      -86.674625
9.379                0.903952255     -86.8344933
9.38                 0.903685935     -86.9948266
9.381                0.903418918     -87.1556264
9.382                0.903151204     -87.3168942
9.383                0.902882794     -87.4786315
9.384                0.902613687     -87.6408399
9.385                0.902343883     -87.8035208
9.386                0.902073381     -87.9666757
9.387                0.901802183     -88.1303063
9.388                0.901530287      -88.294414
9.389                0.901257694     -88.4590003
9.39                 0.900984403     -88.6240668
9.391                0.900710416      -88.789615
9.392                0.900435731     -88.9556464
9.393                 0.90016035     -89.1221626
9.394                0.899884272      -89.289165
9.395                0.899607497     -89.4566553
9.396                0.899330026     -89.6246349
