! TOUCHSTONE file generated by CST DESIGN STUDIO
! Date and time: Tue Feb  4 16:15:21 2025
! Project name: C:\Work\MatlabApps\UnitCellOptimizationMatlab\CST\unitcell.cst
! Tree item: Tasks\Sweep1\SPara1\S-Parameters
! Header version: 2024
! Port assignment regex: !\s*Touchstone port\s*([0-9]+)\s*=\s*(CST MWS port|CST DES external port|CST DES block port)\s*(.+)\s* \(\"(.*)\"\)(\s*mode\s*([0-9]+))?.*
! Touchstone port assignment:
! Touchstone port 1 = CST DES external port 1 ("")
# GHz S MA R 50
9                     0.92084988     -82.0011931
9.001                 0.92062206     -82.1523379
9.002                  0.9203932     -82.3039312
9.003                0.920163297     -82.4559743
9.004                0.919932347      -82.608469
9.005                 0.91970035     -82.7614166
9.006                0.919467301     -82.9148188
9.007                0.919233199     -83.0686771
9.008                 0.91899804     -83.2229931
9.009                0.918761823     -83.3777683
9.01                 0.918524545     -83.5330043
9.011                0.918286203     -83.6887026
9.012                0.918046795     -83.8448649
9.013                0.917806318     -84.0014927
9.014                0.917564771     -84.1585875
9.015                 0.91732215      -84.316151
9.016                0.917078453     -84.4741848
9.017                0.916833678     -84.6326904
9.018                0.916587823     -84.7916693
9.019                0.916340885     -84.9511233
9.02                 0.916092862     -85.1110539
9.021                0.915843751     -85.2714626
9.022                0.915593551     -85.4323512
9.023                0.915342259     -85.5937212
9.024                0.915089873     -85.7555741
9.025                0.914836391     -85.9179117
9.026                0.914581811     -86.0807355
9.027                 0.91432613     -86.2440471
9.028                0.914069346     -86.4078482
9.029                0.913811458     -86.5721404
9.03                 0.913552463     -86.7369253
9.031                 0.91329236     -86.9022045
9.032                0.913031146     -87.0679797
9.033                 0.91276882     -87.2342524
9.034                0.912505379     -87.4010244
9.035                0.912240821     -87.5682972
9.036                0.911975146     -87.7360725
9.037                0.911708351     -87.9043519
9.038                0.911440433     -88.0731371
9.039                0.911171393     -88.2424297
9.04                 0.910901227     -88.4122314
9.041                0.910629934     -88.5825437
9.042                0.910357513     -88.7533684
9.043                0.910083961     -88.9247072
9.044                0.909809278     -89.0965615
9.045                0.909533462     -89.2689332
9.046                0.909256511     -89.4418239
9.047                0.908978424     -89.6152351
9.048                0.908699199     -89.7891687
9.049                0.908418836     -89.9636262
9.05                 0.908137332     -90.1386093
9.051                0.907854687     -90.3141197
9.052                0.907570899      -90.490159
9.053                0.907285967      -90.666729
9.054                 0.90699989     -90.8438311
9.055                0.906712667     -91.0214673
9.056                0.906424297      -91.199639
9.057                0.906134778      -91.378348
9.058                 0.90584411     -91.5575959
9.059                0.905552293     -91.7373845
9.06                 0.905259324     -91.9177153
9.061                0.904965204     -92.0985901
9.062                0.904669931     -92.2800105
9.063                0.904373505     -92.4619783
9.064                0.904075925      -92.644495
9.065                 0.90377719     -92.8275623
9.066                0.903477301      -93.011182
9.067                0.903176256     -93.1953557
9.068                0.902874055      -93.380085
9.069                0.902570697     -93.5653717
9.07                 0.902266184     -93.7512174
9.071                0.901960513     -93.9376237
9.072                0.901653685     -94.1245925
9.073                  0.9013457     -94.3121252
9.074                0.901036558     -94.5002237
9.075                0.900726258     -94.6888895
9.076                0.900414801     -94.8781243
9.077                0.900102187     -95.0679299
9.078                0.899788416     -95.2583078
9.079                0.899473488     -95.4492597
9.08                 0.899157404     -95.6407874
9.081                0.898840164     -95.8328924
9.082                0.898521768     -96.0255764
9.083                0.898202217      -96.218841
9.084                0.897881511      -96.412688
9.085                0.897559652      -96.607119
9.086                 0.89723664     -96.8021357
9.087                0.896912475     -96.9977396
9.088                0.896587158     -97.1939324
9.089                0.896260692     -97.3907158
9.09                 0.895933076     -97.5880915
9.091                0.895604311      -97.786061
9.092                0.895274399      -97.984626
9.093                0.894943342     -98.1837881
9.094                 0.89461114      -98.383549
9.095                0.894277794     -98.5839103
9.096                0.893943307     -98.7848736
9.097                0.893607681     -98.9864405
9.098                0.893270915     -99.1886126
9.099                0.892933013     -99.3913916
9.1                  0.892593977     -99.5947791
9.101                0.892253808     -99.7987767
9.102                0.891912507     -100.003386
9.103                0.891570079     -100.208608
9.104                0.891226524     -100.414446
9.105                0.890881844       -100.6209
9.106                0.890536043     -100.827971
9.107                0.890189123     -101.035663
9.108                0.889841086     -101.243975
9.109                0.889491935     -101.452911
9.11                 0.889141673      -101.66247
9.111                0.888790302     -101.872656
9.112                0.888437826     -102.083468
9.113                0.888084248      -102.29491
9.114                0.887729571     -102.506982
9.115                0.887373798     -102.719686
9.116                0.887016932     -102.933024
9.117                0.886658978     -103.146997
9.118                0.886299938     -103.361606
9.119                0.885939817     -103.576853
9.12                 0.885578617      -103.79274
9.121                0.885216344     -104.009268
9.122                0.884853001     -104.226438
9.123                0.884488592     -104.444253
9.124                0.884123122     -104.662712
9.125                0.883756595     -104.881819
9.126                0.883389015     -105.101574
9.127                0.883020387     -105.321978
9.128                0.882650716     -105.543034
9.129                0.882280006     -105.764742
9.13                 0.881908263     -105.987104
9.131                0.881535491     -106.210122
9.132                0.881161697     -106.433796
9.133                0.880786884     -106.658129
9.134                0.880411059     -106.883121
9.135                0.880034227     -107.108774
9.136                0.879656394     -107.335089
9.137                0.879277566     -107.562068
9.138                0.878897748     -107.789711
9.139                0.878516947     -108.018021
9.14                 0.878135169     -108.246998
9.141                0.877752421     -108.476644
9.142                0.877368708      -108.70696
9.143                0.876984038     -108.937947
9.144                0.876598417     -109.169607
9.145                0.876211852     -109.401941
9.146                 0.87582435     -109.634949
9.147                0.875435918     -109.868634
9.148                0.875046564     -110.102996
9.149                0.874656295     -110.338037
9.15                 0.874265119     -110.573757
9.151                0.873873043     -110.810159
9.152                0.873480075     -111.047242
9.153                0.873086224     -111.285009
9.154                0.872691497     -111.523459
9.155                0.872295903     -111.762596
9.156                 0.87189945     -112.002418
9.157                0.871502146     -112.242928
9.158                0.871104002     -112.484127
9.159                0.870705025     -112.726015
9.16                 0.870305224     -112.968594
9.161                 0.86990461     -113.211864
9.162                 0.86950319     -113.455827
9.163                0.869100975     -113.700483
9.164                0.868697975     -113.945834
9.165                0.868294199      -114.19188
9.166                0.867889656     -114.438622
9.167                0.867484359     -114.686062
9.168                0.867078316     -114.934199
9.169                0.866671538     -115.183036
9.17                 0.866264036     -115.432571
9.171                 0.86585582     -115.682808
9.172                0.865446902     -115.933745
9.173                0.865037293     -116.185385
9.174                0.864627004     -116.437727
9.175                0.864216046     -116.690773
9.176                0.863804431     -116.944523
9.177                0.863392171     -117.198978
9.178                0.862979277     -117.454138
9.179                0.862565762     -117.710005
9.18                 0.862151639     -117.966578
9.181                0.861736919     -118.223858
9.182                0.861321615     -118.481846
9.183                 0.86090574     -118.740543
9.184                0.860489307     -118.999949
9.185                0.860072329     -119.260064
9.186                 0.85965482     -119.520889
9.187                0.859236792     -119.782424
9.188                 0.85881826      -120.04467
9.189                0.858399237     -120.307626
9.19                 0.857979737     -120.571295
9.191                0.857559775     -120.835675
9.192                0.857139364     -121.100767
9.193                 0.85671852     -121.366572
9.194                0.856297257     -121.633089
9.195                0.855875589     -121.900319
9.196                0.855453532     -122.168262
9.197                0.855031102     -122.436918
9.198                0.854608313     -122.706288
9.199                 0.85418518     -122.976371
9.2                  0.853761721     -123.247167
9.201                 0.85333795     -123.518677
9.202                0.852913883     -123.790901
9.203                0.852489538     -124.063838
9.204                 0.85206493     -124.337488
9.205                0.851640076     -124.611853
9.206                0.851214992      -124.88693
9.207                0.850789697      -125.16272
9.208                0.850364206     -125.439224
9.209                0.849938537      -125.71644
9.21                 0.849512708     -125.994369
9.211                0.849086736      -126.27301
9.212                0.848660639     -126.552364
9.213                0.848234435     -126.832428
9.214                0.847808142     -127.113204
9.215                0.847381779     -127.394691
9.216                0.846955364     -127.676889
9.217                0.846528915     -127.959796
9.218                0.846102452     -128.243412
9.219                0.845675994     -128.527738
9.22                 0.845249559     -128.812771
9.221                0.844823168     -129.098513
9.222                0.844396839     -129.384961
9.223                0.843970592     -129.672115
9.224                0.843544448     -129.959975
9.225                0.843118425      -130.24854
9.226                0.842692546     -130.537808
9.227                0.842266828      -130.82778
9.228                0.841841294     -131.118454
9.229                0.841415964     -131.409829
9.23                 0.840990858     -131.701904
9.231                0.840565998     -131.994679
9.232                0.840141405     -132.288151
9.233                  0.8397171     -132.582321
9.234                0.839293104     -132.877187
9.235                0.838869439     -133.172747
9.236                0.838446127     -133.469001
9.237                 0.83802319     -133.765947
9.238                0.837600649     -134.063584
9.239                0.837178528     -134.361911
9.24                 0.836756847     -134.660925
9.241                0.836335631     -134.960627
9.242                  0.8359149     -135.261014
9.243                0.835494679     -135.562084
9.244                0.835074989     -135.863837
9.245                0.834655855     -136.166271
9.246                0.834237299     -136.469383
9.247                0.833819344     -136.773172
9.248                0.833402013     -137.077637
9.249                0.832985332     -137.382775
9.25                 0.832569322     -137.688586
9.251                0.832154008     -137.995066
9.252                0.831739413     -138.302214
9.253                0.831325562     -138.610028
9.254                0.830912479     -138.918506
9.255                0.830500188     -139.227646
9.256                0.830088714     -139.537446
9.257                 0.82967808     -139.847903
9.258                0.829268312     -140.159016
9.259                0.828859434     -140.470781
9.26                  0.82845147     -140.783198
9.261                0.828044447     -141.096263
9.262                0.827638388     -141.409973
9.263                0.827233318     -141.724328
9.264                0.826829264     -142.039323
9.265                0.826426249     -142.354957
9.266                  0.8260243     -142.671226
9.267                0.825623441     -142.988129
9.268                0.825223699     -143.305662
9.269                0.824825098     -143.623823
9.27                 0.824427665     -143.942609
9.271                0.824031424     -144.262016
9.272                0.823636402     -144.582043
9.273                0.823242624     -144.902686
9.274                0.822850116     -145.223942
9.275                0.822458904     -145.545808
9.276                0.822069015     -145.868281
9.277                0.821680473     -146.191357
9.278                0.821293305     -146.515034
9.279                0.820907536     -146.839309
9.28                 0.820523194     -147.164177
9.281                0.820140304     -147.489636
9.282                0.819758891     -147.815682
9.283                0.819378983     -148.142311
9.284                0.819000606     -148.469521
9.285                0.818623785     -148.797307
9.286                0.818248547     -149.125666
9.287                0.817874917     -149.454594
9.288                0.817502923     -149.784088
9.289                 0.81713259     -150.114143
9.29                 0.816763944     -150.444756
9.291                0.816397012     -150.775923
9.292                0.816031819      -151.10764
9.293                0.815668392     -151.439903
9.294                0.815306757     -151.772708
9.295                 0.81494694      -152.10605
9.296                0.814588966     -152.439927
9.297                0.814232863     -152.774332
9.298                0.813878655     -153.109263
9.299                0.813526368     -153.444715
9.3                  0.813176029     -153.780684
9.301                0.812827664     -154.117164
9.302                0.812481297     -154.454153
9.303                0.812136955     -154.791644
9.304                0.811794663     -155.129634
9.305                0.811454446     -155.468118
9.306                 0.81111633     -155.807092
9.307                0.810780341      -156.14655
9.308                0.810446503     -156.486487
9.309                0.810114842       -156.8269
9.31                 0.809785382     -157.167784
9.311                0.809458149     -157.509132
9.312                0.809133168     -157.850941
9.313                0.808810462     -158.193205
9.314                0.808490058     -158.535919
9.315                0.808171978     -158.879079
9.316                0.807856248     -159.222679
9.317                0.807542892     -159.566713
9.318                0.807231933     -159.911177
9.319                0.806923396     -160.256066
9.32                 0.806617305     -160.601373
9.321                0.806313682     -160.947094
9.322                0.806012552     -161.293223
9.323                0.805713938     -161.639755
9.324                0.805417863     -161.986684
9.325                 0.80512435     -162.334005
9.326                0.804833421     -162.681712
9.327                  0.8045451     -163.029799
9.328                0.804259409     -163.378261
9.329                0.803976369     -163.727091
9.33                 0.803696004     -164.076285
9.331                0.803418334     -164.425836
9.332                0.803143382     -164.775739
9.333                0.802871168     -165.125988
9.334                0.802601715     -165.476576
9.335                0.802335043     -165.827497
9.336                0.802071173     -166.178747
9.337                0.801810125     -166.530318
9.338                0.801551919     -166.882204
9.339                0.801296577       -167.2344
9.34                 0.801044117       -167.5869
9.341                 0.80079456     -167.939696
9.342                0.800547924     -168.292783
9.343                0.800304229     -168.646154
9.344                0.800063493     -168.999804
9.345                0.799825736     -169.353726
9.346                0.799590975     -169.707913
9.347                0.799359229     -170.062359
9.348                0.799130515     -170.417058
9.349                 0.79890485     -170.772003
9.35                 0.798682253     -171.127188
9.351                 0.79846274     -171.482605
9.352                0.798246327      -171.83825
9.353                0.798033032     -172.194114
9.354                0.797822869     -172.550192
9.355                0.797615856     -172.906477
9.356                0.797412006     -173.262961
9.357                0.797211337     -173.619639
9.358                0.797013861     -173.976504
9.359                0.796819595     -174.333549
9.36                 0.796628552     -174.690766
9.361                0.796440746     -175.048151
9.362                0.796256191     -175.405694
9.363                0.796074899     -175.763391
9.364                0.795896885     -176.121233
9.365                 0.79572216     -176.479215
9.366                0.795550738     -176.837328
9.367                0.795382629     -177.195567
9.368                0.795217845     -177.553924
9.369                0.795056399     -177.912393
9.37                   0.7948983     -178.270966
9.371                 0.79474356     -178.629636
9.372                0.794592188     -178.988397
9.373                0.794444195     -179.347242
9.374                 0.79429959     -179.706163
9.375                0.794158382      179.934847
9.376                0.794020581      179.575794
9.377                0.793886194      179.216686
9.378                 0.79375523      178.857529
9.379                0.793627697      178.498331
9.38                 0.793503602      178.139098
9.381                0.793382953      177.779838
9.382                0.793265755      177.420559
9.383                0.793152015      177.061266
9.384                 0.79304174      176.701967
9.385                0.792934935      176.342669
9.386                0.792831605      175.983379
9.387                0.792731756      175.624104
9.388                 0.79263539      175.264851
9.389                0.792542514      174.905628
9.39                  0.79245313      174.546441
9.391                0.792367243      174.187298
9.392                0.792284854      173.828205
9.393                0.792205967       173.46917
9.394                0.792130585      173.110199
9.395                0.792058708        172.7513
9.396                 0.79199034       172.39248
