! TOUCHSTONE file generated by CST DESIGN STUDIO
! Date and time: Tue Feb  4 16:15:26 2025
! Project name: C:\Work\MatlabApps\UnitCellOptimizationMatlab\CST\unitcell.cst
! Tree item: Tasks\Sweep1\SPara1\S-Parameters
! Header version: 2024
! Port assignment regex: !\s*Touchstone port\s*([0-9]+)\s*=\s*(CST MWS port|CST DES external port|CST DES block port)\s*(.+)\s* \(\"(.*)\"\)(\s*mode\s*([0-9]+))?.*
! Touchstone port assignment:
! Touchstone port 1 = CST DES external port 1 ("")
# GHz S MA R 50
9                    0.949170985     -62.4773762
9.001                0.949023183     -62.5711708
9.002                0.948874831     -62.6652007
9.003                0.948725928     -62.7594666
9.004                 0.94857647     -62.8539695
9.005                0.948426457     -62.9487102
9.006                0.948275886     -63.0436894
9.007                0.948124755      -63.138908
9.008                0.947973063     -63.2343668
9.009                0.947820807     -63.3300667
9.01                 0.947667985     -63.4260084
9.011                0.947514597     -63.5221929
9.012                0.947360638     -63.6186209
9.013                0.947206109     -63.7152934
9.014                0.947051006     -63.8122111
9.015                0.946895327      -63.909375
9.016                0.946739072     -64.0067858
9.017                0.946582237     -64.1044444
9.018                 0.94642482     -64.2023517
9.019                0.946266821     -64.3005086
9.02                 0.946108236     -64.3989159
9.021                0.945949064     -64.4975745
9.022                0.945789302     -64.5964852
9.023                0.945628949      -64.695649
9.024                0.945468002     -64.7950667
9.025                0.945306461     -64.8947393
9.026                0.945144321     -64.9946675
9.027                0.944981583     -65.0948523
9.028                0.944818242     -65.1952946
9.029                0.944654298     -65.2959952
9.03                 0.944489749     -65.3969552
9.031                0.944324592     -65.4981753
9.032                0.944158825     -65.5996566
9.033                0.943992446     -65.7013998
9.034                0.943825453     -65.8034059
9.035                0.943657845     -65.9056759
9.036                0.943489618     -66.0082107
9.037                0.943320771     -66.1110111
9.038                0.943151302     -66.2140781
9.039                0.942981209     -66.3174127
9.04                  0.94281049     -66.4210158
9.041                0.942639141     -66.5248883
9.042                0.942467163     -66.6290311
9.043                0.942294551     -66.7334453
9.044                0.942121305     -66.8381317
9.045                0.941947422     -66.9430913
9.046                  0.9417729     -67.0483251
9.047                0.941597736      -67.153834
9.048                 0.94142193      -67.259619
9.049                0.941245478     -67.3656811
9.05                 0.941068378     -67.4720212
9.051                0.940890629     -67.5786403
9.052                0.940712228     -67.6855394
9.053                0.940533173     -67.7927194
9.054                0.940353462     -67.9001814
9.055                0.940173093     -68.0079264
9.056                0.939992063     -68.1159552
9.057                 0.93981037      -68.224269
9.058                0.939628013     -68.3328687
9.059                 0.93944499     -68.4417554
9.06                 0.939261297       -68.55093
9.061                0.939076932     -68.6603935
9.062                0.938891895      -68.770147
9.063                0.938706182     -68.8801914
9.064                0.938519791     -68.9905279
9.065                0.938332721     -69.1011574
9.066                0.938144968     -69.2120809
9.067                0.937956531     -69.3232995
9.068                0.937767408     -69.4348143
9.069                0.937577596     -69.5466262
9.07                 0.937387093     -69.6587363
9.071                0.937195897     -69.7711457
9.072                0.937004006     -69.8838554
9.073                0.936811418     -69.9968664
9.074                 0.93661813     -70.1101799
9.075                 0.93642414     -70.2237968
9.076                0.936229447     -70.3377183
9.077                0.936034047     -70.4519454
9.078                0.935837939     -70.5664792
9.079                0.935641121     -70.6813208
9.08                 0.935443589     -70.7964712
9.081                0.935245343     -70.9119315
9.082                 0.93504638     -71.0277029
9.083                0.934846697     -71.1437864
9.084                0.934646293     -71.2601831
9.085                0.934445165     -71.3768941
9.086                0.934243311     -71.4939206
9.087                0.934040729     -71.6112635
9.088                0.933837417     -71.7289241
9.089                0.933633372     -71.8469035
9.09                 0.933428592     -71.9652027
9.091                0.933223076      -72.083823
9.092                 0.93301682     -72.2027653
9.093                0.932809823     -72.3220309
9.094                0.932602082     -72.4416209
9.095                0.932393596     -72.5615364
9.096                0.932184361     -72.6817786
9.097                0.931974377     -72.8023486
9.098                 0.93176364     -72.9232476
9.099                0.931552149     -73.0444767
9.1                  0.931339901     -73.1660371
9.101                0.931126894     -73.2879299
9.102                0.930913126     -73.4101563
9.103                0.930698594     -73.5327175
9.104                0.930483297     -73.6556147
9.105                0.930267233      -73.778849
9.106                0.930050399     -73.9024215
9.107                0.929832793     -74.0263336
9.108                0.929614412     -74.1505864
9.109                0.929395256      -74.275181
9.11                  0.92917532     -74.4001187
9.111                0.928954604     -74.5254007
9.112                0.928733106     -74.6510281
9.113                0.928510822     -74.7770023
9.114                0.928287751     -74.9033243
9.115                0.928063891     -75.0299954
9.116                 0.92783924     -75.1570169
9.117                0.927613795       -75.28439
9.118                0.927387555     -75.4121158
9.119                0.927160516     -75.5401956
9.12                 0.926932678     -75.6686307
9.121                0.926704038     -75.7974222
9.122                0.926474593     -75.9265716
9.123                0.926244342     -76.0560798
9.124                0.926013283     -76.1859483
9.125                0.925781414     -76.3161783
9.126                0.925548732     -76.4467711
9.127                0.925315236     -76.5777278
9.128                0.925080922     -76.7090499
9.129                 0.92484579     -76.8407384
9.13                 0.924609838     -76.9727948
9.131                0.924373062     -77.1052203
9.132                0.924135462     -77.2380161
9.133                0.923897035     -77.3711836
9.134                0.923657778     -77.5047241
9.135                0.923417691     -77.6386388
9.136                0.923176771      -77.772929
9.137                0.922935016     -77.9075961
9.138                0.922692424     -78.0426413
9.139                0.922448994      -78.178066
9.14                 0.922204722     -78.3138714
9.141                0.921959607     -78.4500589
9.142                0.921713648     -78.5866298
9.143                0.921466842     -78.7235854
9.144                0.921219187     -78.8609271
9.145                0.920970682     -78.9986561
9.146                0.920721325     -79.1367739
9.147                0.920471113     -79.2752817
9.148                0.920220045     -79.4141809
9.149                0.919968118     -79.5534728
9.15                 0.919715332     -79.6931589
9.151                0.919461684     -79.8332403
9.152                0.919207173     -79.9737186
9.153                0.918951796      -80.114595
9.154                0.918695552     -80.2558709
9.155                0.918438439     -80.3975477
9.156                0.918180455     -80.5396267
9.157                0.917921598     -80.6821094
9.158                0.917661868      -80.824997
9.159                0.917401261     -80.9682911
9.16                 0.917139777     -81.1119929
9.161                0.916877413     -81.2561039
9.162                0.916614169     -81.4006254
9.163                0.916350041     -81.5455589
9.164                 0.91608503     -81.6909057
9.165                0.915819132     -81.8366672
9.166                0.915552347     -81.9828449
9.167                0.915284673     -82.1294402
9.168                0.915016108     -82.2764544
9.169                 0.91474665      -82.423889
9.17                 0.914476299     -82.5717453
9.171                0.914205053     -82.7200249
9.172                 0.91393291     -82.8687292
9.173                0.913659869     -83.0178595
9.174                0.913385928     -83.1674173
9.175                0.913111086     -83.3174041
9.176                0.912835341     -83.4678212
9.177                0.912558693     -83.6186702
9.178                 0.91228114     -83.7699524
9.179                0.912002679     -83.9216693
9.18                 0.911723312     -84.0738224
9.181                0.911443034     -84.2264131
9.182                0.911161847     -84.3794428
9.183                0.910879748     -84.5329131
9.184                0.910596736     -84.6868253
9.185                 0.91031281      -84.841181
9.186                0.910027969     -84.9959816
9.187                0.909742212     -85.1512286
9.188                0.909455537     -85.3069234
9.189                0.909167944     -85.4630676
9.19                 0.908879431     -85.6196626
9.191                0.908589998     -85.7767099
9.192                0.908299643     -85.9342109
9.193                0.908008366     -86.0921672
9.194                0.907716166     -86.2505803
9.195                0.907423041     -86.4094516
9.196                0.907128991     -86.5687826
9.197                0.906834015     -86.7285748
9.198                0.906538112     -86.8888298
9.199                0.906241282      -87.049549
9.2                  0.905943524      -87.210734
9.201                0.905644836     -87.3723861
9.202                0.905345219     -87.5345071
9.203                0.905044672     -87.6970982
9.204                0.904743194     -87.8601612
9.205                0.904440784     -88.0236974
9.206                0.904137443     -88.1877084
9.207                0.903833169     -88.3521957
9.208                0.903527962     -88.5171608
9.209                0.903221822     -88.6826053
9.21                 0.902914749     -88.8485306
9.211                0.902606741     -89.0149384
9.212                0.902297799     -89.1818301
9.213                0.901987923     -89.3492072
9.214                0.901677112     -89.5170713
9.215                0.901365366      -89.685424
9.216                0.901052686     -89.8542666
9.217                 0.90073907     -90.0236009
9.218                0.900424519     -90.1934283
9.219                0.900109033     -90.3637503
9.22                 0.899792612     -90.5345685
9.221                0.899475256     -90.7058844
9.222                0.899156965     -90.8776997
9.223                 0.89883774     -91.0500157
9.224                 0.89851758      -91.222834
9.225                0.898196486     -91.3961563
9.226                0.897874458      -91.569984
9.227                0.897551498     -91.7443187
9.228                0.897227604     -91.9191619
9.229                0.896902778     -92.0945152
9.23                  0.89657702     -92.2703801
9.231                 0.89625033     -92.4467582
9.232                 0.89592271      -92.623651
9.233                 0.89559416     -92.8010601
9.234                0.895264681     -92.9789869
9.235                0.894934274     -93.1574331
9.236                0.894602939     -93.3364002
9.237                0.894270677     -93.5158898
9.238                 0.89393749     -93.6959034
9.239                0.893603378     -93.8764425
9.24                 0.893268343     -94.0575087
9.241                0.892932386     -94.2391036
9.242                0.892595507     -94.4212286
9.243                0.892257708     -94.6038853
9.244                0.891918991     -94.7870754
9.245                0.891579357     -94.9708002
9.246                0.891238807     -95.1550614
9.247                0.890897344     -95.3398606
9.248                0.890554967     -95.5251991
9.249                 0.89021168     -95.7110787
9.25                 0.889867483     -95.8975008
9.251                 0.88952238     -96.0844669
9.252                 0.88917637     -96.2719786
9.253                0.888829457     -96.4600375
9.254                0.888481643      -96.648645
9.255                0.888132929     -96.8378028
9.256                0.887783318     -97.0275122
9.257                0.887432811     -97.2177749
9.258                0.887081412     -97.4085924
9.259                0.886729122     -97.5999662
9.26                 0.886375944     -97.7918978
9.261                 0.88602188     -97.9843887
9.262                0.885666933     -98.1774405
9.263                0.885311106     -98.3710546
9.264                0.884954401     -98.5652327
9.265                0.884596821     -98.7599761
9.266                 0.88423837     -98.9552864
9.267                0.883879049      -99.151165
9.268                0.883518863     -99.3476136
9.269                0.883157813     -99.5446335
9.27                 0.882795905     -99.7422263
9.271                0.882433139     -99.9403935
9.272                0.882069521     -100.139136
9.273                0.881705054     -100.338457
9.274                 0.88133974     -100.538356
9.275                0.880973585     -100.738835
9.276                0.880606591     -100.939896
9.277                0.880238762     -101.141541
9.278                0.879870102     -101.343769
9.279                0.879500616     -101.546584
9.28                 0.879130307     -101.749987
9.281                0.878759179     -101.953978
9.282                0.878387237      -102.15856
9.283                0.878014485     -102.363734
9.284                0.877640928     -102.569501
9.285                0.877266569     -102.775863
9.286                0.876891415     -102.982821
9.287                0.876515469     -103.190376
9.288                0.876138736      -103.39853
9.289                0.875761222     -103.607285
9.29                 0.875382931     -103.816641
9.291                0.875003869       -104.0266
9.292                 0.87462404     -104.237164
9.293                 0.87424345     -104.448334
9.294                0.873862105      -104.66011
9.295                 0.87348001     -104.872496
9.296                0.873097171     -105.085491
9.297                0.872713593     -105.299097
9.298                0.872329283     -105.513316
9.299                0.871944246     -105.728149
9.3                  0.871558488     -105.943597
9.301                0.871172016     -106.159661
9.302                0.870784837     -106.376343
9.303                0.870396955     -106.593645
9.304                0.870008378     -106.811566
9.305                0.869619113     -107.030109
9.306                0.869229167     -107.249275
9.307                0.868838545     -107.469065
9.308                0.868447256     -107.689481
9.309                0.868055305     -107.910523
9.31                 0.867662702     -108.132192
9.311                0.867269452     -108.354491
9.312                0.866875563      -108.57742
9.313                0.866481044      -108.80098
9.314                0.866085901     -109.025173
9.315                0.865690142     -109.249999
9.316                0.865293775     -109.475461
9.317                0.864896809     -109.701558
9.318                0.864499251     -109.928293
9.319                0.864101111     -110.155665
9.32                 0.863702395     -110.383677
9.321                0.863303113      -110.61233
9.322                0.862903274     -110.841624
9.323                0.862502886      -111.07156
9.324                0.862101958      -111.30214
9.325                  0.8617005     -111.533365
9.326                 0.86129852     -111.765235
9.327                0.860896028     -111.997752
9.328                0.860493033     -112.230917
9.329                0.860089544     -112.464731
9.33                 0.859685573     -112.699194
9.331                0.859281128     -112.934307
9.332                0.858876219     -113.170072
9.333                0.858470856     -113.406489
9.334                 0.85806505      -113.64356
9.335                0.857658812     -113.881285
9.336                0.857252151     -114.119665
9.337                0.856845078     -114.358701
9.338                0.856437604     -114.598393
9.339                 0.85602974     -114.838743
9.34                 0.855621497     -115.079752
9.341                0.855212887     -115.321419
9.342                0.854803919     -115.563747
9.343                0.854394607     -115.806735
9.344                0.853984962     -116.050385
9.345                0.853574994     -116.294696
9.346                0.853164717      -116.53967
9.347                0.852754143     -116.785308
9.348                0.852343283      -117.03161
9.349                0.851932149     -117.278577
9.35                 0.851520755     -117.526209
9.351                0.851109112     -117.774506
9.352                0.850697234     -118.023471
9.353                0.850285134     -118.273102
9.354                0.849872824     -118.523401
9.355                0.849460317     -118.774368
9.356                0.849047628     -119.026003
9.357                0.848634769     -119.278307
9.358                0.848221754     -119.531281
9.359                0.847808596     -119.784925
9.36                  0.84739531     -120.039239
9.361                 0.84698191     -120.294223
9.362                0.846568409     -120.549879
9.363                0.846154823     -120.806206
9.364                0.845741165     -121.063204
9.365                 0.84532745     -121.320874
9.366                0.844913693     -121.579216
9.367                0.844499909     -121.838231
9.368                0.844086113     -122.097918
9.369                0.843672319     -122.358278
9.37                 0.843258544      -122.61931
9.371                0.842844803     -122.881015
9.372                0.842431111     -123.143394
9.373                0.842017484     -123.406445
9.374                0.841603938      -123.67017
9.375                0.841190489     -123.934568
9.376                0.840777154     -124.199639
9.377                0.840363947     -124.465383
9.378                0.839950887     -124.731799
9.379                 0.83953799     -124.998889
9.38                 0.839125271     -125.266652
9.381                0.838712749     -125.535087
9.382                 0.83830044     -125.804194
9.383                0.837888361     -126.073974
9.384                 0.83747653     -126.344425
9.385                0.837064964     -126.615548
9.386                0.836653681     -126.887342
9.387                0.836242698     -127.159808
9.388                0.835832033     -127.432944
9.389                0.835421704      -127.70675
9.39                 0.835011729     -127.981225
9.391                0.834602127      -128.25637
9.392                0.834192916     -128.532184
9.393                0.833784114     -128.808666
9.394                0.833375741     -129.085815
9.395                0.832967814     -129.363632
9.396                0.832560352     -129.642114
