! TOUCHSTONE file generated by CST DESIGN STUDIO
! Date and time: Tue Feb  4 16:15:28 2025
! Project name: C:\Work\MatlabApps\UnitCellOptimizationMatlab\CST\unitcell.cst
! Tree item: Tasks\Sweep1\SPara1\S-Parameters
! Header version: 2024
! Port assignment regex: !\s*Touchstone port\s*([0-9]+)\s*=\s*(CST MWS port|CST DES external port|CST DES block port)\s*(.+)\s* \(\"(.*)\"\)(\s*mode\s*([0-9]+))?.*
! Touchstone port assignment:
! Touchstone port 1 = CST DES external port 1 ("")
# GHz S MA R 50
9                    0.955762185      -57.338096
9.001                 0.95563421     -57.4190107
9.002                 0.95550582     -57.5001152
9.003                0.955377013     -57.5814101
9.004                0.955247788      -57.662896
9.005                0.955118143     -57.7445735
9.006                0.954988078     -57.8264434
9.007                 0.95485759     -57.9085062
9.008                0.954726678     -57.9907627
9.009                 0.95459534     -58.0732135
9.01                 0.954463576     -58.1558593
9.011                0.954331384     -58.2387006
9.012                0.954198761     -58.3217383
9.013                0.954065707     -58.4049729
9.014                 0.95393222     -58.4884051
9.015                0.953798299     -58.5720356
9.016                0.953663942     -58.6558652
9.017                0.953529147     -58.7398943
9.018                0.953393914     -58.8241239
9.019                 0.95325824     -58.9085544
9.02                 0.953122124     -58.9931867
9.021                0.952985564     -59.0780214
9.022                 0.95284856     -59.1630592
9.023                0.952711108     -59.2483008
9.024                0.952573209     -59.3337468
9.025                0.952434859     -59.4193981
9.026                0.952296059     -59.5052553
9.027                0.952156805     -59.5913191
9.028                0.952017097     -59.6775902
9.029                0.951876933     -59.7640694
9.03                 0.951736312     -59.8507573
9.031                0.951595231     -59.9376547
9.032                0.951453689     -60.0247622
9.033                0.951311685     -60.1120807
9.034                0.951169217     -60.1996108
9.035                0.951026283     -60.2873532
9.036                0.950882882     -60.3753088
9.037                0.950739012     -60.4634782
9.038                0.950594672     -60.5518622
9.039                0.950449859     -60.6404615
9.04                 0.950304573     -60.7292768
9.041                0.950158811     -60.8183089
9.042                0.950012572     -60.9075586
9.043                0.949865855     -60.9970266
9.044                0.949718657     -61.0867136
9.045                0.949570977     -61.1766205
9.046                0.949422813     -61.2667479
9.047                0.949274164     -61.3570967
9.048                0.949125028     -61.4476676
9.049                0.948975403     -61.5384613
9.05                 0.948825288     -61.6294787
9.051                 0.94867468     -61.7207205
9.052                0.948523579     -61.8121876
9.053                0.948371982     -61.9038806
9.054                0.948219888     -61.9958003
9.055                0.948067295     -62.0879477
9.056                0.947914202     -62.1803233
9.057                0.947760606     -62.2729281
9.058                0.947606505     -62.3657629
9.059                  0.9474519     -62.4588284
9.06                 0.947296786     -62.5521254
9.061                0.947141163     -62.6456547
9.062                0.946985029     -62.7394172
9.063                0.946828383     -62.8334137
9.064                0.946671222     -62.9276449
9.065                0.946513544     -63.0221118
9.066                0.946355348     -63.1168151
9.067                0.946196633     -63.2117556
9.068                0.946037396     -63.3069341
9.069                0.945877635     -63.4023516
9.07                 0.945717349     -63.4980088
9.071                0.945556537     -63.5939066
9.072                0.945395195     -63.6900458
9.073                0.945233323     -63.7864272
9.074                0.945070919     -63.8830518
9.075                 0.94490798     -63.9799203
9.076                0.944744506     -64.0770336
9.077                0.944580493     -64.1743925
9.078                0.944415941      -64.271998
9.079                0.944250848     -64.3698508
9.08                 0.944085211     -64.4679519
9.081                 0.94391903     -64.5663022
9.082                0.943752301     -64.6649024
9.083                0.943585024     -64.7637534
9.084                0.943417196     -64.8628563
9.085                0.943248815     -64.9622117
9.086                 0.94307988     -65.0618207
9.087                0.942910389      -65.161684
9.088                 0.94274034     -65.2618027
9.089                0.942569732     -65.3621775
9.09                 0.942398561     -65.4628094
9.091                0.942226827     -65.5636993
9.092                0.942054527     -65.6648481
9.093                 0.94188166     -65.7662568
9.094                0.941708224     -65.8679261
9.095                0.941534216     -65.9698571
9.096                0.941359636     -66.0720506
9.097                 0.94118448     -66.1745076
9.098                0.941008748      -66.277229
9.099                0.940832437     -66.3802157
9.1                  0.940655546     -66.4834687
9.101                0.940478072     -66.5869889
9.102                0.940300013     -66.6907772
9.103                0.940121368     -66.7948346
9.104                0.939942135      -66.899162
9.105                0.939762312     -67.0037605
9.106                0.939581896     -67.1086308
9.107                0.939400887     -67.2137741
9.108                0.939219282     -67.3191912
9.109                0.939037078     -67.4248831
9.11                 0.938854275     -67.5308508
9.111                0.938670871     -67.6370953
9.112                0.938486862     -67.7436175
9.113                0.938302248     -67.8504184
9.114                0.938117027      -67.957499
9.115                0.937931195     -68.0648603
9.116                0.937744753     -68.1725033
9.117                0.937557697     -68.2804289
9.118                0.937370025     -68.3886382
9.119                0.937181737     -68.4971321
9.12                 0.936992829     -68.6059117
9.121                  0.9368033      -68.714978
9.122                0.936613147      -68.824332
9.123                 0.93642237     -68.9339746
9.124                0.936230965      -69.043907
9.125                0.936038931     -69.1541301
9.126                0.935846266     -69.2646449
9.127                0.935652969     -69.3754526
9.128                0.935459036     -69.4865541
9.129                0.935264466     -69.5979504
9.13                 0.935069257     -69.7096426
9.131                0.934873408     -69.8216318
9.132                0.934676915      -69.933919
9.133                0.934479778     -70.0465052
9.134                0.934281994     -70.1593915
9.135                0.934083561      -70.272579
9.136                0.933884477     -70.3860687
9.137                0.933684741     -70.4998617
9.138                 0.93348435      -70.613959
9.139                0.933283302     -70.7283618
9.14                 0.933081595     -70.8430711
9.141                0.932879228      -70.958088
9.142                0.932676198     -71.0734135
9.143                0.932472504     -71.1890488
9.144                0.932268143      -71.304995
9.145                0.932063113     -71.4212531
9.146                0.931857413     -71.5378243
9.147                 0.93165104     -71.6547096
9.148                0.931443993     -71.7719102
9.149                0.931236269     -71.8894271
9.15                 0.931027867     -72.0072616
9.151                0.930818784     -72.1254147
9.152                0.930609019     -72.2438875
9.153                 0.93039857     -72.3626811
9.154                0.930187434     -72.4817968
9.155                 0.92997561     -72.6012356
9.156                0.929763096     -72.7209986
9.157                 0.92954989      -72.841087
9.158                0.929335989      -72.961502
9.159                0.929121392     -73.0822447
9.16                 0.928906097     -73.2033163
9.161                0.928690102     -73.3247178
9.162                0.928473405     -73.4464506
9.163                0.928256005     -73.5685156
9.164                0.928037898     -73.6909142
9.165                0.927819083     -73.8136474
9.166                0.927599559     -73.9367165
9.167                0.927379323     -74.0601227
9.168                0.927158373      -74.183867
9.169                0.926936708     -74.3079508
9.17                 0.926714325     -74.4323751
9.171                0.926491223     -74.5571413
9.172                  0.9262674     -74.6822504
9.173                0.926042853     -74.8077038
9.174                0.925817582     -74.9335025
9.175                0.925591583     -75.0596478
9.176                0.925364855      -75.186141
9.177                0.925137397     -75.3129833
9.178                0.924909206     -75.4401757
9.179                 0.92468028     -75.5677197
9.18                 0.924450618     -75.6956165
9.181                0.924220218     -75.8238671
9.182                0.923989077      -75.952473
9.183                0.923757194     -76.0814353
9.184                0.923524568     -76.2107553
9.185                0.923291196     -76.3404342
9.186                0.923057076     -76.4704734
9.187                0.922822207     -76.6008739
9.188                0.922586587     -76.7316372
9.189                0.922350214     -76.8627644
9.19                 0.922113086     -76.9942569
9.191                0.921875202     -77.1261158
9.192                0.921636559     -77.2583426
9.193                0.921397156     -77.3909384
9.194                0.921156991     -77.5239045
9.195                0.920916063     -77.6572423
9.196                0.920674369      -77.790953
9.197                0.920431908      -77.925038
9.198                0.920188679     -78.0594984
9.199                0.919944678     -78.1943357
9.2                  0.919699906      -78.329551
9.201                0.919454359     -78.4651459
9.202                0.919208037     -78.6011214
9.203                0.918960937      -78.737479
9.204                0.918713058       -78.87422
9.205                0.918464399     -79.0113457
9.206                0.918214958     -79.1488575
9.207                0.917964732     -79.2867566
9.208                0.917713721     -79.4250443
9.209                0.917461923     -79.5637222
9.21                 0.917209336     -79.7027914
9.211                0.916955959     -79.8422533
9.212                 0.91670179     -79.9821093
9.213                0.916446828     -80.1223608
9.214                0.916191071      -80.263009
9.215                0.915934517     -80.4040554
9.216                0.915677166     -80.5455012
9.217                0.915419015      -80.687348
9.218                0.915160063      -80.829597
9.219                0.914900309     -80.9722496
9.22                  0.91463975     -81.1153071
9.221                0.914378387     -81.2587711
9.222                0.914116217     -81.4026428
9.223                 0.91385324     -81.5469237
9.224                0.913589452     -81.6916151
9.225                0.913324854     -81.8367185
9.226                0.913059444     -81.9822351
9.227                0.912793221     -82.1281666
9.228                0.912526183     -82.2745141
9.229                0.912258329     -82.4212792
9.23                 0.911989658     -82.5684632
9.231                0.911720169     -82.7160676
9.232                 0.91144986     -82.8640938
9.233                 0.91117873     -83.0125431
9.234                0.910906778     -83.1614171
9.235                0.910634003     -83.3107172
9.236                0.910360403     -83.4604447
9.237                0.910085978     -83.6106012
9.238                0.909810727      -83.761188
9.239                0.909534648     -83.9122066
9.24                 0.909257741     -84.0636584
9.241                0.908980004     -84.2155449
9.242                0.908701437     -84.3678675
9.243                0.908422038     -84.5206277
9.244                0.908141806     -84.6738269
9.245                0.907860742     -84.8274666
9.246                0.907578843     -84.9815483
9.247                0.907296109     -85.1360733
9.248                0.907012539     -85.2910432
9.249                0.906728132     -85.4464595
9.25                 0.906442887     -85.6023235
9.251                0.906156805     -85.7586368
9.252                0.905869883     -85.9154009
9.253                0.905582122     -86.0726172
9.254                0.905293521     -86.2302872
9.255                0.905004078     -86.3884124
9.256                0.904713794     -86.5469943
9.257                0.904422668     -86.7060343
9.258                0.904130699      -86.865534
9.259                0.903837888     -87.0254948
9.26                 0.903544232     -87.1859183
9.261                0.903249733     -87.3468059
9.262                0.902954389     -87.5081591
9.263                  0.9026582     -87.6699795
9.264                0.902361166     -87.8322685
9.265                0.902063287     -87.9950276
9.266                0.901764562     -88.1582584
9.267                0.901464991     -88.3219623
9.268                0.901164574     -88.4861409
9.269                0.900863311     -88.6507957
9.27                 0.900561201     -88.8159281
9.271                0.900258245     -88.9815398
9.272                0.899954443     -89.1476322
9.273                0.899649794     -89.3142068
9.274                0.899344298     -89.4812652
9.275                0.899037957     -89.6488089
9.276                0.898730769     -89.8168393
9.277                0.898422735     -89.9853581
9.278                0.898113855     -90.1543668
9.279                 0.89780413     -90.3238668
9.28                  0.89749356     -90.4938598
9.281                0.897182144     -90.6643471
9.282                0.896869885     -90.8353305
9.283                0.896556781     -91.0068113
9.284                0.896242833     -91.1787912
9.285                0.895928043     -91.3512717
9.286                 0.89561241     -91.5242542
9.287                0.895295935     -91.6977404
9.288                0.894978619     -91.8717318
9.289                0.894660463     -92.0462298
9.29                 0.894341467     -92.2212361
9.291                0.894021632     -92.3967522
9.292                 0.89370096     -92.5727796
9.293                 0.89337945     -92.7493198
9.294                0.893057104     -92.9263745
9.295                0.892733923      -93.103945
9.296                0.892409908      -93.282033
9.297                0.892085061       -93.46064
9.298                0.891759382     -93.6397676
9.299                0.891432872     -93.8194172
9.3                  0.891105534     -93.9995904
9.301                0.890777368     -94.1802888
9.302                0.890448375     -94.3615139
9.303                0.890118558     -94.5432671
9.304                0.889787918     -94.7255502
9.305                0.889456456     -94.9083645
9.306                0.889124174     -95.0917116
9.307                0.888791074      -95.275593
9.308                0.888457158     -95.4600104
9.309                0.888122427     -95.6449651
9.31                 0.887786884     -95.8304588
9.311                 0.88745053     -96.0164929
9.312                0.887113367     -96.2030691
9.313                0.886775398     -96.3901887
9.314                0.886436625     -96.5778533
9.315                0.886097049     -96.7660646
9.316                0.885756674     -96.9548238
9.317                0.885415501     -97.1441327
9.318                0.885073534     -97.3339927
9.319                0.884730774     -97.5244052
9.32                 0.884387224     -97.7153719
9.321                0.884042888     -97.9068942
9.322                0.883697767     -98.0989737
9.323                0.883351864     -98.2916117
9.324                0.883005183     -98.4848099
9.325                0.882657726     -98.6785698
9.326                0.882309496     -98.8728927
9.327                0.881960497     -99.0677803
9.328                0.881610732     -99.2632339
9.329                0.881260203     -99.4592551
9.33                 0.880908915     -99.6558454
9.331                0.880556871     -99.8530062
9.332                0.880204073     -100.050739
9.333                0.879850527     -100.249045
9.334                0.879496235     -100.447926
9.335                0.879141201     -100.647384
9.336                0.878785429     -100.847419
9.337                0.878428924     -101.048034
9.338                0.878071688      -101.24923
9.339                0.877713727     -101.451007
9.34                 0.877355044     -101.653368
9.341                0.876995643     -101.856315
9.342                 0.87663553     -102.059847
9.343                0.876274708     -102.263968
9.344                0.875913181     -102.468678
9.345                0.875550956     -102.673979
9.346                0.875188035     -102.879871
9.347                0.874824425     -103.086357
9.348                 0.87446013     -103.293439
9.349                0.874095155     -103.501116
9.35                 0.873729505     -103.709391
9.351                0.873363185     -103.918265
9.352                0.872996201      -104.12774
9.353                0.872628558     -104.337816
9.354                0.872260262     -104.548495
9.355                0.871891317     -104.759779
9.356                0.871521731     -104.971668
9.357                0.871151507     -105.184165
9.358                0.870780654      -105.39727
9.359                0.870409176     -105.610984
9.36                 0.870037079      -105.82531
9.361                 0.86966437     -106.040248
9.362                0.869291055       -106.2558
9.363                 0.86891714     -106.471966
9.364                0.868542633     -106.688748
9.365                0.868167539     -106.906148
9.366                0.867791865     -107.124167
9.367                0.867415618     -107.342805
9.368                0.867038806     -107.562065
9.369                0.866661434     -107.781947
9.37                 0.866283511     -108.002452
9.371                0.865905043     -108.223582
9.372                0.865526039     -108.445338
9.373                0.865146505     -108.667721
9.374                0.864766449     -108.890732
9.375                0.864385878     -109.114373
9.376                0.864004801     -109.338644
9.377                0.863623226     -109.563547
9.378                0.863241161     -109.789082
9.379                0.862858613     -110.015252
9.38                 0.862475592     -110.242056
9.381                0.862092105     -110.469496
9.382                0.861708162     -110.697574
9.383                 0.86132377     -110.926289
9.384                0.860938938     -111.155644
9.385                0.860553677     -111.385639
9.386                0.860167993     -111.616276
9.387                0.859781898     -111.847554
9.388                0.859395399     -112.079476
9.389                0.859008507     -112.312042
9.39                 0.858621231     -112.545253
9.391                 0.85823358      -112.77911
9.392                0.857845565     -113.013614
9.393                0.857457194     -113.248766
9.394                0.857068479     -113.484567
9.395                 0.85667943     -113.721017
9.396                0.856290055     -113.958118
