! TOUCHSTONE file generated by CST DESIGN STUDIO
! Date and time: Tue Feb  4 16:15:20 2025
! Project name: C:\Work\MatlabApps\UnitCellOptimizationMatlab\CST\unitcell.cst
! Tree item: Tasks\Sweep1\SPara1\S-Parameters
! Header version: 2024
! Port assignment regex: !\s*Touchstone port\s*([0-9]+)\s*=\s*(CST MWS port|CST DES external port|CST DES block port)\s*(.+)\s* \(\"(.*)\"\)(\s*mode\s*([0-9]+))?.*
! Touchstone port assignment:
! Touchstone port 1 = CST DES external port 1 ("")
# GHz S MA R 50
9                    0.908362684     -89.9904988
9.001                0.908103449     -90.1676215
9.002                0.907843094      -90.345289
9.003                0.907581616      -90.523503
9.004                0.907319014     -90.7022652
9.005                0.907055285     -90.8815775
9.006                 0.90679043     -91.0614415
9.007                0.906524446     -91.2418591
9.008                0.906257331     -91.4228321
9.009                0.905989084      -91.604362
9.01                 0.905719704     -91.7864508
9.011                 0.90544919     -91.9691002
9.012                0.905177539      -92.152312
9.013                0.904904752     -92.3360878
9.014                0.904630826     -92.5204296
9.015                0.904355761      -92.705339
9.016                0.904079555     -92.8908178
9.017                0.903802207     -93.0768678
9.018                0.903523717     -93.2634907
9.019                0.903244083     -93.4506884
9.02                 0.902963305     -93.6384625
9.021                0.902681382     -93.8268148
9.022                0.902398312     -94.0157471
9.023                0.902114096     -94.2052612
9.024                0.901828732     -94.3953588
9.025                 0.90154222     -94.5860416
9.026                0.901254559     -94.7773115
9.027                 0.90096575     -94.9691702
9.028                0.900675791     -95.1616195
9.029                0.900384682      -95.354661
9.03                 0.900092423     -95.5482966
9.031                0.899799013      -95.742528
9.032                0.899504453      -95.937357
9.033                0.899208742     -96.1327853
9.034                0.898911881     -96.3288147
9.035                0.898613869     -96.5254468
9.036                0.898314706     -96.7226835
9.037                0.898014393     -96.9205265
9.038                 0.89771293     -97.1189775
9.039                0.897410317     -97.3180383
9.04                 0.897106554     -97.5177105
9.041                0.896801643      -97.717996
9.042                0.896495583     -97.9188964
9.043                0.896188376     -98.1204135
9.044                0.895880021      -98.322549
9.045                 0.89557052     -98.5253045
9.046                0.895259874     -98.7286819
9.047                0.894948083     -98.9326828
9.048                0.894635148     -99.1373089
9.049                0.894321071      -99.342562
9.05                 0.894005853     -99.5484436
9.051                0.893689495     -99.7549556
9.052                0.893371999     -99.9620996
9.053                0.893053365     -100.169877
9.054                0.892733596      -100.37829
9.055                0.892412693      -100.58734
9.056                0.892090657     -100.797029
9.057                0.891767491     -101.007358
9.058                0.891443197     -101.218329
9.059                0.891117776     -101.429944
9.06                  0.89079123     -101.642204
9.061                0.890463562     -101.855111
9.062                0.890134775     -102.068666
9.063                0.889804869     -102.282872
9.064                0.889473849      -102.49773
9.065                0.889141716      -102.71324
9.066                0.888808473     -102.929406
9.067                0.888474123     -103.146229
9.068                0.888138669     -103.363709
9.069                0.887802113      -103.58185
9.07                  0.88746446     -103.800652
9.071                0.887125712     -104.020116
9.072                0.886785872     -104.240246
9.073                0.886444945     -104.461041
9.074                0.886102932     -104.682503
9.075                0.885759839     -104.904635
9.076                0.885415669     -105.127437
9.077                0.885070426     -105.350912
9.078                0.884724114      -105.57506
9.079                0.884376736     -105.799883
9.08                 0.884028298     -106.025382
9.081                0.883678803      -106.25156
9.082                0.883328257     -106.478417
9.083                0.882976663     -106.705955
9.084                0.882624026     -106.934175
9.085                0.882270352     -107.163079
9.086                0.881915645     -107.392669
9.087                0.881559911     -107.622945
9.088                0.881203154     -107.853908
9.089                 0.88084538     -108.085562
9.09                 0.880486595     -108.317905
9.091                0.880126804     -108.550941
9.092                0.879766013     -108.784671
9.093                0.879404228     -109.019095
9.094                0.879041455     -109.254215
9.095                  0.8786777     -109.490032
9.096                0.878312969     -109.726548
9.097                0.877947269     -109.963763
9.098                0.877580607      -110.20168
9.099                0.877212989     -110.440299
9.1                  0.876844422     -110.679622
9.101                0.876474913     -110.919649
9.102                 0.87610447     -111.160383
9.103                0.875733099     -111.401823
9.104                0.875360808     -111.643972
9.105                0.874987605      -111.88683
9.106                0.874613498     -112.130399
9.107                0.874238494     -112.374679
9.108                0.873862602     -112.619672
9.109                0.873485829     -112.865378
9.11                 0.873108185       -113.1118
9.111                0.872729677     -113.358937
9.112                0.872350315     -113.606791
9.113                0.871970106     -113.855363
9.114                0.871589061     -114.104654
9.115                0.871207189     -114.354665
9.116                0.870824498     -114.605396
9.117                0.870440999     -114.856849
9.118                  0.8700567     -115.109024
9.119                0.869671612     -115.361923
9.12                 0.869285745     -115.615546
9.121                0.868899108     -115.869894
9.122                0.868511713     -116.124968
9.123                0.868123569     -116.380768
9.124                0.867734688     -116.637296
9.125                0.867345079     -116.894552
9.126                0.866954755     -117.152537
9.127                0.866563726     -117.411251
9.128                0.866172004     -117.670695
9.129                0.865779599     -117.930871
9.13                 0.865386524     -118.191777
9.131                0.864992791     -118.453416
9.132                0.864598412     -118.715787
9.133                0.864203398     -118.978891
9.134                0.863807762     -119.242729
9.135                0.863411517     -119.507301
9.136                0.863014676     -119.772607
9.137                 0.86261725     -120.038648
9.138                0.862219255     -120.305425
9.139                0.861820701     -120.572937
9.14                 0.861421604     -120.841186
9.141                0.861021977     -121.110171
9.142                0.860621833     -121.379892
9.143                0.860221186     -121.650351
9.144                0.859820051     -121.921546
9.145                0.859418442     -122.193479
9.146                0.859016374      -122.46615
9.147                 0.85861386     -122.739558
9.148                0.858210916     -123.013703
9.149                0.857807558     -123.288587
9.15                   0.8574038     -123.564208
9.151                0.856999657     -123.840568
9.152                0.856595146     -124.117665
9.153                0.856190282       -124.3955
9.154                0.855785081     -124.674072
9.155                0.855379559     -124.953382
9.156                0.854973733      -125.23343
9.157                0.854567619     -125.514214
9.158                0.854161233     -125.795736
9.159                0.853754594     -126.077994
9.16                 0.853347716     -126.360988
9.161                0.852940619     -126.644719
9.162                0.852533319     -126.929185
9.163                0.852125834     -127.214387
9.164                0.851718182     -127.500323
9.165                 0.85131038     -127.786993
9.166                0.850902447     -128.074397
9.167                0.850494401     -128.362535
9.168                0.850086261     -128.651405
9.169                0.849678045     -128.941007
9.17                 0.849269772      -129.23134
9.171                0.848861462     -129.522403
9.172                0.848453132     -129.814197
9.173                0.848044803     -130.106719
9.174                0.847636495     -130.399969
9.175                0.847228227     -130.693947
9.176                0.846820018     -130.988651
9.177                0.846411889      -131.28408
9.178                0.846003861     -131.580234
9.179                0.845595953      -131.87711
9.18                 0.845188186     -132.174709
9.181                0.844780581     -132.473029
9.182                0.844373158     -132.772069
9.183                 0.84396594     -133.071827
9.184                0.843558947     -133.372302
9.185                0.843152199     -133.673494
9.186                 0.84274572       -133.9754
9.187                0.842339531     -134.278019
9.188                0.841933653      -134.58135
9.189                0.841528109     -134.885391
9.19                  0.84112292     -135.190141
9.191                0.840718109     -135.495597
9.192                0.840313699      -135.80176
9.193                0.839909711     -136.108626
9.194                 0.83950617     -136.416194
9.195                0.839103097     -136.724462
9.196                0.838700516     -137.033428
9.197                 0.83829845     -137.343091
9.198                0.837896923     -137.653448
9.199                0.837495957     -137.964498
9.2                  0.837095576     -138.276239
9.201                0.836695804     -138.588668
9.202                0.836296665     -138.901783
9.203                0.835898183     -139.215582
9.204                0.835500382     -139.530063
9.205                0.835103285     -139.845224
9.206                0.834706919     -140.161062
9.207                0.834311306     -140.477575
9.208                0.833916471      -140.79476
9.209                0.833522439     -141.112615
9.21                 0.833129236     -141.431138
9.211                0.832736885     -141.750325
9.212                0.832345411     -142.070174
9.213                 0.83195484     -142.390683
9.214                0.831565198     -142.711849
9.215                0.831176508     -143.033668
9.216                0.830788797     -143.356138
9.217                0.830402089     -143.679257
9.218                0.830016411      -144.00302
9.219                0.829631788     -144.327426
9.22                 0.829248245     -144.652471
9.221                0.828865809     -144.978151
9.222                0.828484505     -145.304465
9.223                0.828104358     -145.631407
9.224                0.827725396     -145.958976
9.225                0.827347643     -146.287168
9.226                0.826971127      -146.61598
9.227                0.826595872     -146.945407
9.228                0.826221905     -147.275447
9.229                0.825849252     -147.606095
9.23                 0.825477939     -147.937349
9.231                0.825107994     -148.269205
9.232                 0.82473944     -148.601658
9.233                0.824372306     -148.934706
9.234                0.824006618     -149.268344
9.235                  0.8236424     -149.602568
9.236                0.823279681     -149.937375
9.237                0.822918486      -150.27276
9.238                0.822558842      -150.60872
9.239                0.822200775      -150.94525
9.24                 0.821844311     -151.282346
9.241                0.821489476     -151.620003
9.242                0.821136297     -151.958219
9.243                0.820784801     -152.296988
9.244                0.820435012     -152.636305
9.245                0.820086958     -152.976167
9.246                0.819740665     -153.316569
9.247                0.819396159     -153.657507
9.248                0.819053466     -153.998975
9.249                0.818712612      -154.34097
9.25                 0.818373623     -154.683486
9.251                0.818036524     -155.026518
9.252                0.817701343     -155.370063
9.253                0.817368104     -155.714114
9.254                0.817036834     -156.058668
9.255                0.816707557     -156.403719
9.256                0.816380301     -156.749262
9.257                0.816055089     -157.095292
9.258                0.815731948     -157.441804
9.259                0.815410903     -157.788792
9.26                 0.815091979     -158.136252
9.261                0.814775201     -158.484178
9.262                0.814460594     -158.832565
9.263                0.814148183     -159.181408
9.264                0.813837993     -159.530701
9.265                0.813530048     -159.880438
9.266                0.813224373     -160.230614
9.267                0.812920993     -160.581224
9.268                 0.81261993     -160.932261
9.269                0.812321211     -161.283721
9.27                 0.812024857     -161.635597
9.271                0.811730894     -161.987884
9.272                0.811439345     -162.340576
9.273                0.811150232     -162.693666
9.274                 0.81086358      -163.04715
9.275                0.810579412     -163.401021
9.276                 0.81029775     -163.755272
9.277                0.810018618     -164.109899
9.278                0.809742037     -164.464895
9.279                 0.80946803     -164.820254
9.28                 0.809196619     -165.175969
9.281                0.808927826     -165.532035
9.282                0.808661674     -165.888445
9.283                0.808398182     -166.245193
9.284                0.808137373     -166.602272
9.285                0.807879268     -166.959677
9.286                0.807623887       -167.3174
9.287                0.807371251     -167.675435
9.288                0.807121381     -168.033777
9.289                0.806874296     -168.392417
9.29                 0.806630017     -168.751351
9.291                0.806388563      -169.11057
9.292                0.806149953     -169.470068
9.293                0.805914207      -169.82984
9.294                0.805681344     -170.189877
9.295                0.805451381     -170.550174
9.296                0.805224337     -170.910723
9.297                0.805000231     -171.271518
9.298                 0.80477908     -171.632552
9.299                0.804560902     -171.993818
9.3                  0.804345713     -172.355309
9.301                0.804133531     -172.717018
9.302                0.803924373     -173.078938
9.303                0.803718253     -173.441062
9.304                 0.80351519     -173.803384
9.305                0.803315197     -174.165896
9.306                0.803118291     -174.528591
9.307                0.802924487     -174.891462
9.308                  0.8027338     -175.254501
9.309                0.802546243     -175.617703
9.31                 0.802361831     -175.981059
9.311                0.802180578     -176.344563
9.312                0.802002497     -176.708207
9.313                0.801827601     -177.071984
9.314                0.801655904     -177.435887
9.315                0.801487417     -177.799908
9.316                0.801322153     -178.164041
9.317                0.801160124     -178.528277
9.318                 0.80100134     -178.892611
9.319                0.800845814     -179.257034
9.32                 0.800693555     -179.621539
9.321                0.800544575     -179.986119
9.322                0.800398882      179.649234
9.323                0.800256488      179.284526
9.324                0.800117401      178.919766
9.325                 0.79998163      178.554961
9.326                0.799849183      178.190117
9.327                 0.79972007      177.825243
9.328                0.799594298      177.460345
9.329                0.799471874      177.095432
9.33                 0.799352806       176.73051
9.331                0.799237099      176.365588
9.332                0.799124762      176.000671
9.333                  0.7990158      175.635768
9.334                0.798910218      175.270887
9.335                0.798808022      174.906034
9.336                0.798709216      174.541217
9.337                0.798613806      174.176443
9.338                0.798521795      173.811719
9.339                0.798433188      173.447054
9.34                 0.798347987      173.082455
9.341                0.798266196      172.717928
9.342                0.798187818      172.353481
9.343                0.798112854      171.989122
9.344                0.798041307      171.624857
9.345                0.797973179      171.260695
9.346                 0.79790847      170.896643
9.347                0.797847181      170.532707
9.348                0.797789313      170.168895
9.349                0.797734866      169.805214
9.35                 0.797683839      169.441673
9.351                0.797636233      169.078277
9.352                0.797592045      168.715034
9.353                0.797551275      168.351951
9.354                0.797513921      167.989036
9.355                 0.79747998      167.626296
9.356                0.797449451      167.263737
9.357                 0.79742233      166.901367
9.358                0.797398613      166.539194
9.359                0.797378299      166.177223
9.36                 0.797361382      165.815463
9.361                0.797347858       165.45392
9.362                0.797337723      165.092601
9.363                0.797330971      164.731513
9.364                0.797327598      164.370663
9.365                0.797327598      164.010059
9.366                0.797330964      163.649706
9.367                 0.79733769      163.289613
9.368                0.797347769      162.929785
9.369                0.797361195      162.570229
9.37                 0.797377961      162.210952
9.371                0.797398057      161.851962
9.372                0.797421477      161.493264
9.373                0.797448211      161.134866
9.374                0.797478251      160.776773
9.375                0.797511589      160.418993
9.376                0.797548214      160.061532
9.377                0.797588118      159.704397
9.378                0.797631289      159.347594
9.379                0.797677718      158.991129
9.38                 0.797727394      158.635009
9.381                0.797780307      158.279241
9.382                0.797836444       157.92383
9.383                0.797895795      157.568784
9.384                0.797958348      157.214107
9.385                 0.79802409      156.859807
9.386                 0.79809301      156.505889
9.387                0.798165094       156.15236
9.388                 0.79824033      155.799226
9.389                0.798318704      155.446492
9.39                 0.798400204      155.094165
9.391                0.798484814      154.742251
9.392                0.798572522      154.390755
9.393                0.798663313      154.039683
9.394                0.798757172      153.689042
9.395                0.798854085      153.338837
9.396                0.798954036      152.989073
