! TOUCHSTONE file generated by CST DESIGN STUDIO
! Date and time: Tue Feb  4 16:15:24 2025
! Project name: C:\Work\MatlabApps\UnitCellOptimizationMatlab\CST\unitcell.cst
! Tree item: Tasks\Sweep1\SPara1\S-Parameters
! Header version: 2024
! Port assignment regex: !\s*Touchstone port\s*([0-9]+)\s*=\s*(CST MWS port|CST DES external port|CST DES block port)\s*(.+)\s* \(\"(.*)\"\)(\s*mode\s*([0-9]+))?.*
! Touchstone port assignment:
! Touchstone port 1 = CST DES external port 1 ("")
# GHz S MA R 50
9                    0.941249775     -68.2625212
9.001                0.941079165     -68.3719366
9.002                0.940907836     -68.4816449
9.003                0.940735783     -68.5916472
9.004                0.940563006     -68.7019444
9.005                0.940389501     -68.8125376
9.006                0.940215267     -68.9234278
9.007                  0.9400403     -69.0346161
9.008                0.939864599     -69.1461035
9.009                 0.93968816      -69.257891
9.01                 0.939510982     -69.3699797
9.011                0.939333062     -69.4823707
9.012                0.939154398      -69.595065
9.013                0.938974987     -69.7080637
9.014                0.938794827     -69.8213677
9.015                0.938613916     -69.9349783
9.016                 0.93843225     -70.0488965
9.017                0.938249828     -70.1631233
9.018                0.938066646     -70.2776599
9.019                0.937882704     -70.3925073
9.02                 0.937697998     -70.5076665
9.021                0.937512525     -70.6231388
9.022                0.937326284     -70.7389252
9.023                0.937139272     -70.8550267
9.024                0.936951486     -70.9714446
9.025                0.936762924     -71.0881798
9.026                0.936573584     -71.2052336
9.027                0.936383463      -71.322607
9.028                0.936192558     -71.4403011
9.029                0.936000868     -71.5583171
9.03                 0.935808389     -71.6766561
9.031                0.935615119     -71.7953193
9.032                0.935421057     -71.9143077
9.033                0.935226198     -72.0336225
9.034                0.935030542     -72.1532648
9.035                0.934834085     -72.2732358
9.036                0.934636825     -72.3935367
9.037                 0.93443876     -72.5141686
9.038                0.934239887     -72.6351326
9.039                0.934040203     -72.7564299
9.04                 0.933839706     -72.8780617
9.041                0.933638395     -73.0000292
9.042                0.933436265     -73.1223335
9.043                0.933233316     -73.2449758
9.044                0.933029543     -73.3679573
9.045                0.932824946     -73.4912791
9.046                0.932619521     -73.6149425
9.047                0.932413266     -73.7389487
9.048                0.932206179     -73.8632988
9.049                0.931998257     -73.9879941
9.05                 0.931789498     -74.1130357
9.051                0.931579898     -74.2384249
9.052                0.931369457     -74.3641629
9.053                0.931158171     -74.4902509
9.054                0.930946038     -74.6166901
9.055                0.930733056     -74.7434818
9.056                0.930519222     -74.8706271
9.057                0.930304534     -74.9981274
9.058                0.930088988     -75.1259838
9.059                0.929872584     -75.2541976
9.06                 0.929655318       -75.38277
9.061                0.929437189     -75.5117024
9.062                0.929218193     -75.6409958
9.063                0.928998328     -75.7706517
9.064                0.928777592     -75.9006712
9.065                0.928555983     -76.0310556
9.066                0.928333498     -76.1618063
9.067                0.928110135     -76.2929244
9.068                0.927885891     -76.4244112
9.069                0.927660764     -76.5562681
9.07                 0.927434752     -76.6884962
9.071                0.927207852      -76.821097
9.072                0.926980063     -76.9540717
9.073                0.926751381     -77.0874215
9.074                0.926521804     -77.2211479
9.075                0.926291331      -77.355252
9.076                0.926059958     -77.4897352
9.077                0.925827683     -77.6245989
9.078                0.925594505     -77.7598442
9.079                0.925360421     -77.8954727
9.08                 0.925125428     -78.0314854
9.081                0.924889524     -78.1678839
9.082                0.924652708     -78.3046695
9.083                0.924414976     -78.4418434
9.084                0.924176327      -78.579407
9.085                0.923936758     -78.7173616
9.086                0.923696268     -78.8557087
9.087                0.923454853     -78.9944495
9.088                0.923212512     -79.1335854
9.089                0.922969243     -79.2731178
9.09                 0.922725043     -79.4130479
9.091                 0.92247991     -79.5533773
9.092                0.922233842     -79.6941073
9.093                0.921986837     -79.8352391
9.094                0.921738893     -79.9767743
9.095                0.921490008     -80.1187142
9.096                0.921240179     -80.2610601
9.097                0.920989405     -80.4038135
9.098                0.920737684     -80.5469757
9.099                0.920485012     -80.6905482
9.1                  0.920231389     -80.8345324
9.101                0.919976813     -80.9789296
9.102                 0.91972128     -81.1237412
9.103                0.919464791     -81.2689687
9.104                0.919207341     -81.4146135
9.105                 0.91894893      -81.560677
9.106                0.918689555     -81.7071606
9.107                0.918429215     -81.8540658
9.108                0.918167908     -82.0013939
9.109                0.917905631     -82.1491464
9.11                 0.917642384     -82.2973247
9.111                0.917378163     -82.4459303
9.112                0.917112967     -82.5949646
9.113                0.916846795     -82.7444291
9.114                0.916579645     -82.8943251
9.115                0.916311515     -83.0446542
9.116                0.916042402     -83.1954178
9.117                0.915772306     -83.3466174
9.118                0.915501225     -83.4982544
9.119                0.915229157     -83.6503303
9.12                   0.9149561     -83.8028465
9.121                0.914682053     -83.9558045
9.122                0.914407013     -84.1092059
9.123                0.914130981      -84.263052
9.124                0.913853953     -84.4173444
9.125                0.913575929     -84.5720844
9.126                0.913296907     -84.7272737
9.127                0.913016885     -84.8829138
9.128                0.912735862      -85.039006
9.129                0.912453837     -85.1955518
9.13                 0.912170808     -85.3525529
9.131                0.911886774     -85.5100107
9.132                0.911601733     -85.6679266
9.133                0.911315684     -85.8263022
9.134                0.911028626     -85.9851391
9.135                0.910740558     -86.1444386
9.136                0.910451478     -86.3042024
9.137                0.910161385     -86.4644319
9.138                0.909870278     -86.6251286
9.139                0.909578156     -86.7862941
9.14                 0.909285018     -86.9479299
9.141                0.908990862     -87.1100376
9.142                0.908695688     -87.2726185
9.143                0.908399495     -87.4356744
9.144                0.908102281     -87.5992066
9.145                0.907804047     -87.7632169
9.146                 0.90750479     -87.9277065
9.147                 0.90720451     -88.0926772
9.148                0.906903206     -88.2581305
9.149                0.906600878     -88.4240679
9.15                 0.906297525     -88.5904909
9.151                0.905993145     -88.7574011
9.152                0.905687739        -88.9248
9.153                0.905381306     -89.0926892
9.154                0.905073844     -89.2610703
9.155                0.904765355     -89.4299447
9.156                0.904455836     -89.5993141
9.157                0.904145289       -89.76918
9.158                0.903833711      -89.939544
9.159                0.903521103     -90.1104076
9.16                 0.903207465     -90.2817723
9.161                0.902892796     -90.4536398
9.162                0.902577097     -90.6260116
9.163                0.902260366     -90.7988893
9.164                0.901942604     -90.9722744
9.165                0.901623811     -91.1461685
9.166                0.901303986     -91.3205732
9.167                 0.90098313       -91.49549
9.168                0.900661243     -91.6709205
9.169                0.900338324     -91.8468663
9.17                 0.900014375     -92.0233289
9.171                0.899689395       -92.20031
9.172                0.899363384      -92.377811
9.173                0.899036343     -92.5558336
9.174                0.898708273     -92.7343793
9.175                0.898379173     -92.9134497
9.176                0.898049044     -93.0930464
9.177                0.897717887     -93.2731709
9.178                0.897385702     -93.4538248
9.179                 0.89705249     -93.6350098
9.18                 0.896718252     -93.8167273
9.181                0.896382989     -93.9989789
9.182                  0.8960467     -94.1817662
9.183                0.895709388     -94.3650908
9.184                0.895371054     -94.5489543
9.185                0.895031697     -94.7333582
9.186                 0.89469132      -94.918304
9.187                0.894349923     -95.1037935
9.188                0.894007509      -95.289828
9.189                0.893664077     -95.4764092
9.19                 0.893319629     -95.6635387
9.191                0.892974168      -95.851218
9.192                0.892627694     -96.0394487
9.193                0.892280208     -96.2282323
9.194                0.891931714     -96.4175705
9.195                0.891582211     -96.6074647
9.196                0.891231703     -96.7979165
9.197                 0.89088019     -96.9889275
9.198                0.890527676     -97.1804992
9.199                0.890174161     -97.3726332
9.2                  0.889819648      -97.565331
9.201                0.889464139     -97.7585941
9.202                0.889107637     -97.9524242
9.203                0.888750143     -98.1468228
9.204                0.888391661     -98.3417913
9.205                0.888032191     -98.5373314
9.206                0.887671738     -98.7334445
9.207                0.887310304     -98.9301322
9.208                0.886947891      -99.127396
9.209                0.886584502     -99.3252375
9.21                 0.886220141     -99.5236581
9.211                0.885854809     -99.7226594
9.212                0.885488511     -99.9222429
9.213                0.885121249      -100.12241
9.214                0.884753026     -100.323162
9.215                0.884383847     -100.524502
9.216                0.884013713     -100.726429
9.217                 0.88364263     -100.928946
9.218                  0.8832706     -101.132054
9.219                0.882897627     -101.335755
9.22                 0.882523715     -101.540049
9.221                0.882148867      -101.74494
9.222                0.881773089     -101.950428
9.223                0.881396383     -102.156514
9.224                0.881018754       -102.3632
9.225                0.880640206     -102.570487
9.226                0.880260745     -102.778377
9.227                0.879880373     -102.986872
9.228                0.879499096     -103.195973
9.229                0.879116918      -103.40568
9.23                 0.878733844     -103.615996
9.231                0.878349879     -103.826923
9.232                0.877965029      -104.03846
9.233                0.877579297     -104.250611
9.234                 0.87719269     -104.463375
9.235                0.876805212     -104.676755
9.236                0.876416869     -104.890752
9.237                0.876027667     -105.105368
9.238                0.875637611     -105.320603
9.239                0.875246707     -105.536459
9.24                  0.87485496     -105.752938
9.241                0.874462378      -105.97004
9.242                0.874068965     -106.187767
9.243                0.873674729     -106.406121
9.244                0.873279674     -106.625102
9.245                0.872883809     -106.844712
9.246                0.872487139     -107.064953
9.247                0.872089671     -107.285825
9.248                0.871691412      -107.50733
9.249                0.871292369     -107.729469
9.25                 0.870892548     -107.952243
9.251                0.870491958     -108.175654
9.252                0.870090605     -108.399702
9.253                0.869688496      -108.62439
9.254                 0.86928564     -108.849718
9.255                0.868882044     -109.075687
9.256                0.868477715     -109.302299
9.257                0.868072662     -109.529554
9.258                0.867666893     -109.757455
9.259                0.867260415     -109.986001
9.26                 0.866853238     -110.215195
9.261                0.866445369     -110.445037
9.262                0.866036817     -110.675528
9.263                0.865627592      -110.90667
9.264                0.865217701     -111.138463
9.265                0.864807153     -111.370909
9.266                0.864395958     -111.604009
9.267                0.863984126     -111.837764
9.268                0.863571665     -112.072174
9.269                0.863158585     -112.307241
9.27                 0.862744895     -112.542966
9.271                0.862330606      -112.77935
9.272                0.861915727     -113.016393
9.273                0.861500269     -113.254097
9.274                0.861084241     -113.492463
9.275                0.860667654     -113.731491
9.276                0.860250519     -113.971183
9.277                0.859832846     -114.211539
9.278                0.859414646      -114.45256
9.279                0.858995929     -114.694247
9.28                 0.858576708     -114.936601
9.281                0.858156993     -115.179622
9.282                0.857736796     -115.423312
9.283                0.857316127     -115.667671
9.284                   0.856895     -115.912701
9.285                0.856473425       -116.1584
9.286                0.856051415     -116.404772
9.287                0.855628981     -116.651815
9.288                0.855206136     -116.899532
9.289                0.854782893     -117.147921
9.29                 0.854359264     -117.396985
9.291                0.853935261     -117.646724
9.292                0.853510898     -117.897138
9.293                0.853086187     -118.148228
9.294                0.852661142     -118.399994
9.295                0.852235776     -118.652438
9.296                0.851810103     -118.905558
9.297                0.851384136     -119.159357
9.298                0.850957889     -119.413834
9.299                0.850531375     -119.668991
9.3                   0.85010461     -119.924826
9.301                0.849677607     -120.181341
9.302                 0.84925038     -120.438537
9.303                0.848822945     -120.696412
9.304                0.848395315     -120.954969
9.305                0.847967506     -121.214206
9.306                0.847539533     -121.474125
9.307                0.847111411     -121.734725
9.308                0.846683155     -121.996008
9.309                0.846254781     -122.257972
9.31                 0.845826304     -122.520618
9.311                0.845397741     -122.783946
9.312                0.844969106     -123.047957
9.313                0.844540417     -123.312651
9.314                0.844111689     -123.578027
9.315                0.843682939     -123.844085
9.316                0.843254183     -124.110827
9.317                0.842825438      -124.37825
9.318                0.842396722     -124.646356
9.319                 0.84196805     -124.915145
9.32                 0.841539441     -125.184616
9.321                 0.84111091     -125.454769
9.322                0.840682477     -125.725604
9.323                0.840254159     -125.997121
9.324                0.839825972     -126.269319
9.325                0.839397936     -126.542198
9.326                0.838970068     -126.815759
9.327                0.838542387         -127.09
9.328                 0.83811491     -127.364921
9.329                0.837687657     -127.640523
9.33                 0.837260646     -127.916803
9.331                0.836833896     -128.193763
9.332                0.836407426     -128.471401
9.333                0.835981254     -128.749717
9.334                  0.8355554     -129.028711
9.335                0.835129884     -129.308381
9.336                0.834704725     -129.588728
9.337                0.834279943      -129.86975
9.338                0.833855557     -130.151446
9.339                0.833431587     -130.433817
9.34                 0.833008054     -130.716861
9.341                0.832584977     -131.000578
9.342                0.832162378     -131.284966
9.343                0.831740276     -131.570025
9.344                0.831318691     -131.855754
9.345                0.830897646     -132.142151
9.346                 0.83047716     -132.429217
9.347                0.830057255     -132.716949
9.348                0.829637951     -133.005347
9.349                0.829219271      -133.29441
9.35                 0.828801234     -133.584136
9.351                0.828383864     -133.874524
9.352                0.827967181     -134.165574
9.353                0.827551207     -134.457283
9.354                0.827135963     -134.749651
9.355                0.826721473     -135.042676
9.356                0.826307757     -135.336356
9.357                0.825894839     -135.630691
9.358                 0.82548274     -135.925679
9.359                0.825071483     -136.221318
9.36                 0.824661089     -136.517607
9.361                0.824251583     -136.814544
9.362                0.823842986     -137.112128
9.363                0.823435321     -137.410356
9.364                0.823028611     -137.709228
9.365                 0.82262288     -138.008741
9.366                0.822218149     -138.308893
9.367                0.821814443     -138.609684
9.368                0.821411784      -138.91111
9.369                0.821010196     -139.213169
9.37                 0.820609703     -139.515861
9.371                0.820210327     -139.819182
9.372                0.819812092     -140.123132
9.373                0.819415022     -140.427706
9.374                 0.81901914     -140.732905
9.375                0.818624471     -141.038724
9.376                0.818231038     -141.345163
9.377                0.817838865     -141.652218
9.378                0.817447976     -141.959888
9.379                0.817058394     -142.268169
9.38                 0.816670145      -142.57706
9.381                0.816283252     -142.886558
9.382                0.815897739     -143.196661
9.383                 0.81551363     -143.507365
9.384                 0.81513095     -143.818669
9.385                0.814749723     -144.130569
9.386                0.814369973     -144.443064
9.387                0.813991724     -144.756149
9.388                0.813615002     -145.069823
9.389                0.813239829     -145.384082
9.39                 0.812866231     -145.698923
9.391                0.812494233     -146.014345
9.392                0.812123857     -146.330343
9.393                 0.81175513     -146.646914
9.394                0.811388075     -146.964056
9.395                0.811022717     -147.281765
9.396                 0.81065908     -147.600038
