! TOUCHSTONE file generated by CST DESIGN STUDIO
! Date and time: Tue Feb  4 13:55:37 2025
! Project name: C:\Work\MatlabApps\UnitCellOptimizationMatlab\CST\unitcell.cst
! Tree item: Tasks\Sweep1\SPara1\S-Parameters
! Header version: 2024
! Port assignment regex: !\s*Touchstone port\s*([0-9]+)\s*=\s*(CST MWS port|CST DES external port|CST DES block port)\s*(.+)\s* \(\"(.*)\"\)(\s*mode\s*([0-9]+))?.*
! Touchstone port assignment:
! Touchstone port 1 = CST DES external port 1 ("")
# GHz S MA R 50
9                    0.946456806     -110.998222
9.001                 0.94618496     -111.242403
9.002                0.945911814      -111.48727
9.003                 0.94563737     -111.732824
9.004                0.945361631     -111.979066
9.005                0.945084599     -112.225996
9.006                0.944806278     -112.473615
9.007                0.944526669     -112.721924
9.008                0.944245777     -112.970923
9.009                0.943963605     -113.220613
9.01                 0.943680155     -113.470995
9.011                0.943395433     -113.722068
9.012                 0.94310944     -113.973835
9.013                0.942822182     -114.226294
9.014                0.942533662     -114.479447
9.015                0.942243885     -114.733294
9.016                0.941952854     -114.987836
9.017                0.941660575     -115.243073
9.018                0.941367051     -115.499005
9.019                0.941072288     -115.755633
9.02                  0.94077629     -116.012957
9.021                0.940479063     -116.270978
9.022                0.940180612     -116.529696
9.023                0.939880942      -116.78911
9.024                0.939580058     -117.049222
9.025                0.939277968     -117.310032
9.026                0.938974675     -117.571539
9.027                0.938670187     -117.833744
9.028                 0.93836451     -118.096648
9.029                 0.93805765      -118.36025
9.03                 0.937749614      -118.62455
9.031                0.937440408     -118.889548
9.032                0.937130039     -119.155245
9.033                0.936818515     -119.421641
9.034                0.936505842     -119.688735
9.035                0.936192029     -119.956527
9.036                0.935877082     -120.225018
9.037                0.935561009     -120.494207
9.038                0.935243819     -120.764094
9.039                 0.93492552     -121.034679
9.04                 0.934606119     -121.305962
9.041                0.934285626     -121.577943
9.042                0.933964049     -121.850621
9.043                0.933641396     -122.123996
9.044                0.933317678     -122.398067
9.045                0.932992903     -122.672835
9.046                 0.93266708     -122.948299
9.047                 0.93234022     -123.224459
9.048                0.932012332     -123.501314
9.049                0.931683425     -123.778863
9.05                 0.931353511     -124.057107
9.051                  0.9310226     -124.336045
9.052                0.930690701     -124.615675
9.053                0.930357827     -124.895998
9.054                0.930023987     -125.177013
9.055                0.929689193     -125.458718
9.056                0.929353456     -125.741115
9.057                0.929016788     -126.024201
9.058                  0.9286792     -126.307976
9.059                0.928340705     -126.592439
9.06                 0.928001314     -126.877589
9.061                 0.92766104     -127.163425
9.062                0.927319895     -127.449947
9.063                0.926977892     -127.737154
9.064                0.926635044     -128.025043
9.065                0.926291363     -128.313616
9.066                0.925946864     -128.602869
9.067                0.925601559     -128.892803
9.068                0.925255463     -129.183416
9.069                0.924908589     -129.474706
9.07                 0.924560951     -129.766674
9.071                0.924212563     -130.059317
9.072                 0.92386344     -130.352633
9.073                0.923513597     -130.646623
9.074                0.923163048     -130.941284
9.075                0.922811809     -131.236615
9.076                0.922459894     -131.532614
9.077                0.922107319      -131.82928
9.078                0.921754101     -132.126611
9.079                0.921400253     -132.424607
9.08                 0.921045794     -132.723264
9.081                0.920690738     -133.022582
9.082                0.920335102     -133.322559
9.083                0.919978903     -133.623193
9.084                0.919622158     -133.924482
9.085                0.919264883     -134.226425
9.086                0.918907096     -134.529019
9.087                0.918548814     -134.832262
9.088                0.918190054     -135.136154
9.089                0.917830836      -135.44069
9.09                 0.917471175     -135.745871
9.091                0.917111091     -136.051693
9.092                0.916750601     -136.358154
9.093                0.916389725     -136.665253
9.094                0.916028481     -136.972986
9.095                0.915666887     -137.281352
9.096                0.915304964     -137.590348
9.097                0.914942729     -137.899973
9.098                0.914580202     -138.210223
9.099                0.914217403     -138.521096
9.1                  0.913854352      -138.83259
9.101                0.913491069     -139.144702
9.102                0.913127573     -139.457429
9.103                0.912763884      -139.77077
9.104                0.912400025      -140.08472
9.105                0.912036013     -140.399278
9.106                0.911671872     -140.714441
9.107                0.911307621     -141.030206
9.108                0.910943281      -141.34657
9.109                0.910578874      -141.66353
9.11                 0.910214422     -141.981084
9.111                0.909849944     -142.299227
9.112                0.909485465     -142.617958
9.113                0.909121004     -142.937273
9.114                0.908756584     -143.257169
9.115                0.908392228     -143.577643
9.116                0.908027957     -143.898692
9.117                0.907663794     -144.220312
9.118                0.907299761       -144.5425
9.119                0.906935882     -144.865253
9.12                 0.906572178     -145.188567
9.121                0.906208673     -145.512439
9.122                 0.90584539     -145.836865
9.123                0.905482352     -146.161842
9.124                0.905119582     -146.487366
9.125                0.904757104     -146.813434
9.126                0.904394942     -147.140042
9.127                0.904033118     -147.467186
9.128                0.903671656     -147.794862
9.129                0.903310582     -148.123067
9.13                 0.902949917     -148.451797
9.131                0.902589687     -148.781047
9.132                0.902229915     -149.110815
9.133                0.901870627     -149.441095
9.134                0.901511845     -149.771884
9.135                0.901153595     -150.103178
9.136                0.900795901     -150.434973
9.137                0.900438787     -150.767264
9.138                0.900082278     -151.100047
9.139                  0.8997264     -151.433318
9.14                 0.899371176     -151.767073
9.141                0.899016631     -152.101307
9.142                 0.89866279     -152.436016
9.143                0.898309679     -152.771195
9.144                0.897957322     -153.106841
9.145                0.897605744     -153.442947
9.146                0.897254971     -153.779511
9.147                0.896905027     -154.116527
9.148                0.896555937      -154.45399
9.149                0.896207727     -154.791897
9.15                 0.895860422     -155.130241
9.151                0.895514047     -155.469019
9.152                0.895168627     -155.808225
9.153                0.894824188     -156.147855
9.154                0.894480755     -156.487904
9.155                0.894138352     -156.828367
9.156                0.893797006     -157.169238
9.157                0.893456742     -157.510513
9.158                0.893117584     -157.852187
9.159                0.892779559     -158.194255
9.16                 0.892442691      -158.53671
9.161                0.892107005      -158.87955
9.162                0.891772526     -159.222767
9.163                0.891439281     -159.566357
9.164                0.891107293     -159.910314
9.165                0.890776588     -160.254634
9.166                0.890447191      -160.59931
9.167                0.890119126     -160.944338
9.168                0.889792419     -161.289711
9.169                0.889467095     -161.635425
9.17                 0.889143178     -161.981474
9.171                0.888820693     -162.327852
9.172                0.888499665     -162.674554
9.173                0.888180118     -163.021575
9.174                0.887862077     -163.368907
9.175                0.887545566     -163.716547
9.176                0.887230609     -164.064487
9.177                0.886917231     -164.412723
9.178                0.886605455     -164.761248
9.179                0.886295306     -165.110058
9.18                 0.885986808     -165.459145
9.181                0.885679984     -165.808504
9.182                0.885374858     -166.158129
9.183                0.885071453     -166.508014
9.184                0.884769794     -166.858154
9.185                0.884469902     -167.208542
9.186                0.884171802     -167.559172
9.187                0.883875517     -167.910038
9.188                0.883581068     -168.261134
9.189                 0.88328848     -168.612455
9.19                 0.882997774     -168.963993
9.191                0.882708973     -169.315744
9.192                0.882422098     -169.667699
9.193                0.882137173     -170.019855
9.194                0.881854219     -170.372203
9.195                0.881573258     -170.724739
9.196                0.881294311     -171.077455
9.197                0.881017399     -171.430346
9.198                0.880742545     -171.783405
9.199                0.880469768     -172.136626
9.2                  0.880199089     -172.490003
9.201                 0.87993053     -172.843529
9.202                 0.87966411     -173.197198
9.203                0.879399849     -173.551003
9.204                0.879137768     -173.904938
9.205                0.878877887     -174.258998
9.206                0.878620224     -174.613174
9.207                0.878364799     -174.967461
9.208                0.878111632     -175.321853
9.209                 0.87786074     -175.676343
9.21                 0.877612143     -176.030925
9.211                0.877365859     -176.385591
9.212                0.877121906     -176.740336
9.213                0.876880302     -177.095153
9.214                0.876641065     -177.450036
9.215                0.876404211     -177.804977
9.216                0.876169759     -178.159972
9.217                0.875937724     -178.515012
9.218                0.875708124     -178.870091
9.219                0.875480975     -179.225204
9.22                 0.875256293     -179.580343
9.221                0.875034094     -179.935502
9.222                0.874814393      179.709325
9.223                0.874597206      179.354146
9.224                0.874382548      178.998967
9.225                0.874170433      178.643794
9.226                0.873960875      178.288634
9.227                 0.87375389      177.933493
9.228                 0.87354949      177.578378
9.229                 0.87334769      177.223296
9.23                 0.873148502      176.868252
9.231                 0.87295194      176.513254
9.232                0.872758016      176.158309
9.233                0.872566743      175.803421
9.234                0.872378133      175.448599
9.235                0.872192198      175.093848
9.236                0.872008949      174.739176
9.237                0.871828397      174.384588
9.238                0.871650554      174.030091
9.239                0.871475429      173.675692
9.24                 0.871303034      173.321396
9.241                0.871133377      172.967211
9.242                 0.87096647      172.613143
9.243                 0.87080232      172.259198
9.244                0.870640938      171.905383
9.245                0.870482332      171.551704
9.246                 0.87032651      171.198167
9.247                0.870173481      170.844779
9.248                0.870023252      170.491547
9.249                 0.86987583      170.138475
9.25                 0.869731224      169.785572
9.251                0.869589439      169.432842
9.252                0.869450482      169.080293
9.253                 0.86931436      168.727931
9.254                0.869181079      168.375761
9.255                0.869050643       168.02379
9.256                0.868923058      167.672025
9.257                 0.86879833      167.320471
9.258                0.868676462      166.969134
9.259                0.868557459      166.618021
9.26                 0.868441325      166.267137
9.261                0.868328064       165.91649
9.262                0.868217679      165.566084
9.263                0.868110173      165.215926
9.264                0.868005549      164.866021
9.265                0.867903809      164.516377
9.266                0.867804956      164.166998
9.267                0.867708991      163.817891
9.268                0.867615915      163.469061
9.269                 0.86752573      163.120514
9.27                 0.867438436      162.772256
9.271                0.867354035      162.424293
9.272                0.867272526      162.076631
9.273                0.867193909      161.729275
9.274                0.867118184      161.382231
9.275                0.867045351      161.035505
9.276                0.866975407      160.689102
9.277                0.866908353      160.343027
9.278                0.866844186      159.997287
9.279                0.866782905      159.651887
9.28                 0.866724507      159.306832
9.281                 0.86666899      158.962128
9.282                0.866616351       158.61778
9.283                0.866566588      158.273793
9.284                0.866519696      157.930173
9.285                0.866475672      157.586926
9.286                0.866434512      157.244055
9.287                0.866396213      156.901567
9.288                0.866360769      156.559467
9.289                0.866328176       156.21776
9.29                 0.866298429       155.87645
9.291                0.866271523      155.535543
9.292                0.866247451      155.195045
9.293                0.866226209      154.854959
9.294                0.866207789      154.515291
9.295                0.866192187      154.176045
9.296                0.866179395      153.837227
9.297                0.866169406      153.498842
9.298                0.866162213      153.160893
9.299                0.866157808      152.823386
9.3                  0.866156185      152.486326
9.301                0.866157335      152.149716
9.302                0.866161251      151.813562
9.303                0.866167923      151.477869
9.304                0.866177343       151.14264
9.305                0.866189503      150.807879
9.306                0.866204392      150.473593
9.307                0.866222003      150.139784
9.308                0.866242326      149.806457
9.309                 0.86626535      149.473616
9.31                 0.866291065      149.141266
9.311                0.866319463      148.809411
9.312                0.866350531      148.478054
9.313                 0.86638426        148.1472
9.314                0.866420639      147.816854
9.315                0.866459657      147.487018
9.316                0.866501302      147.157696
9.317                0.866545563      146.828894
9.318                0.866592429      146.500614
9.319                0.866641888       146.17286
9.32                 0.866693927      145.845636
9.321                0.866748534      145.518946
9.322                0.866805698      145.192794
9.323                0.866865405      144.867182
9.324                0.866927644      144.542115
9.325                  0.8669924      144.217596
9.326                0.867059661      143.893628
9.327                0.867129414      143.570215
9.328                0.867201645      143.247361
9.329                0.867276341      142.925068
9.33                 0.867353488       142.60334
9.331                0.867433072      142.282179
9.332                 0.86751508       141.96159
9.333                0.867599496      141.641576
9.334                0.867686308      141.322138
9.335                0.867775499      141.003281
9.336                0.867867057      140.685008
9.337                0.867960965       140.36732
9.338                 0.86805721      140.050222
9.339                0.868155776      139.733716
9.34                 0.868256648      139.417805
9.341                0.868359811      139.102491
9.342                 0.86846525      138.787778
9.343                0.868572949      138.473667
9.344                0.868682893      138.160162
9.345                0.868795066      137.847265
9.346                0.868909452      137.534978
9.347                0.869026036      137.223305
9.348                0.869144801      136.912246
9.349                0.869265732      136.601806
9.35                 0.869388812      136.291986
9.351                0.869514025      135.982788
9.352                0.869641354      135.674214
9.353                0.869770785      135.366268
9.354                0.869902299       135.05895
9.355                 0.87003588      134.752263
9.356                0.870171512      134.446209
9.357                0.870309179      134.140791
9.358                0.870448862      133.836009
9.359                0.870590547      133.531866
9.36                 0.870734214      133.228364
9.361                0.870879849      132.925505
9.362                0.871027433       132.62329
9.363                 0.87117695      132.321721
9.364                0.871328382        132.0208
9.365                0.871481713      131.720528
9.366                0.871636924      131.420908
9.367                   0.871794       131.12194
9.368                0.871952923      130.823626
9.369                0.872113675      130.525968
9.37                 0.872276239      130.228967
9.371                0.872440598      129.932624
9.372                0.872606734      129.636941
9.373                 0.87277463      129.341919
9.374                0.872944269       129.04756
9.375                0.873115632      128.753864
9.376                0.873288703      128.460834
9.377                0.873463464      128.168469
9.378                0.873639898      127.876771
9.379                0.873817986      127.585742
9.38                 0.873997713      127.295381
9.381                0.874179059      127.005691
9.382                0.874362007      126.716672
9.383                 0.87454654      126.428325
9.384                0.874732641      126.140651
9.385                0.874920291      125.853651
9.386                0.875109474      125.567325
9.387                0.875300172      125.281675
9.388                0.875492366      124.996701
9.389                0.875686041      124.712403
9.39                 0.875881178      124.428783
9.391                 0.87607776      124.145842
9.392                0.876275769      123.863578
9.393                0.876475188      123.581994
9.394                0.876675999       123.30109
9.395                0.876878186      123.020866
9.396                 0.87708173      122.741323
