! TOUCHSTONE file generated by CST DESIGN STUDIO
! Date and time: Tue Feb  4 13:55:46 2025
! Project name: C:\Work\MatlabApps\UnitCellOptimizationMatlab\CST\unitcell.cst
! Tree item: Tasks\Sweep1\SPara1\S-Parameters
! Header version: 2024
! Port assignment regex: !\s*Touchstone port\s*([0-9]+)\s*=\s*(CST MWS port|CST DES external port|CST DES block port)\s*(.+)\s* \(\"(.*)\"\)(\s*mode\s*([0-9]+))?.*
! Touchstone port assignment:
! Touchstone port 1 = CST DES external port 1 ("")
# GHz S MA R 50
9                    0.963947414     -78.5355012
9.001                0.963780045      -78.675263
9.002                0.963611612     -78.8154018
9.003                0.963442113     -78.9559189
9.004                0.963271549     -79.0968153
9.005                0.963099916     -79.2380921
9.006                0.962927216     -79.3797505
9.007                0.962753446     -79.5217915
9.008                0.962578605     -79.6642164
9.009                0.962402692     -79.8070262
9.01                 0.962225708     -79.9502221
9.011                 0.96204765     -80.0938053
9.012                0.961868517     -80.2377768
9.013                0.961688309     -80.3821378
9.014                0.961507026     -80.5268894
9.015                0.961324665     -80.6720329
9.016                0.961141227     -80.8175693
9.017                0.960956711     -80.9634999
9.018                0.960771115     -81.1098257
9.019                 0.96058444      -81.256548
9.02                 0.960396684     -81.4036679
9.021                0.960207847     -81.5511865
9.022                0.960017929     -81.6991051
9.023                0.959826929     -81.8474248
9.024                0.959634845     -81.9961468
9.025                0.959441679     -82.1452722
9.026                0.959247429     -82.2948023
9.027                0.959052094     -82.4447383
9.028                0.958855676     -82.5950813
9.029                0.958658172     -82.7458325
9.03                 0.958459583      -82.896993
9.031                0.958259909     -83.0485642
9.032                0.958059149     -83.2005472
9.033                0.957857303     -83.3529432
9.034                0.957654371     -83.5057534
9.035                0.957450353      -83.658979
9.036                0.957245249     -83.8126212
9.037                0.957039057     -83.9666813
9.038                 0.95683178     -84.1211603
9.039                0.956623416     -84.2760597
9.04                 0.956413965     -84.4313805
9.041                0.956203428      -84.587124
9.042                0.955991805     -84.7432914
9.043                0.955779096      -84.899884
9.044                0.955565301      -85.056903
9.045                 0.95535042     -85.2143495
9.046                0.955134454     -85.3722249
9.047                0.954917403     -85.5305303
9.048                0.954699267     -85.6892671
9.049                0.954480047     -85.8484364
9.05                 0.954259743     -86.0080395
9.051                0.954038356     -86.1680776
9.052                0.953815886      -86.328552
9.053                0.953592333     -86.4894639
9.054                0.953367699     -86.6508146
9.055                0.953141984     -86.8126054
9.056                0.952915189     -86.9748374
9.057                0.952687314     -87.1375119
9.058                0.952458361     -87.3006302
9.059                 0.95222833     -87.4641936
9.06                 0.951997221     -87.6282033
9.061                0.951765037     -87.7926606
9.062                0.951531777     -87.9575667
9.063                0.951297444     -88.1229229
9.064                0.951062038     -88.2887306
9.065                0.950825559     -88.4549908
9.066                 0.95058801      -88.621705
9.067                0.950349392     -88.7888744
9.068                0.950109706     -88.9565002
9.069                0.949868952     -89.1245838
9.07                 0.949627133     -89.2931264
9.071                0.949384251     -89.4621293
9.072                0.949140305     -89.6315938
9.073                0.948895299     -89.8015212
9.074                0.948649233     -89.9719127
9.075                0.948402109     -90.1427696
9.076                 0.94815393     -90.3140933
9.077                0.947904696     -90.4858849
9.078                0.947654409     -90.6581459
9.079                0.947403072     -90.8308774
9.08                 0.947150685     -91.0040808
9.081                0.946897252     -91.1777573
9.082                0.946642774     -91.3519083
9.083                0.946387254     -91.5265351
9.084                0.946130693     -91.7016389
9.085                0.945873093      -91.877221
9.086                0.945614457     -92.0532827
9.087                0.945354787     -92.2298253
9.088                0.945094086     -92.4068502
9.089                0.944832355     -92.5843585
9.09                 0.944569598     -92.7623517
9.091                0.944305817     -92.9408309
9.092                0.944041015     -93.1197976
9.093                0.943775193     -93.2992529
9.094                0.943508356     -93.4791982
9.095                0.943240505     -93.6596348
9.096                0.942971644      -93.840564
9.097                0.942701776     -94.0219871
9.098                0.942430902     -94.2039053
9.099                0.942159028       -94.38632
9.1                  0.941886155     -94.5692324
9.101                0.941612287     -94.7526439
9.102                0.941337427     -94.9365558
9.103                0.941061578     -95.1209692
9.104                0.940784744     -95.3058857
9.105                0.940506929     -95.4913063
9.106                0.940228134     -95.6772325
9.107                0.939948366     -95.8636655
9.108                0.939667626     -96.0506066
9.109                0.939385919      -96.238057
9.11                 0.939103248     -96.4260182
9.111                0.938819617     -96.6144913
9.112                0.938535031     -96.8034776
9.113                0.938249493     -96.9929785
9.114                0.937963008     -97.1829952
9.115                0.937675578      -97.373529
9.116                 0.93738721     -97.5645812
9.117                0.937097906      -97.756153
9.118                0.936807672     -97.9482457
9.119                0.936516511     -98.1408606
9.12                 0.936224429      -98.333999
9.121                0.935931429     -98.5276622
9.122                0.935637517     -98.7218513
9.123                0.935342698     -98.9165677
9.124                0.935046975     -99.1118127
9.125                0.934750355     -99.3075874
9.126                0.934452841     -99.5038931
9.127                 0.93415444     -99.7007312
9.128                0.933855155     -99.8981028
9.129                0.933554993     -100.096009
9.13                 0.933253959     -100.294452
9.131                0.932952058     -100.493431
9.132                0.932649295      -100.69295
9.133                0.932345676     -100.893008
9.134                0.932041207     -101.093607
9.135                0.931735893     -101.294748
9.136                0.931429741     -101.496433
9.137                0.931122755     -101.698662
9.138                0.930814942     -101.901437
9.139                0.930506309     -102.104759
9.14                  0.93019686      -102.30863
9.141                0.929886603      -102.51305
9.142                0.929575544     -102.718021
9.143                0.929263688     -102.923543
9.144                0.928951043     -103.129619
9.145                0.928637615     -103.336249
9.146                0.928323411     -103.543434
9.147                0.928008437     -103.751176
9.148                0.927692701     -103.959476
9.149                0.927376208     -104.168335
9.15                 0.927058967     -104.377754
9.151                0.926740984     -104.587734
9.152                0.926422266     -104.798276
9.153                0.926102821     -105.009382
9.154                0.925782656     -105.221053
9.155                0.925461779      -105.43329
9.156                0.925140197     -105.646093
9.157                0.924817917     -105.859464
9.158                0.924494948     -106.073405
9.159                0.924171297     -106.287916
9.16                 0.923846972     -106.502998
9.161                0.923521982     -106.718653
9.162                0.923196334     -106.934881
9.163                0.922870036     -107.151683
9.164                0.922543097     -107.369062
9.165                0.922215526     -107.587017
9.166                 0.92188733     -107.805549
9.167                0.921558519     -108.024661
9.168                0.921229101     -108.244352
9.169                0.920899084     -108.464624
9.17                 0.920568478     -108.685478
9.171                0.920237292     -108.906915
9.172                0.919905535     -109.128936
9.173                0.919573216     -109.351541
9.174                0.919240344     -109.574732
9.175                0.918906929      -109.79851
9.176                0.918572979     -110.022876
9.177                0.918238506     -110.247831
9.178                0.917903518     -110.473375
9.179                0.917568025      -110.69951
9.18                 0.917232038     -110.926236
9.181                0.916895565     -111.153554
9.182                0.916558618     -111.381466
9.183                0.916221206     -111.609972
9.184                0.915883339     -111.839073
9.185                0.915545029      -112.06877
9.186                0.915206286     -112.299064
9.187                0.914867119     -112.529956
9.188                0.914527541     -112.761445
9.189                0.914187561     -112.993534
9.19                 0.913847191     -113.226223
9.191                0.913506442     -113.459513
9.192                0.913165325     -113.693405
9.193                 0.91282385     -113.927899
9.194                 0.91248203     -114.162996
9.195                0.912139876     -114.398697
9.196                  0.9117974     -114.635003
9.197                0.911454612     -114.871914
9.198                0.911111526     -115.109431
9.199                0.910768152     -115.347555
9.2                  0.910424502     -115.586286
9.201                 0.91008059     -115.825626
9.202                0.909736426     -116.065574
9.203                0.909392024     -116.306131
9.204                0.909047395     -116.547299
9.205                0.908702553     -116.789077
9.206                0.908357509     -117.031466
9.207                0.908012277     -117.274467
9.208                0.907666869      -117.51808
9.209                0.907321299     -117.762306
9.21                 0.906975578     -118.007146
9.211                0.906629722     -118.252599
9.212                0.906283742     -118.498667
9.213                0.905937652     -118.745349
9.214                0.905591466     -118.992647
9.215                0.905245197     -119.240561
9.216                0.904898858     -119.489091
9.217                0.904552465     -119.738238
9.218                 0.90420603     -119.988001
9.219                0.903859567     -120.238382
9.22                 0.903513092     -120.489381
9.221                0.903166617     -120.740998
9.222                0.902820158     -120.993234
9.223                0.902473728     -121.246088
9.224                0.902127342     -121.499561
9.225                0.901781016     -121.753654
9.226                0.901434763     -122.008366
9.227                0.901088599     -122.263698
9.228                0.900742538     -122.519651
9.229                0.900396597     -122.776223
9.23                 0.900050789     -123.033416
9.231                 0.89970513      -123.29123
9.232                0.899359636     -123.549665
9.233                0.899014322     -123.808721
9.234                0.898669204     -124.068398
9.235                0.898324297     -124.328696
9.236                0.897979618     -124.589615
9.237                0.897635183     -124.851156
9.238                0.897291006     -125.113319
9.239                0.896947106     -125.376103
9.24                 0.896603497     -125.639508
9.241                0.896260197     -125.903536
9.242                0.895917222     -126.168184
9.243                0.895574589     -126.433455
9.244                0.895232314     -126.699347
9.245                0.894890413     -126.965861
9.246                0.894548905     -127.232996
9.247                0.894207807     -127.500753
9.248                0.893867134     -127.769132
9.249                0.893526906     -128.038131
9.25                 0.893187138     -128.307753
9.251                 0.89284785     -128.577995
9.252                0.892509057     -128.848859
9.253                0.892170778     -129.120344
9.254                0.891833032      -129.39245
9.255                0.891495835     -129.665177
9.256                0.891159206     -129.938525
9.257                0.890823164     -130.212494
9.258                0.890487726     -130.487083
9.259                 0.89015291     -130.762294
9.26                 0.889818737     -131.038126
9.261                0.889485223     -131.314579
9.262                0.889152388     -131.591654
9.263                0.888820251      -131.86935
9.264                 0.88848883     -132.147667
9.265                0.888158145     -132.426606
9.266                0.887828215     -132.706168
9.267                0.887499059     -132.986353
9.268                0.887170697     -133.267161
9.269                0.886843147     -133.548593
9.27                  0.88651643     -133.830651
9.271                0.886190565     -134.113335
9.272                0.885865572     -134.396647
9.273                 0.88554147     -134.680588
9.274                 0.88521828     -134.965161
9.275                0.884896021     -135.250367
9.276                0.884574712      -135.53621
9.277                0.884254375     -135.822693
9.278                0.883935028      -136.10982
9.279                0.883616691     -136.397596
9.28                 0.883299384     -136.686027
9.281                0.882983127     -136.975119
9.282                0.882667938     -137.264882
9.283                0.882353837     -137.555325
9.284                0.882040842      -137.84646
9.285                0.881728971     -138.138304
9.286                 0.88141824     -138.430873
9.287                0.881108666     -138.724192
9.288                0.880800262     -139.018287
9.289                 0.88049304     -139.313196
9.29                 0.880187008     -139.608963
9.291                0.879882171     -139.905645
9.292                0.879578522     -140.203316
9.293                0.879276049     -140.502074
9.294                0.878974718     -140.802048
9.295                0.878674472     -141.103411
9.296                0.878375208     -141.406402
9.297                0.878076753     -141.711352
9.298                0.877778808     -142.018736
9.299                0.877480852     -142.329237
9.3                  0.877181963     -142.643863
9.301                0.876880477       -142.9641
9.302                0.876573392     -143.292095
9.303                0.876255604     -143.630638
9.304                0.875920605      -143.98198
9.305                0.875570701     -144.342439
9.306                0.875251099       -144.6891
9.307                0.875045046     -144.978148
9.308                0.874905171     -145.201749
9.309                0.874702675     -145.412879
9.31                  0.87443704     -145.648894
9.311                0.874151017     -145.911341
9.312                0.873864396     -146.191585
9.313                0.873582022     -146.482577
9.314                0.873304176     -146.780031
9.315                0.873030231     -147.081506
9.316                0.872759567     -147.385615
9.317                0.872491729     -147.691548
9.318                0.872226407     -147.998821
9.319                0.871963397     -148.307136
9.32                 0.871702564     -148.616305
9.321                0.871443819     -148.926205
9.322                0.871187106     -149.236755
9.323                0.870932386     -149.547898
9.324                0.870679637     -149.859597
9.325                0.870428846     -150.171823
9.326                0.870180006     -150.484557
9.327                0.869933116     -150.797784
9.328                0.869688179     -151.111492
9.329                0.869445198     -151.425672
9.33                 0.869204181     -151.740318
9.331                0.868965135     -152.055423
9.332                0.868728069     -152.370981
9.333                0.868492995      -152.68699
9.334                0.868259922     -153.003444
9.335                0.868028863     -153.320339
9.336                0.867799828     -153.637673
9.337                0.867572831     -153.955441
9.338                0.867347884     -154.273641
9.339                   0.867125     -154.592268
9.34                 0.866904193     -154.911321
9.341                0.866685475     -155.230795
9.342                0.866468861     -155.550687
9.343                0.866254363     -155.870995
9.344                0.866041997     -156.191714
9.345                0.865831776     -156.512842
9.346                0.865623715     -156.834375
9.347                0.865417827      -157.15631
9.348                0.865214127     -157.478642
9.349                 0.86501263     -157.801369
9.35                  0.86481335     -158.124488
9.351                0.864616302     -158.447994
9.352                0.864421499     -158.771883
9.353                0.864228957     -159.096153
9.354                 0.86403869     -159.420799
9.355                0.863850713     -159.745818
9.356                 0.86366504     -160.071205
9.357                0.863481685     -160.396956
9.358                0.863300663     -160.723069
9.359                0.863121988     -161.049538
9.36                 0.862945674     -161.376359
9.361                0.862771736     -161.703529
9.362                0.862600186     -162.031044
9.363                 0.86243104     -162.358898
9.364                 0.86226431     -162.687088
9.365                 0.86210001      -163.01561
9.366                0.861938154     -163.344458
9.367                0.861778755      -163.67363
9.368                0.861621826     -164.003119
9.369                 0.86146738     -164.332923
9.37                 0.861315429     -164.663035
9.371                0.861165985     -164.993452
9.372                0.861019063      -165.32417
9.373                0.860874672     -165.655182
9.374                0.860732826     -165.986485
9.375                0.860593535     -166.318075
9.376                0.860456812     -166.649945
9.377                0.860322667     -166.982092
9.378                0.860191111      -167.31451
9.379                0.860062156     -167.647195
9.38                 0.859935812     -167.980142
9.381                0.859812088     -168.313345
9.382                0.859690995       -168.6468
9.383                0.859572543     -168.980503
9.384                0.859456742     -169.314447
9.385                0.859343599     -169.648627
9.386                0.859233125     -169.983039
9.387                0.859125328     -170.317678
9.388                0.859020217     -170.652538
9.389                0.858917799     -170.987615
9.39                 0.858818083     -171.322902
9.391                0.858721076     -171.658395
9.392                0.858626786     -171.994088
9.393                0.858535219     -172.329977
9.394                0.858446384     -172.666055
9.395                0.858360285     -173.002318
9.396                 0.85827693     -173.338761
