! TOUCHSTONE file generated by CST DESIGN STUDIO
! Date and time: Tue Feb  4 13:55:41 2025
! Project name: C:\Work\MatlabApps\UnitCellOptimizationMatlab\CST\unitcell.cst
! Tree item: Tasks\Sweep1\SPara1\S-Parameters
! Header version: 2024
! Port assignment regex: !\s*Touchstone port\s*([0-9]+)\s*=\s*(CST MWS port|CST DES external port|CST DES block port)\s*(.+)\s* \(\"(.*)\"\)(\s*mode\s*([0-9]+))?.*
! Touchstone port assignment:
! Touchstone port 1 = CST DES external port 1 ("")
# GHz S MA R 50
9                    0.955314714     -93.9195944
9.001                0.955106016     -94.1080285
9.002                0.954895874     -94.2970067
9.003                0.954684287     -94.4865302
9.004                0.954471252     -94.6766003
9.005                0.954256767     -94.8672181
9.006                0.954040832      -95.058385
9.007                0.953823444     -95.2501022
9.008                0.953604602     -95.4423708
9.009                0.953384304     -95.6351921
9.01                  0.95316255     -95.8285674
9.011                0.952939337     -96.0224977
9.012                0.952714665     -96.2169844
9.013                0.952488533     -96.4120286
9.014                0.952260939     -96.6076316
9.015                0.952031883     -96.8037944
9.016                0.951801363     -97.0005184
9.017                0.951569381     -97.1978046
9.018                0.951335933     -97.3956544
9.019                0.951101021     -97.5940687
9.02                 0.950864643     -97.7930489
9.021                  0.9506268     -97.9925961
9.022                 0.95038749     -98.1927114
9.023                0.950146715      -98.393396
9.024                0.949904474      -98.594651
9.025                0.949660766     -98.7964776
9.026                0.949415593     -98.9988769
9.027                0.949168954     -99.2018501
9.028                 0.94892085     -99.4053983
9.029                0.948671282     -99.6095225
9.03                 0.948420249     -99.8142239
9.031                0.948167753     -100.019504
9.032                0.947913795     -100.225363
9.033                0.947658375     -100.431803
9.034                0.947401494     -100.638824
9.035                0.947143154     -100.846428
9.036                0.946883357     -101.054616
9.037                0.946622102     -101.263388
9.038                0.946359392     -101.472746
9.039                0.946095229     -101.682692
9.04                 0.945829614     -101.893225
9.041                0.945562549     -102.104347
9.042                0.945294036      -102.31606
9.043                0.945024078     -102.528363
9.044                0.944752676     -102.741259
9.045                0.944479832     -102.954747
9.046                 0.94420555      -103.16883
9.047                0.943929832     -103.383507
9.048                0.943652681     -103.598781
9.049                0.943374099     -103.814652
9.05                 0.943094089     -104.031121
9.051                0.942812656     -104.248188
9.052                0.942529801     -104.465856
9.053                0.942245528     -104.684124
9.054                0.941959842     -104.902994
9.055                0.941672745     -105.122467
9.056                0.941384241     -105.342543
9.057                0.941094335     -105.563224
9.058                 0.94080303      -105.78451
9.059                 0.94051033     -106.006403
9.06                 0.940216241     -106.228902
9.061                0.939920766      -106.45201
9.062                 0.93962391     -106.675726
9.063                0.939325679     -106.900052
9.064                0.939026076     -107.124988
9.065                0.938725107     -107.350535
9.066                0.938422777     -107.576695
9.067                0.938119092     -107.803467
9.068                0.937814057     -108.030854
9.069                0.937507678     -108.258854
9.07                 0.937199961      -108.48747
9.071                0.936890911     -108.716701
9.072                0.936580535     -108.946549
9.073                0.936268839     -109.177015
9.074                0.935955829     -109.408098
9.075                0.935641513       -109.6398
9.076                0.935325897     -109.872122
9.077                0.935008987     -110.105064
9.078                0.934690791     -110.338626
9.079                0.934371317      -110.57281
9.08                 0.934050571     -110.807615
9.081                0.933728561     -111.043044
9.082                0.933405294     -111.279095
9.083                 0.93308078      -111.51577
9.084                0.932755025      -111.75307
9.085                0.932428038     -111.990995
9.086                0.932099827     -112.229544
9.087                0.931770401      -112.46872
9.088                0.931439769     -112.708523
9.089                0.931107939     -112.948952
9.09                  0.93077492     -113.190008
9.091                0.930440722     -113.431693
9.092                0.930105354     -113.674006
9.093                0.929768825     -113.916947
9.094                0.929431146     -114.160518
9.095                0.929092326     -114.404718
9.096                0.928752375     -114.649548
9.097                0.928411304     -114.895008
9.098                0.928069122     -115.141099
9.099                0.927725841     -115.387821
9.1                   0.92738147     -115.635175
9.101                0.927036022     -115.883159
9.102                0.926689507     -116.131776
9.103                0.926341937     -116.381024
9.104                0.925993322     -116.630905
9.105                0.925643675     -116.881418
9.106                0.925293006     -117.132564
9.107                 0.92494133     -117.384343
9.108                0.924588656     -117.636755
9.109                0.924234998       -117.8898
9.11                 0.923880368     -118.143478
9.111                 0.92352478      -118.39779
9.112                0.923168244     -118.652735
9.113                0.922810776     -118.908313
9.114                0.922452388     -119.164526
9.115                0.922093092     -119.421371
9.116                0.921732904      -119.67885
9.117                0.921371836     -119.936963
9.118                0.921009903     -120.195709
9.119                0.920647119     -120.455088
9.12                 0.920283497     -120.715101
9.121                0.919919053     -120.975747
9.122                  0.9195538     -121.237026
9.123                0.919187755     -121.498937
9.124                0.918820931     -121.761482
9.125                0.918453344     -122.024659
9.126                0.918085009     -122.288468
9.127                0.917715942     -122.552909
9.128                0.917346159     -122.817981
9.129                0.916975675     -123.083685
9.13                 0.916604506      -123.35002
9.131                0.916232668     -123.616986
9.132                0.915860179     -123.884582
9.133                0.915487054     -124.152808
9.134                0.915113311     -124.421663
9.135                0.914738965     -124.691148
9.136                0.914364035     -124.961261
9.137                0.913988537     -125.232001
9.138                 0.91361249      -125.50337
9.139                0.913235909     -125.775365
9.14                 0.912858814     -126.047987
9.141                0.912481223     -126.321234
9.142                0.912103152     -126.595107
9.143                0.911724622     -126.869603
9.144                0.911345649     -127.144724
9.145                0.910966253     -127.420467
9.146                0.910586452     -127.696833
9.147                0.910206266      -127.97382
9.148                0.909825713     -128.251428
9.149                0.909444813     -128.529656
9.15                 0.909063585     -128.808502
9.151                0.908682049     -129.087967
9.152                0.908300224     -129.368048
9.153                0.907918131     -129.648746
9.154                0.907535789     -129.930059
9.155                0.907153218     -130.211986
9.156                 0.90677044     -130.494526
9.157                0.906387474     -130.777678
9.158                0.906004341     -131.061441
9.159                0.905621062     -131.345814
9.16                 0.905237659     -131.630796
9.161                0.904854151     -131.916385
9.162                 0.90447056      -132.20258
9.163                0.904086909      -132.48938
9.164                0.903703217     -132.776783
9.165                0.903319507     -133.064789
9.166                0.902935801     -133.353396
9.167                0.902552121     -133.642602
9.168                0.902168489     -133.932406
9.169                0.901784926     -134.222807
9.17                 0.901401456     -134.513803
9.171                  0.9010181     -134.805393
9.172                0.900634882     -135.097575
9.173                0.900251824     -135.390347
9.174                0.899868949     -135.683708
9.175                0.899486279     -135.977656
9.176                0.899103839      -136.27219
9.177                0.898721651     -136.567307
9.178                0.898339738     -136.863007
9.179                0.897958125     -137.159286
9.18                 0.897576833     -137.456144
9.181                0.897195888     -137.753579
9.182                0.896815313     -138.051588
9.183                0.896435131     -138.350169
9.184                0.896055367     -138.649322
9.185                0.895676044     -138.949043
9.186                0.895297187      -139.24933
9.187                 0.89491882     -139.550182
9.188                0.894540968     -139.851597
9.189                0.894163653     -140.153572
9.19                 0.893786902     -140.456104
9.191                0.893410739     -140.759193
9.192                0.893035188     -141.062835
9.193                0.892660274     -141.367029
9.194                0.892286022     -141.671771
9.195                0.891912456      -141.97706
9.196                0.891539602     -142.282893
9.197                0.891167484     -142.589268
9.198                0.890796127     -142.896182
9.199                0.890425557     -143.203632
9.2                  0.890055799     -143.511617
9.201                0.889686878     -143.820134
9.202                0.889318819     -144.129179
9.203                0.888951647      -144.43875
9.204                0.888585387     -144.748845
9.205                0.888220066     -145.059461
9.206                0.887855708     -145.370594
9.207                0.887492339     -145.682243
9.208                0.887129984     -145.994404
9.209                0.886768668     -146.307075
9.21                 0.886408418     -146.620252
9.211                0.886049258     -146.933932
9.212                0.885691214     -147.248113
9.213                0.885334312     -147.562791
9.214                0.884978576     -147.877964
9.215                0.884624034     -148.193627
9.216                0.884270709     -148.509779
9.217                0.883918628     -148.826416
9.218                0.883567815     -149.143534
9.219                0.883218298      -149.46113
9.22                   0.8828701     -149.779202
9.221                0.882523247     -150.097745
9.222                0.882177766     -150.416756
9.223                 0.88183368     -150.736232
9.224                0.881491016     -151.056169
9.225                0.881149798     -151.376565
9.226                0.880810053     -151.697414
9.227                0.880471804     -152.018714
9.228                0.880135079     -152.340462
9.229                  0.8797999     -152.662652
9.23                 0.879466294     -152.985283
9.231                0.879134286     -153.308349
9.232                0.878803899     -153.631848
9.233                0.878475161     -153.955775
9.234                0.878148094     -154.280126
9.235                0.877822724     -154.604899
9.236                0.877499075     -154.930088
9.237                0.877177172      -155.25569
9.238                 0.87685704     -155.581701
9.239                0.876538702     -155.908116
9.24                 0.876222183     -156.234933
9.241                0.875907507     -156.562146
9.242                0.875594699     -156.889751
9.243                0.875283781     -157.217745
9.244                0.874974779     -157.546123
9.245                0.874667715     -157.874881
9.246                0.874362613     -158.204015
9.247                0.874059496      -158.53352
9.248                0.873758389     -158.863392
9.249                0.873459314     -159.193627
9.25                 0.873162294      -159.52422
9.251                0.872867352     -159.855167
9.252                0.872574511     -160.186463
9.253                0.872283794     -160.518103
9.254                0.871995223     -160.850084
9.255                 0.87170882     -161.182401
9.256                0.871424607     -161.515049
9.257                0.871142607     -161.848023
9.258                0.870862841     -162.181319
9.259                0.870585331     -162.514932
9.26                 0.870310098     -162.848858
9.261                0.870037164     -163.183091
9.262                0.869766549     -163.517627
9.263                0.869498275      -163.85246
9.264                0.869232363     -164.187587
9.265                0.868968832     -164.523002
9.266                0.868707704     -164.858701
9.267                0.868448997     -165.194678
9.268                0.868192734     -165.530928
9.269                0.867938932     -165.867446
9.27                 0.867687611     -166.204228
9.271                0.867438791     -166.541268
9.272                0.867192491     -166.878562
9.273                 0.86694873     -167.216104
9.274                0.866707526     -167.553888
9.275                0.866468897     -167.891911
9.276                0.866232862     -168.230166
9.277                0.865999439     -168.568649
9.278                0.865768645     -168.907354
9.279                0.865540498     -169.246276
9.28                 0.865315015     -169.585409
9.281                0.865092212     -169.924749
9.282                0.864872108      -170.26429
9.283                0.864654717     -170.604027
9.284                0.864440056     -170.943955
9.285                0.864228142     -171.284067
9.286                0.864018989     -171.624359
9.287                0.863812613     -171.964825
9.288                 0.86360903      -172.30546
9.289                0.863408254     -172.646258
9.29                 0.863210299     -172.987214
9.291                0.863015181     -173.328322
9.292                0.862822912     -173.669577
9.293                0.862633508     -174.010973
9.294                 0.86244698     -174.352505
9.295                0.862263343     -174.694167
9.296                0.862082609     -175.035954
9.297                0.861904791     -175.377859
9.298                0.861729902     -175.719878
9.299                0.861557953     -176.062004
9.3                  0.861388956     -176.404233
9.301                0.861222922     -176.746558
9.302                0.861059863     -177.088974
9.303                0.860899789     -177.431475
9.304                0.860742712     -177.774055
9.305                0.860588641     -178.116709
9.306                0.860437586     -178.459431
9.307                0.860289557     -178.802215
9.308                0.860144564     -179.145056
9.309                0.860002615     -179.487948
9.31                 0.859863719     -179.830885
9.311                0.859727884      179.826139
9.312                 0.85959512      179.483129
9.313                0.859465432      179.140091
9.314                 0.85933883      178.797031
9.315                 0.85921532      178.453955
9.316                 0.85909491      178.110868
9.317                0.858977605      177.767777
9.318                0.858863412      177.424686
9.319                0.858752337      177.081602
9.32                 0.858644386       176.73853
9.321                0.858539564      176.395477
9.322                0.858437876      176.052448
9.323                0.858339328      175.709449
9.324                0.858243922      175.366485
9.325                0.858151665      175.023563
9.326                0.858062558      174.680688
9.327                0.857976607      174.337866
9.328                0.857893814      173.995102
9.329                0.857814182      173.652403
9.33                 0.857737714      173.309774
9.331                0.857664412      172.967221
9.332                0.857594279       172.62475
9.333                0.857527315      172.282366
9.334                0.857463523      171.940076
9.335                0.857402904      171.597884
9.336                0.857345458      171.255797
9.337                0.857291187       170.91382
9.338                 0.85724009      170.571959
9.339                0.857192167       170.23022
9.34                 0.857147419      169.888609
9.341                0.857105845       169.54713
9.342                0.857067444       169.20579
9.343                0.857032215      168.864595
9.344                0.857000157      168.523549
9.345                0.856971268       168.18266
9.346                0.856945547      167.841931
9.347                0.856922991      167.501369
9.348                0.856903598       167.16098
9.349                0.856887366      166.820768
9.35                 0.856874291       166.48074
9.351                0.856864372      166.140902
9.352                0.856857604      165.801257
9.353                0.856853984      165.461813
9.354                0.856853508      165.122574
9.355                0.856856173      164.783546
9.356                0.856861975      164.444735
9.357                0.856870909      164.106146
9.358                0.856882971      163.767783
9.359                0.856898156      163.429654
9.36                  0.85691646      163.091762
9.361                0.856937877      162.754114
9.362                0.856962403      162.416714
9.363                0.856990032      162.079569
9.364                0.857020759      161.742682
9.365                0.857054579       161.40606
9.366                0.857091485      161.069708
9.367                0.857131473      160.733631
9.368                0.857174537      160.397834
9.369                 0.85722067      160.062322
9.37                 0.857269867        159.7271
9.371                0.857322123      159.392174
9.372                 0.85737743      159.057548
9.373                0.857435784      158.723229
9.374                0.857497179      158.389219
9.375                0.857561608      158.055526
9.376                0.857629066      157.722153
9.377                0.857699547      157.389105
9.378                0.857773046      157.056389
9.379                0.857849557      156.724007
9.38                 0.857929076      156.391966
9.381                0.858011596      156.060269
9.382                0.858097114      155.728923
9.383                0.858185624      155.397931
9.384                0.858277123      155.067298
9.385                0.858371606       154.73703
9.386                0.858469071       154.40713
9.387                0.858569513      154.077603
9.388                0.858672931      153.748454
9.389                0.858779322      153.419688
9.39                 0.858888685      153.091309
9.391                0.859001019      152.763321
9.392                0.859116325      152.435729
9.393                0.859234602      152.108537
9.394                0.859355853       151.78175
9.395                 0.85948008      151.455371
9.396                0.859607288      151.129406
