! TOUCHSTONE file generated by CST DESIGN STUDIO
! Date and time: Tue Feb  4 12:49:09 2025
! Project name: C:\Work\MatlabApps\UnitCellOptimizationMatlab\CST\unitcell.cst
! Tree item: Tasks\Sweep1\SPara1\S-Parameters
! Header version: 2024
! Port assignment regex: !\s*Touchstone port\s*([0-9]+)\s*=\s*(CST MWS port|CST DES external port|CST DES block port)\s*(.+)\s* \(\"(.*)\"\)(\s*mode\s*([0-9]+))?.*
! Touchstone port assignment:
! Touchstone port 1 = CST DES external port 1 ("")
# GHz S MA R 50
9                    0.977837861       -61.70903
9.001                  0.9777931     -61.7939038
9.002                0.977748203      -61.878973
9.003                 0.97770317     -61.9642382
9.004                   0.977658        -62.0497
9.005                0.977612692      -62.135359
9.006                0.977567247     -62.2212158
9.007                0.977521663      -62.307271
9.008                0.977475941     -62.3935253
9.009                 0.97743008     -62.4799793
9.01                 0.977384079     -62.5666336
9.011                0.977337939     -62.6534887
9.012                0.977291658     -62.7405454
9.013                0.977245237     -62.8278043
9.014                0.977198674     -62.9152659
9.015                 0.97715197      -63.002931
9.016                0.977105123     -63.0908002
9.017                0.977058135      -63.178874
9.018                0.977011003     -63.2671532
9.019                0.976963728     -63.3556383
9.02                 0.976916309     -63.4443301
9.021                0.976868746     -63.5332291
9.022                0.976821039      -63.622336
9.023                0.976773186     -63.7116515
9.024                0.976725188     -63.8011762
9.025                0.976677044     -63.8909107
9.026                0.976628753     -63.9808558
9.027                0.976580316      -64.071012
9.028                0.976531731       -64.16138
9.029                0.976482999     -64.2519606
9.03                 0.976434119     -64.3427543
9.031                 0.97638509     -64.4337618
9.032                0.976335911     -64.5249838
9.033                0.976286584     -64.6164209
9.034                0.976237106     -64.7080739
9.035                0.976187478     -64.7999434
9.036                  0.9761377     -64.8920301
9.037                 0.97608777     -64.9843346
9.038                0.976037688     -65.0768577
9.039                0.975987454     -65.1695999
9.04                 0.975937068     -65.2625621
9.041                0.975886528     -65.3557449
9.042                0.975835835      -65.449149
9.043                0.975784988     -65.5427751
9.044                0.975733987     -65.6366238
9.045                0.975682831      -65.730696
9.046                0.975631519     -65.8249921
9.047                0.975580052     -65.9195131
9.048                0.975528428     -66.0142595
9.049                0.975476648     -66.1092321
9.05                 0.975424711     -66.2044316
9.051                0.975372616     -66.2998587
9.052                0.975320363     -66.3955142
9.053                0.975267951     -66.4913986
9.054                0.975215381     -66.5875128
9.055                0.975162651     -66.6838574
9.056                0.975109761     -66.7804333
9.057                0.975056711      -66.877241
9.058                  0.9750035     -66.9742814
9.059                0.974950128     -67.0715551
9.06                 0.974896595      -67.169063
9.061                0.974842899     -67.2668056
9.062                 0.97478904     -67.3647839
9.063                0.974735019     -67.4629984
9.064                0.974680834       -67.56145
9.065                0.974626485     -67.6601393
9.066                0.974571971     -67.7590672
9.067                0.974517293     -67.8582344
9.068                0.974462449     -67.9576416
9.069                 0.97440744     -68.0572895
9.07                 0.974352264      -68.157179
9.071                0.974296921     -68.2573108
9.072                0.974241412     -68.3576856
9.073                0.974185734     -68.4583043
9.074                0.974129889     -68.5591675
9.075                0.974073875      -68.660276
9.076                0.974017691     -68.7616307
9.077                0.973961339     -68.8632322
9.078                0.973904816     -68.9650814
9.079                0.973848123      -69.067179
9.08                 0.973791259     -69.1695258
9.081                0.973734224     -69.2721226
9.082                0.973677017     -69.3749701
9.083                0.973619638     -69.4780692
9.084                0.973562086     -69.5814206
9.085                 0.97350436     -69.6850252
9.086                0.973446461     -69.7888836
9.087                0.973388388     -69.8929968
9.088                0.973330141     -69.9973655
9.089                0.973271718     -70.1019905
9.09                  0.97321312     -70.2068725
9.091                0.973154346     -70.3120125
9.092                0.973095396     -70.4174112
9.093                0.973036269     -70.5230695
9.094                0.972976964      -70.628988
9.095                0.972917482     -70.7351678
9.096                0.972857822     -70.8416094
9.097                0.972797982     -70.9483139
9.098                0.972737964     -71.0552819
9.099                0.972677766     -71.1625144
9.1                  0.972617388     -71.2700121
9.101                 0.97255683     -71.3777759
9.102                 0.97249609     -71.4858066
9.103                 0.97243517     -71.5941051
9.104                0.972374067     -71.7026721
9.105                0.972312782     -71.8115085
9.106                0.972251314     -71.9206152
9.107                0.972189664     -72.0299929
9.108                0.972127829     -72.1396426
9.109                 0.97206581     -72.2495651
9.11                 0.972003607     -72.3597612
9.111                0.971941219     -72.4702317
9.112                0.971878646     -72.5809776
9.113                0.971815886     -72.6919997
9.114                 0.97175294     -72.8032988
9.115                0.971689808     -72.9148759
9.116                0.971626488     -73.0267317
9.117                0.971562981     -73.1388671
9.118                0.971499286      -73.251283
9.119                0.971435402     -73.3639803
9.12                 0.971371329     -73.4769599
9.121                0.971307066     -73.5902225
9.122                0.971242614     -73.7037692
9.123                0.971177972     -73.8176007
9.124                0.971113139      -73.931718
9.125                0.971048115     -74.0461219
9.126                0.970982899     -74.1608133
9.127                0.970917492     -74.2757932
9.128                0.970851892     -74.3910624
9.129                0.970786099     -74.5066217
9.13                 0.970720113     -74.6224722
9.131                0.970653933     -74.7386146
9.132                0.970587559     -74.8550499
9.133                0.970520991      -74.971779
9.134                0.970454228     -75.0888029
9.135                0.970387269     -75.2061223
9.136                0.970320115     -75.3237382
9.137                0.970252765     -75.4416516
9.138                0.970185218     -75.5598633
9.139                0.970117474     -75.6783742
9.14                 0.970049533     -75.7971854
9.141                0.969981394     -75.9162976
9.142                0.969913057     -76.0357118
9.143                0.969844521      -76.155429
9.144                0.969775787       -76.27545
9.145                0.969706853     -76.3957759
9.146                0.969637719     -76.5164075
9.147                0.969568385     -76.6373457
9.148                0.969498851     -76.7585915
9.149                0.969429116     -76.8801459
9.15                  0.96935918     -77.0020098
9.151                0.969289042      -77.124184
9.152                0.969218702     -77.2466697
9.153                 0.96914816     -77.3694676
9.154                0.969077415     -77.4925789
9.155                0.969006467     -77.6160043
9.156                0.968935315     -77.7397449
9.157                 0.96886396     -77.8638016
9.158                  0.9687924     -77.9881754
9.159                0.968720636     -78.1128673
9.16                 0.968648667     -78.2378781
9.161                0.968576493      -78.363209
9.162                0.968504113     -78.4888607
9.163                0.968431527     -78.6148344
9.164                0.968358736     -78.7411309
9.165                0.968285737     -78.8677512
9.166                0.968212532     -78.9946964
9.167                0.968139119     -79.1219674
9.168                0.968065499     -79.2495652
9.169                0.967991671     -79.3774907
9.17                 0.967917634     -79.5057449
9.171                 0.96784339     -79.6343289
9.172                0.967768936     -79.7632435
9.173                0.967694273     -79.8924899
9.174                0.967619401     -80.0220689
9.175                0.967544319     -80.1519816
9.176                0.967469027      -80.282229
9.177                0.967393525      -80.412812
9.178                0.967317813     -80.5437317
9.179                0.967241889     -80.6749891
9.18                 0.967165755     -80.8065851
9.181                0.967089409     -80.9385208
9.182                0.967012851     -81.0707972
9.183                0.966936081     -81.2034152
9.184                  0.9668591     -81.3363759
9.185                0.966781905     -81.4696803
9.186                0.966704499     -81.6033294
9.187                0.966626879     -81.7373242
9.188                0.966549046     -81.8716658
9.189                   0.966471     -82.0063551
9.19                  0.96639274     -82.1413932
9.191                0.966314267     -82.2767811
9.192                0.966235579     -82.4125198
9.193                0.966156678     -82.5486103
9.194                0.966077562     -82.6850536
9.195                0.965998231     -82.8218509
9.196                0.965918685      -82.959003
9.197                0.965838925     -83.0965111
9.198                0.965758949     -83.2343762
9.199                0.965678758     -83.3725993
9.2                  0.965598351     -83.5111814
9.201                0.965517729     -83.6501236
9.202                0.965436891     -83.7894269
9.203                0.965355837     -83.9290923
9.204                0.965274567     -84.0691209
9.205                0.965193081     -84.2095138
9.206                0.965111378     -84.3502719
9.207                0.965029459     -84.4913963
9.208                0.964947324      -84.632888
9.209                0.964864971     -84.7747482
9.21                 0.964782402     -84.9169778
9.211                0.964699616     -85.0595779
9.212                0.964616613     -85.2025495
9.213                0.964533393     -85.3458937
9.214                0.964449955     -85.4896116
9.215                0.964366301     -85.6337041
9.216                0.964282429     -85.7781724
9.217                 0.96419834     -85.9230175
9.218                0.964114034     -86.0682404
9.219                 0.96402951     -86.2138423
9.22                 0.963944769     -86.3598241
9.221                0.963859811     -86.5061869
9.222                0.963774635     -86.6529318
9.223                0.963689242     -86.8000598
9.224                0.963603632      -86.947572
9.225                0.963517804     -87.0954695
9.226                0.963431759     -87.2437532
9.227                0.963345496     -87.3924244
9.228                0.963259016      -87.541484
9.229                0.963172319     -87.6909331
9.23                 0.963085405     -87.8407727
9.231                0.962998274      -87.991004
9.232                0.962910926      -88.141628
9.233                0.962823361     -88.2926457
9.234                 0.96273558     -88.4440582
9.235                0.962647581     -88.5958666
9.236                0.962559366     -88.7480719
9.237                0.962470935     -88.9006753
9.238                0.962382288     -89.0536777
9.239                0.962293424     -89.2070803
9.24                 0.962204344     -89.3608841
9.241                0.962115049     -89.5150901
9.242                0.962025538     -89.6696995
9.243                0.961935812     -89.8247133
9.244                0.961845871     -89.9801326
9.245                0.961755714     -90.1359583
9.246                0.961665343     -90.2921917
9.247                0.961574758     -90.4488338
9.248                0.961483958     -90.6058855
9.249                0.961392944     -90.7633481
9.25                 0.961301717     -90.9212225
9.251                0.961210276     -91.0795098
9.252                0.961118622     -91.2382111
9.253                0.961026755     -91.3973274
9.254                0.960934676     -91.5568599
9.255                0.960842385     -91.7168095
9.256                0.960749882     -91.8771773
9.257                0.960657168     -92.0379644
9.258                0.960564242     -92.1991719
9.259                0.960471106     -92.3608007
9.26                  0.96037776      -92.522852
9.261                0.960284204     -92.6853269
9.262                0.960190438     -92.8482263
9.263                0.960096464     -93.0115513
9.264                0.960002281      -93.175303
9.265                 0.95990789     -93.3394824
9.266                0.959813292     -93.5040906
9.267                0.959718486     -93.6691286
9.268                0.959623474     -93.8345975
9.269                0.959528256     -94.0004983
9.27                 0.959432832      -94.166832
9.271                0.959337204     -94.3335998
9.272                0.959241371     -94.5008026
9.273                0.959145335     -94.6684415
9.274                0.959049095     -94.8365175
9.275                0.958952653     -95.0050317
9.276                0.958856009     -95.1739851
9.277                0.958759163     -95.3433787
9.278                0.958662117     -95.5132136
9.279                0.958564871     -95.6834907
9.28                 0.958467426     -95.8542112
9.281                0.958369783      -96.025376
9.282                0.958271942     -96.1969861
9.283                0.958173903     -96.3690427
9.284                0.958075669     -96.5415466
9.285                0.957977239     -96.7144989
9.286                0.957878614     -96.8879006
9.287                0.957779795     -97.0617528
9.288                0.957680784     -97.2360563
9.289                 0.95758158     -97.4108124
9.29                 0.957482185     -97.5860218
9.291                0.957382599     -97.7616857
9.292                0.957282824      -97.937805
9.293                0.957182861     -98.1143807
9.294                0.957082709     -98.2914138
9.295                0.956982371     -98.4689053
9.296                0.956881847     -98.6468561
9.297                0.956781139     -98.8252673
9.298                0.956680246     -99.0041398
9.299                0.956579171     -99.1834746
9.3                  0.956477915     -99.3632726
9.301                0.956376478     -99.5435349
9.302                0.956274861     -99.7242623
9.303                0.956173066     -99.9054559
9.304                0.956071093     -100.087116
9.305                0.955968945     -100.269245
9.306                0.955866622     -100.451843
9.307                0.955764125      -100.63491
9.308                0.955661455     -100.818449
9.309                0.955558615     -101.002459
9.31                 0.955455604     -101.186941
9.311                0.955352424     -101.371898
9.312                0.955249078     -101.557329
9.313                0.955145565     -101.743235
9.314                0.955041887     -101.929618
9.315                0.954938046     -102.116478
9.316                0.954834042     -102.303816
9.317                0.954729879     -102.491633
9.318                0.954625556     -102.679929
9.319                0.954521075     -102.868707
9.32                 0.954416438     -103.057966
9.321                0.954311646     -103.247708
9.322                0.954206701     -103.437933
9.323                0.954101605     -103.628643
9.324                0.953996358     -103.819837
9.325                0.953890962     -104.011518
9.326                 0.95378542     -104.203685
9.327                0.953679733     -104.396339
9.328                0.953573902     -104.589482
9.329                0.953467929     -104.783115
9.33                 0.953361815     -104.977237
9.331                0.953255564      -105.17185
9.332                0.953149175     -105.366955
9.333                0.953042652     -105.562552
9.334                0.952935995     -105.758642
9.335                0.952829208     -105.955226
9.336                 0.95272229     -106.152305
9.337                0.952615246      -106.34988
9.338                0.952508075      -106.54795
9.339                0.952400781     -106.746518
9.34                 0.952293366     -106.945583
9.341                 0.95218583     -107.145147
9.342                0.952078177      -107.34521
9.343                0.951970408     -107.545773
9.344                0.951862525     -107.746836
9.345                0.951754531     -107.948401
9.346                0.951646428     -108.150467
9.347                0.951538217     -108.353037
9.348                0.951429901     -108.556109
9.349                0.951321483     -108.759685
9.35                 0.951212963     -108.963766
9.351                0.951104345     -109.168353
9.352                0.950995632     -109.373445
9.353                0.950886824     -109.579043
9.354                0.950777925     -109.785149
9.355                0.950668937     -109.991762
9.356                0.950559862     -110.198884
9.357                0.950450703     -110.406514
9.358                0.950341462     -110.614654
9.359                0.950232141     -110.823304
9.36                 0.950122744     -111.032464
9.361                0.950013272     -111.242136
9.362                0.949903729     -111.452319
9.363                0.949794117     -111.663014
9.364                0.949684438     -111.874222
9.365                0.949574695     -112.085943
9.366                0.949464891     -112.298178
9.367                0.949355029     -112.510926
9.368                0.949245111      -112.72419
9.369                0.949135139     -112.937968
9.37                 0.949025118     -113.152262
9.371                0.948915049     -113.367071
9.372                0.948804936     -113.582397
9.373                0.948694781      -113.79824
9.374                0.948584588     -114.014599
9.375                0.948474359     -114.231476
9.376                0.948364097     -114.448871
9.377                0.948253805     -114.666784
9.378                0.948143487     -114.885215
9.379                0.948033145     -115.104165
9.38                 0.947922782     -115.323635
9.381                0.947812402     -115.543624
9.382                0.947702007     -115.764132
9.383                0.947591602      -115.98516
9.384                0.947481188     -116.206709
9.385                0.947370771     -116.428778
9.386                0.947260351     -116.651368
9.387                0.947149934     -116.874479
9.388                0.947039522     -117.098111
9.389                0.946929118     -117.322264
9.39                 0.946818727     -117.546938
9.391                0.946708351     -117.772135
9.392                0.946597994     -117.997853
9.393                 0.94648766     -118.224092
9.394                0.946377351     -118.450854
9.395                0.946267072     -118.678138
9.396                0.946156826     -118.905944
