! TOUCHSTONE file generated by CST DESIGN STUDIO
! Date and time: Tue Feb  4 12:48:57 2025
! Project name: C:\Work\MatlabApps\UnitCellOptimizationMatlab\CST\unitcell.cst
! Tree item: Tasks\Sweep1\SPara1\S-Parameters
! Header version: 2024
! Port assignment regex: !\s*Touchstone port\s*([0-9]+)\s*=\s*(CST MWS port|CST DES external port|CST DES block port)\s*(.+)\s* \(\"(.*)\"\)(\s*mode\s*([0-9]+))?.*
! Touchstone port assignment:
! Touchstone port 1 = CST DES external port 1 ("")
# GHz S MA R 50
9                    0.976145624     -78.4633844
9.001                 0.97608556     -78.5851428
9.002                0.976025316      -78.707206
9.003                0.975964891     -78.8295749
9.004                0.975904284     -78.9522503
9.005                0.975843495     -79.0752333
9.006                0.975782524     -79.1985247
9.007                0.975721371     -79.3221254
9.008                0.975660034     -79.4460362
9.009                0.975598514     -79.5702583
9.01                  0.97553681     -79.6947923
9.011                0.975474923     -79.8196393
9.012                0.975412851     -79.9448002
9.013                0.975350594     -80.0702758
9.014                0.975288152     -80.1960671
9.015                0.975225525     -80.3221751
9.016                0.975162712     -80.4486006
9.017                0.975099713     -80.5753446
9.018                0.975036528     -80.7024079
9.019                0.974973156     -80.8297916
9.02                 0.974909597     -80.9574966
9.021                0.974845851     -81.0855237
9.022                0.974781917      -81.213874
9.023                0.974717795     -81.3425482
9.024                0.974653485     -81.4715475
9.025                0.974588986     -81.6008727
9.026                0.974524298     -81.7305248
9.027                0.974459421     -81.8605046
9.028                0.974394355     -81.9908133
9.029                0.974329099     -82.1214516
9.03                 0.974263653     -82.2524205
9.031                0.974198016      -82.383721
9.032                0.974132189      -82.515354
9.033                0.974066171     -82.6473206
9.034                0.973999962     -82.7796215
9.035                0.973933561     -82.9122579
9.036                0.973866969     -83.0452305
9.037                0.973800185     -83.1785405
9.038                0.973733208     -83.3121887
9.039                0.973666039     -83.4461762
9.04                 0.973598677     -83.5805038
9.041                0.973531122     -83.7151725
9.042                0.973463374     -83.8501833
9.043                0.973395433     -83.9855372
9.044                0.973327297     -84.1212351
9.045                0.973258968      -84.257278
9.046                0.973190445     -84.3936668
9.047                0.973121727     -84.5304025
9.048                0.973052815     -84.6674862
9.049                0.972983707     -84.8049187
9.05                 0.972914405      -84.942701
9.051                0.972844908     -85.0808342
9.052                0.972775215     -85.2193191
9.053                0.972705326     -85.3581568
9.054                0.972635242     -85.4973482
9.055                0.972564961     -85.6368943
9.056                0.972494485     -85.7767962
9.057                0.972423812     -85.9170546
9.058                0.972352943     -86.0576708
9.059                0.972281877     -86.1986455
9.06                 0.972210614     -86.3399799
9.061                0.972139154     -86.4816749
9.062                0.972067497     -86.6237314
9.063                0.971995643     -86.7661505
9.064                0.971923592     -86.9089331
9.065                0.971851343     -87.0520803
9.066                0.971778896     -87.1955929
9.067                0.971706251     -87.3394721
9.068                0.971633409     -87.4837188
9.069                0.971560369     -87.6283339
9.07                 0.971487131     -87.7733186
9.071                0.971413694     -87.9186736
9.072                 0.97134006     -88.0644001
9.073                0.971266227     -88.2104991
9.074                0.971192196     -88.3569715
9.075                0.971117966     -88.5038183
9.076                0.971043538     -88.6510405
9.077                0.970968911     -88.7986391
9.078                0.970894086      -88.946615
9.079                0.970819063     -89.0949694
9.08                  0.97074384     -89.2437032
9.081                0.970668419     -89.3928173
9.082                  0.9705928     -89.5423128
9.083                0.970516981     -89.6921906
9.084                0.970440964     -89.8424518
9.085                0.970364749     -89.9930973
9.086                0.970288335     -90.1441282
9.087                0.970211722     -90.2955453
9.088                0.970134911     -90.4473498
9.089                0.970057901     -90.5995426
9.09                 0.969980693     -90.7521248
9.091                0.969903286     -90.9050972
9.092                0.969825681     -91.0584608
9.093                0.969747878     -91.2122168
9.094                0.969669877      -91.366366
9.095                0.969591677     -91.5209095
9.096                 0.96951328     -91.6758483
9.097                0.969434685     -91.8311833
9.098                0.969355892     -91.9869155
9.099                0.969276902     -92.1430459
9.1                  0.969197714     -92.2995755
9.101                0.969118329     -92.4565054
9.102                0.969038747     -92.6138364
9.103                0.968958968     -92.7715696
9.104                0.968878992     -92.9297059
9.105                0.968798819     -93.0882463
9.106                0.968718451     -93.2471919
9.107                0.968637886     -93.4065436
9.108                0.968557125     -93.5663023
9.109                0.968476168     -93.7264692
9.11                 0.968395016      -93.887045
9.111                0.968313669     -94.0480309
9.112                0.968232127     -94.2094277
9.113                 0.96815039     -94.3712366
9.114                0.968068459     -94.5334584
9.115                0.967986333      -94.696094
9.116                0.967904014     -94.8591446
9.117                0.967821502     -95.0226111
9.118                0.967738796     -95.1864943
9.119                0.967655898     -95.3507954
9.12                 0.967572807     -95.5155151
9.121                0.967489524     -95.6806547
9.122                0.967406049     -95.8462148
9.123                0.967322383     -96.0121967
9.124                0.967238526     -96.1786011
9.125                0.967154479      -96.345429
9.126                0.967070242     -96.5126815
9.127                0.966985815     -96.6803594
9.128                0.966901199     -96.8484637
9.129                0.966816394     -97.0169954
9.13                 0.966731401     -97.1859553
9.131                0.966646221     -97.3553445
9.132                0.966560853     -97.5251638
9.133                0.966475298     -97.6954143
9.134                0.966389558     -97.8660968
9.135                0.966303631     -98.0372122
9.136                 0.96621752     -98.2087616
9.137                0.966131224     -98.3807458
9.138                0.966044744     -98.5531657
9.139                0.965958081     -98.7260223
9.14                 0.965871236     -98.8993164
9.141                0.965784208     -99.0730491
9.142                0.965696999     -99.2472212
9.143                0.965609609     -99.4218336
9.144                0.965522039     -99.5968872
9.145                 0.96543429     -99.7723829
9.146                0.965346362     -99.9483216
9.147                0.965258256     -100.124704
9.148                0.965169973     -100.301532
9.149                0.965081514     -100.478805
9.15                 0.964992879     -100.656524
9.151                0.964904069     -100.834692
9.152                0.964815085     -101.013307
9.153                0.964725927     -101.192372
9.154                0.964636597     -101.371886
9.155                0.964547096     -101.551852
9.156                0.964457424     -101.732269
9.157                0.964367582     -101.913139
9.158                 0.96427757     -102.094463
9.159                0.964187391      -102.27624
9.16                 0.964097045     -102.458473
9.161                0.964006533     -102.641162
9.162                0.963915855     -102.824308
9.163                0.963825013     -103.007911
9.164                0.963734008     -103.191973
9.165                0.963642841     -103.376494
9.166                0.963551513     -103.561475
9.167                0.963460024     -103.746917
9.168                0.963368377     -103.932821
9.169                0.963276572     -104.119187
9.17                 0.963184609     -104.306017
9.171                0.963092491      -104.49331
9.172                0.963000219     -104.681068
9.173                0.962907793     -104.869292
9.174                0.962815215     -105.057983
9.175                0.962722486      -105.24714
9.176                0.962629607     -105.436765
9.177                 0.96253658     -105.626859
9.178                0.962443405     -105.817422
9.179                0.962350085     -106.008456
9.18                 0.962256619      -106.19996
9.181                0.962163011     -106.391936
9.182                 0.96206926     -106.584383
9.183                0.961975369     -106.777304
9.184                0.961881338     -106.970699
9.185                 0.96178717     -107.164568
9.186                0.961692865     -107.358911
9.187                0.961598425     -107.553731
9.188                0.961503852     -107.749027
9.189                0.961409146       -107.9448
9.19                 0.961314311      -108.14105
9.191                0.961219346     -108.337779
9.192                0.961124253     -108.534987
9.193                0.961029035     -108.732675
9.194                0.960933693     -108.930842
9.195                0.960838227     -109.129491
9.196                0.960742641     -109.328621
9.197                0.960646936     -109.528233
9.198                0.960551112     -109.728328
9.199                0.960455173     -109.928906
9.2                  0.960359119     -110.129967
9.201                0.960262953     -110.331513
9.202                0.960166677     -110.533544
9.203                0.960070291      -110.73606
9.204                0.959973798     -110.939063
9.205                  0.9598772     -111.142552
9.206                0.959780498     -111.346527
9.207                0.959683695     -111.550991
9.208                0.959586793     -111.755942
9.209                0.959489792     -111.961382
9.21                 0.959392696     -112.167311
9.211                0.959295506     -112.373729
9.212                0.959198224     -112.580638
9.213                0.959100853     -112.788036
9.214                0.959003394     -112.995926
9.215                0.958905849     -113.204306
9.216                0.958808221     -113.413179
9.217                0.958710511     -113.622543
9.218                0.958612723       -113.8324
9.219                0.958514857     -114.042749
9.22                 0.958416916     -114.253592
9.221                0.958318902     -114.464928
9.222                0.958220819     -114.676758
9.223                0.958122667     -114.889083
9.224                0.958024449     -115.101902
9.225                0.957926167     -115.315215
9.226                0.957827825     -115.529024
9.227                0.957729424     -115.743329
9.228                0.957630966     -115.958129
9.229                0.957532454     -116.173425
9.23                 0.957433891     -116.389218
9.231                0.957335278     -116.605506
9.232                0.957236619     -116.822292
9.233                0.957137916     -117.039575
9.234                0.957039171     -117.257354
9.235                0.956940388     -117.475631
9.236                0.956841568     -117.694405
9.237                0.956742714     -117.913678
9.238                0.956643829     -118.133447
9.239                0.956544916     -118.353715
9.24                 0.956445977     -118.574481
9.241                0.956347015     -118.795745
9.242                0.956248033     -119.017507
9.243                0.956149033     -119.239767
9.244                0.956050019     -119.462526
9.245                0.955950992     -119.685783
9.246                0.955851957     -119.909539
9.247                0.955752915     -120.133793
9.248                0.955653871     -120.358546
9.249                0.955554826     -120.583797
9.25                 0.955455783     -120.809546
9.251                0.955356746     -121.035794
9.252                0.955257718      -121.26254
9.253                0.955158701     -121.489785
9.254                  0.9550597     -121.717527
9.255                0.954960715     -121.945768
9.256                0.954861752     -122.174506
9.257                0.954762813     -122.403743
9.258                0.954663901     -122.633477
9.259                0.954565019     -122.863708
9.26                 0.954466171     -123.094437
9.261                 0.95436736     -123.325663
9.262                0.954268588     -123.557385
9.263                 0.95416986     -123.789605
9.264                0.954071179      -124.02232
9.265                0.953972547     -124.255532
9.266                0.953873969      -124.48924
9.267                0.953775448     -124.723443
9.268                0.953676986     -124.958141
9.269                0.953578589     -125.193334
9.27                 0.953480258     -125.429021
9.271                0.953381997     -125.665203
9.272                0.953283811     -125.901878
9.273                0.953185702     -126.139047
9.274                0.953087674     -126.376708
9.275                0.952989731     -126.614862
9.276                0.952891876     -126.853507
9.277                0.952794113     -127.092644
9.278                0.952696445     -127.332272
9.279                0.952598877     -127.572391
9.28                 0.952501411     -127.812999
9.281                0.952404052     -128.054096
9.282                0.952306803     -128.295683
9.283                0.952209668     -128.537757
9.284                0.952112652     -128.780319
9.285                0.952015756     -129.023367
9.286                0.951918987     -129.266902
9.287                0.951822346     -129.510922
9.288                0.951725839     -129.755427
9.289                0.951629469     -130.000416
9.29                  0.95153324     -130.245888
9.291                0.951437156     -130.491843
9.292                0.951341221      -130.73828
9.293                0.951245439     -130.985197
9.294                0.951149814     -131.232595
9.295                0.951054349     -131.480472
9.296                 0.95095905     -131.728827
9.297                 0.95086392      -131.97766
9.298                0.950768962     -132.226969
9.299                0.950674182     -132.476754
9.3                  0.950579584     -132.727014
9.301                 0.95048517     -132.977747
9.302                0.950390947     -133.228953
9.303                0.950296917     -133.480631
9.304                0.950203085      -133.73278
9.305                0.950109455     -133.985398
9.306                0.950016032     -134.238484
9.307                0.949922819     -134.492038
9.308                0.949829821     -134.746059
9.309                0.949737042     -135.000544
9.31                 0.949644487     -135.255493
9.311                 0.94955216     -135.510906
9.312                0.949460065     -135.766779
9.313                0.949368206     -136.023113
9.314                0.949276588     -136.279906
9.315                0.949185215     -136.537157
9.316                0.949094092     -136.794864
9.317                0.949003222     -137.053026
9.318                0.948912611     -137.311642
9.319                0.948822263     -137.570711
9.32                 0.948732182      -137.83023
9.321                0.948642372     -138.090199
9.322                0.948552839     -138.350616
9.323                0.948463586     -138.611479
9.324                0.948374619     -138.872788
9.325                 0.94828594      -139.13454
9.326                0.948197556     -139.396734
9.327                0.948109471     -139.659369
9.328                0.948021688     -139.922442
9.329                0.947934213     -140.185953
9.33                  0.94784705       -140.4499
9.331                0.947760204      -140.71428
9.332                0.947673679     -140.979093
9.333                0.947587479     -141.244336
9.334                 0.94750161     -141.510008
9.335                0.947416076     -141.776107
9.336                0.947330882     -142.042632
9.337                0.947246031      -142.30958
9.338                0.947161529      -142.57695
9.339                 0.94707738     -142.844739
9.34                 0.946993589     -143.112947
9.341                0.946910161      -143.38157
9.342                0.946827099     -143.650608
9.343                0.946744409     -143.920057
9.344                0.946662095     -144.189917
9.345                0.946580162     -144.460185
9.346                0.946498614      -144.73086
9.347                0.946417456     -145.001938
9.348                0.946336693     -145.273419
9.349                0.946256329     -145.545299
9.35                 0.946176368     -145.817577
9.351                0.946096816     -146.090251
9.352                0.946017677     -146.363319
9.353                0.945938955     -146.636778
9.354                0.945860656     -146.910625
9.355                0.945782783      -147.18486
9.356                0.945705341      -147.45948
9.357                0.945628335     -147.734482
9.358                 0.94555177     -148.009863
9.359                0.945475649     -148.285623
9.36                 0.945399978     -148.561758
9.361                 0.94532476     -148.838266
9.362                0.945250002     -149.115144
9.363                0.945175706      -149.39239
9.364                0.945101877     -149.670003
9.365                0.945028521     -149.947978
9.366                0.944955641     -150.226314
9.367                0.944883242     -150.505008
9.368                0.944811329     -150.784058
9.369                0.944739905     -151.063461
9.37                 0.944668976     -151.343214
9.371                0.944598545     -151.623316
9.372                0.944528617     -151.903762
9.373                0.944459197     -152.184551
9.374                0.944390289      -152.46568
9.375                0.944321896     -152.747146
9.376                0.944254025     -153.028946
9.377                0.944186678     -153.311078
9.378                 0.94411986     -153.593539
9.379                0.944053576     -153.876326
9.38                 0.943987829     -154.159436
9.381                0.943922624     -154.442867
9.382                0.943857965     -154.726615
9.383                0.943793857     -155.010678
9.384                0.943730303     -155.295053
9.385                0.943667307     -155.579737
9.386                0.943604875     -155.864726
9.387                0.943543009     -156.150018
9.388                0.943481713     -156.435611
9.389                0.943420993       -156.7215
9.39                 0.943360852     -157.007683
9.391                0.943301294     -157.294157
9.392                0.943242322     -157.580918
9.393                0.943183941     -157.867965
9.394                0.943126155     -158.155292
9.395                0.943068968     -158.442899
9.396                0.943012383      -158.73078
