! TOUCHSTONE file generated by CST DESIGN STUDIO
! Date and time: Tue Feb  4 17:45:04 2025
! Project name: C:\Work\MatlabApps\UnitCellOptimizationMatlab\CST\unitcell.cst
! Tree item: Tasks\Sweep1\SPara1\S-Parameters
! Header version: 2024
! Port assignment regex: !\s*Touchstone port\s*([0-9]+)\s*=\s*(CST MWS port|CST DES external port|CST DES block port)\s*(.+)\s* \(\"(.*)\"\)(\s*mode\s*([0-9]+))?.*
! Touchstone port assignment:
! Touchstone port 1 = CST DES external port 1 ("")
# GHz S MA R 50
9                    0.985355514     -72.7351917
9.001                 0.98532166     -72.8419539
9.002                0.985287705     -72.9489736
9.003                 0.98525365     -73.0562515
9.004                0.985219494     -73.1637884
9.005                0.985185237     -73.2715851
9.006                0.985150879     -73.3796424
9.007                0.985116419      -73.487961
9.008                0.985081857     -73.5965417
9.009                0.985047193     -73.7053853
9.01                 0.985012426     -73.8144925
9.011                0.984977557     -73.9238643
9.012                0.984942586     -74.0335013
9.013                0.984907511     -74.1434044
9.014                0.984872333     -74.2535743
9.015                0.984837051     -74.3640118
9.016                0.984801665     -74.4747178
9.017                0.984766176      -74.585693
9.018                0.984730582     -74.6969382
9.019                0.984694883     -74.8084543
9.02                  0.98465908      -74.920242
9.021                0.984623172     -75.0323022
9.022                0.984587158     -75.1446356
9.023                0.984551039     -75.2572431
9.024                0.984514814     -75.3701255
9.025                0.984478483     -75.4832836
9.026                0.984442046     -75.5967182
9.027                0.984405502     -75.7104301
9.028                0.984368852     -75.8244202
9.029                0.984332094     -75.9386893
9.03                  0.98429523     -76.0532381
9.031                0.984258258     -76.1680676
9.032                0.984221178     -76.2831786
9.033                0.984183991     -76.3985718
9.034                0.984146695     -76.5142482
9.035                0.984109291     -76.6302085
9.036                0.984071778     -76.7464536
9.037                0.984034157     -76.8629843
9.038                0.983996426     -76.9798015
9.039                0.983958586     -77.0969061
9.04                 0.983920637     -77.2142987
9.041                0.983882578     -77.3319804
9.042                0.983844409     -77.4499519
9.043                 0.98380613     -77.5682142
9.044                 0.98376774     -77.6867679
9.045                 0.98372924     -77.8056141
9.046                0.983690629     -77.9247535
9.047                0.983651907     -78.0441871
9.048                0.983613074     -78.1639156
9.049                0.983574129       -78.28394
9.05                 0.983535073      -78.404261
9.051                0.983495904     -78.5248797
9.052                0.983456623     -78.6457967
9.053                0.983417231      -78.767013
9.054                0.983377725     -78.8885295
9.055                0.983338107     -79.0103471
9.056                0.983298376     -79.1324665
9.057                0.983258531     -79.2548888
9.058                0.983218574     -79.3776146
9.059                0.983178502     -79.5006451
9.06                 0.983138317     -79.6239809
9.061                0.983098018      -79.747623
9.062                0.983057605     -79.8715724
9.063                0.983017078     -79.9958298
9.064                0.982976436     -80.1203961
9.065                0.982935679     -80.2452723
9.066                0.982894807     -80.3704592
9.067                 0.98285382     -80.4959577
9.068                0.982812718     -80.6217688
9.069                0.982771501     -80.7478933
9.07                 0.982730168      -80.874332
9.071                0.982688718      -81.001086
9.072                0.982647153     -81.1281561
9.073                0.982605472     -81.2555432
9.074                0.982563674     -81.3832482
9.075                 0.98252176      -81.511272
9.076                0.982479729     -81.6396155
9.077                0.982437582     -81.7682797
9.078                0.982395317     -81.8972653
9.079                0.982352935     -82.0265735
9.08                 0.982310435     -82.1562049
9.081                0.982267819     -82.2861607
9.082                0.982225084     -82.4164416
9.083                0.982182232     -82.5470486
9.084                0.982139261     -82.6779826
9.085                0.982096173     -82.8092446
9.086                0.982052966     -82.9408354
9.087                0.982009641     -83.0727559
9.088                0.981966198     -83.2050072
9.089                0.981922635     -83.3375901
9.09                 0.981878954     -83.4705055
9.091                0.981835154     -83.6037544
9.092                0.981791235     -83.7373376
9.093                0.981747197     -83.8712562
9.094                0.981703039     -84.0055111
9.095                0.981658762     -84.1401031
9.096                0.981614365     -84.2750332
9.097                0.981569849     -84.4103024
9.098                0.981525213     -84.5459115
9.099                0.981480457     -84.6818616
9.1                  0.981435581     -84.8181535
9.101                0.981390584     -84.9547882
9.102                0.981345468     -85.0917666
9.103                0.981300232     -85.2290897
9.104                0.981254875     -85.3667584
9.105                0.981209397     -85.5047736
9.106                0.981163799     -85.6431363
9.107                 0.98111808     -85.7818475
9.108                0.981072241      -85.920908
9.109                0.981026281     -86.0603188
9.11                   0.9809802     -86.2000809
9.111                0.980933998     -86.3401951
9.112                0.980887675     -86.4806626
9.113                0.980841231     -86.6214841
9.114                0.980794666     -86.7626607
9.115                 0.98074798     -86.9041932
9.116                0.980701172     -87.0460827
9.117                0.980654244     -87.1883301
9.118                0.980607194     -87.3309364
9.119                0.980560023     -87.4739024
9.12                  0.98051273     -87.6172292
9.121                0.980465316     -87.7609176
9.122                0.980417781     -87.9049687
9.123                0.980370124     -88.0493834
9.124                0.980322346     -88.1941627
9.125                0.980274446     -88.3393075
9.126                0.980226425     -88.4848187
9.127                0.980178282     -88.6306973
9.128                0.980130018     -88.7769443
9.129                0.980081633     -88.9235607
9.13                 0.980033126     -89.0705473
9.131                0.979984498     -89.2179051
9.132                0.979935748     -89.3656351
9.133                0.979886877     -89.5137383
9.134                0.979837885     -89.6622155
9.135                0.979788772     -89.8110678
9.136                0.979739537     -89.9602961
9.137                0.979690181     -90.1099013
9.138                0.979640704     -90.2598845
9.139                0.979591106     -90.4102465
9.14                 0.979541387     -90.5609884
9.141                0.979491547      -90.712111
9.142                0.979441586     -90.8636154
9.143                0.979391504     -91.0155024
9.144                0.979341302     -91.1677731
9.145                0.979290979     -91.3204283
9.146                0.979240535     -91.4734691
9.147                0.979189971     -91.6268964
9.148                0.979139287     -91.7807111
9.149                0.979088483     -91.9349142
9.15                 0.979037559     -92.0895066
9.151                0.978986514     -92.2444893
9.152                 0.97893535     -92.3998633
9.153                0.978884067     -92.5556295
9.154                0.978832663     -92.7117887
9.155                0.978781141     -92.8683421
9.156                0.978729499     -93.0252905
9.157                0.978677739     -93.1826348
9.158                0.978625859     -93.3403761
9.159                0.978573861     -93.4985152
9.16                 0.978521744     -93.6570531
9.161                0.978469509     -93.8159907
9.162                0.978417156      -93.975329
9.163                0.978364685     -94.1350689
9.164                0.978312096     -94.2952113
9.165                 0.97825939     -94.4557572
9.166                0.978206567     -94.6167076
9.167                0.978153627     -94.7780632
9.168                 0.97810057     -94.9398252
9.169                0.978047396     -95.1019943
9.17                 0.977994107     -95.2645716
9.171                0.977940701     -95.4275579
9.172                 0.97788718     -95.5909542
9.173                0.977833543     -95.7547614
9.174                0.977779791     -95.9189804
9.175                0.977725924     -96.0836121
9.176                0.977671943     -96.2486575
9.177                0.977617847     -96.4141174
9.178                0.977563638     -96.5799929
9.179                0.977509315     -96.7462847
9.18                 0.977454879     -96.9129938
9.181                 0.97740033      -97.080121
9.182                0.977345668     -97.2476674
9.183                0.977290894     -97.4156338
9.184                0.977236009     -97.5840211
9.185                0.977181012     -97.7528302
9.186                0.977125903     -97.9220619
9.187                0.977070685     -98.0917173
9.188                0.977015356     -98.2617971
9.189                0.976959917     -98.4323022
9.19                 0.976904369     -98.6032336
9.191                0.976848712      -98.774592
9.192                0.976792946     -98.9463785
9.193                0.976737072     -99.1185937
9.194                0.976681091     -99.2912388
9.195                0.976625002     -99.4643143
9.196                0.976568807     -99.6378214
9.197                0.976512506     -99.8117607
9.198                0.976456099     -99.9861332
9.199                0.976399587      -100.16094
9.2                   0.97634297     -100.336181
9.201                0.976286249     -100.511858
9.202                0.976229424     -100.687972
9.203                0.976172497     -100.864523
9.204                0.976115467     -101.041512
9.205                0.976058335      -101.21894
9.206                0.976001101     -101.396809
9.207                0.975943767     -101.575117
9.208                0.975886333     -101.753868
9.209                0.975828799      -101.93306
9.21                 0.975771167     -102.112696
9.211                0.975713436     -102.292776
9.212                0.975655607       -102.4733
9.213                0.975597681      -102.65427
9.214                 0.97553966     -102.835687
9.215                0.975481542      -103.01755
9.216                0.975423329     -103.199861
9.217                0.975365023     -103.382621
9.218                0.975306622     -103.565831
9.219                0.975248129      -103.74949
9.22                 0.975189544     -103.933601
9.221                0.975130868     -104.118163
9.222                  0.9750721     -104.303177
9.223                0.975013243     -104.488645
9.224                0.974954297     -104.674567
9.225                0.974895263     -104.860943
9.226                0.974836141     -105.047775
9.227                0.974776933     -105.235063
9.228                0.974717639     -105.422808
9.229                 0.97465826      -105.61101
9.23                 0.974598797      -105.79967
9.231                 0.97453925      -105.98879
9.232                0.974479621     -106.178369
9.233                0.974419911     -106.368408
9.234                 0.97436012     -106.558908
9.235                 0.97430025      -106.74987
9.236                  0.9742403     -106.941294
9.237                0.974180273     -107.133181
9.238                 0.97412017     -107.325532
9.239                 0.97405999     -107.518347
9.24                 0.973999735     -107.711627
9.241                0.973939407     -107.905372
9.242                0.973879006     -108.099583
9.243                0.973818532     -108.294261
9.244                0.973757988     -108.489407
9.245                0.973697375      -108.68502
9.246                0.973636692     -108.881102
9.247                0.973575942     -109.077653
9.248                0.973515125     -109.274674
9.249                0.973454243     -109.472165
9.25                 0.973393297     -109.670127
9.251                0.973332287      -109.86856
9.252                0.973271216     -110.067465
9.253                0.973210083     -110.266842
9.254                0.973148891     -110.466692
9.255                 0.97308764     -110.667016
9.256                0.973026332     -110.867814
9.257                0.972964968     -111.069086
9.258                0.972903549     -111.270833
9.259                0.972842076     -111.473056
9.26                 0.972780551     -111.675754
9.261                0.972718975     -111.878929
9.262                0.972657349      -112.08258
9.263                0.972595674     -112.286709
9.264                0.972533953     -112.491315
9.265                0.972472185       -112.6964
9.266                0.972410373     -112.901963
9.267                0.972348518     -113.108004
9.268                0.972286621     -113.314525
9.269                0.972224683     -113.521526
9.27                 0.972162707     -113.729007
9.271                0.972100693     -113.936968
9.272                0.972038643      -114.14541
9.273                0.971976559     -114.354332
9.274                0.971914441     -114.563737
9.275                0.971852292     -114.773623
9.276                0.971790112      -114.98399
9.277                0.971727903     -115.194841
9.278                0.971665668     -115.406173
9.279                0.971603407     -115.617989
9.28                 0.971541122     -115.830288
9.281                0.971478814     -116.043069
9.282                0.971416486     -116.256335
9.283                0.971354138     -116.470084
9.284                0.971291773     -116.684318
9.285                0.971229391     -116.899035
9.286                0.971166995     -117.114237
9.287                0.971104587     -117.329923
9.288                0.971042168     -117.546094
9.289                0.970979739      -117.76275
9.29                 0.970917303     -117.979891
9.291                0.970854861     -118.197517
9.292                0.970792414     -118.415628
9.293                0.970729966     -118.634224
9.294                0.970667517     -118.853306
9.295                0.970605069     -119.072873
9.296                0.970542624     -119.292926
9.297                0.970480185     -119.513464
9.298                0.970417752     -119.734487
9.299                0.970355327     -119.955997
9.3                  0.970292913     -120.177991
9.301                0.970230512     -120.400472
9.302                0.970168124     -120.623437
9.303                0.970105753     -120.846888
9.304                  0.9700434     -121.070825
9.305                0.969981067     -121.295247
9.306                0.969918756     -121.520154
9.307                0.969856469     -121.745546
9.308                0.969794209     -121.971423
9.309                0.969731976     -122.197785
9.31                 0.969669773     -122.424631
9.311                0.969607603     -122.651962
9.312                0.969545467     -122.879778
9.313                0.969483367     -123.108077
9.314                0.969421305      -123.33686
9.315                0.969359284     -123.566127
9.316                0.969297305     -123.795878
9.317                0.969235372     -124.026111
9.318                0.969173485     -124.256828
9.319                0.969111647     -124.488027
9.32                 0.969049861     -124.719708
9.321                0.968988127     -124.951871
9.322                 0.96892645     -125.184515
9.323                0.968864831     -125.417641
9.324                0.968803271     -125.651248
9.325                0.968741775     -125.885335
9.326                0.968680342     -126.119902
9.327                0.968618977     -126.354948
9.328                0.968557681     -126.590474
9.329                0.968496457     -126.826478
9.33                 0.968435307      -127.06296
9.331                0.968374232      -127.29992
9.332                0.968313237     -127.537357
9.333                0.968252322     -127.775271
9.334                0.968191491      -128.01366
9.335                0.968130746     -128.252525
9.336                0.968070089     -128.491865
9.337                0.968009523     -128.731679
9.338                0.967949049     -128.971966
9.339                0.967888672     -129.212727
9.34                 0.967828392     -129.453959
9.341                0.967768213     -129.695663
9.342                0.967708136     -129.937838
9.343                0.967648166     -130.180482
9.344                0.967588303     -130.423597
9.345                0.967528551     -130.667179
9.346                0.967468912      -130.91123
9.347                0.967409388     -131.155747
9.348                0.967349983      -131.40073
9.349                0.967290699     -131.646179
9.35                 0.967231538     -131.892092
9.351                0.967172503     -132.138468
9.352                0.967113597     -132.385307
9.353                0.967054821     -132.632607
9.354                 0.96699618     -132.880368
9.355                0.966937676     -133.128589
9.356                 0.96687931     -133.377269
9.357                0.966821086     -133.626406
9.358                0.966763007        -133.876
9.359                0.966705076     -134.126049
9.36                 0.966647294     -134.376553
9.361                0.966589664      -134.62751
9.362                 0.96653219      -134.87892
9.363                0.966474875     -135.130781
9.364                 0.96641772     -135.383091
9.365                0.966360728     -135.635851
9.366                0.966303903     -135.889058
9.367                0.966247247     -136.142711
9.368                0.966190763     -136.396809
9.369                0.966134454     -136.651352
9.37                 0.966078322     -136.906336
9.371                 0.96602237     -137.161762
9.372                0.965966601     -137.417628
9.373                0.965911018     -137.673932
9.374                0.965855624     -137.930674
9.375                0.965800421     -138.187851
9.376                0.965745413     -138.445462
9.377                0.965690601     -138.703506
9.378                 0.96563599     -138.961982
9.379                0.965581581     -139.220888
9.38                 0.965527378     -139.480221
9.381                0.965473384     -139.739982
9.382                0.965419601     -140.000168
9.383                0.965366032     -140.260778
9.384                 0.96531268     -140.521809
9.385                0.965259548     -140.783261
9.386                0.965206639     -141.045132
9.387                0.965153956     -141.307421
9.388                0.965101502     -141.570124
9.389                0.965049278     -141.833241
9.39                  0.96499729      -142.09677
9.391                0.964945538      -142.36071
9.392                0.964894027     -142.625058
9.393                0.964842758     -142.889812
9.394                0.964791736     -143.154971
9.395                0.964740962     -143.420533
9.396                 0.96469044     -143.686496
