! TOUCHSTONE file generated by CST DESIGN STUDIO
! Date and time: Tue Feb  4 17:44:55 2025
! Project name: C:\Work\MatlabApps\UnitCellOptimizationMatlab\CST\unitcell.cst
! Tree item: Tasks\Sweep1\SPara1\S-Parameters
! Header version: 2024
! Port assignment regex: !\s*Touchstone port\s*([0-9]+)\s*=\s*(CST MWS port|CST DES external port|CST DES block port)\s*(.+)\s* \(\"(.*)\"\)(\s*mode\s*([0-9]+))?.*
! Touchstone port assignment:
! Touchstone port 1 = CST DES external port 1 ("")
# GHz S MA R 50
9                     0.98466335     -78.7919973
9.001                 0.98462507      -78.912747
9.002                0.984586677     -79.0337943
9.003                0.984548172     -79.1551401
9.004                0.984509554     -79.2767852
9.005                0.984470824     -79.3987305
9.006                 0.98443198     -79.5209768
9.007                0.984393024     -79.6435251
9.008                0.984353953     -79.7663762
9.009                 0.98431477     -79.8895309
9.01                 0.984275472     -80.0129901
9.011                 0.98423606     -80.1367548
9.012                0.984196533     -80.2608257
9.013                0.984156893     -80.3852038
9.014                0.984117137     -80.5098899
9.015                0.984077266     -80.6348849
9.016                0.984037281     -80.7601897
9.017                 0.98399718     -80.8858052
9.018                0.983956963     -81.0117322
9.019                 0.98391663     -81.1379716
9.02                 0.983876182     -81.2645244
9.021                0.983835617     -81.3913914
9.022                0.983794937     -81.5185734
9.023                0.983754139     -81.6460715
9.024                0.983713225     -81.7738865
9.025                0.983672194     -81.9020192
9.026                0.983631045     -82.0304706
9.027                 0.98358978     -82.1592415
9.028                0.983548397      -82.288333
9.029                0.983506896     -82.4177457
9.03                 0.983465278     -82.5474808
9.031                0.983423541      -82.677539
9.032                0.983381686     -82.8079213
9.033                0.983339713     -82.9386286
9.034                0.983297621     -83.0696617
9.035                0.983255411     -83.2010217
9.036                0.983213082     -83.3327093
9.037                0.983170634     -83.4647255
9.038                0.983128066     -83.5970713
9.039                0.983085379     -83.7297474
9.04                 0.983042573      -83.862755
9.041                0.982999647     -83.9960947
9.042                0.982956602     -84.1297677
9.043                0.982913436     -84.2637747
9.044                 0.98287015     -84.3981168
9.045                0.982826744     -84.5327947
9.046                0.982783218     -84.6678095
9.047                0.982739571     -84.8031621
9.048                0.982695804     -84.9388534
9.049                0.982651915     -85.0748842
9.05                 0.982607906     -85.2112556
9.051                0.982563776     -85.3479685
9.052                0.982519525     -85.4850237
9.053                0.982475152     -85.6224223
9.054                0.982430658     -85.7601651
9.055                0.982386043      -85.898253
9.056                0.982341306     -86.0366871
9.057                0.982296447     -86.1754681
9.058                0.982251467     -86.3145971
9.059                0.982206365     -86.4540751
9.06                  0.98216114     -86.5939028
9.061                0.982115794     -86.7340813
9.062                0.982070325     -86.8746114
9.063                0.982024735     -87.0154942
9.064                0.981979021     -87.1567305
9.065                0.981933186     -87.2983214
9.066                0.981887228     -87.4402676
9.067                0.981841147     -87.5825702
9.068                0.981794944     -87.7252301
9.069                0.981748618     -87.8682483
9.07                  0.98170217     -88.0116256
9.071                0.981655598      -88.155363
9.072                0.981608904     -88.2994614
9.073                0.981562087     -88.4439219
9.074                0.981515147     -88.5887453
9.075                0.981468084     -88.7339325
9.076                0.981420898     -88.8794845
9.077                0.981373589     -89.0254023
9.078                0.981326157     -89.1716868
9.079                0.981278602     -89.3183389
9.08                 0.981230924     -89.4653595
9.081                0.981183123     -89.6127497
9.082                0.981135199     -89.7605103
9.083                0.981087151     -89.9086422
9.084                0.981038981     -90.0571465
9.085                0.980990687     -90.2060241
9.086                 0.98094227     -90.3552758
9.087                0.980893731     -90.5049027
9.088                0.980845068     -90.6549057
9.089                0.980796282     -90.8052857
9.09                 0.980747374     -90.9560437
9.091                0.980698342     -91.1071806
9.092                0.980649188     -91.2586973
9.093                 0.98059991     -91.4105947
9.094                 0.98055051     -91.5628739
9.095                0.980500987     -91.7155357
9.096                0.980451342     -91.8685811
9.097                0.980401574     -92.0220111
9.098                0.980351683     -92.1758265
9.099                 0.98030167     -92.3300282
9.1                  0.980251535     -92.4846173
9.101                0.980201277     -92.6395947
9.102                0.980150898     -92.7949612
9.103                0.980100396     -92.9507179
9.104                0.980049772     -93.1068656
9.105                0.979999027     -93.2634052
9.106                0.979948159     -93.4203378
9.107                0.979897171     -93.5776643
9.108                0.979846061     -93.7353854
9.109                0.979794829     -93.8935023
9.11                 0.979743477     -94.0520158
9.111                0.979692003     -94.2109268
9.112                0.979640409     -94.3702363
9.113                0.979588694     -94.5299451
9.114                0.979536858     -94.6900542
9.115                0.979484903     -94.8505646
9.116                0.979432827      -95.011477
9.117                0.979380631     -95.1727926
9.118                0.979328316      -95.334512
9.119                0.979275881     -95.4966363
9.12                 0.979223327     -95.6591664
9.121                0.979170653     -95.8221032
9.122                0.979117861     -95.9854476
9.123                0.979064951     -96.1492004
9.124                0.979011922     -96.3133627
9.125                0.978958775     -96.4779352
9.126                 0.97890551     -96.6429189
9.127                0.978852128     -96.8083147
9.128                0.978798628     -96.9741235
9.129                0.978745011     -97.1403462
9.13                 0.978691278     -97.3069836
9.131                0.978637429     -97.4740366
9.132                0.978583463     -97.6415062
9.133                0.978529381     -97.8093932
9.134                0.978475184     -97.9776985
9.135                0.978420872     -98.1464229
9.136                0.978366446     -98.3155674
9.137                0.978311905     -98.4851328
9.138                0.978257249       -98.65512
9.139                 0.97820248     -98.8255298
9.14                 0.978147598     -98.9963631
9.141                0.978092603     -99.1676208
9.142                0.978037496     -99.3393037
9.143                0.977982276     -99.5114126
9.144                0.977926944     -99.6839485
9.145                0.977871502     -99.8569122
9.146                0.977815948     -100.030304
9.147                0.977760284     -100.204126
9.148                 0.97770451     -100.378378
9.149                0.977648627     -100.553061
9.15                 0.977592634     -100.728176
9.151                0.977536533     -100.903724
9.152                0.977480324     -101.079706
9.153                0.977424007     -101.256121
9.154                0.977367583     -101.432973
9.155                0.977311053      -101.61026
9.156                0.977254417     -101.787984
9.157                0.977197675     -101.966145
9.158                0.977140828     -102.144745
9.159                0.977083877     -102.323784
9.16                 0.977026822     -102.503264
9.161                0.976969664     -102.683184
9.162                0.976912403     -102.863545
9.163                 0.97685504     -103.044349
9.164                0.976797576     -103.225596
9.165                0.976740011     -103.407287
9.166                0.976682345     -103.589423
9.167                0.976624581     -103.772004
9.168                0.976566717     -103.955031
9.169                0.976508755     -104.138505
9.17                 0.976450695     -104.322427
9.171                0.976392539     -104.506797
9.172                0.976334287     -104.691616
9.173                0.976275939     -104.876885
9.174                0.976217496     -105.062604
9.175                0.976158959     -105.248775
9.176                0.976100329     -105.435397
9.177                0.976041607     -105.622473
9.178                0.975982793     -105.810001
9.179                0.975923888     -105.997984
9.18                 0.975864892     -106.186421
9.181                0.975805808     -106.375314
9.182                0.975746635     -106.564662
9.183                0.975687374     -106.754468
9.184                0.975628026      -106.94473
9.185                0.975568593     -107.135451
9.186                0.975509074      -107.32663
9.187                0.975449471     -107.518269
9.188                0.975389785     -107.710367
9.189                0.975330016     -107.902926
9.19                 0.975270165     -108.095947
9.191                0.975210235     -108.289428
9.192                0.975150224     -108.483373
9.193                0.975090134      -108.67778
9.194                0.975029967      -108.87265
9.195                0.974969724     -109.067985
9.196                0.974909404     -109.263785
9.197                 0.97484901     -109.460049
9.198                0.974788541      -109.65678
9.199                0.974728001     -109.853976
9.2                  0.974667388      -110.05164
9.201                0.974606705     -110.249771
9.202                0.974545953     -110.448369
9.203                0.974485132     -110.647436
9.204                0.974424243     -110.846972
9.205                0.974363289     -111.046978
9.206                0.974302269     -111.247453
9.207                0.974241186     -111.448399
9.208                 0.97418004     -111.649815
9.209                0.974118832     -111.851703
9.21                 0.974057564     -112.054062
9.211                0.973996236     -112.256894
9.212                0.973934851     -112.460198
9.213                0.973873409     -112.663975
9.214                0.973811911     -112.868225
9.215                0.973750359      -113.07295
9.216                0.973688754     -113.278148
9.217                0.973627098     -113.483821
9.218                0.973565391     -113.689969
9.219                0.973503635     -113.896592
9.22                 0.973441832     -114.103691
9.221                0.973379982     -114.311266
9.222                0.973318087     -114.519317
9.223                0.973256148     -114.727845
9.224                0.973194167     -114.936849
9.225                0.973132146     -115.146331
9.226                0.973070085      -115.35629
9.227                0.973007986     -115.566728
9.228                 0.97294585     -115.777643
9.229                0.972883679     -115.989036
9.23                 0.972821475     -116.200908
9.231                0.972759239     -116.413258
9.232                0.972696972     -116.626088
9.233                0.972634677     -116.839396
9.234                0.972572354     -117.053184
9.235                0.972510004     -117.267452
9.236                0.972447631     -117.482199
9.237                0.972385235     -117.697426
9.238                0.972322817     -117.913132
9.239                0.972260381     -118.129319
9.24                 0.972197926     -118.345986
9.241                0.972135455     -118.563133
9.242                 0.97207297     -118.780761
9.243                0.972010471     -118.998869
9.244                0.971947962     -119.217458
9.245                0.971885443     -119.436527
9.246                0.971822916     -119.656077
9.247                0.971760383     -119.876107
9.248                0.971697847     -120.096618
9.249                0.971635307     -120.317609
9.25                 0.971572767     -120.539081
9.251                0.971510229     -120.761034
9.252                0.971447693     -120.983467
9.253                0.971385162      -121.20638
9.254                0.971322638     -121.429774
9.255                0.971260122     -121.653648
9.256                0.971197616     -121.878002
9.257                0.971135124     -122.102836
9.258                0.971072645     -122.328149
9.259                0.971010182     -122.553943
9.26                 0.970947738     -122.780216
9.261                0.970885314     -123.006968
9.262                0.970822912       -123.2342
9.263                0.970760533      -123.46191
9.264                0.970698181     -123.690099
9.265                0.970635858     -123.918767
9.266                0.970573564     -124.147913
9.267                0.970511302     -124.377536
9.268                0.970449075     -124.607637
9.269                0.970386884     -124.838216
9.27                 0.970324732     -125.069271
9.271                 0.97026262     -125.300803
9.272                 0.97020055     -125.532811
9.273                0.970138526     -125.765295
9.274                0.970076549     -125.998254
9.275                0.970014621     -126.231688
9.276                0.969952744     -126.465597
9.277                0.969890921      -126.69998
9.278                0.969829153     -126.934837
9.279                0.969767444     -127.170167
9.28                 0.969705795     -127.405969
9.281                0.969644208     -127.642244
9.282                0.969582686      -127.87899
9.283                0.969521232     -128.116208
9.284                0.969459846     -128.353895
9.285                0.969398533     -128.592053
9.286                0.969337293      -128.83068
9.287                 0.96927613     -129.069776
9.288                0.969215046     -129.309339
9.289                0.969154043      -129.54937
9.29                 0.969093123     -129.789867
9.291                0.969032289     -130.030831
9.292                0.968971543      -130.27226
9.293                0.968910888     -130.514153
9.294                0.968850327     -130.756509
9.295                0.968789861     -130.999329
9.296                0.968729493     -131.242611
9.297                0.968669225     -131.486354
9.298                0.968609061     -131.730557
9.299                0.968549002      -131.97522
9.3                  0.968489051     -132.220342
9.301                0.968429211     -132.465922
9.302                0.968369484     -132.711958
9.303                0.968309873     -132.958451
9.304                0.968250379     -133.205398
9.305                0.968191007     -133.452799
9.306                0.968131758     -133.700654
9.307                0.968072634      -133.94896
9.308                 0.96801364     -134.197717
9.309                0.967954776     -134.446925
9.31                 0.967896046      -134.69658
9.311                0.967837453     -134.946684
9.312                0.967778999     -135.197234
9.313                0.967720686      -135.44823
9.314                0.967662518      -135.69967
9.315                0.967604496     -135.951552
9.316                0.967546625     -136.203877
9.317                0.967488906     -136.456642
9.318                0.967431341     -136.709847
9.319                0.967373935      -136.96349
9.32                 0.967316689     -137.217569
9.321                0.967259606     -137.472084
9.322                 0.96720269     -137.727033
9.323                0.967145941     -137.982415
9.324                0.967089365     -138.238228
9.325                0.967032962     -138.494472
9.326                0.966976736     -138.751144
9.327                 0.96692069     -139.008243
9.328                0.966864827     -139.265767
9.329                0.966809148     -139.523716
9.33                 0.966753658     -139.782087
9.331                0.966698358      -140.04088
9.332                0.966643252     -140.300092
9.333                0.966588343     -140.559722
9.334                0.966533632     -140.819769
9.335                0.966479123      -141.08023
9.336                 0.96642482     -141.341104
9.337                0.966370723      -141.60239
9.338                0.966316837     -141.864086
9.339                0.966263165     -142.126189
9.34                 0.966209708     -142.388699
9.341                 0.96615647     -142.651614
9.342                0.966103454     -142.914931
9.343                0.966050662     -143.178649
9.344                0.965998098     -143.442767
9.345                0.965945763     -143.707281
9.346                0.965893662     -143.972192
9.347                0.965841797     -144.237495
9.348                 0.96579017     -144.503191
9.349                0.965738785     -144.769276
9.35                 0.965687644     -145.035749
9.351                 0.96563675     -145.302607
9.352                0.965586106      -145.56985
9.353                0.965535715     -145.837474
9.354                0.965485579     -146.105478
9.355                0.965435702     -146.373859
9.356                0.965386086     -146.642617
9.357                0.965336735     -146.911747
9.358                 0.96528765     -147.181249
9.359                0.965238835      -147.45112
9.36                 0.965190292     -147.721358
9.361                0.965142025     -147.991961
9.362                0.965094036     -148.262926
9.363                0.965046328     -148.534251
9.364                0.964998903     -148.805935
9.365                0.964951765     -149.077974
9.366                0.964904917     -149.350367
9.367                 0.96485836     -149.623111
9.368                0.964812098     -149.896204
9.369                0.964766134     -150.169643
9.37                  0.96472047     -150.443426
9.371                 0.96467511      -150.71755
9.372                0.964630055     -150.992014
9.373                0.964585308     -151.266814
9.374                0.964540873     -151.541948
9.375                0.964496752     -151.817415
9.376                0.964452948      -152.09321
9.377                0.964409463     -152.369332
9.378                  0.9643663     -152.645777
9.379                0.964323461     -152.922545
9.38                 0.964280951     -153.199631
9.381                 0.96423877     -153.477033
9.382                0.964196921     -153.754749
9.383                0.964155409     -154.032775
9.384                0.964114234      -154.31111
9.385                0.964073399      -154.58975
9.386                0.964032908     -154.868693
9.387                0.963992762     -155.147936
9.388                0.963952964     -155.427476
9.389                0.963913517      -155.70731
9.39                 0.963874424     -155.987436
9.391                0.963835686     -156.267851
9.392                0.963797306     -156.548552
9.393                0.963759288     -156.829535
9.394                0.963721632     -157.110799
9.395                0.963684342      -157.39234
9.396                 0.96364742     -157.674155
