! TOUCHSTONE file generated by CST DESIGN STUDIO
! Date and time: Tue Feb  4 17:45:10 2025
! Project name: C:\Work\MatlabApps\UnitCellOptimizationMatlab\CST\unitcell.cst
! Tree item: Tasks\Sweep1\SPara1\S-Parameters
! Header version: 2024
! Port assignment regex: !\s*Touchstone port\s*([0-9]+)\s*=\s*(CST MWS port|CST DES external port|CST DES block port)\s*(.+)\s* \(\"(.*)\"\)(\s*mode\s*([0-9]+))?.*
! Touchstone port assignment:
! Touchstone port 1 = CST DES external port 1 ("")
# GHz S MA R 50
9                     0.98581427     -68.6932333
9.001                0.985783521     -68.7913634
9.002                 0.98575268     -68.8897259
9.003                0.985721746     -68.9883215
9.004                0.985690719     -69.0871509
9.005                0.985659598     -69.1862147
9.006                0.985628384     -69.2855137
9.007                0.985597075     -69.3850487
9.008                0.985565673     -69.4848203
9.009                0.985534176     -69.5848292
9.01                 0.985502585     -69.6850762
9.011                0.985470899     -69.7855619
9.012                0.985439117     -69.8862872
9.013                 0.98540724     -69.9872528
9.014                0.985375268     -70.0884593
9.015                  0.9853432     -70.1899075
9.016                0.985311035     -70.2915982
9.017                0.985278774      -70.393532
9.018                0.985246417     -70.4957097
9.019                0.985213962     -70.5981321
9.02                  0.98518141     -70.7007999
9.021                0.985148761     -70.8037138
9.022                0.985116015     -70.9068745
9.023                 0.98508317     -71.0102829
9.024                0.985050227     -71.1139397
9.025                0.985017186     -71.2178456
9.026                0.984984046     -71.3220014
9.027                0.984950808     -71.4264079
9.028                 0.98491747     -71.5310657
9.029                0.984884033     -71.6359757
9.03                 0.984850496     -71.7411386
9.031                0.984816859     -71.8465553
9.032                0.984783122     -71.9522263
9.033                0.984749285     -72.0581526
9.034                0.984715347     -72.1643349
9.035                0.984681308     -72.2707739
9.036                0.984647168     -72.3774705
9.037                0.984612926     -72.4844254
9.038                0.984578583     -72.5916394
9.039                0.984544138     -72.6991133
9.04                 0.984509591     -72.8068479
9.041                0.984474942     -72.9148439
9.042                 0.98444019     -73.0231021
9.043                0.984405335     -73.1316234
9.044                0.984370377     -73.2404085
9.045                0.984335316     -73.3494582
9.046                0.984300151     -73.4587733
9.047                0.984264882     -73.5683546
9.048                 0.98422951      -73.678203
9.049                0.984194032     -73.7883191
9.05                 0.984158451     -73.8987039
9.051                0.984122764     -74.0093581
9.052                0.984086973     -74.1202825
9.053                0.984051076      -74.231478
9.054                0.984015074     -74.3429453
9.055                0.983978966     -74.4546853
9.056                0.983942752     -74.5666988
9.057                0.983906432     -74.6789866
9.058                0.983870006     -74.7915495
9.059                0.983833472     -74.9043884
9.06                 0.983796832     -75.0175041
9.061                0.983760085     -75.1308973
9.062                 0.98372323      -75.244569
9.063                0.983686268       -75.35852
9.064                0.983649198      -75.472751
9.065                 0.98361202      -75.587263
9.066                0.983574733     -75.7020568
9.067                0.983537338     -75.8171332
9.068                0.983499834      -75.932493
9.069                0.983462222     -76.0481371
9.07                   0.9834245     -76.1640664
9.071                0.983386668     -76.2802816
9.072                0.983348727     -76.3967837
9.073                0.983310676     -76.5135735
9.074                0.983272515     -76.6306518
9.075                0.983234244     -76.7480195
9.076                0.983195862     -76.8656774
9.077                 0.98315737     -76.9836265
9.078                0.983118766     -77.1018676
9.079                0.983080052     -77.2204014
9.08                 0.983041226      -77.339229
9.081                0.983002288     -77.4583512
9.082                0.982963239     -77.5777688
9.083                0.982924077     -77.6974827
9.084                0.982884804     -77.8174938
9.085                0.982845418     -77.9378029
9.086                0.982805919      -78.058411
9.087                0.982766308     -78.1793188
9.088                0.982726583     -78.3005274
9.089                0.982686745     -78.4220375
9.09                 0.982646794     -78.5438501
9.091                0.982606729      -78.665966
9.092                0.982566551     -78.7883862
9.093                0.982526258     -78.9111115
9.094                0.982485851     -79.0341427
9.095                 0.98244533     -79.1574809
9.096                0.982404694     -79.2811269
9.097                0.982363944     -79.4050816
9.098                0.982323078     -79.5293458
9.099                0.982282097     -79.6539206
9.1                  0.982241001     -79.7788067
9.101                 0.98219979     -79.9040051
9.102                0.982158463     -80.0295167
9.103                 0.98211702     -80.1553424
9.104                 0.98207546     -80.2814832
9.105                0.982033785     -80.4079398
9.106                0.981991994     -80.5347133
9.107                0.981950085     -80.6618046
9.108                0.981908061     -80.7892145
9.109                0.981865919     -80.9169439
9.11                  0.98182366     -81.0449939
9.111                0.981781284     -81.1733653
9.112                0.981738791      -81.302059
9.113                 0.98169618      -81.431076
9.114                0.981653452     -81.5604171
9.115                0.981610606     -81.6900834
9.116                0.981567642     -81.8200757
9.117                 0.98152456      -81.950395
9.118                0.981481359     -82.0810421
9.119                 0.98143804     -82.2120181
9.12                 0.981394603     -82.3433239
9.121                0.981351047     -82.4749603
9.122                0.981307373     -82.6069284
9.123                0.981263579      -82.739229
9.124                0.981219667     -82.8718632
9.125                0.981175635     -83.0048317
9.126                0.981131484     -83.1381357
9.127                0.981087214      -83.271776
9.128                0.981042824     -83.4057536
9.129                0.980998315     -83.5400693
9.13                 0.980953686     -83.6747243
9.131                0.980908937     -83.8097193
9.132                0.980864069     -83.9450554
9.133                 0.98081908     -84.0807336
9.134                0.980773971     -84.2167546
9.135                0.980728742     -84.3531196
9.136                0.980683393     -84.4898295
9.137                0.980637923     -84.6268852
9.138                0.980592333     -84.7642876
9.139                0.980546623     -84.9020378
9.14                 0.980500791     -85.0401366
9.141                 0.98045484     -85.1785851
9.142                0.980408767     -85.3173842
9.143                0.980362574     -85.4565349
9.144                 0.98031626     -85.5960381
9.145                0.980269824     -85.7358948
9.146                0.980223268     -85.8761059
9.147                0.980176591     -86.0166725
9.148                0.980129793     -86.1575954
9.149                0.980082874     -86.2988757
9.15                 0.980035834     -86.4405143
9.151                0.979988672     -86.5825121
9.152                0.979941389     -86.7248702
9.153                0.979893985     -86.8675895
9.154                 0.97984646      -87.010671
9.155                0.979798814     -87.1541156
9.156                0.979751046     -87.2979244
9.157                0.979703157     -87.4420982
9.158                0.979655147     -87.5866381
9.159                0.979607016      -87.731545
9.16                 0.979558763       -87.87682
9.161                0.979510389     -88.0224639
9.162                0.979461894     -88.1684777
9.163                0.979413278     -88.3148625
9.164                 0.97936454     -88.4616192
9.165                0.979315681     -88.6087487
9.166                0.979266702      -88.756252
9.167                0.979217601     -88.9041302
9.168                0.979168379     -89.0523842
9.169                0.979119036     -89.2010149
9.17                 0.979069572     -89.3500233
9.171                0.979019988     -89.4994105
9.172                0.978970282     -89.6491774
9.173                0.978920456     -89.7993249
9.174                0.978870509      -89.949854
9.175                0.978820442     -90.1007657
9.176                0.978770254      -90.252061
9.177                0.978719946     -90.4037409
9.178                0.978669518     -90.5558063
9.179                0.978618969     -90.7082581
9.18                 0.978568301     -90.8610975
9.181                0.978517512     -91.0143253
9.182                0.978466604     -91.1679425
9.183                0.978415576     -91.3219501
9.184                0.978364428      -91.476349
9.185                0.978313161     -91.6311403
9.186                0.978261775     -91.7863249
9.187                 0.97821027     -91.9419037
9.188                0.978158646     -92.0978778
9.189                0.978106903      -92.254248
9.19                 0.978055041     -92.4110154
9.191                0.978003061      -92.568181
9.192                0.977950963     -92.7257457
9.193                0.977898747     -92.8837104
9.194                0.977846413     -93.0420762
9.195                0.977793962     -93.2008439
9.196                0.977741393     -93.3600146
9.197                0.977688706     -93.5195892
9.198                0.977635903     -93.6795687
9.199                0.977582984      -93.839954
9.2                  0.977529947     -94.0007461
9.201                0.977476795     -94.1619459
9.202                0.977423527     -94.3235544
9.203                0.977370143     -94.4855726
9.204                0.977316643     -94.6480014
9.205                0.977263029     -94.8108417
9.206                0.977209299     -94.9740945
9.207                0.977155455     -95.1377607
9.208                0.977101497     -95.3018413
9.209                0.977047425     -95.4663373
9.21                  0.97699324     -95.6312495
9.211                0.976938941     -95.7965789
9.212                0.976884529     -95.9623264
9.213                0.976830005      -96.128493
9.214                0.976775368     -96.2950797
9.215                 0.97672062     -96.4620872
9.216                 0.97666576     -96.6295166
9.217                0.976610789     -96.7973689
9.218                0.976555707     -96.9656448
9.219                0.976500515     -97.1343454
9.22                 0.976445213     -97.3034715
9.221                0.976389801     -97.4730241
9.222                0.976334281      -97.643004
9.223                0.976278652     -97.8134123
9.224                0.976222914     -97.9842498
9.225                0.976167069     -98.1555173
9.226                0.976111117     -98.3272159
9.227                0.976055058     -98.4993464
9.228                0.975998892     -98.6719097
9.229                0.975942621     -98.8449067
9.23                 0.975886244     -99.0183382
9.231                0.975829763     -99.1922053
9.232                0.975773177     -99.3665087
9.233                0.975716488     -99.5412493
9.234                0.975659695      -99.716428
9.235                  0.9756028     -99.8920457
9.236                0.975545802     -100.068103
9.237                0.975488703     -100.244602
9.238                0.975431503     -100.421541
9.239                0.975374203     -100.598924
9.24                 0.975316803     -100.776749
9.241                0.975259303     -100.955019
9.242                0.975201705     -101.133734
9.243                 0.97514401     -101.312894
9.244                0.975086217     -101.492502
9.245                0.975028327     -101.672556
9.246                0.974970342     -101.853059
9.247                0.974912261     -102.034011
9.248                0.974854086     -102.215414
9.249                0.974795816     -102.397266
9.25                 0.974737454     -102.579571
9.251                   0.974679     -102.762328
9.252                0.974620453     -102.945538
9.253                0.974561816     -103.129202
9.254                0.974503088     -103.313321
9.255                0.974444272     -103.497895
9.256                0.974385366     -103.682926
9.257                0.974326373     -103.868414
9.258                0.974267292      -104.05436
9.259                0.974208126     -104.240764
9.26                 0.974148874     -104.427628
9.261                0.974089538     -104.614952
9.262                0.974030118     -104.802737
9.263                0.973970615     -104.990983
9.264                 0.97391103     -105.179692
9.265                0.973851364     -105.368864
9.266                0.973791618       -105.5585
9.267                0.973731793       -105.7486
9.268                 0.97367189     -105.939165
9.269                 0.97361191     -106.130197
9.27                 0.973551853     -106.321695
9.271                 0.97349172      -106.51366
9.272                0.973431514     -106.706094
9.273                0.973371234     -106.898996
9.274                0.973310881     -107.092367
9.275                0.973250457     -107.286209
9.276                0.973189963     -107.480521
9.277                  0.9731294     -107.675304
9.278                0.973068768     -107.870559
9.279                 0.97300807     -108.066287
9.28                 0.972947305     -108.262488
9.281                0.972886476     -108.459163
9.282                0.972825582     -108.656312
9.283                0.972764626     -108.853936
9.284                0.972703609     -109.052036
9.285                0.972642531     -109.250612
9.286                0.972581394     -109.449664
9.287                0.972520199     -109.649194
9.288                0.972458948     -109.849202
9.289                 0.97239764     -110.049688
9.29                 0.972336279     -110.250653
9.291                0.972274865     -110.452098
9.292                0.972213398     -110.654022
9.293                0.972151882     -110.856427
9.294                0.972090316     -111.059313
9.295                0.972028702     -111.262681
9.296                0.971967042     -111.466531
9.297                0.971905336     -111.670863
9.298                0.971843587     -111.875677
9.299                0.971781795     -112.080976
9.3                  0.971719962     -112.286758
9.301                0.971658089     -112.493024
9.302                0.971596179     -112.699775
9.303                0.971534231     -112.907011
9.304                0.971472248     -113.114733
9.305                0.971410231      -113.32294
9.306                0.971348181     -113.531634
9.307                0.971286101     -113.740814
9.308                0.971223991     -113.950481
9.309                0.971161853     -114.160635
9.31                 0.971099689     -114.371278
9.311                  0.9710375     -114.582408
9.312                0.970975288     -114.794026
9.313                0.970913054     -115.006133
9.314                  0.9708508     -115.218729
9.315                0.970788527     -115.431814
9.316                0.970726238     -115.645389
9.317                0.970663934     -115.859453
9.318                0.970601616     -116.074007
9.319                0.970539286     -116.289051
9.32                 0.970476946     -116.504586
9.321                0.970414598     -116.720611
9.322                0.970352244     -116.937127
9.323                0.970289884     -117.154134
9.324                0.970227521     -117.371631
9.325                0.970165157     -117.589621
9.326                0.970102793     -117.808101
9.327                0.970040432     -118.027073
9.328                0.969978074     -118.246537
9.329                0.969915723     -118.466493
9.33                 0.969853379      -118.68694
9.331                0.969791045     -118.907879
9.332                0.969728723      -119.12931
9.333                0.969666414     -119.351233
9.334                 0.96960412     -119.573648
9.335                0.969541844     -119.796555
9.336                0.969479587     -120.019954
9.337                0.969417351     -120.243845
9.338                0.969355138     -120.468228
9.339                0.969292951     -120.693103
9.34                 0.969230791      -120.91847
9.341                 0.96916866     -121.144329
9.342                0.969106561     -121.370679
9.343                0.969044495     -121.597521
9.344                0.968982465     -121.824854
9.345                0.968920472     -122.052679
9.346                0.968858519     -122.280995
9.347                0.968796607     -122.509802
9.348                 0.96873474     -122.739099
9.349                0.968672919     -122.968887
9.35                 0.968611146     -123.199166
9.351                0.968549424     -123.429935
9.352                0.968487754     -123.661193
9.353                 0.96842614     -123.892942
9.354                0.968364583     -124.125179
9.355                0.968303085     -124.357906
9.356                0.968241649     -124.591121
9.357                0.968180277     -124.824825
9.358                0.968118971     -125.059017
9.359                0.968057734     -125.293696
9.36                 0.967996568     -125.528863
9.361                0.967935475     -125.764516
9.362                0.967874458     -126.000656
9.363                0.967813518     -126.237282
9.364                 0.96775266     -126.474393
9.365                0.967691884     -126.711989
9.366                0.967631193      -126.95007
9.367                 0.96757059     -127.188635
9.368                0.967510078     -127.427684
9.369                0.967449657     -127.667215
9.37                 0.967389332     -127.907229
9.371                0.967329105     -128.147724
9.372                0.967268977       -128.3887
9.373                0.967208952     -128.630157
9.374                0.967149032     -128.872094
9.375                 0.96708922      -129.11451
9.376                0.967029518     -129.357405
9.377                0.966969929     -129.600777
9.378                0.966910455     -129.844626
9.379                0.966851099     -130.088952
9.38                 0.966791864     -130.333753
9.381                0.966732752     -130.579029
9.382                0.966673766     -130.824779
9.383                0.966614908     -131.071002
9.384                0.966556181     -131.317697
9.385                0.966497588     -131.564864
9.386                0.966439131     -131.812501
9.387                0.966380813     -132.060607
9.388                0.966322638     -132.309182
9.389                0.966264607     -132.558225
9.39                 0.966206723     -132.807735
9.391                0.966148989      -133.05771
9.392                0.966091408      -133.30815
9.393                0.966033982     -133.559054
9.394                0.965976714      -133.81042
9.395                0.965919608     -134.062247
9.396                0.965862665     -134.314535
