! TOUCHSTONE file generated by CST DESIGN STUDIO
! Date and time: Tue Feb  4 17:45:06 2025
! Project name: C:\Work\MatlabApps\UnitCellOptimizationMatlab\CST\unitcell.cst
! Tree item: Tasks\Sweep1\SPara1\S-Parameters
! Header version: 2024
! Port assignment regex: !\s*Touchstone port\s*([0-9]+)\s*=\s*(CST MWS port|CST DES external port|CST DES block port)\s*(.+)\s* \(\"(.*)\"\)(\s*mode\s*([0-9]+))?.*
! Touchstone port assignment:
! Touchstone port 1 = CST DES external port 1 ("")
# GHz S MA R 50
9                    0.985506794      -71.406122
9.001                   0.985474     -71.5099958
9.002                0.985441107     -71.6141187
9.003                0.985408116     -71.7184913
9.004                0.985375027     -71.8231144
9.005                0.985341838     -71.9279887
9.006                 0.98530855     -72.0331151
9.007                0.985275162     -72.1384942
9.008                0.985241675     -72.2441269
9.009                0.985208088     -72.3500139
9.01                   0.9851744     -72.4561559
9.011                0.985140612     -72.5625537
9.012                0.985106723     -72.6692082
9.013                0.985072734     -72.7761199
9.014                0.985038643     -72.8832899
9.015                 0.98500445     -72.9907187
9.016                0.984970156     -73.0984072
9.017                 0.98493576     -73.2063562
9.018                0.984901261     -73.3145664
9.019                 0.98486666     -73.4230386
9.02                 0.984831957     -73.5317737
9.021                 0.98479715     -73.6407723
9.022                 0.98476224     -73.7500354
9.023                0.984727227     -73.8595636
9.024                 0.98469211     -73.9693577
9.025                0.984656889     -74.0794187
9.026                0.984621563     -74.1897472
9.027                0.984586134      -74.300344
9.028                0.984550599       -74.41121
9.029                 0.98451496      -74.522346
9.03                 0.984479216     -74.6337528
9.031                0.984443366     -74.7454311
9.032                 0.98440741     -74.8573818
9.033                0.984371349     -74.9696057
9.034                0.984335181     -75.0821036
9.035                0.984298907     -75.1948763
9.036                0.984262527     -75.3079247
9.037                 0.98422604     -75.4212495
9.038                0.984189445     -75.5348516
9.039                0.984152743     -75.6487318
9.04                 0.984115934      -75.762891
9.041                0.984079017     -75.8773298
9.042                0.984041992     -75.9920493
9.043                0.984004859     -76.1070502
9.044                0.983967617     -76.2223333
9.045                0.983930266     -76.3378995
9.046                0.983892807     -76.4537497
9.047                0.983855238     -76.5698845
9.048                 0.98381756      -76.686305
9.049                0.983779773     -76.8030119
9.05                 0.983741875     -76.9200061
9.051                0.983703868     -77.0372885
9.052                 0.98366575     -77.1548598
9.053                0.983627522     -77.2727209
9.054                0.983589183     -77.3908727
9.055                0.983550733     -77.5093161
9.056                0.983512172     -77.6280518
9.057                0.983473499     -77.7470808
9.058                0.983434715     -77.8664039
9.059                0.983395819     -77.9860219
9.06                 0.983356812     -78.1059358
9.061                0.983317691     -78.2261464
9.062                0.983278459     -78.3466545
9.063                0.983239114     -78.4674611
9.064                0.983199656      -78.588567
9.065                0.983160085      -78.709973
9.066                  0.9831204     -78.8316801
9.067                0.983080602     -78.9536891
9.068                0.983040691     -79.0760009
9.069                0.983000666     -79.1986164
9.07                 0.982960526     -79.3215365
9.071                0.982920273      -79.444762
9.072                0.982879905     -79.5682938
9.073                0.982839422     -79.6921328
9.074                0.982798824       -79.81628
9.075                0.982758112     -79.9407361
9.076                0.982717284     -80.0655021
9.077                0.982676341     -80.1905789
9.078                0.982635282     -80.3159673
9.079                0.982594107     -80.4416683
9.08                 0.982552817     -80.5676828
9.081                 0.98251141     -80.6940116
9.082                0.982469887     -80.8206557
9.083                0.982428248      -80.947616
9.084                0.982386492     -81.0748933
9.085                0.982344619     -81.2024886
9.086                 0.98230263     -81.3304028
9.087                0.982260523     -81.4586368
9.088                0.982218298     -81.5871915
9.089                0.982175957     -81.7160678
9.09                 0.982133498     -81.8452666
9.091                0.982090921     -81.9747888
9.092                0.982048226     -82.1046354
9.093                0.982005412     -82.2348073
9.094                0.981962481     -82.3653054
9.095                0.981919432     -82.4961306
9.096                0.981876263     -82.6272838
9.097                0.981832977      -82.758766
9.098                0.981789571      -82.890578
9.099                0.981746046     -83.0227209
9.1                  0.981702403     -83.1551955
9.101                 0.98165864     -83.2880028
9.102                0.981614758     -83.4211436
9.103                0.981570756      -83.554619
9.104                0.981526635     -83.6884298
9.105                0.981482394      -83.822577
9.106                0.981438034     -83.9570615
9.107                0.981393553     -84.0918843
9.108                0.981348952     -84.2270463
9.109                0.981304232     -84.3625484
9.11                 0.981259391     -84.4983916
9.111                0.981214429     -84.6345768
9.112                0.981169348     -84.7711049
9.113                0.981124146     -84.9079769
9.114                0.981078823     -85.0451938
9.115                0.981033379     -85.1827565
9.116                0.980987815     -85.3206658
9.117                 0.98094213     -85.4589229
9.118                0.980896323     -85.5975285
9.119                0.980850396     -85.7364837
9.12                 0.980804348     -85.8757894
9.121                0.980758179     -86.0154466
9.122                0.980711888     -86.1554562
9.123                0.980665476     -86.2958192
9.124                0.980618943     -86.4365364
9.125                0.980572288      -86.577609
9.126                0.980525512     -86.7190377
9.127                0.980478615     -86.8608237
9.128                0.980431596     -87.0029677
9.129                0.980384455     -87.1454708
9.13                 0.980337193      -87.288334
9.131                 0.98028981     -87.4315581
9.132                0.980242304     -87.5751442
9.133                0.980194678     -87.7190933
9.134                0.980146929     -87.8634061
9.135                0.980099059     -88.0080838
9.136                0.980051067     -88.1531273
9.137                0.980002953     -88.2985375
9.138                0.979954718     -88.4443154
9.139                0.979906361     -88.5904619
9.14                 0.979857883     -88.7369781
9.141                0.979809283     -88.8838648
9.142                0.979760561     -89.0311231
9.143                0.979711718     -89.1787538
9.144                0.979662754     -89.3267581
9.145                0.979613667     -89.4751367
9.146                 0.97956446     -89.6238907
9.147                0.979515131      -89.773021
9.148                 0.97946568     -89.9225286
9.149                0.979416109     -90.0724145
9.15                 0.979366416     -90.2226795
9.151                0.979316602     -90.3733248
9.152                0.979266667     -90.5243512
9.153                0.979216611     -90.6757596
9.154                0.979166434     -90.8275511
9.155                0.979116136     -90.9797266
9.156                0.979065718     -91.1322871
9.157                0.979015179     -91.2852335
9.158                 0.97896452     -91.4385668
9.159                 0.97891374     -91.5922879
9.16                  0.97886284     -91.7463978
9.161                0.978811819     -91.9008975
9.162                0.978760679     -92.0557878
9.163                0.978709419     -92.2110699
9.164                0.978658039     -92.3667445
9.165                 0.97860654     -92.5228127
9.166                0.978554921     -92.6792754
9.167                0.978503184     -92.8361335
9.168                0.978451327     -92.9933881
9.169                0.978399351       -93.15104
9.17                 0.978347256     -93.3090903
9.171                0.978295043     -93.4675398
9.172                0.978242712     -93.6263895
9.173                0.978190263     -93.7856404
9.174                0.978137695     -93.9452934
9.175                 0.97808501     -94.1053494
9.176                0.978032208     -94.2658094
9.177                0.977979289     -94.4266743
9.178                0.977926252      -94.587945
9.179                0.977873099     -94.7496226
9.18                 0.977819829     -94.9117079
9.181                0.977766444     -95.0742018
9.182                0.977712942     -95.2371053
9.183                0.977659325     -95.4004194
9.184                0.977605592     -95.5641449
9.185                0.977551744     -95.7282828
9.186                0.977497782      -95.892834
9.187                0.977443705     -96.0577994
9.188                0.977389514     -96.2231799
9.189                0.977335209     -96.3889766
9.19                 0.977280791     -96.5551902
9.191                 0.97722626     -96.7218217
9.192                0.977171616      -96.888872
9.193                0.977116859      -97.056342
9.194                0.977061991     -97.2242327
9.195                0.977007011     -97.3925449
9.196                0.976951919     -97.5612795
9.197                0.976896717     -97.7304374
9.198                0.976841405     -97.9000196
9.199                0.976785982     -98.0700269
9.2                   0.97673045     -98.2404602
9.201                0.976674808     -98.4113205
9.202                0.976619058     -98.5826085
9.203                0.976563199     -98.7543252
9.204                0.976507233     -98.9264714
9.205                0.976451159     -99.0990481
9.206                0.976394978     -99.2720561
9.207                0.976338691     -99.4454962
9.208                0.976282298     -99.6193694
9.209                  0.9762258     -99.7936765
9.21                 0.976169197     -99.9684184
9.211                0.976112489     -100.143596
9.212                0.976055678      -100.31921
9.213                0.975998763     -100.495261
9.214                0.975941745     -100.671751
9.215                0.975884626     -100.848679
9.216                0.975827405     -101.026047
9.217                0.975770082     -101.203856
9.218                 0.97571266     -101.382107
9.219                0.975655138       -101.5608
9.22                 0.975597516     -101.739936
9.221                0.975539796     -101.919515
9.222                0.975481978      -102.09954
9.223                0.975424063     -102.280011
9.224                0.975366052     -102.460927
9.225                0.975307944     -102.642291
9.226                0.975249741     -102.824103
9.227                0.975191444     -103.006364
9.228                0.975133053     -103.189074
9.229                0.975074569     -103.372234
9.23                 0.975015992     -103.555846
9.231                0.974957324      -103.73991
9.232                0.974898565     -103.924426
9.233                0.974839716     -104.109395
9.234                0.974780778     -104.294819
9.235                0.974721751     -104.480698
9.236                0.974662636     -104.667032
9.237                0.974603435     -104.853823
9.238                0.974544147      -105.04107
9.239                0.974484775     -105.228776
9.24                 0.974425318      -105.41694
9.241                0.974365777     -105.605563
9.242                0.974306154     -105.794646
9.243                0.974246449      -105.98419
9.244                0.974186663     -106.174196
9.245                0.974126797     -106.364663
9.246                0.974066852     -106.555593
9.247                0.974006829     -106.746986
9.248                0.973946729     -106.938844
9.249                0.973886553     -107.131166
9.25                 0.973826302     -107.323953
9.251                0.973765977     -107.517206
9.252                0.973705578     -107.710927
9.253                0.973645107     -107.905114
9.254                0.973584565     -108.099769
9.255                0.973523953     -108.294893
9.256                0.973463273     -108.490486
9.257                0.973402524     -108.686548
9.258                0.973341708     -108.883081
9.259                0.973280827     -109.080085
9.26                 0.973219881      -109.27756
9.261                0.973158871     -109.475507
9.262                0.973097799     -109.673926
9.263                0.973036666     -109.872819
9.264                0.972975473     -110.072186
9.265                0.972914221     -110.272026
9.266                0.972852912     -110.472342
9.267                0.972791546     -110.673132
9.268                0.972730125     -110.874399
9.269                 0.97266865     -111.076141
9.27                 0.972607122     -111.278361
9.271                0.972545543     -111.481057
9.272                0.972483913     -111.684231
9.273                0.972422235     -111.887884
9.274                 0.97236051     -112.092015
9.275                0.972298738     -112.296624
9.276                0.972236921     -112.501714
9.277                0.972175061     -112.707283
9.278                0.972113159     -112.913332
9.279                0.972051216     -113.119863
9.28                 0.971989234     -113.326874
9.281                0.971927214     -113.534366
9.282                0.971865158     -113.742341
9.283                0.971803066     -113.950798
9.284                0.971740942     -114.159737
9.285                0.971678785     -114.369159
9.286                0.971616597     -114.579064
9.287                0.971554381     -114.789452
9.288                0.971492137     -115.000325
9.289                0.971429867     -115.211681
9.29                 0.971367573     -115.423522
9.291                0.971305256     -115.635848
9.292                0.971242918     -115.848658
9.293                 0.97118056     -116.061953
9.294                0.971118184     -116.275734
9.295                0.971055792     -116.490001
9.296                0.970993386     -116.704753
9.297                0.970930966     -116.919991
9.298                0.970868535     -117.135715
9.299                0.970806094     -117.351925
9.3                  0.970743646     -117.568622
9.301                0.970681191     -117.785806
9.302                0.970618732     -118.003476
9.303                 0.97055627     -118.221634
9.304                0.970493808     -118.440278
9.305                0.970431346     -118.659409
9.306                0.970368887     -118.879027
9.307                0.970306433     -119.099133
9.308                0.970243985     -119.319725
9.309                0.970181545     -119.540805
9.31                 0.970119116     -119.762373
9.311                0.970056698     -119.984427
9.312                0.969994295     -120.206969
9.313                0.969931907     -120.429998
9.314                0.969869538     -120.653514
9.315                0.969807188     -120.877518
9.316                 0.96974486     -121.102008
9.317                0.969682555     -121.326986
9.318                0.969620276      -121.55245
9.319                0.969558026     -121.778402
9.32                 0.969495804      -122.00484
9.321                0.969433615     -122.231764
9.322                 0.96937146     -122.459175
9.323                 0.96930934     -122.687072
9.324                0.969247259     -122.915455
9.325                0.969185218     -123.144324
9.326                0.969123219     -123.373678
9.327                0.969061265     -123.603518
9.328                0.968999358     -123.833843
9.329                0.968937499     -124.064652
9.33                 0.968875691     -124.295947
9.331                0.968813937     -124.527725
9.332                0.968752237     -124.759987
9.333                0.968690596     -124.992733
9.334                0.968629014     -125.225962
9.335                0.968567495     -125.459673
9.336                 0.96850604     -125.693868
9.337                0.968444652     -125.928544
9.338                0.968383333     -126.163701
9.339                0.968322085      -126.39934
9.34                 0.968260911      -126.63546
9.341                0.968199813     -126.872059
9.342                0.968138793     -127.109139
9.343                0.968077854     -127.346697
9.344                0.968016999     -127.584735
9.345                0.967956229      -127.82325
9.346                0.967895547     -128.062243
9.347                0.967834955     -128.301712
9.348                0.967774457     -128.541658
9.349                0.967714054      -128.78208
9.35                 0.967653749     -129.022977
9.351                0.967593544     -129.264348
9.352                0.967533442     -129.506192
9.353                0.967473445      -129.74851
9.354                0.967413556       -129.9913
9.355                0.967353778     -130.234562
9.356                0.967294112     -130.478294
9.357                0.967234562     -130.722496
9.358                0.967175131     -130.967167
9.359                 0.96711582     -131.212307
9.36                 0.967056632     -131.457914
9.361                 0.96699757     -131.703987
9.362                0.966938637     -131.950527
9.363                0.966879835     -132.197531
9.364                0.966821167     -132.444999
9.365                0.966762636      -132.69293
9.366                0.966704243     -132.941323
9.367                0.966645993     -133.190177
9.368                0.966587887     -133.439491
9.369                0.966529928     -133.689264
9.37                 0.966472119     -133.939495
9.371                0.966414463     -134.190182
9.372                0.966356963     -134.441326
9.373                 0.96629962     -134.692924
9.374                0.966242438     -134.944975
9.375                 0.96618542     -135.197479
9.376                0.966128569     -135.450434
9.377                0.966071887     -135.703839
9.378                0.966015376     -135.957693
9.379                0.965959041     -136.211994
9.38                 0.965902883     -136.466741
9.381                0.965846905     -136.721933
9.382                0.965791111     -136.977569
9.383                0.965735502     -137.233647
9.384                0.965680083     -137.490166
9.385                0.965624855     -137.747125
9.386                0.965569822     -138.004522
9.387                0.965514986     -138.262355
9.388                 0.96546035     -138.520624
9.389                0.965405918     -138.779327
9.39                 0.965351691     -139.038462
9.391                0.965297673     -139.298028
9.392                0.965243867     -139.558023
9.393                0.965190276     -139.818446
9.394                0.965136902     -140.079295
9.395                0.965083748     -140.340568
9.396                0.965030818     -140.602265
