! TOUCHSTONE file generated by CST DESIGN STUDIO
! Date and time: Tue Feb  4 12:29:42 2025
! Project name: C:\Work\MatlabApps\UnitCellOptimizationMatlab\CST\unitcell.cst
! Tree item: Tasks\Sweep1\SPara1\S-Parameters
! Header version: 2024
! Port assignment regex: !\s*Touchstone port\s*([0-9]+)\s*=\s*(CST MWS port|CST DES external port|CST DES block port)\s*(.+)\s* \(\"(.*)\"\)(\s*mode\s*([0-9]+))?.*
! Touchstone port assignment:
! Touchstone port 1 = CST DES external port 1 ("")
# GHz S MA R 50
9                    0.989912833     -74.7910911
9.001                0.989889347     -74.9015313
9.002                0.989865791     -75.0122372
9.003                0.989842165     -75.1232096
9.004                0.989818467     -75.2344491
9.005                0.989794698     -75.3459566
9.006                0.989770859      -75.457733
9.007                0.989746947     -75.5697788
9.008                0.989722964     -75.6820951
9.009                 0.98969891     -75.7946825
9.01                 0.989674784     -75.9075418
9.011                0.989650585     -76.0206738
9.012                0.989626315     -76.1340794
9.013                0.989601972     -76.2477593
9.014                0.989577557     -76.3617143
9.015                0.989553069     -76.4759452
9.016                0.989528508     -76.5904528
9.017                0.989503875      -76.705238
9.018                0.989479168     -76.8203015
9.019                0.989454388     -76.9356442
9.02                 0.989429535     -77.0512668
9.021                0.989404608     -77.1671701
9.022                0.989379608     -77.2833551
9.023                0.989354533     -77.3998224
9.024                0.989329385     -77.5165729
9.025                0.989304162     -77.6336075
9.026                0.989278866     -77.7509269
9.027                0.989253494      -77.868532
9.028                0.989228049     -77.9864235
9.029                0.989202528     -78.1046024
9.03                 0.989176933     -78.2230695
9.031                0.989151262     -78.3418255
9.032                0.989125517     -78.4608713
9.033                0.989099696     -78.5802077
9.034                  0.9890738     -78.6998356
9.035                0.989047828     -78.8197558
9.036                 0.98902178     -78.9399692
9.037                0.988995657     -79.0604765
9.038                0.988969458     -79.1812787
9.039                0.988943182     -79.3023766
9.04                  0.98891683     -79.4237709
9.041                0.988890402     -79.5454626
9.042                0.988863897     -79.6674525
9.043                0.988837316     -79.7897415
9.044                0.988810658     -79.9123303
9.045                0.988783923     -80.0352199
9.046                 0.98875711     -80.1584111
9.047                0.988730221     -80.2819048
9.048                0.988703254     -80.4057018
9.049                 0.98867621      -80.529803
9.05                 0.988649089     -80.6542092
9.051                0.988621889     -80.7789213
9.052                0.988594612     -80.9039402
9.053                0.988567257     -81.0292667
9.054                0.988539824     -81.1549017
9.055                0.988512313      -81.280846
9.056                0.988484723     -81.4071006
9.057                0.988457055     -81.5336662
9.058                0.988429309     -81.6605439
9.059                0.988401484     -81.7877343
9.06                  0.98837358     -81.9152385
9.061                0.988345597     -82.0430573
9.062                0.988317535     -82.1711915
9.063                0.988289395     -82.2996421
9.064                0.988261175     -82.4284099
9.065                0.988232876     -82.5574958
9.066                0.988204497     -82.6869007
9.067                0.988176039     -82.8166254
9.068                0.988147502     -82.9466709
9.069                0.988118884     -83.0770381
9.07                 0.988090187     -83.2077277
9.071                0.988061411     -83.3387408
9.072                0.988032554     -83.4700782
9.073                0.988003617     -83.6017408
9.074                  0.9879746     -83.7337294
9.075                0.987945503     -83.8660451
9.076                0.987916325     -83.9986886
9.077                0.987887067     -84.1316609
9.078                0.987857729     -84.2649628
9.079                 0.98782831     -84.3985953
9.08                  0.98779881     -84.5325592
9.081                 0.98776923     -84.6668555
9.082                0.987739569     -84.8014851
9.083                0.987709827     -84.9364488
9.084                0.987680004     -85.0717475
9.085                0.987650101     -85.2073823
9.086                0.987620116     -85.3433539
9.087                 0.98759005     -85.4796632
9.088                0.987559903     -85.6163112
9.089                0.987529674     -85.7532988
9.09                 0.987499365     -85.8906269
9.091                0.987468974     -86.0282964
9.092                0.987438501     -86.1663082
9.093                0.987407947     -86.3046632
9.094                0.987377312     -86.4433623
9.095                0.987346595     -86.5824064
9.096                0.987315797     -86.7217965
9.097                0.987284917     -86.8615334
9.098                0.987253955     -87.0016181
9.099                0.987222911     -87.1420515
9.1                  0.987191786     -87.2828345
9.101                0.987160579      -87.423968
9.102                 0.98712929     -87.5654528
9.103                 0.98709792     -87.7072901
9.104                0.987066467     -87.8494805
9.105                0.987034933     -87.9920252
9.106                0.987003317     -88.1349249
9.107                0.986971619     -88.2781806
9.108                0.986939839     -88.4217932
9.109                0.986907978     -88.5657637
9.11                 0.986876034     -88.7100929
9.111                0.986844008     -88.8547817
9.112                0.986811901     -88.9998312
9.113                0.986779711     -89.1452421
9.114                 0.98674744     -89.2910154
9.115                0.986715087     -89.4371521
9.116                0.986682652      -89.583653
9.117                0.986650135     -89.7305191
9.118                0.986617536     -89.8777513
9.119                0.986584856     -90.0253505
9.12                 0.986552093     -90.1733176
9.121                0.986519249     -90.3216536
9.122                0.986486324     -90.4703593
9.123                0.986453316     -90.6194356
9.124                0.986420227     -90.7688836
9.125                0.986387056      -90.918704
9.126                0.986353804     -91.0688979
9.127                 0.98632047     -91.2194661
9.128                0.986287055     -91.3704095
9.129                0.986253558     -91.5217292
9.13                 0.986219981     -91.6734259
9.131                0.986186321     -91.8255005
9.132                0.986152581     -91.9779541
9.133                0.986118759     -92.1307875
9.134                0.986084857     -92.2840017
9.135                0.986050873     -92.4375974
9.136                0.986016809     -92.5915757
9.137                0.985982664     -92.7459375
9.138                0.985948438     -92.9006836
9.139                0.985914132     -93.0558151
9.14                 0.985879745     -93.2113326
9.141                0.985845277     -93.3672373
9.142                 0.98581073       -93.52353
9.143                0.985776102     -93.6802116
9.144                0.985741394     -93.8372829
9.145                0.985706607      -93.994745
9.146                0.985671739     -94.1525986
9.147                0.985636792     -94.3108448
9.148                0.985601765     -94.4694843
9.149                0.985566659     -94.6285181
9.15                 0.985531474     -94.7879471
9.151                 0.98549621     -94.9477722
9.152                0.985460866     -95.1079943
9.153                0.985425444     -95.2686142
9.154                0.985389944     -95.4296328
9.155                0.985354364     -95.5910511
9.156                0.985318707     -95.7528699
9.157                0.985282972     -95.9150902
9.158                0.985247158     -96.0777126
9.159                0.985211267     -96.2407383
9.16                 0.985175299      -96.404168
9.161                0.985139253     -96.5680026
9.162                 0.98510313      -96.732243
9.163                 0.98506693       -96.89689
9.164                0.985030654     -97.0619446
9.165                0.984994301     -97.2274076
9.166                0.984957872     -97.3932798
9.167                0.984921366     -97.5595621
9.168                0.984884785     -97.7262555
9.169                0.984848129     -97.8933606
9.17                 0.984811397     -98.0608785
9.171                 0.98477459     -98.2288098
9.172                0.984737709     -98.3971556
9.173                0.984700753     -98.5659166
9.174                0.984663723     -98.7350937
9.175                0.984626619     -98.9046877
9.176                0.984589441     -99.0746995
9.177                 0.98455219     -99.2451299
9.178                0.984514866     -99.4159797
9.179                0.984477469     -99.5872497
9.18                 0.984439999     -99.7589408
9.181                0.984402458     -99.9310538
9.182                0.984364845      -100.10359
9.183                 0.98432716     -100.276549
9.184                0.984289404     -100.449932
9.185                0.984251577     -100.623741
9.186                 0.98421368     -100.797976
9.187                0.984175713     -100.972637
9.188                0.984137676     -101.147726
9.189                0.984099569     -101.323244
9.19                 0.984061394      -101.49919
9.191                0.984023149     -101.675567
9.192                0.983984837     -101.852374
9.193                0.983946457     -102.029612
9.194                0.983908009     -102.207283
9.195                0.983869495     -102.385387
9.196                0.983830913     -102.563925
9.197                0.983792266     -102.742897
9.198                0.983753552     -102.922304
9.199                0.983714774     -103.102148
9.2                   0.98367593     -103.282428
9.201                0.983637022     -103.463146
9.202                 0.98359805     -103.644302
9.203                0.983559015     -103.825897
9.204                0.983519916     -104.007932
9.205                0.983480755     -104.190407
9.206                0.983441532     -104.373324
9.207                0.983402247     -104.556682
9.208                0.983362901     -104.740483
9.209                0.983323495     -104.924727
9.21                 0.983284028     -105.109415
9.211                0.983244502     -105.294547
9.212                0.983204917     -105.480125
9.213                0.983165274     -105.666149
9.214                0.983125573      -105.85262
9.215                0.983085814     -106.039538
9.216                0.983045999     -106.226904
9.217                0.983006127     -106.414719
9.218                  0.9829662     -106.602983
9.219                0.982926217     -106.791697
9.22                 0.982886181     -106.980861
9.221                 0.98284609     -107.170477
9.222                0.982805947     -107.360544
9.223                 0.98276575     -107.551064
9.224                0.982725502     -107.742037
9.225                0.982685203     -107.933463
9.226                0.982644853     -108.125344
9.227                0.982604453     -108.317679
9.228                0.982564003      -108.51047
9.229                0.982523505     -108.703717
9.23                 0.982482959      -108.89742
9.231                0.982442366     -109.091581
9.232                0.982401726     -109.286199
9.233                 0.98236104     -109.481275
9.234                 0.98232031     -109.676809
9.235                0.982279535     -109.872803
9.236                0.982238716     -110.069257
9.237                0.982197854     -110.266171
9.238                 0.98215695     -110.463546
9.239                0.982116005     -110.661382
9.24                 0.982075019     -110.859679
9.241                0.982033994     -111.058439
9.242                0.981992929     -111.257661
9.243                0.981951826     -111.457346
9.244                0.981910686     -111.657495
9.245                0.981869509     -111.858108
9.246                0.981828297     -112.059186
9.247                0.981787049     -112.260728
9.248                0.981745768     -112.462735
9.249                0.981704453     -112.665208
9.25                 0.981663106     -112.868147
9.251                0.981621728     -113.071552
9.252                0.981580319     -113.275425
9.253                 0.98153888     -113.479764
9.254                0.981497413     -113.684571
9.255                0.981455918     -113.889845
9.256                0.981414396     -114.095588
9.257                0.981372848     -114.301799
9.258                0.981331275     -114.508479
9.259                0.981289678     -114.715628
9.26                 0.981248058     -114.923247
9.261                0.981206416     -115.131335
9.262                0.981164753     -115.339893
9.263                0.981123069     -115.548921
9.264                0.981081367      -115.75842
9.265                0.981039647     -115.968389
9.266                0.980997909     -116.178829
9.267                0.980956156      -116.38974
9.268                0.980914388     -116.601123
9.269                0.980872605     -116.812977
9.27                  0.98083081     -117.025303
9.271                0.980789004       -117.2381
9.272                0.980747186      -117.45137
9.273                0.980705359     -117.665111
9.274                0.980663524     -117.879325
9.275                0.980621681     -118.094011
9.276                0.980579832      -118.30917
9.277                0.980537978     -118.524801
9.278                0.980496121     -118.740905
9.279                 0.98045426     -118.957482
9.28                 0.980412398     -119.174531
9.281                0.980370536     -119.392053
9.282                0.980328675     -119.610048
9.283                0.980286815     -119.828515
9.284                0.980244959     -120.047456
9.285                0.980203107     -120.266869
9.286                0.980161261     -120.486755
9.287                0.980119422     -120.707114
9.288                0.980077592     -120.927945
9.289                 0.98003577     -121.149249
9.29                  0.97999396     -121.371026
9.291                0.979952161     -121.593275
9.292                0.979910376     -121.815996
9.293                0.979868606     -122.039189
9.294                0.979826851     -122.262855
9.295                0.979785114     -122.486992
9.296                0.979743395     -122.711601
9.297                0.979701697     -122.936681
9.298                0.979660019     -123.162233
9.299                0.979618365     -123.388256
9.3                  0.979576734      -123.61475
9.301                0.979535129     -123.841714
9.302                0.979493551     -124.069149
9.303                0.979452001     -124.297053
9.304                0.979410481     -124.525428
9.305                0.979368992     -124.754272
9.306                0.979327535     -124.983585
9.307                0.979286113     -125.213367
9.308                0.979244726     -125.443617
9.309                0.979203376     -125.674335
9.31                 0.979162064     -125.905521
9.311                0.979120792     -126.137174
9.312                0.979079562     -126.369294
9.313                0.979038374      -126.60188
9.314                0.978997231     -126.834933
9.315                0.978956134      -127.06845
9.316                0.978915084     -127.302433
9.317                0.978874083      -127.53688
9.318                0.978833133     -127.771791
9.319                0.978792234     -128.007165
9.32                  0.97875139     -128.243002
9.321                0.978710601     -128.479301
9.322                0.978669868     -128.716062
9.323                0.978629194     -128.953283
9.324                 0.97858858     -129.190965
9.325                0.978548028     -129.429107
9.326                0.978507539     -129.667708
9.327                0.978467115     -129.906767
9.328                0.978426758     -130.146284
9.329                0.978386468     -130.386257
9.33                 0.978346249     -130.626687
9.331                0.978306101     -130.867572
9.332                0.978266026     -131.108912
9.333                0.978226026     -131.350705
9.334                0.978186103     -131.592952
9.335                0.978146258      -131.83565
9.336                0.978106493       -132.0788
9.337                0.978066809       -132.3224
9.338                0.978027209      -132.56645
9.339                0.977987694     -132.810948
9.34                 0.977948266     -133.055894
9.341                0.977908926     -133.301287
9.342                0.977869677     -133.547125
9.343                 0.97783052     -133.793408
9.344                0.977791456     -134.040135
9.345                0.977752488     -134.287304
9.346                0.977713618     -134.534915
9.347                0.977674847     -134.782966
9.348                0.977636177     -135.031457
9.349                0.977597609     -135.280386
9.35                 0.977559146     -135.529753
9.351                0.977520789     -135.779555
9.352                0.977482541     -136.029792
9.353                0.977444402     -136.280463
9.354                0.977406375     -136.531566
9.355                0.977368462       -136.7831
9.356                0.977330664     -137.035065
9.357                0.977292984     -137.287458
9.358                0.977255422     -137.540278
9.359                0.977217982     -137.793524
9.36                 0.977180664     -138.047195
9.361                0.977143471     -138.301289
9.362                0.977106404     -138.555806
9.363                0.977069466     -138.810742
9.364                0.977032658     -139.066098
9.365                0.976995983     -139.321871
9.366                0.976959441     -139.578061
9.367                0.976923035     -139.834665
9.368                0.976886766     -140.091683
9.369                0.976850638     -140.349112
9.37                  0.97681465     -140.606951
9.371                0.976778807     -140.865198
9.372                0.976743108     -141.123853
9.373                0.976707557     -141.382912
9.374                0.976672154     -141.642376
9.375                0.976636903     -141.902241
9.376                0.976601804     -142.162507
9.377                 0.97656686     -142.423171
9.378                0.976532073     -142.684232
9.379                0.976497444     -142.945688
9.38                 0.976462976     -143.207538
9.381                 0.97642867     -143.469779
9.382                0.976394528      -143.73241
9.383                0.976360552     -143.995428
9.384                0.976326745     -144.258833
9.385                0.976293107     -144.522622
9.386                0.976259641     -144.786793
9.387                0.976226349     -145.051344
9.388                0.976193232     -145.316274
9.389                0.976160293     -145.581581
9.39                 0.976127533     -145.847261
9.391                0.976094954     -146.113315
9.392                0.976062559     -146.379738
9.393                0.976030349      -146.64653
9.394                0.975998325     -146.913688
9.395                0.975966491     -147.181211
9.396                0.975934847     -147.449095
