! TOUCHSTONE file generated by CST DESIGN STUDIO
! Date and time: Tue Feb  4 12:29:48 2025
! Project name: C:\Work\MatlabApps\UnitCellOptimizationMatlab\CST\unitcell.cst
! Tree item: Tasks\Sweep1\SPara1\S-Parameters
! Header version: 2024
! Port assignment regex: !\s*Touchstone port\s*([0-9]+)\s*=\s*(CST MWS port|CST DES external port|CST DES block port)\s*(.+)\s* \(\"(.*)\"\)(\s*mode\s*([0-9]+))?.*
! Touchstone port assignment:
! Touchstone port 1 = CST DES external port 1 ("")
# GHz S MA R 50
9                    0.990579519     -71.2696968
9.001                 0.99055883     -71.3724983
9.002                0.990538079     -71.4755438
9.003                0.990517265     -71.5788341
9.004                0.990496387     -71.6823698
9.005                0.990475447     -71.7861518
9.006                0.990454443     -71.8901806
9.007                0.990433375     -71.9944572
9.008                0.990412244     -72.0989822
9.009                0.990391049     -72.2037563
9.01                  0.99036979     -72.3087803
9.011                0.990348467     -72.4140549
9.012                 0.99032708      -72.519581
9.013                0.990305628     -72.6253591
9.014                0.990284112     -72.7313902
9.015                0.990262531     -72.8376748
9.016                0.990240885     -72.9442139
9.017                0.990219174     -73.0510081
9.018                0.990197398     -73.1580582
9.019                0.990175557     -73.2653649
9.02                  0.99015365      -73.372929
9.021                0.990131677     -73.4807514
9.022                0.990109638     -73.5888327
9.023                0.990087534     -73.6971736
9.024                0.990065364     -73.8057751
9.025                0.990043127     -73.9146378
9.026                0.990020824     -74.0237626
9.027                0.989998454     -74.1331501
9.028                0.989976017     -74.2428013
9.029                0.989953514     -74.3527168
9.03                 0.989930944     -74.4628974
9.031                0.989908306     -74.5733439
9.032                0.989885601     -74.6840572
9.033                0.989862829     -74.7950379
9.034                0.989839989     -74.9062869
9.035                0.989817082      -75.017805
9.036                0.989794106      -75.129593
9.037                0.989771063     -75.2416516
9.038                0.989747951     -75.3539816
9.039                0.989724771      -75.466584
9.04                 0.989701522     -75.5794593
9.041                0.989678205     -75.6926085
9.042                0.989654819     -75.8060324
9.043                0.989631364     -75.9197318
9.044                 0.98960784     -76.0337074
9.045                0.989584247     -76.1479601
9.046                0.989560585     -76.2624907
9.047                0.989536853        -76.3773
9.048                0.989513051     -76.4923888
9.049                 0.98948918     -76.6077579
9.05                 0.989465239     -76.7234082
9.051                0.989441228     -76.8393405
9.052                0.989417146     -76.9555556
9.053                0.989392995     -77.0720543
9.054                0.989368772     -77.1888375
9.055                 0.98934448     -77.3059059
9.056                0.989320116     -77.4232605
9.057                0.989295682      -77.540902
9.058                0.989271177     -77.6588312
9.059                0.989246601     -77.7770491
9.06                 0.989221953     -77.8955564
9.061                0.989197234      -78.014354
9.062                0.989172444     -78.1334427
9.063                0.989147581     -78.2528234
9.064                0.989122648     -78.3724969
9.065                0.989097642     -78.4924641
9.066                0.989072564     -78.6127257
9.067                0.989047414     -78.7332827
9.068                0.989022192     -78.8541359
9.069                0.988996898     -78.9752862
9.07                 0.988971531     -79.0967344
9.071                0.988946091     -79.2184813
9.072                0.988920579     -79.3405279
9.073                0.988894993     -79.4628749
9.074                0.988869335     -79.5855233
9.075                0.988843604     -79.7084739
9.076                0.988817799     -79.8317276
9.077                0.988791921     -79.9552852
9.078                 0.98876597     -80.0791476
9.079                0.988739945     -80.2033157
9.08                 0.988713847     -80.3277903
9.081                0.988687674     -80.4525723
9.082                0.988661428     -80.5776626
9.083                0.988635108     -80.7030621
9.084                0.988608714     -80.8287716
9.085                0.988582245     -80.9547921
9.086                0.988555703     -81.0811243
9.087                0.988529085     -81.2077692
9.088                0.988502394     -81.3347277
9.089                0.988475628     -81.4620006
9.09                 0.988448787     -81.5895888
9.091                0.988421871     -81.7174933
9.092                 0.98839488     -81.8457149
9.093                0.988367814     -81.9742544
9.094                0.988340674     -82.1031129
9.095                0.988313458     -82.2322911
9.096                0.988286167       -82.36179
9.097                  0.9882588     -82.4916104
9.098                0.988231358     -82.6217534
9.099                0.988203841     -82.7522196
9.1                  0.988176248     -82.8830102
9.101                0.988148579     -83.0141259
9.102                0.988120834     -83.1455676
9.103                0.988093014     -83.2773364
9.104                0.988065118     -83.4094329
9.105                0.988037146     -83.5418583
9.106                0.988009097     -83.6746133
9.107                0.987980973     -83.8076989
9.108                0.987952772     -83.9411161
9.109                0.987924496     -84.0748656
9.11                 0.987896142     -84.2089484
9.111                0.987867713     -84.3433654
9.112                0.987839207     -84.4781176
9.113                0.987810624     -84.6132059
9.114                0.987781965     -84.7486311
9.115                 0.98775323     -84.8843941
9.116                0.987724417      -85.020496
9.117                0.987695528     -85.1569376
9.118                0.987666563     -85.2937198
9.119                 0.98763752     -85.4308436
9.12                 0.987608401     -85.5683098
9.121                0.987579204     -85.7061195
9.122                0.987549931     -85.8442734
9.123                0.987520581     -85.9827726
9.124                0.987491154      -86.121618
9.125                0.987461649     -86.2608104
9.126                0.987432068     -86.4003508
9.127                 0.98740241     -86.5402402
9.128                0.987372674     -86.6804794
9.129                0.987342861     -86.8210695
9.13                 0.987312972     -86.9620112
9.131                0.987283005     -87.1033056
9.132                0.987252961     -87.2449535
9.133                0.987222839     -87.3869559
9.134                0.987192641     -87.5293138
9.135                0.987162365      -87.672028
9.136                0.987132012     -87.8150995
9.137                0.987101582     -87.9585292
9.138                0.987071075     -88.1023181
9.139                 0.98704049     -88.2464671
9.14                 0.987009828      -88.390977
9.141                0.986979089     -88.5358489
9.142                0.986948273     -88.6810837
9.143                 0.98691738     -88.8266822
9.144                 0.98688641     -88.9726456
9.145                0.986855362     -89.1189745
9.146                0.986824238     -89.2656701
9.147                0.986793036     -89.4127332
9.148                0.986761758     -89.5601648
9.149                0.986730402     -89.7079658
9.15                 0.986698969     -89.8561371
9.151                 0.98666746     -90.0046797
9.152                0.986635874     -90.1535944
9.153                0.986604211     -90.3028823
9.154                0.986572471     -90.4525443
9.155                0.986540654     -90.6025812
9.156                0.986508761     -90.7529941
9.157                0.986476791     -90.9037838
9.158                0.986444745     -91.0549513
9.159                0.986412623     -91.2064975
9.16                 0.986380424     -91.3584234
9.161                0.986348148     -91.5107298
9.162                0.986315797     -91.6634177
9.163                0.986283369     -91.8164881
9.164                0.986250865     -91.9699418
9.165                0.986218286     -92.1237798
9.166                 0.98618563      -92.278003
9.167                0.986152899     -92.4326123
9.168                0.986120093     -92.5876087
9.169                 0.98608721     -92.7429931
9.17                 0.986054253     -92.8987663
9.171                 0.98602122     -93.0549294
9.172                0.985988112     -93.2114833
9.173                0.985954928     -93.3684288
9.174                 0.98592167     -93.5257669
9.175                0.985888337     -93.6834985
9.176                 0.98585493     -93.8416245
9.177                0.985821448     -94.0001459
9.178                0.985787892     -94.1590635
9.179                0.985754261     -94.3183782
9.18                 0.985720557      -94.478091
9.181                0.985686778     -94.6382029
9.182                0.985652926     -94.7987146
9.183                   0.985619     -94.9596271
9.184                0.985585001     -95.1209413
9.185                0.985550929     -95.2826581
9.186                0.985516784     -95.4447784
9.187                0.985482566     -95.6073031
9.188                0.985448276     -95.7702331
9.189                0.985413913     -95.9335694
9.19                 0.985379477     -96.0973127
9.191                 0.98534497      -96.261464
9.192                0.985310391     -96.4260242
9.193                0.985275741     -96.5909941
9.194                0.985241019     -96.7563747
9.195                0.985206226     -96.9221669
9.196                0.985171362     -97.0883714
9.197                0.985136428     -97.2549893
9.198                0.985101423     -97.4220213
9.199                0.985066348     -97.5894684
9.2                  0.985031203     -97.7573314
9.201                0.984995989     -97.9256112
9.202                0.984960705     -98.0943086
9.203                0.984925352     -98.2634246
9.204                0.984889931     -98.4329599
9.205                0.984854441     -98.6029155
9.206                0.984818883     -98.7732922
9.207                0.984783257     -98.9440908
9.208                0.984747563     -99.1153122
9.209                0.984711802     -99.2869572
9.21                 0.984675974     -99.4590268
9.211                0.984640079     -99.6315216
9.212                0.984604119     -99.8044426
9.213                0.984568092     -99.9777906
9.214                0.984531999     -100.151566
9.215                0.984495841     -100.325771
9.216                0.984459619     -100.500405
9.217                0.984423331     -100.675469
9.218                 0.98438698     -100.850964
9.219                0.984350565     -101.026892
9.22                 0.984314086     -101.203252
9.221                0.984277544     -101.380045
9.222                0.984240939     -101.557273
9.223                0.984204273     -101.734936
9.224                0.984167544     -101.913035
9.225                0.984130754      -102.09157
9.226                0.984093903     -102.270543
9.227                0.984056991     -102.449954
9.228                0.984020019     -102.629804
9.229                0.983982987     -102.810094
9.23                 0.983945896     -102.990825
9.231                0.983908747     -103.171997
9.232                0.983871538     -103.353611
9.233                0.983834272     -103.535668
9.234                0.983796949     -103.718168
9.235                0.983759569     -103.901113
9.236                0.983722132     -104.084502
9.237                0.983684639     -104.268338
9.238                0.983647091     -104.452619
9.239                0.983609488     -104.637348
9.24                  0.98357183     -104.822525
9.241                0.983534119     -105.008151
9.242                0.983496354     -105.194226
9.243                0.983458537      -105.38075
9.244                0.983420667     -105.567726
9.245                0.983382746     -105.755153
9.246                0.983344773     -105.943032
9.247                 0.98330675     -106.131363
9.248                0.983268677     -106.320148
9.249                0.983230555     -106.509387
9.25                 0.983192384     -106.699081
9.251                0.983154164      -106.88923
9.252                0.983115898     -107.079835
9.253                0.983077584     -107.270897
9.254                0.983039224     -107.462416
9.255                0.983000819     -107.654392
9.256                0.982962368     -107.846827
9.257                0.982923874     -108.039721
9.258                0.982885335     -108.233075
9.259                0.982846754     -108.426889
9.26                  0.98280813     -108.621164
9.261                0.982769465       -108.8159
9.262                0.982730759     -109.011098
9.263                0.982692013     -109.206759
9.264                0.982653227     -109.402882
9.265                0.982614402     -109.599469
9.266                 0.98257554      -109.79652
9.267                 0.98253664     -109.994036
9.268                0.982497704     -110.192017
9.269                0.982458732     -110.390464
9.27                 0.982419725     -110.589377
9.271                0.982380684     -110.788756
9.272                 0.98234161     -110.988603
9.273                0.982302503     -111.188917
9.274                0.982263364     -111.389699
9.275                0.982224194      -111.59095
9.276                0.982184995      -111.79267
9.277                0.982145765     -111.994859
9.278                0.982106508     -112.197518
9.279                0.982067223     -112.400647
9.28                 0.982027911     -112.604247
9.281                0.981988573     -112.808318
9.282                0.981949211      -113.01286
9.283                0.981909824     -113.217874
9.284                0.981870414      -113.42336
9.285                0.981830982     -113.629319
9.286                0.981791528      -113.83575
9.287                0.981752055     -114.042655
9.288                0.981712561     -114.250033
9.289                0.981673049     -114.457886
9.29                  0.98163352     -114.666212
9.291                0.981593974     -114.875013
9.292                0.981554412     -115.084288
9.293                0.981514836     -115.294038
9.294                0.981475247     -115.504264
9.295                0.981435644     -115.714965
9.296                 0.98139603     -115.926142
9.297                0.981356406     -116.137795
9.298                0.981316772     -116.349924
9.299                0.981277129      -116.56253
9.3                  0.981237479     -116.775612
9.301                0.981197823      -116.98917
9.302                0.981158162     -117.203206
9.303                0.981118496     -117.417719
9.304                0.981078827     -117.632709
9.305                0.981039156     -117.848176
9.306                0.980999485     -118.064121
9.307                0.980959814     -118.280543
9.308                0.980920144     -118.497443
9.309                0.980880476      -118.71482
9.31                 0.980840813     -118.932675
9.311                0.980801154     -119.151009
9.312                0.980761501      -119.36982
9.313                0.980721856     -119.589108
9.314                0.980682219     -119.808875
9.315                0.980642592      -120.02912
9.316                0.980602975     -120.249842
9.317                0.980563371     -120.471043
9.318                 0.98052378     -120.692721
9.319                0.980484203     -120.914876
9.32                 0.980444643      -121.13751
9.321                0.980405099     -121.360621
9.322                0.980365574     -121.584209
9.323                0.980326068     -121.808275
9.324                0.980286584     -122.032818
9.325                0.980247121     -122.257838
9.326                0.980207683     -122.483335
9.327                0.980168269     -122.709308
9.328                0.980128881     -122.935758
9.329                0.980089521     -123.162685
9.33                  0.98005019     -123.390087
9.331                0.980010889     -123.617965
9.332                 0.97997162     -123.846319
9.333                0.979932384     -124.075148
9.334                0.979893182     -124.304452
9.335                0.979854016     -124.534231
9.336                0.979814888     -124.764484
9.337                0.979775798     -124.995211
9.338                0.979736748     -125.226412
9.339                0.979697739     -125.458086
9.34                 0.979658774     -125.690233
9.341                0.979619853     -125.922852
9.342                0.979580978     -126.155944
9.343                0.979542151     -126.389507
9.344                0.979503372     -126.623542
9.345                0.979464643     -126.858047
9.346                0.979425967     -127.093022
9.347                0.979387343     -127.328467
9.348                0.979348775     -127.564381
9.349                0.979310263     -127.800764
9.35                 0.979271809     -128.037615
9.351                0.979233415     -128.274933
9.352                0.979195081     -128.512719
9.353                 0.97915681      -128.75097
9.354                0.979118604     -128.989687
9.355                0.979080463     -129.228869
9.356                0.979042389     -129.468516
9.357                0.979004384     -129.708626
9.358                 0.97896645     -129.949199
9.359                0.978928588     -130.190234
9.36                   0.9788908      -130.43173
9.361                0.978853087     -130.673688
9.362                0.978815451     -130.916105
9.363                0.978777894     -131.158981
9.364                0.978740417     -131.402315
9.365                0.978703022     -131.646107
9.366                0.978665711     -131.890355
9.367                0.978628485     -132.135059
9.368                0.978591346     -132.380218
9.369                0.978554296      -132.62583
9.37                 0.978517336     -132.871896
9.371                0.978480468     -133.118413
9.372                0.978443693     -133.365381
9.373                0.978407015     -133.612799
9.374                0.978370433     -133.860666
9.375                 0.97833395     -134.108981
9.376                0.978297568     -134.357743
9.377                0.978261288      -134.60695
9.378                0.978225113     -134.856602
9.379                0.978189043     -135.106698
9.38                 0.978153081     -135.357235
9.381                0.978117228     -135.608214
9.382                0.978081486     -135.859633
9.383                0.978045857     -136.111491
9.384                0.978010342     -136.363786
9.385                0.977974944     -136.616518
9.386                0.977939665     -136.869684
9.387                0.977904505     -137.123285
9.388                0.977869467     -137.377317
9.389                0.977834552     -137.631781
9.39                 0.977799763     -137.886674
9.391                0.977765101     -138.141996
9.392                0.977730568     -138.397745
9.393                0.977696166     -138.653919
9.394                0.977661896     -138.910517
9.395                0.977627761     -139.167538
9.396                0.977593761      -139.42498
