! TOUCHSTONE file generated by CST DESIGN STUDIO
! Date and time: Tue Feb  4 12:29:44 2025
! Project name: C:\Work\MatlabApps\UnitCellOptimizationMatlab\CST\unitcell.cst
! Tree item: Tasks\Sweep1\SPara1\S-Parameters
! Header version: 2024
! Port assignment regex: !\s*Touchstone port\s*([0-9]+)\s*=\s*(CST MWS port|CST DES external port|CST DES block port)\s*(.+)\s* \(\"(.*)\"\)(\s*mode\s*([0-9]+))?.*
! Touchstone port assignment:
! Touchstone port 1 = CST DES external port 1 ("")
# GHz S MA R 50
9                    0.990081226     -73.9215177
9.001                0.990058448     -74.0300276
9.002                0.990035601     -74.1387976
9.003                0.990012686     -74.2478286
9.004                0.989989701     -74.3571214
9.005                0.989966648     -74.4666766
9.006                0.989943525     -74.5764951
9.007                0.989920333     -74.6865777
9.008                0.989897072      -74.796925
9.009                 0.98987374      -74.907538
9.01                 0.989850339     -75.0184173
9.011                0.989826868     -75.1295638
9.012                0.989803327     -75.2409782
9.013                0.989779715     -75.3526614
9.014                0.989756033      -75.464614
9.015                 0.98973228      -75.576837
9.016                0.989708457     -75.6893311
9.017                0.989684562      -75.802097
9.018                0.989660596     -75.9151357
9.019                 0.98963656     -76.0284478
9.02                 0.989612451     -76.1420341
9.021                0.989588271     -76.2558956
9.022                 0.98956402     -76.3700329
9.023                0.989539696     -76.4844469
9.024                0.989515301     -76.5991384
9.025                0.989490833     -76.7141082
9.026                0.989466293     -76.8293571
9.027                0.989441681     -76.9448859
9.028                0.989416996     -77.0606954
9.029                0.989392238     -77.1767864
9.03                 0.989367408     -77.2931598
9.031                0.989342504     -77.4098164
9.032                0.989317527      -77.526757
9.033                0.989292477     -77.6439824
9.034                0.989267353     -77.7614934
9.035                0.989242156     -77.8792909
9.036                0.989216885     -77.9973757
9.037                 0.98919154     -78.1157486
9.038                0.989166121     -78.2344105
9.039                0.989140627     -78.3533621
9.04                  0.98911506     -78.4726044
9.041                0.989089418     -78.5921381
9.042                0.989063701     -78.7119641
9.043                 0.98903791     -78.8320832
9.044                0.989012043     -78.9524963
9.045                0.988986102     -79.0732042
9.046                0.988960086     -79.1942077
9.047                0.988933994     -79.3155078
9.048                0.988907827     -79.4371052
9.049                0.988881584     -79.5590008
9.05                 0.988855266     -79.6811954
9.051                0.988828872     -79.8036899
9.052                0.988802402     -79.9264852
9.053                0.988775856     -80.0495821
9.054                0.988749234     -80.1729814
9.055                0.988722535     -80.2966841
9.056                 0.98869576     -80.4206909
9.057                0.988668909     -80.5450028
9.058                 0.98864198     -80.6696206
9.059                0.988614975     -80.7945452
9.06                 0.988587894     -80.9197774
9.061                0.988560735     -81.0453181
9.062                0.988533499     -81.1711682
9.063                0.988506186     -81.2973285
9.064                0.988478795     -81.4237999
9.065                0.988451327     -81.5505833
9.066                0.988423781     -81.6776796
9.067                0.988396158     -81.8050896
9.068                0.988368457     -81.9328142
9.069                0.988340678     -82.0608543
9.07                 0.988312821     -82.1892107
9.071                0.988284886     -82.3178845
9.072                0.988256873     -82.4468763
9.073                0.988228781     -82.5761872
9.074                0.988200611      -82.705818
9.075                0.988172363     -82.8357696
9.076                0.988144036     -82.9660428
9.077                 0.98811563     -83.0966386
9.078                0.988087146     -83.2275579
9.079                0.988058582     -83.3588015
9.08                  0.98802994     -83.4903704
9.081                0.988001218     -83.6222654
9.082                0.987972418     -83.7544874
9.083                0.987943538     -83.8870373
9.084                0.987914579     -84.0199161
9.085                0.987885541     -84.1531246
9.086                0.987856423     -84.2866637
9.087                0.987827226     -84.4205343
9.088                0.987797949     -84.5547374
9.089                0.987768593     -84.6892737
9.09                 0.987739156     -84.8241443
9.091                 0.98770964       -84.95935
9.092                0.987680044     -85.0948918
9.093                0.987650368     -85.2307705
9.094                0.987620613      -85.366987
9.095                0.987590777     -85.5035423
9.096                0.987560861     -85.6404373
9.097                0.987530865     -85.7776728
9.098                0.987500788     -85.9152498
9.099                0.987470632     -86.0531692
9.1                  0.987440395     -86.1914319
9.101                0.987410078     -86.3300388
9.102                 0.98737968     -86.4689908
9.103                0.987349202     -86.6082889
9.104                0.987318644      -86.747934
9.105                0.987288005     -86.8879269
9.106                0.987257285     -87.0282686
9.107                0.987226485       -87.16896
9.108                0.987195605      -87.310002
9.109                0.987164643     -87.4513955
9.11                 0.987133601     -87.5931416
9.111                0.987102479     -87.7352409
9.112                0.987071276     -87.8776946
9.113                0.987039992     -88.0205035
9.114                0.987008627     -88.1636685
9.115                0.986977182     -88.3071905
9.116                0.986945656     -88.4510705
9.117                0.986914049     -88.5953094
9.118                0.986882362     -88.7399081
9.119                0.986850594     -88.8848675
9.12                 0.986818745     -89.0301886
9.121                0.986786816     -89.1758722
9.122                0.986754805     -89.3219193
9.123                0.986722715     -89.4683308
9.124                0.986690543     -89.6151077
9.125                0.986658291     -89.7622508
9.126                0.986625958     -89.9097611
9.127                0.986593545     -90.0576394
9.128                0.986561051     -90.2058868
9.129                0.986528477      -90.354504
9.13                 0.986495822     -90.5034922
9.131                0.986463087     -90.6528521
9.132                0.986430272     -90.8025847
9.133                0.986397376     -90.9526909
9.134                  0.9863644     -91.1031716
9.135                0.986331344     -91.2540278
9.136                0.986298207     -91.4052603
9.137                0.986264991     -91.5568701
9.138                0.986231694     -91.7088581
9.139                0.986198318     -91.8612252
9.14                 0.986164861     -92.0139723
9.141                0.986131325     -92.1671004
9.142                 0.98609771     -92.3206103
9.143                0.986064014      -92.474503
9.144                0.986030239     -92.6287794
9.145                0.985996385     -92.7834404
9.146                0.985962451     -92.9384869
9.147                0.985928438     -93.0939198
9.148                0.985894346       -93.24974
9.149                0.985860175     -93.4059485
9.15                 0.985825925     -93.5625461
9.151                0.985791596     -93.7195338
9.152                0.985757189     -93.8769124
9.153                0.985722703     -94.0346828
9.154                0.985688138      -94.192846
9.155                0.985653496     -94.3514029
9.156                0.985618775     -94.5103543
9.157                0.985583977     -94.6697012
9.158                  0.9855491     -94.8294445
9.159                0.985514146      -94.989585
9.16                 0.985479115     -95.1501236
9.161                0.985444006     -95.3110613
9.162                 0.98540882     -95.4723989
9.163                0.985373557     -95.6341373
9.164                0.985338217     -95.7962774
9.165                0.985302801     -95.9588201
9.166                0.985267308     -96.1217663
9.167                0.985231739     -96.2851168
9.168                0.985196094     -96.4488725
9.169                0.985160373     -96.6130344
9.17                 0.985124577     -96.7776033
9.171                0.985088705       -96.94258
9.172                0.985052758     -97.1079654
9.173                0.985016736     -97.2737604
9.174                0.984980639     -97.4399659
9.175                0.984944468     -97.6065828
9.176                0.984908223     -97.7736118
9.177                0.984871904     -97.9410538
9.178                0.984835511     -98.1089098
9.179                0.984799044     -98.2771805
9.18                 0.984762505     -98.4458668
9.181                0.984725892     -98.6149696
9.182                0.984689207     -98.7844897
9.183                 0.98465245     -98.9544279
9.184                 0.98461562     -99.1247851
9.185                0.984578719     -99.2955621
9.186                0.984541746     -99.4667598
9.187                0.984504702      -99.638379
9.188                0.984467588     -99.8104204
9.189                0.984430402      -99.982885
9.19                 0.984393147     -100.155774
9.191                0.984355822     -100.329087
9.192                0.984318427     -100.502826
9.193                0.984280963     -100.676991
9.194                 0.98424343     -100.851583
9.195                0.984205829     -101.026604
9.196                 0.98416816     -101.202053
9.197                0.984130423     -101.377932
9.198                0.984092619     -101.554241
9.199                0.984054747     -101.730982
9.2                   0.98401681     -101.908154
9.201                0.983978806     -102.085759
9.202                0.983940736     -102.263797
9.203                0.983902601      -102.44227
9.204                0.983864401     -102.621178
9.205                0.983826137     -102.800522
9.206                0.983787808     -102.980302
9.207                0.983749416     -103.160519
9.208                0.983710961     -103.341175
9.209                0.983672443     -103.522269
9.21                 0.983633863     -103.703803
9.211                0.983595221     -103.885777
9.212                0.983556518     -104.068192
9.213                0.983517754     -104.251048
9.214                 0.98347893     -104.434347
9.215                0.983440046      -104.61809
9.216                0.983401102     -104.802276
9.217                  0.9833621     -104.986906
9.218                 0.98332304     -105.171982
9.219                0.983283922     -105.357504
9.22                 0.983244747     -105.543472
9.221                0.983205515     -105.729887
9.222                0.983166227     -105.916751
9.223                0.983126883     -106.104063
9.224                0.983087485     -106.291824
9.225                0.983048032     -106.480035
9.226                0.983008526     -106.668696
9.227                0.982968966     -106.857809
9.228                0.982929354     -107.047374
9.229                 0.98288969     -107.237391
9.23                 0.982849975     -107.427861
9.231                0.982810209     -107.618785
9.232                0.982770393     -107.810163
9.233                0.982730527     -108.001996
9.234                0.982690613     -108.194284
9.235                0.982650651     -108.387028
9.236                0.982610641     -108.580229
9.237                0.982570584     -108.773888
9.238                0.982530482     -108.968004
9.239                0.982490334     -109.162578
9.24                 0.982450142     -109.357611
9.241                0.982409905     -109.553103
9.242                0.982369626     -109.749056
9.243                0.982329304     -109.945468
9.244                 0.98228894     -110.142342
9.245                0.982248536     -110.339677
9.246                0.982208091     -110.537474
9.247                0.982167607     -110.735734
9.248                0.982127084     -110.934456
9.249                0.982086524     -111.133642
9.25                 0.982045926     -111.333292
9.251                0.982005293     -111.533406
9.252                0.981964623     -111.733984
9.253                 0.98192392     -111.935028
9.254                0.981883182     -112.136538
9.255                0.981842412     -112.338513
9.256                 0.98180161     -112.540955
9.257                0.981760776     -112.743864
9.258                0.981719912      -112.94724
9.259                0.981679019     -113.151083
9.26                 0.981638097     -113.355394
9.261                0.981597148     -113.560174
9.262                0.981556172     -113.765423
9.263                 0.98151517      -113.97114
9.264                0.981474144     -114.177327
9.265                0.981433094     -114.383983
9.266                 0.98139202      -114.59111
9.267                0.981350925     -114.798706
9.268                0.981309809     -115.006773
9.269                0.981268672     -115.215311
9.27                 0.981227517      -115.42432
9.271                0.981186344     -115.633801
9.272                0.981145154     -115.843752
9.273                0.981103947     -116.054176
9.274                0.981062726     -116.265072
9.275                0.981021491      -116.47644
9.276                0.980980243      -116.68828
9.277                0.980938984     -116.900593
9.278                0.980897713     -117.113378
9.279                0.980856434     -117.326637
9.28                 0.980815145     -117.540369
9.281                0.980773849     -117.754574
9.282                0.980732547     -117.969252
9.283                 0.98069124     -118.184403
9.284                0.980649929     -118.400028
9.285                0.980608614     -118.616127
9.286                0.980567298       -118.8327
9.287                0.980525982     -119.049746
9.288                0.980484666     -119.267266
9.289                0.980443352      -119.48526
9.29                 0.980402041     -119.703727
9.291                0.980360734     -119.922669
9.292                0.980319432     -120.142084
9.293                0.980278137     -120.361973
9.294                0.980236851     -120.582336
9.295                0.980195573     -120.803173
9.296                0.980154305     -121.024483
9.297                0.980113049     -121.246267
9.298                0.980071807     -121.468524
9.299                0.980030578     -121.691255
9.3                  0.979989365     -121.914459
9.301                0.979948168     -122.138136
9.302                 0.97990699     -122.362286
9.303                0.979865831     -122.586909
9.304                0.979824694     -122.812005
9.305                0.979783578     -123.037573
9.306                0.979742486     -123.263613
9.307                0.979701418     -123.490125
9.308                0.979660377     -123.717109
9.309                0.979619364     -123.944565
9.31                 0.979578379     -124.172491
9.311                0.979537425     -124.400889
9.312                0.979496503     -124.629757
9.313                0.979455614     -124.859096
9.314                 0.97941476     -125.088904
9.315                0.979373942     -125.319182
9.316                0.979333162      -125.54993
9.317                0.979292421     -125.781146
9.318                 0.97925172     -126.012831
9.319                0.979211062     -126.244983
9.32                 0.979170447     -126.477604
9.321                0.979129877     -126.710691
9.322                0.979089353     -126.944245
9.323                0.979048878     -127.178265
9.324                0.979008452     -127.412751
9.325                0.978968078     -127.647702
9.326                0.978927756     -127.883118
9.327                0.978887489     -128.118998
9.328                0.978847277     -128.355341
9.329                0.978807123     -128.592147
9.33                 0.978767027     -128.829416
9.331                0.978726993     -129.067146
9.332                 0.97868702     -129.305337
9.333                0.978647111     -129.543988
9.334                0.978607268     -129.783099
9.335                0.978567492     -130.022669
9.336                0.978527784     -130.262697
9.337                0.978488147     -130.503183
9.338                0.978448581     -130.744125
9.339                 0.97840909     -130.985523
9.34                 0.978369673     -131.227377
9.341                0.978330334     -131.469684
9.342                0.978291073     -131.712446
9.343                0.978251892     -131.955659
9.344                0.978212794     -132.199325
9.345                0.978173779     -132.443442
9.346                 0.97813485     -132.688008
9.347                0.978096008     -132.933024
9.348                0.978057255     -133.178487
9.349                0.978018592     -133.424398
9.35                 0.977980022     -133.670755
9.351                0.977941546     -133.917557
9.352                0.977903166     -134.164803
9.353                0.977864883     -134.412492
9.354                  0.9778267     -134.660623
9.355                0.977788618     -134.909195
9.356                0.977750639     -135.158206
9.357                0.977712765     -135.407656
9.358                0.977674997     -135.657544
9.359                0.977637337     -135.907868
9.36                 0.977599788     -136.158627
9.361                 0.97756235      -136.40982
9.362                0.977525027     -136.661446
9.363                0.977487818     -136.913503
9.364                0.977450728      -137.16599
9.365                0.977413756     -137.418906
9.366                0.977376905     -137.672249
9.367                0.977340178     -137.926019
9.368                0.977303574     -138.180214
9.369                0.977267098     -138.434831
9.37                  0.97723075     -138.689871
9.371                0.977194532     -138.945332
9.372                0.977158446     -139.201211
9.373                0.977122494     -139.457509
9.374                0.977086677     -139.714222
9.375                0.977050999     -139.971351
9.376                 0.97701546     -140.228892
9.377                0.976980062     -140.486845
9.378                0.976944808     -140.745208
9.379                0.976909698      -141.00398
9.38                 0.976874736     -141.263158
9.381                0.976839923     -141.522742
9.382                 0.97680526     -141.782729
9.383                 0.97677075     -142.043117
9.384                0.976736394     -142.303907
9.385                0.976702195     -142.565094
9.386                0.976668154     -142.826678
9.387                0.976634274     -143.088657
9.388                0.976600555      -143.35103
9.389                   0.976567     -143.613793
9.39                 0.976533611     -143.876946
9.391                 0.97650039     -144.140487
9.392                0.976467338     -144.404413
9.393                0.976434458     -144.668723
9.394                0.976401751     -144.933415
9.395                0.976369219     -145.198488
9.396                0.976336864     -145.463938
