! TOUCHSTONE file generated by CST DESIGN STUDIO
! Date and time: Tue Feb  4 12:39:07 2025
! Project name: C:\Work\MatlabApps\UnitCellOptimizationMatlab\CST\unitcell.cst
! Tree item: Tasks\Sweep1\SPara1\S-Parameters
! Header version: 2024
! Port assignment regex: !\s*Touchstone port\s*([0-9]+)\s*=\s*(CST MWS port|CST DES external port|CST DES block port)\s*(.+)\s* \(\"(.*)\"\)(\s*mode\s*([0-9]+))?.*
! Touchstone port assignment:
! Touchstone port 1 = CST DES external port 1 ("")
# GHz S MA R 50
9                    0.987522291     -76.9314483
9.001                0.987492178      -77.048426
9.002                0.987461972     -77.1656917
9.003                0.987431674     -77.2832462
9.004                0.987401284     -77.4010904
9.005                  0.9873708     -77.5192251
9.006                0.987340224     -77.6376512
9.007                0.987309554     -77.7563695
9.008                0.987278792     -77.8753809
9.009                0.987247935     -77.9946862
9.01                 0.987216985     -78.1142864
9.011                 0.98718594     -78.2341822
9.012                0.987154802     -78.3543745
9.013                0.987123569     -78.4748642
9.014                0.987092241     -78.5956522
9.015                0.987060819     -78.7167394
9.016                0.987029302     -78.8381265
9.017                 0.98699769     -78.9598145
9.018                0.986965983     -79.0818042
9.019                 0.98693418     -79.2040966
9.02                 0.986902282     -79.3266924
9.021                0.986870288     -79.4495927
9.022                0.986838197     -79.5727982
9.023                0.986806011     -79.6963098
9.024                0.986773728     -79.8201285
9.025                0.986741349     -79.9442551
9.026                0.986708873     -80.0686905
9.027                0.986676301     -80.1934356
9.028                0.986643631     -80.3184913
9.029                0.986610864     -80.4438584
9.03                    0.986578      -80.569538
9.031                0.986545039     -80.6955308
9.032                0.986511979     -80.8218378
9.033                0.986478822     -80.9484598
9.034                0.986445567     -81.0753978
9.035                0.986412214     -81.2026527
9.036                0.986378763     -81.3302253
9.037                0.986345213     -81.4581167
9.038                0.986311564     -81.5863276
9.039                0.986277817      -81.714859
9.04                 0.986243971     -81.8437118
9.041                0.986210025      -81.972887
9.042                0.986175981     -82.1023853
9.043                0.986141837     -82.2322079
9.044                0.986107594     -82.3623554
9.045                0.986073251      -82.492829
9.046                0.986038808     -82.6236295
9.047                0.986004266     -82.7547577
9.048                0.985969623     -82.8862148
9.049                0.985934881     -83.0180014
9.05                 0.985900038     -83.1501187
9.051                0.985865094     -83.2825675
9.052                 0.98583005     -83.4153487
9.053                0.985794906     -83.5484633
9.054                 0.98575966     -83.6819121
9.055                0.985724314     -83.8156962
9.056                0.985688867     -83.9498165
9.057                0.985653318     -84.0842738
9.058                0.985617668     -84.2190692
9.059                0.985581917     -84.3542035
9.06                 0.985546065     -84.4896778
9.061                 0.98551011     -84.6254928
9.062                0.985474054     -84.7616496
9.063                0.985437897     -84.8981492
9.064                0.985401637     -85.0349924
9.065                0.985365276     -85.1721801
9.066                0.985328812     -85.3097134
9.067                0.985292246     -85.4475932
9.068                0.985255578     -85.5858204
9.069                0.985218808      -85.724396
9.07                 0.985181935     -85.8633209
9.071                 0.98514496      -86.002596
9.072                0.985107882     -86.1422223
9.073                0.985070701     -86.2822008
9.074                0.985033418     -86.4225324
9.075                0.984996032     -86.5632181
9.076                0.984958543     -86.7042587
9.077                0.984920951     -86.8456554
9.078                0.984883256     -86.9874089
9.079                0.984845458     -87.1295202
9.08                 0.984807557     -87.2719904
9.081                0.984769553     -87.4148204
9.082                0.984731446      -87.558011
9.083                0.984693235     -87.7015634
9.084                0.984654922     -87.8454783
9.085                0.984616505     -87.9897569
9.086                0.984577984        -88.1344
9.087                0.984539361     -88.2794086
9.088                0.984500633     -88.4247836
9.089                0.984461803     -88.5705261
9.09                 0.984422869     -88.7166369
9.091                0.984383831      -88.863117
9.092                0.984344691     -89.0099675
9.093                0.984305446     -89.1571891
9.094                0.984266098      -89.304783
9.095                0.984226647       -89.45275
9.096                0.984187093     -89.6010912
9.097                0.984147434     -89.7498074
9.098                0.984107673     -89.8988996
9.099                0.984067808     -90.0483688
9.1                  0.984027839      -90.198216
9.101                0.983987768     -90.3484421
9.102                0.983947592      -90.499048
9.103                0.983907314     -90.6500348
9.104                0.983866932     -90.8014033
9.105                0.983826447     -90.9531546
9.106                0.983785859     -91.1052896
9.107                0.983745168     -91.2578092
9.108                0.983704374     -91.4107144
9.109                0.983663476     -91.5640061
9.11                 0.983622476     -91.7176854
9.111                0.983581373     -91.8717532
9.112                0.983540167     -92.0262103
9.113                0.983498858     -92.1810579
9.114                0.983457447     -92.3362967
9.115                0.983415933     -92.4919279
9.116                0.983374316     -92.6479522
9.117                0.983332598     -92.8043708
9.118                0.983290777     -92.9611845
9.119                0.983248853     -93.1183942
9.12                 0.983206828      -93.276001
9.121                0.983164701     -93.4340057
9.122                0.983122472     -93.5924094
9.123                0.983080142     -93.7512129
9.124                 0.98303771     -93.9104172
9.125                0.982995176     -94.0700233
9.126                0.982952542      -94.230032
9.127                0.982909806     -94.3904444
9.128                0.982866969     -94.5512613
9.129                0.982824032     -94.7124837
9.13                 0.982780994     -94.8741126
9.131                0.982737856     -95.0361488
9.132                0.982694617     -95.1985933
9.133                0.982651279      -95.361447
9.134                 0.98260784     -95.5247109
9.135                0.982564302     -95.6883859
9.136                0.982520664     -95.8524729
9.137                0.982476928     -96.0169728
9.138                0.982433092     -96.1818865
9.139                0.982389157      -96.347215
9.14                 0.982345124     -96.5129592
9.141                0.982300993       -96.67912
9.142                0.982256764     -96.8456983
9.143                0.982212437      -97.012695
9.144                0.982168012     -97.1801111
9.145                 0.98212349     -97.3479474
9.146                0.982078871     -97.5162048
9.147                0.982034155     -97.6848843
9.148                0.981989343     -97.8539867
9.149                0.981944435     -98.0235129
9.15                  0.98189943     -98.1934638
9.151                0.981854331     -98.3638404
9.152                0.981809136     -98.5346435
9.153                0.981763846     -98.7058739
9.154                0.981718462     -98.8775326
9.155                0.981672983     -99.0496204
9.156                0.981627411     -99.2221383
9.157                0.981581745     -99.3950871
9.158                0.981535986     -99.5684676
9.159                0.981490134     -99.7422807
9.16                 0.981444189     -99.9165273
9.161                0.981398153     -100.091208
9.162                0.981352025     -100.266324
9.163                0.981305806     -100.441877
9.164                0.981259495     -100.617866
9.165                0.981213095     -100.794292
9.166                0.981166604     -100.971158
9.167                0.981120024     -101.148463
9.168                0.981073355     -101.326208
9.169                0.981026597     -101.504394
9.17                 0.980979751     -101.683022
9.171                0.980932817     -101.862092
9.172                0.980885796     -102.041607
9.173                0.980838688     -102.221565
9.174                0.980791494     -102.401969
9.175                0.980744214     -102.582819
9.176                0.980696849     -102.764115
9.177                0.980649399     -102.945859
9.178                0.980601864     -103.128051
9.179                0.980554246     -103.310692
9.18                 0.980506545     -103.493784
9.181                0.980458762     -103.677325
9.182                0.980410896     -103.861319
9.183                0.980362949     -104.045764
9.184                0.980314921     -104.230662
9.185                0.980266813     -104.416014
9.186                0.980218625     -104.601821
9.187                0.980170358     -104.788082
9.188                0.980122013       -104.9748
9.189                0.980073589     -105.161974
9.19                 0.980025089     -105.349605
9.191                0.979976512     -105.537695
9.192                 0.97992786     -105.726243
9.193                0.979879132     -105.915251
9.194                 0.97983033     -106.104719
9.195                0.979781454     -106.294647
9.196                0.979732505     -106.485037
9.197                0.979683484      -106.67589
9.198                0.979634391     -106.867205
9.199                0.979585227     -107.058984
9.2                  0.979535993     -107.251227
9.201                 0.97948669     -107.443935
9.202                0.979437318     -107.637108
9.203                0.979387878     -107.830748
9.204                0.979338371     -108.024854
9.205                0.979288798     -108.219428
9.206                 0.97923916     -108.414469
9.207                0.979189457      -108.60998
9.208                 0.97913969     -108.805959
9.209                 0.97908986     -109.002408
9.21                 0.979039969     -109.199328
9.211                0.978990016     -109.396718
9.212                0.978940002      -109.59458
9.213                 0.97888993     -109.792914
9.214                0.978839798      -109.99172
9.215                 0.97878961        -110.191
9.216                0.978739364     -110.390753
9.217                0.978689063     -110.590981
9.218                0.978638707     -110.791683
9.219                0.978588297     -110.992861
9.22                 0.978537835     -111.194514
9.221                 0.97848732     -111.396643
9.222                0.978436755     -111.599249
9.223                0.978386139     -111.802332
9.224                0.978335475     -112.005893
9.225                0.978284764     -112.209932
9.226                0.978234005     -112.414449
9.227                0.978183201     -112.619445
9.228                0.978132352      -112.82492
9.229                0.978081459     -113.030875
9.23                 0.978030524      -113.23731
9.231                0.977979548     -113.444226
9.232                0.977928532     -113.651623
9.233                0.977877476     -113.859501
9.234                0.977826383      -114.06786
9.235                0.977775252     -114.276702
9.236                0.977724086     -114.486025
9.237                0.977672886     -114.695832
9.238                0.977621652     -114.906121
9.239                0.977570387     -115.116893
9.24                  0.97751909     -115.328149
9.241                0.977467764     -115.539889
9.242                 0.97741641     -115.752113
9.243                0.977365029     -115.964821
9.244                0.977313622     -116.178014
9.245                 0.97726219     -116.391691
9.246                0.977210735     -116.605853
9.247                0.977159258     -116.820501
9.248                0.977107761     -117.035634
9.249                0.977056244     -117.251252
9.25                  0.97700471     -117.467357
9.251                0.976953159     -117.683947
9.252                0.976901593     -117.901023
9.253                0.976850013     -118.118585
9.254                0.976798421     -118.336634
9.255                0.976746818     -118.555169
9.256                0.976695205      -118.77419
9.257                0.976643584     -118.993698
9.258                0.976591957     -119.213693
9.259                0.976540325     -119.434174
9.26                 0.976488688     -119.655142
9.261                 0.97643705     -119.876597
9.262                0.976385411     -120.098538
9.263                0.976333773     -120.320966
9.264                0.976282138     -120.543881
9.265                0.976230506     -120.767282
9.266                 0.97617888      -120.99117
9.267                0.976127261     -121.215544
9.268                 0.97607565     -121.440405
9.269                 0.97602405     -121.665752
9.27                 0.975972462     -121.891585
9.271                0.975920887     -122.117905
9.272                0.975869328      -122.34471
9.273                0.975817785     -122.572001
9.274                0.975766261     -122.799778
9.275                0.975714757      -123.02804
9.276                0.975663275     -123.256787
9.277                0.975611816      -123.48602
9.278                0.975560383     -123.715737
9.279                0.975508976     -123.945938
9.28                 0.975457598     -124.176624
9.281                0.975406251     -124.407794
9.282                0.975354937     -124.639447
9.283                0.975303656     -124.871583
9.284                0.975252411     -125.104203
9.285                0.975201203     -125.337305
9.286                0.975150036     -125.570889
9.287                0.975098909     -125.804955
9.288                0.975047826     -126.039503
9.289                0.974996787     -126.274531
9.29                 0.974945796      -126.51004
9.291                0.974894853      -126.74603
9.292                0.974843961     -126.982498
9.293                0.974793122     -127.219446
9.294                0.974742337     -127.456873
9.295                0.974691608     -127.694777
9.296                0.974640938     -127.933159
9.297                0.974590328     -128.172018
9.298                 0.97453978     -128.411353
9.299                0.974489297     -128.651164
9.3                   0.97443888      -128.89145
9.301                0.974388531     -129.132211
9.302                0.974338252     -129.373445
9.303                0.974288046     -129.615152
9.304                0.974237914     -129.857332
9.305                0.974187858     -130.099983
9.306                0.974137881     -130.343106
9.307                0.974087984     -130.586698
9.308                 0.97403817      -130.83076
9.309                 0.97398844     -131.075291
9.31                 0.973938797     -131.320289
9.311                0.973889243     -131.565754
9.312                 0.97383978     -131.811685
9.313                0.973790409     -132.058081
9.314                0.973741135     -132.304942
9.315                0.973691957     -132.552266
9.316                0.973642879     -132.800052
9.317                0.973593903       -133.0483
9.318                 0.97354503     -133.297008
9.319                0.973496264     -133.546176
9.32                 0.973447606     -133.795802
9.321                0.973399058     -134.045885
9.322                0.973350624     -134.296425
9.323                0.973302303     -134.547419
9.324                0.973254101     -134.798868
9.325                0.973206017      -135.05077
9.326                0.973158055     -135.303124
9.327                0.973110217     -135.555928
9.328                0.973062505     -135.809182
9.329                0.973014921     -136.062884
9.33                 0.972967468     -136.317032
9.331                0.972920148     -136.571627
9.332                0.972872964     -136.826666
9.333                0.972825916     -137.082148
9.334                0.972779009     -137.338072
9.335                0.972732244     -137.594436
9.336                0.972685623     -137.851239
9.337                0.972639149      -138.10848
9.338                0.972592824     -138.366157
9.339                0.972546651     -138.624269
9.34                 0.972500631     -138.882814
9.341                0.972454768     -139.141792
9.342                0.972409063     -139.401199
9.343                0.972363518     -139.661035
9.344                0.972318137     -139.921299
9.345                0.972272922     -140.181988
9.346                0.972227874     -140.443102
9.347                0.972182997     -140.704637
9.348                0.972138292     -140.966594
9.349                0.972093763      -141.22897
9.35                 0.972049411     -141.491763
9.351                0.972005238     -141.754972
9.352                0.971961248     -142.018596
9.353                0.971917442     -142.282631
9.354                0.971873824     -142.547077
9.355                0.971830394     -142.811931
9.356                0.971787157     -143.077193
9.357                0.971744113     -143.342859
9.358                0.971701266     -143.608929
9.359                0.971658618       -143.8754
9.36                 0.971616171      -144.14227
9.361                0.971573928     -144.409538
9.362                0.971531891     -144.677201
9.363                0.971490063     -144.945258
9.364                0.971448445     -145.213706
9.365                0.971407041     -145.482544
9.366                0.971365852     -145.751768
9.367                0.971324881     -146.021379
9.368                0.971284131     -146.291372
9.369                0.971243604     -146.561747
9.37                 0.971203302       -146.8325
9.371                0.971163227      -147.10363
9.372                0.971123382     -147.375135
9.373                 0.97108377     -147.647012
9.374                0.971044392     -147.919259
9.375                0.971005252     -148.191874
9.376                0.970966351     -148.464855
9.377                0.970927691     -148.738199
9.378                0.970889276     -149.011904
9.379                0.970851107     -149.285968
9.38                 0.970813187     -149.560387
9.381                0.970775519     -149.835161
9.382                0.970738103     -150.110286
9.383                0.970700944      -150.38576
9.384                0.970664042     -150.661581
9.385                0.970627401     -150.937745
9.386                0.970591023     -151.214252
9.387                 0.97055491     -151.491097
9.388                0.970519064     -151.768279
9.389                0.970483487     -152.045794
9.39                 0.970448183     -152.323641
9.391                0.970413152     -152.601817
9.392                0.970378398     -152.880318
9.393                0.970343923     -153.159143
9.394                0.970309728     -153.438289
9.395                0.970275816     -153.717753
9.396                 0.97024219     -153.997532
