! TOUCHSTONE file generated by CST DESIGN STUDIO
! Date and time: Tue Feb  4 12:39:08 2025
! Project name: C:\Work\MatlabApps\UnitCellOptimizationMatlab\CST\unitcell.cst
! Tree item: Tasks\Sweep1\SPara1\S-Parameters
! Header version: 2024
! Port assignment regex: !\s*Touchstone port\s*([0-9]+)\s*=\s*(CST MWS port|CST DES external port|CST DES block port)\s*(.+)\s* \(\"(.*)\"\)(\s*mode\s*([0-9]+))?.*
! Touchstone port assignment:
! Touchstone port 1 = CST DES external port 1 ("")
# GHz S MA R 50
9                    0.987786283       -75.85407
9.001                0.987757158     -75.9685545
9.002                0.987727943     -76.0833198
9.003                 0.98769864     -76.1983668
9.004                0.987669247     -76.3136963
9.005                0.987639765     -76.4293091
9.006                0.987610193     -76.5452061
9.007                0.987580531     -76.6613881
9.008                 0.98755078     -76.7778559
9.009                0.987520938     -76.8946104
9.01                 0.987491006     -77.0116525
9.011                0.987460983     -77.1289829
9.012                0.987430869     -77.2466026
9.013                0.987400665     -77.3645124
9.014                0.987370369     -77.4827131
9.015                0.987339982     -77.6012056
9.016                0.987309504     -77.7199907
9.017                0.987278934     -77.8390694
9.018                0.987248272     -77.9584424
9.019                0.987217517     -78.0781107
9.02                 0.987186671      -78.198075
9.021                0.987155732     -78.3183363
9.022                  0.9871247     -78.4388954
9.023                0.987093576     -78.5597533
9.024                0.987062359     -78.6809107
9.025                0.987031048     -78.8023685
9.026                0.986999644     -78.9241277
9.027                0.986968147      -79.046189
9.028                0.986936556     -79.1685534
9.029                0.986904871     -79.2912218
9.03                 0.986873092      -79.414195
9.031                0.986841219      -79.537474
9.032                0.986809251     -79.6610595
9.033                0.986777189     -79.7849525
9.034                0.986745032     -79.9091539
9.035                 0.98671278     -80.0336646
9.036                0.986680433     -80.1584854
9.037                0.986647991     -80.2836173
9.038                0.986615454     -80.4090611
9.039                0.986582821     -80.5348178
9.04                 0.986550092     -80.6608882
9.041                0.986517268     -80.7872733
9.042                0.986484347     -80.9139739
9.043                0.986451331      -81.040991
9.044                0.986418218     -81.1683255
9.045                0.986385008     -81.2959782
9.046                0.986351702       -81.42395
9.047                0.986318299      -81.552242
9.048                0.986284799      -81.680855
9.049                0.986251203     -81.8097898
9.05                 0.986217508     -81.9390475
9.051                0.986183717     -82.0686289
9.052                0.986149828      -82.198535
9.053                0.986115842     -82.3287666
9.054                0.986081757     -82.4593247
9.055                0.986047575     -82.5902103
9.056                0.986013295     -82.7214241
9.057                0.985978917     -82.8529673
9.058                 0.98594444     -82.9848406
9.059                0.985909865      -83.117045
9.06                 0.985875191     -83.2495815
9.061                0.985840419     -83.3824509
9.062                0.985805548     -83.5156543
9.063                0.985770578     -83.6491924
9.064                0.985735509     -83.7830664
9.065                0.985700341      -83.917277
9.066                0.985665074     -84.0518253
9.067                0.985629708     -84.1867121
9.068                0.985594242     -84.3219384
9.069                0.985558676     -84.4575052
9.07                 0.985523011     -84.5934134
9.071                0.985487246     -84.7296639
9.072                0.985451381     -84.8662577
9.073                0.985415416     -85.0031956
9.074                0.985379351     -85.1404788
9.075                0.985343186      -85.278108
9.076                0.985306921     -85.4160843
9.077                0.985270556     -85.5544085
9.078                 0.98523409     -85.6930818
9.079                0.985197524     -85.8321049
9.08                 0.985160857     -85.9714788
9.081                 0.98512409     -86.1112045
9.082                0.985087222      -86.251283
9.083                0.985050253     -86.3917152
9.084                0.985013184      -86.532502
9.085                0.984976013     -86.6736444
9.086                0.984938742     -86.8151433
9.087                 0.98490137     -86.9569998
9.088                0.984863897     -87.0992147
9.089                0.984826322      -87.241789
9.09                 0.984788647     -87.3847237
9.091                 0.98475087     -87.5280198
9.092                0.984712992     -87.6716781
9.093                0.984675014     -87.8156997
9.094                0.984636933     -87.9600854
9.095                0.984598752     -88.1048364
9.096                0.984560469     -88.2499534
9.097                0.984522085     -88.3954376
9.098                0.984483599     -88.5412898
9.099                0.984445012     -88.6875109
9.1                  0.984406324     -88.8341021
9.101                0.984367535     -88.9810642
9.102                0.984328644     -89.1283981
9.103                0.984289651     -89.2761049
9.104                0.984250558     -89.4241855
9.105                0.984211363     -89.5726408
9.106                0.984172066     -89.7214719
9.107                0.984132668     -89.8706797
9.108                0.984093169     -90.0202651
9.109                0.984053569     -90.1702291
9.11                 0.984013867     -90.3205727
9.111                0.983974065     -90.4712969
9.112                0.983934161     -90.6224025
9.113                0.983894155     -90.7738905
9.114                0.983854049      -90.925762
9.115                0.983813842     -91.0780179
9.116                0.983773534      -91.230659
9.117                0.983733124     -91.3836865
9.118                0.983692614     -91.5371012
9.119                0.983652004     -91.6909041
9.12                 0.983611292     -91.8450961
9.121                 0.98357048     -91.9996783
9.122                0.983529567     -92.1546516
9.123                0.983488554     -92.3100169
9.124                 0.98344744     -92.4657751
9.125                0.983406227     -92.6219273
9.126                0.983364913     -92.7784744
9.127                0.983323498     -92.9354173
9.128                0.983281984      -93.092757
9.129                0.983240371     -93.2504945
9.13                 0.983198657     -93.4086306
9.131                0.983156844     -93.5671664
9.132                0.983114931     -93.7261028
9.133                 0.98307292     -93.8854407
9.134                0.983030809     -94.0451811
9.135                0.982988599     -94.2053249
9.136                 0.98294629      -94.365873
9.137                0.982903882     -94.5268265
9.138                0.982861376     -94.6881862
9.139                0.982818772     -94.8499531
9.14                 0.982776069     -95.0121281
9.141                0.982733269     -95.1747121
9.142                0.982690371     -95.3377061
9.143                0.982647375      -95.501111
9.144                0.982604282     -95.6649278
9.145                0.982561091     -95.8291574
9.146                0.982517804     -95.9938006
9.147                 0.98247442     -96.1588584
9.148                 0.98243094     -96.3243318
9.149                0.982387363     -96.4902217
9.15                  0.98234369     -96.6565289
9.151                0.982299921     -96.8232544
9.152                0.982256057     -96.9903991
9.153                0.982212098      -97.157964
9.154                0.982168044     -97.3259498
9.155                0.982123895     -97.4943576
9.156                0.982079652     -97.6631882
9.157                0.982035314     -97.8324426
9.158                0.981990883     -98.0021215
9.159                0.981946358      -98.172226
9.16                  0.98190174     -98.3427569
9.161                0.981857029     -98.5137152
9.162                0.981812226     -98.6851016
9.163                 0.98176733     -98.8569171
9.164                0.981722343     -99.0291625
9.165                0.981677264     -99.2018388
9.166                0.981632093     -99.3749468
9.167                0.981586832     -99.5484873
9.168                0.981541481     -99.7224614
9.169                0.981496039     -99.8968697
9.17                 0.981450508     -100.071713
9.171                0.981404887     -100.246993
9.172                0.981359178     -100.422709
9.173                 0.98131338     -100.598863
9.174                0.981267494     -100.775456
9.175                 0.98122152     -100.952488
9.176                 0.98117546      -101.12996
9.177                0.981129312     -101.307874
9.178                0.981083078     -101.486229
9.179                0.981036759     -101.665027
9.18                 0.980990354     -101.844269
9.181                0.980943864     -102.023955
9.182                0.980897289     -102.204086
9.183                0.980850631     -102.384664
9.184                 0.98080389     -102.565688
9.185                0.980757065      -102.74716
9.186                0.980710159      -102.92908
9.187                 0.98066317     -103.111449
9.188                  0.9806161     -103.294268
9.189                 0.98056895     -103.477538
9.19                 0.980521719      -103.66126
9.191                0.980474408     -103.845433
9.192                0.980427019      -104.03006
9.193                0.980379551     -104.215141
9.194                0.980332005     -104.400676
9.195                0.980284382     -104.586667
9.196                0.980236683     -104.773113
9.197                0.980188907     -104.960017
9.198                0.980141057     -105.147377
9.199                0.980093131     -105.335197
9.2                  0.980045131     -105.523475
9.201                0.979997058     -105.712212
9.202                0.979948912      -105.90141
9.203                0.979900695      -106.09107
9.204                0.979852406      -106.28119
9.205                0.979804046     -106.471774
9.206                0.979755616      -106.66282
9.207                0.979707117     -106.854331
9.208                 0.97965855     -107.046305
9.209                0.979609915     -107.238745
9.21                 0.979561213     -107.431651
9.211                0.979512445     -107.625023
9.212                0.979463612     -107.818862
9.213                0.979414714     -108.013168
9.214                0.979365752     -108.207943
9.215                0.979316727     -108.403187
9.216                 0.97926764     -108.598901
9.217                0.979218492     -108.795084
9.218                0.979169283     -108.991739
9.219                0.979120015     -109.188864
9.22                 0.979070687     -109.386461
9.221                0.979021302     -109.584531
9.222                 0.97897186     -109.783074
9.223                0.978922362      -109.98209
9.224                0.978872809     -110.181581
9.225                0.978823202     -110.381546
9.226                0.978773541     -110.581986
9.227                0.978723828     -110.782902
9.228                0.978674063     -110.984294
9.229                0.978624249     -111.186162
9.23                 0.978574384     -111.388508
9.231                0.978524472     -111.591331
9.232                0.978474511     -111.794632
9.233                0.978424505     -111.998412
9.234                0.978374453     -112.202671
9.235                0.978324357     -112.407409
9.236                0.978274217     -112.612627
9.237                0.978224035     -112.818326
9.238                0.978173813     -113.024505
9.239                 0.97812355     -113.231165
9.24                 0.978073248     -113.438307
9.241                0.978022908      -113.64593
9.242                0.977972532     -113.854036
9.243                 0.97792212     -114.062624
9.244                0.977871674     -114.271695
9.245                0.977821195     -114.481249
9.246                0.977770683     -114.691287
9.247                0.977720141     -114.901809
9.248                0.977669569     -115.112815
9.249                0.977618969     -115.324305
9.25                 0.977568341     -115.536281
9.251                0.977517688     -115.748741
9.252                 0.97746701     -115.961686
9.253                0.977416308     -116.175117
9.254                0.977365585     -116.389034
9.255                 0.97731484     -116.603436
9.256                0.977264076     -116.818325
9.257                0.977213294       -117.0337
9.258                0.977162495     -117.249562
9.259                 0.97711168      -117.46591
9.26                 0.977060851     -117.682745
9.261                 0.97701001     -117.900067
9.262                0.976959157     -118.117876
9.263                0.976908294     -118.336173
9.264                0.976857422     -118.554956
9.265                0.976806543     -118.774228
9.266                0.976755659     -118.993986
9.267                 0.97670477     -119.214232
9.268                0.976653878     -119.434966
9.269                0.976602985     -119.656188
9.27                 0.976552092     -119.877897
9.271                0.976501201     -120.100093
9.272                0.976450313     -120.322778
9.273                0.976399429     -120.545949
9.274                0.976348552     -120.769609
9.275                0.976297683     -120.993756
9.276                0.976246823      -121.21839
9.277                0.976195974     -121.443512
9.278                0.976145137     -121.669121
9.279                0.976094315     -121.895217
9.28                 0.976043508     -122.121801
9.281                0.975992718     -122.348871
9.282                0.975941948     -122.576427
9.283                0.975891198     -122.804471
9.284                0.975840471        -123.033
9.285                0.975789768     -123.262016
9.286                 0.97573909     -123.491518
9.287                 0.97568844     -123.721505
9.288                0.975637819     -123.951977
9.289                0.975587229     -124.182935
9.29                 0.975536672     -124.414378
9.291                0.975486149     -124.646305
9.292                0.975435662     -124.878716
9.293                0.975385213     -125.111611
9.294                0.975334804      -125.34499
9.295                0.975284436     -125.578852
9.296                0.975234112     -125.813196
9.297                0.975183833     -126.048023
9.298                0.975133601     -126.283331
9.299                0.975083418     -126.519122
9.3                  0.975033286     -126.755393
9.301                0.974983207     -126.992144
9.302                0.974933182     -127.229375
9.303                0.974883213     -127.467086
9.304                0.974833303     -127.705276
9.305                0.974783454     -127.943944
9.306                0.974733666      -128.18309
9.307                0.974683943     -128.422713
9.308                0.974634286     -128.662813
9.309                0.974584697     -128.903389
9.31                 0.974535178     -129.144439
9.311                0.974485732     -129.385965
9.312                0.974436359     -129.627964
9.313                0.974387063     -129.870437
9.314                0.974337845     -130.113382
9.315                0.974288707     -130.356799
9.316                0.974239652     -130.600687
9.317                 0.97419068     -130.845045
9.318                0.974141796     -131.089872
9.319                0.974092999     -131.335168
9.32                 0.974044294     -131.580932
9.321                0.973995681     -131.827162
9.322                0.973947163     -132.073859
9.323                0.973898742      -132.32102
9.324                 0.97385042     -132.568646
9.325                0.973802199     -132.816734
9.326                0.973754081     -133.065285
9.327                0.973706069     -133.314297
9.328                0.973658165     -133.563769
9.329                0.973610371     -133.813701
9.33                 0.973562688      -134.06409
9.331                 0.97351512     -134.314937
9.332                0.973467669     -134.566239
9.333                0.973420336     -134.817996
9.334                0.973373124     -135.070207
9.335                0.973326035      -135.32287
9.336                0.973279071     -135.575985
9.337                0.973232235     -135.829549
9.338                0.973185529     -136.083563
9.339                0.973138955     -136.338024
9.34                 0.973092516     -136.592932
9.341                0.973046212     -136.848285
9.342                0.973000048     -137.104081
9.343                0.972954025      -137.36032
9.344                0.972908146        -137.617
9.345                0.972862412     -137.874119
9.346                0.972816827     -138.131677
9.347                0.972771391     -138.389672
9.348                0.972726109     -138.648102
9.349                0.972680981     -138.906966
9.35                 0.972636011     -139.166262
9.351                0.972591201      -139.42599
9.352                0.972546552     -139.686147
9.353                0.972502068     -139.946731
9.354                 0.97245775     -140.207742
9.355                0.972413602     -140.469178
9.356                0.972369625     -140.731036
9.357                0.972325821     -140.993316
9.358                0.972282194     -141.256016
9.359                0.972238745     -141.519133
9.36                 0.972195477     -141.782667
9.361                0.972152391     -142.046615
9.362                0.972109492     -142.310977
9.363                 0.97206678     -142.575749
9.364                0.972024258      -142.84093
9.365                0.971981929     -143.106519
9.366                0.971939795     -143.372513
9.367                0.971897859     -143.638911
9.368                0.971856122      -143.90571
9.369                0.971814587     -144.172909
9.37                 0.971773256     -144.440506
9.371                0.971732132     -144.708499
9.372                0.971691218     -144.976886
9.373                0.971650515     -145.245665
9.374                0.971610025     -145.514833
9.375                0.971569752     -145.784389
9.376                0.971529698     -146.054331
9.377                0.971489865     -146.324656
9.378                0.971450255     -146.595363
9.379                 0.97141087     -146.866449
9.38                 0.971371714     -147.137912
9.381                0.971332788      -147.40975
9.382                0.971294095     -147.681961
9.383                0.971255636     -147.954542
9.384                0.971217415     -148.227491
9.385                0.971179434     -148.500806
9.386                0.971141695     -148.774484
9.387                0.971104201     -149.048524
9.388                0.971066953     -149.322922
9.389                0.971029954     -149.597677
9.39                 0.970993206     -149.872786
9.391                0.970956712     -150.148247
9.392                0.970920474     -150.424057
9.393                0.970884494     -150.700213
9.394                0.970848774     -150.976714
9.395                0.970813317     -151.253557
9.396                0.970778125     -151.530738
