! TOUCHSTONE file generated by CST DESIGN STUDIO
! Date and time: Tue Feb  4 12:39:10 2025
! Project name: C:\Work\MatlabApps\UnitCellOptimizationMatlab\CST\unitcell.cst
! Tree item: Tasks\Sweep1\SPara1\S-Parameters
! Header version: 2024
! Port assignment regex: !\s*Touchstone port\s*([0-9]+)\s*=\s*(CST MWS port|CST DES external port|CST DES block port)\s*(.+)\s* \(\"(.*)\"\)(\s*mode\s*([0-9]+))?.*
! Touchstone port assignment:
! Touchstone port 1 = CST DES external port 1 ("")
# GHz S MA R 50
9                     0.98804858     -74.7694795
9.001                 0.98802054     -74.8815008
9.002                0.987992414     -74.9937958
9.003                0.987964201     -75.1063654
9.004                0.987935901     -75.2192103
9.005                0.987907515     -75.3323314
9.006                0.987879041     -75.4457295
9.007                 0.98785048     -75.5594053
9.008                0.987821832     -75.6733599
9.009                0.987793096     -75.7875939
9.01                 0.987764272     -75.9021082
9.011                0.987735359     -76.0169036
9.012                0.987706359      -76.131981
9.013                 0.98767727     -76.2473412
9.014                0.987648092      -76.362985
9.015                0.987618826     -76.4789133
9.016                 0.98758947      -76.595127
9.017                0.987560025     -76.7116268
9.018                0.987530491     -76.8284136
9.019                0.987500867     -76.9454882
9.02                 0.987471153     -77.0628516
9.021                0.987441349     -77.1805045
9.022                0.987411455     -77.2984479
9.023                0.987381471     -77.4166824
9.024                0.987351396     -77.5352092
9.025                 0.98732123     -77.6540289
9.026                0.987290974     -77.7731424
9.027                0.987260626     -77.8925507
9.028                0.987230187     -78.0122545
9.029                0.987199657     -78.1322547
9.03                 0.987169035     -78.2525523
9.031                0.987138321      -78.373148
9.032                0.987107515     -78.4940428
9.033                0.987076617     -78.6152375
9.034                0.987045627     -78.7367329
9.035                0.987014544     -78.8585301
9.036                0.986983368     -78.9806298
9.037                  0.9869521     -79.1030329
9.038                0.986920738     -79.2257404
9.039                0.986889284      -79.348753
9.04                 0.986857736     -79.4720717
9.041                0.986826095     -79.5956974
9.042                0.986794359      -79.719631
9.043                0.986762531     -79.8438733
9.044                0.986730608     -79.9684252
9.045                 0.98669859     -80.0932877
9.046                0.986666479     -80.2184616
9.047                0.986634273     -80.3439479
9.048                0.986601973     -80.4697474
9.049                0.986569577      -80.595861
9.05                 0.986537087     -80.7222897
9.051                0.986504502     -80.8490343
9.052                0.986471821     -80.9760957
9.053                0.986439045     -81.1034749
9.054                0.986406174     -81.2311728
9.055                0.986373207     -81.3591902
9.056                0.986340144     -81.4875281
9.057                0.986306985     -81.6161875
9.058                 0.98627373     -81.7451691
9.059                0.986240379      -81.874474
9.06                 0.986206931      -82.004103
9.061                0.986173387     -82.1340571
9.062                0.986139747     -82.2643372
9.063                0.986106009     -82.3949442
9.064                0.986072175      -82.525879
9.065                0.986038243     -82.6571426
9.066                0.986004215     -82.7887359
9.067                0.985970089     -82.9206598
9.068                0.985935866     -83.0529153
9.069                0.985901545     -83.1855032
9.07                 0.985867127     -83.3184246
9.071                0.985832611     -83.4516802
9.072                0.985797997     -83.5852712
9.073                0.985763285     -83.7191984
9.074                0.985728476     -83.8534627
9.075                0.985693568     -83.9880651
9.076                0.985658561     -84.1230066
9.077                0.985623457      -84.258288
9.078                0.985588253     -84.3939103
9.079                0.985552952     -84.5298744
9.08                 0.985517551     -84.6661814
9.081                0.985482052     -84.8028321
9.082                0.985446454     -84.9398275
9.083                0.985410758     -85.0771685
9.084                0.985374962     -85.2148561
9.085                0.985339067     -85.3528912
9.086                0.985303073     -85.4912748
9.087                0.985266979     -85.6300079
9.088                0.985230787     -85.7690913
9.089                0.985194495      -85.908526
9.09                 0.985158103     -86.0483131
9.091                0.985121612     -86.1884534
9.092                0.985085022     -86.3289478
9.093                0.985048332     -86.4697975
9.094                0.985011542     -86.6110032
9.095                0.984974653      -86.752566
9.096                0.984937663     -86.8944868
9.097                0.984900574     -87.0367666
9.098                0.984863385     -87.1794063
9.099                0.984826096     -87.3224069
9.1                  0.984788707     -87.4657694
9.101                0.984751219     -87.6094947
9.102                 0.98471363     -87.7535838
9.103                0.984675941     -87.8980376
9.104                0.984638152     -88.0428572
9.105                0.984600263     -88.1880434
9.106                0.984562274     -88.3335972
9.107                0.984524185     -88.4795196
9.108                0.984485996     -88.6258116
9.109                0.984447707      -88.772474
9.11                 0.984409317      -88.919508
9.111                0.984370828     -89.0669144
9.112                0.984332238     -89.2146942
9.113                0.984293548     -89.3628484
9.114                0.984254759     -89.5113779
9.115                0.984215869     -89.6602837
9.116                0.984176879     -89.8095668
9.117                0.984137789     -89.9592281
9.118                0.984098599     -90.1092686
9.119                 0.98405931     -90.2596893
9.12                  0.98401992     -90.4104911
9.121                 0.98398043     -90.5616749
9.122                0.983940841     -90.7132418
9.123                0.983901152     -90.8651928
9.124                0.983861363     -91.0175287
9.125                0.983821475     -91.1702505
9.126                0.983781487     -91.3233592
9.127                  0.9837414     -91.4768558
9.128                0.983701213     -91.6307412
9.129                0.983660927     -91.7850164
9.13                 0.983620542     -91.9396823
9.131                0.983580057       -92.09474
9.132                0.983539473     -92.2501902
9.133                0.983498791     -92.4060341
9.134                0.983458009     -92.5622726
9.135                0.983417129     -92.7189066
9.136                 0.98337615     -92.8759371
9.137                0.983335073      -93.033365
9.138                0.983293897     -93.1911914
9.139                0.983252623      -93.349417
9.14                 0.983211251      -93.508043
9.141                0.983169781     -93.6670702
9.142                0.983128213     -93.8264996
9.143                0.983086548     -93.9863322
9.144                0.983044784     -94.1465688
9.145                0.983002924     -94.3072105
9.146                0.982960966     -94.4682581
9.147                0.982918911     -94.6297127
9.148                 0.98287676     -94.7915752
9.149                0.982834511     -94.9538464
9.15                 0.982792167     -95.1165274
9.151                0.982749726     -95.2796191
9.152                0.982707189     -95.4431223
9.153                0.982664556     -95.6070382
9.154                0.982621827     -95.7713674
9.155                0.982579003     -95.9361111
9.156                0.982536084     -96.1012702
9.157                 0.98249307     -96.2668455
9.158                0.982449961     -96.4328379
9.159                0.982406758     -96.5992485
9.16                  0.98236346     -96.7660781
9.161                0.982320069     -96.9333276
9.162                0.982276584      -97.100998
9.163                0.982233005     -97.2690901
9.164                0.982189334     -97.4376049
9.165                0.982145569     -97.6065433
9.166                0.982101712     -97.7759062
9.167                0.982057763     -97.9456944
9.168                0.982013722      -98.115909
9.169                0.981969589     -98.2865507
9.17                 0.981925365     -98.4576204
9.171                 0.98188105     -98.6291192
9.172                0.981836645     -98.8010478
9.173                0.981792149     -98.9734071
9.174                0.981747563      -99.146198
9.175                0.981702888     -99.3194214
9.176                0.981658123     -99.4930782
9.177                 0.98161327     -99.6671692
9.178                0.981568328     -99.8416953
9.179                0.981523298     -100.016657
9.18                 0.981478181     -100.192056
9.181                0.981432976     -100.367893
9.182                0.981387685     -100.544168
9.183                0.981342307     -100.720883
9.184                0.981296843     -100.898037
9.185                0.981251294     -101.075633
9.186                 0.98120566     -101.253671
9.187                0.981159941     -101.432151
9.188                0.981114138     -101.611075
9.189                0.981068251     -101.790444
9.19                 0.981022281     -101.970258
9.191                0.980976229     -102.150517
9.192                0.980930094     -102.331224
9.193                0.980883877     -102.512378
9.194                 0.98083758     -102.693981
9.195                0.980791202     -102.876033
9.196                0.980744743     -103.058535
9.197                0.980698205     -103.241487
9.198                0.980651589     -103.424892
9.199                0.980604893     -103.608749
9.2                   0.98055812     -103.793059
9.201                 0.98051127     -103.977822
9.202                0.980464342     -104.163041
9.203                0.980417339     -104.348715
9.204                 0.98037026     -104.534845
9.205                0.980323107     -104.721432
9.206                0.980275879     -104.908477
9.207                0.980228578      -105.09598
9.208                0.980181203     -105.283943
9.209                0.980133757     -105.472365
9.21                 0.980086239     -105.661248
9.211                0.980038649     -105.850592
9.212                 0.97999099     -106.040398
9.213                0.979943261     -106.230666
9.214                0.979895463     -106.421398
9.215                0.979847597     -106.612595
9.216                0.979799664     -106.804255
9.217                0.979751664     -106.996382
9.218                0.979703598     -107.188974
9.219                0.979655467     -107.382033
9.22                 0.979607272     -107.575559
9.221                0.979559013     -107.769553
9.222                0.979510691     -107.964016
9.223                0.979462308     -108.158948
9.224                0.979413863      -108.35435
9.225                0.979365358     -108.550223
9.226                0.979316793     -108.746566
9.227                 0.97926817     -108.943382
9.228                0.979219489     -109.140669
9.229                0.979170751     -109.338429
9.23                 0.979121957     -109.536663
9.231                0.979073108     -109.735371
9.232                0.979024204     -109.934553
9.233                0.978975248      -110.13421
9.234                0.978926239     -110.334343
9.235                0.978877178     -110.534952
9.236                0.978828067     -110.736037
9.237                0.978778906       -110.9376
9.238                0.978729697      -111.13964
9.239                 0.97868044     -111.342158
9.24                 0.978631137     -111.545156
9.241                0.978581788     -111.748632
9.242                0.978532394     -111.952587
9.243                0.978482957     -112.157023
9.244                0.978433478     -112.361939
9.245                0.978383957     -112.567336
9.246                0.978334396     -112.773214
9.247                0.978284795     -112.979574
9.248                0.978235157     -113.186416
9.249                0.978185481      -113.39374
9.25                 0.978135769     -113.601548
9.251                0.978086023     -113.809838
9.252                0.978036242     -114.018612
9.253                 0.97798643      -114.22787
9.254                0.977936586     -114.437613
9.255                0.977886711      -114.64784
9.256                0.977836808     -114.858552
9.257                0.977786877     -115.069749
9.258                0.977736919     -115.281431
9.259                0.977686937       -115.4936
9.26                  0.97763693     -115.706254
9.261                  0.9775869     -115.919395
9.262                0.977536848     -116.133022
9.263                0.977486777     -116.347136
9.264                0.977436686     -116.561737
9.265                0.977386578     -116.776826
9.266                0.977336453     -116.992401
9.267                0.977286313     -117.208465
9.268                 0.97723616     -117.425016
9.269                0.977185994     -117.642055
9.27                 0.977135817     -117.859582
9.271                0.977085631     -118.077597
9.272                0.977035436       -118.2961
9.273                0.976985235     -118.515092
9.274                0.976935029     -118.734572
9.275                0.976884818     -118.954541
9.276                0.976834605     -119.174999
9.277                0.976784391     -119.395945
9.278                0.976734177      -119.61738
9.279                0.976683966     -119.839303
9.28                 0.976633758     -120.061716
9.281                0.976583555     -120.284617
9.282                0.976533358     -120.508007
9.283                0.976483169     -120.731885
9.284                 0.97643299     -120.956252
9.285                0.976382822     -121.181108
9.286                0.976332667     -121.406452
9.287                0.976282526     -121.632284
9.288                0.976232401     -121.858604
9.289                0.976182294     -122.085413
9.29                 0.976132205      -122.31271
9.291                0.976082138     -122.540494
9.292                0.976032093     -122.768766
9.293                0.975982072     -122.997526
9.294                0.975932076     -123.226772
9.295                0.975882109     -123.456506
9.296                 0.97583217     -123.686726
9.297                0.975782262     -123.917433
9.298                0.975732387     -124.148626
9.299                0.975682547     -124.380305
9.3                  0.975632742      -124.61247
9.301                0.975582976      -124.84512
9.302                0.975533249     -125.078255
9.303                0.975483563     -125.311874
9.304                0.975433921     -125.545978
9.305                0.975384324     -125.780565
9.306                0.975334773     -126.015636
9.307                0.975285272      -126.25119
9.308                0.975235821     -126.487226
9.309                0.975186423     -126.723745
9.31                 0.975137078     -126.960745
9.311                 0.97508779     -127.198226
9.312                0.975038561     -127.436187
9.313                0.974989391     -127.674629
9.314                0.974940283      -127.91355
9.315                0.974891239     -128.152949
9.316                0.974842261     -128.392827
9.317                 0.97479335     -128.633183
9.318                 0.97474451     -128.874016
9.319                0.974695741     -129.115325
9.32                 0.974647046      -129.35711
9.321                0.974598426      -129.59937
9.322                0.974549884     -129.842104
9.323                0.974501422     -130.085312
9.324                0.974453042     -130.328992
9.325                0.974404746     -130.573145
9.326                0.974356535     -130.817768
9.327                0.974308413     -131.062863
9.328                 0.97426038     -131.308427
9.329                0.974212439     -131.554459
9.33                 0.974164593      -131.80096
9.331                0.974116843     -132.047927
9.332                0.974069191     -132.295361
9.333                 0.97402164     -132.543259
9.334                0.973974191     -132.791622
9.335                0.973926847     -133.040449
9.336                 0.97387961     -133.289737
9.337                0.973832483     -133.539487
9.338                0.973785466     -133.789696
9.339                0.973738563     -134.040365
9.34                 0.973691775     -134.291492
9.341                0.973645106     -134.543076
9.342                0.973598556     -134.795116
9.343                0.973552128      -135.04761
9.344                0.973505825     -135.300558
9.345                0.973459648     -135.553958
9.346                0.973413601      -135.80781
9.347                0.973367684     -136.062111
9.348                0.973321901     -136.316861
9.349                0.973276253     -136.572058
9.35                 0.973230743     -136.827701
9.351                0.973185373     -137.083789
9.352                0.973140146     -137.340321
9.353                0.973095063     -137.597294
9.354                0.973050127     -137.854708
9.355                 0.97300534     -138.112562
9.356                0.972960705     -138.370853
9.357                0.972916224      -138.62958
9.358                0.972871899     -138.888743
9.359                0.972827732     -139.148339
9.36                 0.972783725     -139.408366
9.361                0.972739882     -139.668824
9.362                0.972696204     -139.929711
9.363                0.972652694     -140.191025
9.364                0.972609354     -140.452765
9.365                0.972566186     -140.714928
9.366                0.972523193     -140.977514
9.367                0.972480376     -141.240521
9.368                0.972437739     -141.503946
9.369                0.972395284     -141.767788
9.37                 0.972353013     -142.032046
9.371                0.972310927     -142.296718
9.372                0.972269031     -142.561801
9.373                0.972227326     -142.827295
9.374                0.972185814     -143.093196
9.375                0.972144497     -143.359504
9.376                0.972103379     -143.626217
9.377                0.972062461     -143.893332
9.378                0.972021746     -144.160847
9.379                0.971981236     -144.428762
9.38                 0.971940934     -144.697072
9.381                0.971900841     -144.965778
9.382                 0.97186096     -145.234876
9.383                0.971821294     -145.504365
9.384                0.971781845     -145.774242
9.385                0.971742615     -146.044506
9.386                0.971703606     -146.315154
9.387                0.971664821     -146.586185
9.388                0.971626263     -146.857595
9.389                0.971587933     -147.129383
9.39                 0.971549833     -147.401547
9.391                0.971511967     -147.674084
9.392                0.971474336     -147.946992
9.393                0.971436943     -148.220269
9.394                 0.97139979     -148.493913
9.395                 0.97136288     -148.767921
9.396                0.971326214     -149.042291
