! TOUCHSTONE file generated by CST DESIGN STUDIO
! Date and time: Tue Feb  4 12:39:04 2025
! Project name: C:\Work\MatlabApps\UnitCellOptimizationMatlab\CST\unitcell.cst
! Tree item: Tasks\Sweep1\SPara1\S-Parameters
! Header version: 2024
! Port assignment regex: !\s*Touchstone port\s*([0-9]+)\s*=\s*(CST MWS port|CST DES external port|CST DES block port)\s*(.+)\s* \(\"(.*)\"\)(\s*mode\s*([0-9]+))?.*
! Touchstone port assignment:
! Touchstone port 1 = CST DES external port 1 ("")
# GHz S MA R 50
9                    0.986997324     -79.0350488
9.001                0.986965121     -79.1569988
9.002                 0.98693282     -79.2792509
9.003                 0.98690042     -79.4018061
9.004                0.986867922     -79.5246652
9.005                0.986835326     -79.6478292
9.006                0.986802631     -79.7712988
9.007                0.986769838      -79.895075
9.008                0.986736945     -80.0191587
9.009                0.986703953     -80.1435507
9.01                 0.986670862     -80.2682519
9.011                0.986637671     -80.3932633
9.012                 0.98660438     -80.5185856
9.013                 0.98657099     -80.6442199
9.014                0.986537499      -80.770167
9.015                0.986503908     -80.8964277
9.016                0.986470217      -81.023003
9.017                0.986436425     -81.1498939
9.018                0.986402532     -81.2771011
9.019                0.986368538     -81.4046255
9.02                 0.986334444     -81.5324682
9.021                0.986300247       -81.66063
9.022                 0.98626595     -81.7891117
9.023                0.986231551     -81.9179144
9.024                 0.98619705     -82.0470389
9.025                0.986162447     -82.1764861
9.026                0.986127743     -82.3062569
9.027                0.986092936     -82.4363523
9.028                0.986058026     -82.5667731
9.029                0.986023014     -82.6975203
9.03                   0.9859879     -82.8285948
9.031                0.985952683     -82.9599976
9.032                0.985917362     -83.0917294
9.033                0.985881939     -83.2237913
9.034                0.985846412     -83.3561842
9.035                0.985810782      -83.488909
9.036                0.985775049     -83.6219666
9.037                0.985739212      -83.755358
9.038                0.985703271      -83.889084
9.039                0.985667227     -84.0231456
9.04                 0.985631078     -84.1575438
9.041                0.985594825     -84.2922794
9.042                0.985558468     -84.4273534
9.043                0.985522006     -84.5627668
9.044                 0.98548544     -84.6985204
9.045                 0.98544877     -84.8346152
9.046                0.985411995     -84.9710522
9.047                0.985375115     -85.1078322
9.048                0.985338129     -85.2449562
9.049                0.985301039     -85.3824252
9.05                 0.985263844     -85.5202401
9.051                0.985226544     -85.6584018
9.052                0.985189138     -85.7969112
9.053                0.985151627     -85.9357694
9.054                 0.98511401     -86.0749772
9.055                0.985076288     -86.2145356
9.056                 0.98503846     -86.3544456
9.057                0.985000526     -86.4947081
9.058                0.984962486      -86.635324
9.059                0.984924341     -86.7762942
9.06                 0.984886089     -86.9176198
9.061                0.984847732     -87.0593017
9.062                0.984809268     -87.2013408
9.063                0.984770698     -87.3437381
9.064                0.984732022     -87.4864945
9.065                0.984693239      -87.629611
9.066                0.984654351     -87.7730885
9.067                0.984615355      -87.916928
9.068                0.984576254     -88.0611305
9.069                0.984537045     -88.2056968
9.07                 0.984497731     -88.3506279
9.071                0.984458309     -88.4959249
9.072                0.984418781     -88.6415886
9.073                0.984379147       -88.78762
9.074                0.984339406       -88.93402
9.075                0.984299558     -89.0807896
9.076                0.984259603     -89.2279298
9.077                0.984219542     -89.3754415
9.078                0.984179374     -89.5233257
9.079                0.984139099     -89.6715833
9.08                 0.984098717     -89.8202153
9.081                0.984058229     -89.9692226
9.082                0.984017634     -90.1186062
9.083                0.983976932      -90.268367
9.084                0.983936124      -90.418506
9.085                0.983895209     -90.5690242
9.086                0.983854187     -90.7199224
9.087                0.983813058     -90.8712018
9.088                0.983771823     -91.0228631
9.089                0.983730482     -91.1749074
9.09                 0.983689034     -91.3273356
9.091                0.983647479     -91.4801486
9.092                0.983605818     -91.6333475
9.093                0.983564051     -91.7869331
9.094                0.983522177     -91.9409065
9.095                0.983480197     -92.0952685
9.096                0.983438111     -92.2500202
9.097                0.983395919     -92.4051624
9.098                 0.98335362     -92.5606961
9.099                0.983311216     -92.7166222
9.1                  0.983268706     -92.8729418
9.101                 0.98322609     -93.0296557
9.102                0.983183369      -93.186765
9.103                0.983140542     -93.3442704
9.104                0.983097609      -93.502173
9.105                0.983054571     -93.6604738
9.106                0.983011428     -93.8191736
9.107                 0.98296818     -93.9782734
9.108                0.982924827     -94.1377742
9.109                0.982881369     -94.2976768
9.11                 0.982837807     -94.4579822
9.111                 0.98279414     -94.6186914
9.112                0.982750368     -94.7798052
9.113                0.982706493     -94.9413247
9.114                0.982662513     -95.1032507
9.115                 0.98261843     -95.2655841
9.116                0.982574243      -95.428326
9.117                0.982529952     -95.5914771
9.118                0.982485558     -95.7550385
9.119                0.982441061      -95.919011
9.12                 0.982396461     -96.0833956
9.121                0.982351758     -96.2481932
9.122                0.982306953     -96.4134047
9.123                0.982262045      -96.579031
9.124                0.982217036     -96.7450731
9.125                0.982171925     -96.9115318
9.126                0.982126712      -97.078408
9.127                0.982081398     -97.2457026
9.128                0.982035983     -97.4134166
9.129                0.981990467     -97.5815509
9.13                  0.98194485     -97.7501063
9.131                0.981899134     -97.9190837
9.132                0.981853317     -98.0884841
9.133                0.981807401     -98.2583083
9.134                0.981761385     -98.4285571
9.135                0.981715271     -98.5992316
9.136                0.981669057     -98.7703325
9.137                0.981622745     -98.9418607
9.138                0.981576336     -99.1138172
9.139                0.981529828     -99.2862028
9.14                 0.981483223     -99.4590183
9.141                0.981436521     -99.6322646
9.142                0.981389722     -99.8059426
9.143                0.981342827     -99.9800531
9.144                0.981295837     -100.154597
9.145                 0.98124875     -100.329575
9.146                0.981201568     -100.504988
9.147                0.981154292     -100.680838
9.148                0.981106921     -100.857123
9.149                0.981059457     -101.033847
9.15                 0.981011898     -101.211009
9.151                0.980964247      -101.38861
9.152                0.980916503     -101.566651
9.153                0.980868667     -101.745134
9.154                0.980820739     -101.924058
9.155                 0.98077272     -102.103424
9.156                0.980724611     -102.283234
9.157                 0.98067641     -102.463488
9.158                0.980628121     -102.644186
9.159                0.980579741     -102.825331
9.16                 0.980531274     -103.006922
9.161                0.980482717      -103.18896
9.162                0.980434074     -103.371447
9.163                0.980385342     -103.554382
9.164                0.980336525     -103.737767
9.165                0.980287621     -103.921602
9.166                0.980238632     -104.105889
9.167                0.980189558     -104.290627
9.168                0.980140399     -104.475818
9.169                0.980091157     -104.661462
9.17                 0.980041832      -104.84756
9.171                0.979992424     -105.034113
9.172                0.979942934     -105.221122
9.173                0.979893364     -105.408587
9.174                0.979843712     -105.596509
9.175                0.979793981     -105.784889
9.176                 0.97974417     -105.973727
9.177                0.979694281     -106.163024
9.178                0.979644314     -106.352781
9.179                 0.97959427     -106.542998
9.18                 0.979544149     -106.733676
9.181                0.979493953     -106.924816
9.182                0.979443682     -107.116419
9.183                0.979393336     -107.308485
9.184                0.979342917     -107.501014
9.185                0.979292425     -107.694008
9.186                0.979241861     -107.887467
9.187                0.979191226     -108.081391
9.188                0.979140521     -108.275782
9.189                0.979089746     -108.470639
9.19                 0.979038902     -108.665964
9.191                0.978987991     -108.861757
9.192                0.978937012     -109.058019
9.193                0.978885967      -109.25475
9.194                0.978834857     -109.451951
9.195                0.978783683     -109.649622
9.196                0.978732444     -109.847763
9.197                0.978681143     -110.046377
9.198                0.978629781     -110.245462
9.199                0.978578357      -110.44502
9.2                  0.978526874     -110.645051
9.201                0.978475332     -110.845555
9.202                0.978423732     -111.046533
9.203                0.978372074     -111.247986
9.204                0.978320361     -111.449914
9.205                0.978268593     -111.652317
9.206                 0.97821677     -111.855197
9.207                0.978164895     -112.058552
9.208                0.978112968     -112.262385
9.209                 0.97806099     -112.466695
9.21                 0.978008962     -112.671482
9.211                0.977956885     -112.876748
9.212                 0.97790476     -113.082492
9.213                0.977852589     -113.288715
9.214                0.977800373     -113.495417
9.215                0.977748112     -113.702599
9.216                0.977695808     -113.910262
9.217                0.977643461     -114.118404
9.218                0.977591074     -114.327027
9.219                0.977538647     -114.536131
9.22                 0.977486182     -114.745717
9.221                0.977433679     -114.955784
9.222                 0.97738114     -115.166334
9.223                0.977328566     -115.377365
9.224                0.977275959     -115.588879
9.225                0.977223319     -115.800876
9.226                0.977170648     -116.013356
9.227                0.977117946      -116.22632
9.228                0.977065217     -116.439766
9.229                 0.97701246     -116.653697
9.23                 0.976959677     -116.868111
9.231                 0.97690687      -117.08301
9.232                0.976854039     -117.298393
9.233                0.976801186     -117.514261
9.234                0.976748313     -117.730613
9.235                 0.97669542     -117.947449
9.236                 0.97664251     -118.164771
9.237                0.976589583     -118.382578
9.238                0.976536642      -118.60087
9.239                0.976483687     -118.819647
9.24                 0.976430719     -119.038909
9.241                0.976377742     -119.258657
9.242                0.976324755      -119.47889
9.243                 0.97627176     -119.699608
9.244                 0.97621876     -119.920812
9.245                0.976165754     -120.142502
9.246                0.976112746     -120.364676
9.247                0.976059736     -120.587336
9.248                0.976006727     -120.810482
9.249                0.975953718     -121.034113
9.25                 0.975900713     -121.258229
9.251                0.975847713      -121.48283
9.252                 0.97579472     -121.707916
9.253                0.975741734     -121.933487
9.254                0.975688758     -122.159543
9.255                0.975635793     -122.386084
9.256                0.975582841     -122.613109
9.257                0.975529904     -122.840618
9.258                0.975476984     -123.068612
9.259                0.975424081     -123.297089
9.26                 0.975371198      -123.52605
9.261                0.975318337     -123.755495
9.262                0.975265499     -123.985423
9.263                0.975212686     -124.215833
9.264                  0.9751599     -124.446727
9.265                0.975107142     -124.678103
9.266                0.975054415      -124.90996
9.267                 0.97500172       -125.1423
9.268                0.974949059      -125.37512
9.269                0.974896434     -125.608422
9.27                 0.974843847     -125.842204
9.271                0.974791299     -126.076466
9.272                0.974738793     -126.311209
9.273                 0.97468633      -126.54643
9.274                0.974633912      -126.78213
9.275                0.974581542     -127.018308
9.276                 0.97452922     -127.254965
9.277                 0.97447695     -127.492098
9.278                0.974424733     -127.729709
9.279                 0.97437257     -127.967795
9.28                 0.974320465     -128.206357
9.281                0.974268418     -128.445395
9.282                0.974216432     -128.684906
9.283                0.974164509     -128.924892
9.284                0.974112651     -129.165351
9.285                 0.97406086     -129.406282
9.286                0.974009139     -129.647685
9.287                0.973957488      -129.88956
9.288                 0.97390591     -130.131904
9.289                0.973854408     -130.374719
9.29                 0.973802982     -130.618002
9.291                0.973751637     -130.861754
9.292                0.973700373     -131.105972
9.293                0.973649192     -131.350658
9.294                0.973598097     -131.595809
9.295                 0.97354709     -131.841425
9.296                0.973496174     -132.087504
9.297                0.973445349     -132.334047
9.298                0.973394619     -132.581052
9.299                0.973343986     -132.828518
9.3                  0.973293452     -133.076444
9.301                0.973243018      -133.32483
9.302                0.973192688     -133.573673
9.303                0.973142463     -133.822974
9.304                0.973092346     -134.072731
9.305                0.973042339     -134.322944
9.306                0.972992444      -134.57361
9.307                0.972942664     -134.824729
9.308                   0.972893       -135.0763
9.309                0.972843455     -135.328321
9.31                 0.972794032     -135.580792
9.311                0.972744732     -135.833711
9.312                0.972695558     -136.087077
9.313                0.972646513     -136.340889
9.314                0.972597597     -136.595146
9.315                0.972548815     -136.849846
9.316                0.972500168     -137.104987
9.317                0.972451659      -137.36057
9.318                0.972403289     -137.616592
9.319                0.972355061     -137.873051
9.32                 0.972306979     -138.129947
9.321                0.972259043     -138.387279
9.322                0.972211256     -138.645044
9.323                0.972163621     -138.903241
9.324                 0.97211614     -139.161869
9.325                0.972068816     -139.420926
9.326                0.972021651     -139.680411
9.327                0.971974646     -139.940322
9.328                0.971927806     -140.200658
9.329                0.971881131     -140.461417
9.33                 0.971834625     -140.722597
9.331                 0.97178829     -140.984197
9.332                0.971742128     -141.246215
9.333                0.971696142      -141.50865
9.334                0.971650335     -141.771499
9.335                0.971604707     -142.034762
9.336                0.971559263     -142.298435
9.337                0.971514004     -142.562518
9.338                0.971468933     -142.827009
9.339                0.971424053     -143.091906
9.34                 0.971379365     -143.357207
9.341                0.971334872      -143.62291
9.342                0.971290577     -143.889013
9.343                0.971246482     -144.155515
9.344                 0.97120259     -144.422413
9.345                0.971158902     -144.689706
9.346                0.971115422     -144.957391
9.347                0.971072152     -145.225467
9.348                0.971029094     -145.493931
9.349                0.970986251     -145.762782
9.35                 0.970943625     -146.032017
9.351                0.970901218     -146.301635
9.352                0.970859034     -146.571633
9.353                0.970817074     -146.842008
9.354                0.970775341      -147.11276
9.355                0.970733837     -147.383886
9.356                0.970692565     -147.655383
9.357                0.970651527     -147.927249
9.358                0.970610726     -148.199483
9.359                0.970570163     -148.472081
9.36                 0.970529843     -148.745041
9.361                0.970489765     -149.018362
9.362                0.970449935     -149.292041
9.363                0.970410352     -149.566075
9.364                0.970371021     -149.840463
9.365                0.970331943     -150.115201
9.366                0.970293121     -150.390287
9.367                0.970254557     -150.665719
9.368                0.970216253     -150.941494
9.369                0.970178212     -151.217611
9.37                 0.970140437     -151.494065
9.371                0.970102929     -151.770856
9.372                0.970065691      -152.04798
9.373                0.970028725     -152.325434
9.374                0.969992033     -152.603217
9.375                0.969955618     -152.881325
9.376                0.969919482     -153.159755
9.377                0.969883628     -153.438506
9.378                0.969848057     -153.717574
9.379                0.969812773     -153.996958
9.38                 0.969777776     -154.276653
9.381                 0.96974307     -154.556657
9.382                0.969708656     -154.836968
9.383                0.969674537     -155.117583
9.384                0.969640716     -155.398498
9.385                0.969607193     -155.679712
9.386                0.969573972      -155.96122
9.387                0.969541055     -156.243021
9.388                0.969508443     -156.525112
9.389                0.969476139     -156.807489
9.39                 0.969444145      -157.09015
9.391                0.969412464     -157.373091
9.392                0.969381096      -157.65631
9.393                0.969350045     -157.939804
9.394                0.969319313      -158.22357
9.395                  0.9692889     -158.507604
9.396                 0.96925881     -158.791903
