! TOUCHSTONE file generated by CST DESIGN STUDIO
! Date and time: Tue Feb  4 12:39:02 2025
! Project name: C:\Work\MatlabApps\UnitCellOptimizationMatlab\CST\unitcell.cst
! Tree item: Tasks\Sweep1\SPara1\S-Parameters
! Header version: 2024
! Port assignment regex: !\s*Touchstone port\s*([0-9]+)\s*=\s*(CST MWS port|CST DES external port|CST DES block port)\s*(.+)\s* \(\"(.*)\"\)(\s*mode\s*([0-9]+))?.*
! Touchstone port assignment:
! Touchstone port 1 = CST DES external port 1 ("")
# GHz S MA R 50
9                     0.98674272     -80.0381956
9.001                0.986709402      -80.162541
9.002                0.986675985     -80.2871955
9.003                0.986642468       -80.41216
9.004                0.986608851     -80.5374354
9.005                0.986575134     -80.6630226
9.006                0.986541316     -80.7889225
9.007                0.986507398      -80.915136
9.008                0.986473379      -81.041664
9.009                0.986439259     -81.1685073
9.01                 0.986405039     -81.2956669
9.011                0.986370717     -81.4231437
9.012                0.986336293     -81.5509385
9.013                0.986301769     -81.6790524
9.014                0.986267142     -81.8074861
9.015                0.986232413     -81.9362406
9.016                0.986197583     -82.0653168
9.017                 0.98616265     -82.1947156
9.018                0.986127615     -82.3244379
9.019                0.986092477     -82.4544847
9.02                 0.986057237     -82.5848568
9.021                0.986021894     -82.7155551
9.022                0.985986447     -82.8465807
9.023                0.985950898     -82.9779343
9.024                0.985915245     -83.1096169
9.025                0.985879489     -83.2416295
9.026                0.985843629     -83.3739729
9.027                0.985807666     -83.5066481
9.028                0.985771598      -83.639656
9.029                0.985735427     -83.7729975
9.03                 0.985699151     -83.9066736
9.031                0.985662771     -84.0406851
9.032                0.985626286     -84.1750331
9.033                0.985589697     -84.3097184
9.034                0.985553004     -84.4447419
9.035                0.985516205     -84.5801047
9.036                0.985479302     -84.7158075
9.037                0.985442293     -84.8518515
9.038                0.985405179     -84.9882374
9.039                 0.98536796     -85.1249663
9.04                 0.985330635     -85.2620391
9.041                0.985293205     -85.3994567
9.042                 0.98525567       -85.53722
9.043                0.985218028       -85.67533
9.044                0.985180281     -85.8137877
9.045                0.985142427     -85.9525939
9.046                0.985104468     -86.0917497
9.047                0.985066402     -86.2312559
9.048                 0.98502823     -86.3711135
9.049                0.984989952     -86.5113235
9.05                 0.984951568     -86.6518867
9.051                0.984913077     -86.7928042
9.052                0.984874479     -86.9340769
9.053                0.984835774     -87.0757057
9.054                0.984796963     -87.2176916
9.055                0.984758045     -87.3600355
9.056                0.984719021     -87.5027384
9.057                0.984679889     -87.6458013
9.058                 0.98464065      -87.789225
9.059                0.984601304     -87.9330106
9.06                 0.984561851     -88.0771589
9.061                0.984522291      -88.221671
9.062                0.984482624     -88.3665477
9.063                0.984442849     -88.5117901
9.064                0.984402967     -88.6573991
9.065                0.984362978     -88.8033756
9.066                0.984322881     -88.9497207
9.067                0.984282677     -89.0964351
9.068                0.984242365       -89.24352
9.069                0.984201946     -89.3909762
9.07                  0.98416142     -89.5388048
9.071                0.984120786     -89.6870066
9.072                0.984080044     -89.8355826
9.073                0.984039196     -89.9845338
9.074                0.983998239     -90.1338611
9.075                0.983957175     -90.2835655
9.076                0.983916004     -90.4336479
9.077                0.983874725     -90.5841093
9.078                0.983833338     -90.7349506
9.079                0.983791844     -90.8861728
9.08                 0.983750243     -91.0377769
9.081                0.983708534     -91.1897637
9.082                0.983666718     -91.3421343
9.083                0.983624794     -91.4948896
9.084                0.983582764     -91.6480306
9.085                0.983540626     -91.8015581
9.086                0.983498381     -91.9554732
9.087                0.983456028     -92.1097767
9.088                0.983413569     -92.2644698
9.089                0.983371002     -92.4195532
9.09                 0.983328329     -92.5750279
9.091                0.983285549     -92.7308949
9.092                0.983242662     -92.8871552
9.093                0.983199668     -93.0438096
9.094                0.983156567     -93.2008591
9.095                0.983113361     -93.3583047
9.096                0.983070047     -93.5161473
9.097                0.983026628     -93.6743878
9.098                0.982983102     -93.8330272
9.099                 0.98293947     -93.9920664
9.1                  0.982895732     -94.1515064
9.101                0.982851889     -94.3113481
9.102                0.982807939     -94.4715924
9.103                0.982763884     -94.6322402
9.104                0.982719724     -94.7932925
9.105                0.982675459     -94.9547503
9.106                0.982631088     -95.1166144
9.107                0.982586612     -95.2788857
9.108                0.982542032     -95.4415653
9.109                0.982497347      -95.604654
9.11                 0.982452558     -95.7681527
9.111                0.982407665     -95.9320624
9.112                0.982362667     -96.0963839
9.113                0.982317566     -96.2611183
9.114                0.982272361     -96.4262664
9.115                0.982227053      -96.591829
9.116                0.982181641     -96.7578073
9.117                0.982136127     -96.9242019
9.118                 0.98209051     -97.0910139
9.119                 0.98204479     -97.2582441
9.12                 0.981998969     -97.4258935
9.121                0.981953045     -97.5939629
9.122                0.981907019     -97.7624533
9.123                0.981860893     -97.9313655
9.124                0.981814665     -98.1007004
9.125                0.981768336     -98.2704589
9.126                0.981721907      -98.440642
9.127                0.981675377     -98.6112504
9.128                0.981628747      -98.782285
9.129                0.981582018     -98.9537468
9.13                 0.981535189     -99.1256366
9.131                0.981488262     -99.2979552
9.132                0.981441236     -99.4707036
9.133                0.981394111     -99.6438826
9.134                0.981346889     -99.8174931
9.135                0.981299568     -99.9915359
9.136                0.981252151     -100.166012
9.137                0.981204637     -100.340922
9.138                0.981157026     -100.516267
9.139                0.981109319     -100.692047
9.14                 0.981061517     -100.868264
9.141                0.981013619     -101.044919
9.142                0.980965627     -101.222011
9.143                 0.98091754     -101.399543
9.144                0.980869359     -101.577515
9.145                0.980821084     -101.755927
9.146                0.980772716     -101.934781
9.147                0.980724256     -102.114077
9.148                0.980675704     -102.293816
9.149                0.980627059     -102.473999
9.15                 0.980578324     -102.654627
9.151                0.980529498       -102.8357
9.152                0.980480582      -103.01722
9.153                0.980431576     -103.199187
9.154                0.980382481     -103.381601
9.155                0.980333297     -103.564464
9.156                0.980284026     -103.747777
9.157                0.980234666     -103.931539
9.158                 0.98018522     -104.115753
9.159                0.980135687     -104.300418
9.16                 0.980086069     -104.485535
9.161                0.980036365     -104.671106
9.162                0.979986577     -104.857131
9.163                0.979936705      -105.04361
9.164                0.979886749     -105.230544
9.165                0.979836711     -105.417935
9.166                0.979786591     -105.605782
9.167                0.979736389     -105.794087
9.168                0.979686106     -105.982849
9.169                0.979635744     -106.172071
9.17                 0.979585301     -106.361752
9.171                 0.97953478     -106.551894
9.172                0.979484182     -106.742496
9.173                0.979433505      -106.93356
9.174                0.979382753     -107.125086
9.175                0.979331924     -107.317074
9.176                 0.97928102     -107.509527
9.177                0.979230042     -107.702443
9.178                0.979178991     -107.895824
9.179                0.979127866     -108.089671
9.18                  0.97907667     -108.283984
9.181                0.979025402     -108.478763
9.182                0.978974064     -108.674009
9.183                0.978922657     -108.869723
9.184                0.978871181     -109.065906
9.185                0.978819637     -109.262558
9.186                0.978768026     -109.459679
9.187                0.978716349      -109.65727
9.188                0.978664606     -109.855332
9.189                  0.9786128     -110.053865
9.19                  0.97856093     -110.252869
9.191                0.978508997     -110.452346
9.192                0.978457003     -110.652296
9.193                0.978404948     -110.852719
9.194                0.978352834     -111.053616
9.195                 0.97830066     -111.254987
9.196                 0.97824843     -111.456833
9.197                0.978196142     -111.659154
9.198                0.978143799     -111.861951
9.199                0.978091401     -112.065224
9.2                  0.978038949     -112.268973
9.201                0.977986445     -112.473199
9.202                0.977933889     -112.677903
9.203                0.977881282     -112.883085
9.204                0.977828627     -113.088745
9.205                0.977775922     -113.294884
9.206                0.977723171     -113.501502
9.207                0.977670374     -113.708599
9.208                0.977617531     -113.916176
9.209                0.977564645     -114.124233
9.21                 0.977511716     -114.332771
9.211                0.977458745     -114.541789
9.212                0.977405735     -114.751289
9.213                0.977352685     -114.961269
9.214                0.977299597     -115.171732
9.215                0.977246472     -115.382677
9.216                0.977193312     -115.594104
9.217                0.977140118     -115.806013
9.218                0.977086891     -116.018406
9.219                0.977033632     -116.231281
9.22                 0.976980343      -116.44464
9.221                0.976927025     -116.658482
9.222                0.976873679     -116.872808
9.223                0.976820306     -117.087618
9.224                0.976766909     -117.302911
9.225                0.976713488     -117.518689
9.226                0.976660044     -117.734952
9.227                0.976606579     -117.951699
9.228                0.976553095      -118.16893
9.229                0.976499593     -118.386647
9.23                 0.976446074     -118.604848
9.231                0.976392539     -118.823534
9.232                0.976338991     -119.042705
9.233                 0.97628543     -119.262361
9.234                0.976231859     -119.482503
9.235                0.976178278     -119.703129
9.236                0.976124689     -119.924241
9.237                0.976071094     -120.145838
9.238                0.976017493      -120.36792
9.239                 0.97596389     -120.590487
9.24                 0.975910285     -120.813539
9.241                0.975856679     -121.037076
9.242                0.975803075     -121.261099
9.243                0.975749474     -121.485606
9.244                0.975695877     -121.710598
9.245                0.975642287     -121.936074
9.246                0.975588705     -122.162036
9.247                0.975535132     -122.388481
9.248                 0.97548157     -122.615411
9.249                0.975428021     -122.842825
9.25                 0.975374487     -123.070723
9.251                0.975320969     -123.299104
9.252                0.975267469     -123.527969
9.253                0.975213989     -123.757317
9.254                 0.97516053     -123.987148
9.255                0.975107095     -124.217462
9.256                0.975053685     -124.448258
9.257                0.975000301     -124.679537
9.258                0.974946946     -124.911297
9.259                0.974893622     -125.143538
9.26                 0.974840329     -125.376261
9.261                0.974787071     -125.609464
9.262                0.974733849     -125.843147
9.263                0.974680665     -126.077311
9.264                 0.97462752     -126.311954
9.265                0.974574417     -126.547076
9.266                0.974521357     -126.782676
9.267                0.974468343     -127.018755
9.268                0.974415376     -127.255311
9.269                0.974362459     -127.492344
9.27                 0.974309593     -127.729854
9.271                 0.97425678      -127.96784
9.272                0.974204022     -128.206301
9.273                0.974151321     -128.445238
9.274                 0.97409868     -128.684648
9.275                  0.9740461     -128.924532
9.276                0.973993583     -129.164889
9.277                0.973941131     -129.405718
9.278                0.973888747     -129.647019
9.279                0.973836432     -129.888791
9.28                 0.973784189     -130.131033
9.281                0.973732019     -130.373744
9.282                0.973679925     -130.616924
9.283                0.973627909     -130.860572
9.284                0.973575972     -131.104688
9.285                0.973524118     -131.349269
9.286                0.973472348     -131.594316
9.287                0.973420664     -131.839828
9.288                0.973369068     -132.085803
9.289                0.973317564     -132.332241
9.29                 0.973266152     -132.579141
9.291                0.973214835     -132.826502
9.292                0.973163616     -133.074323
9.293                0.973112496     -133.322603
9.294                0.973061477     -133.571341
9.295                0.973010563     -133.820536
9.296                0.972959755     -134.070187
9.297                0.972909055     -134.320293
9.298                0.972858466     -134.570853
9.299                 0.97280799     -134.821865
9.3                   0.97275763     -135.073329
9.301                0.972707386     -135.325244
9.302                0.972657263     -135.577607
9.303                0.972607262     -135.830419
9.304                0.972557385     -136.083678
9.305                0.972507635     -136.337382
9.306                0.972458014     -136.591531
9.307                0.972408525     -136.846123
9.308                 0.97235917     -137.101156
9.309                 0.97230995      -137.35663
9.31                  0.97226087     -137.612543
9.311                 0.97221193     -137.868894
9.312                0.972163133     -138.125681
9.313                0.972114482     -138.382904
9.314                0.972065979     -138.640559
9.315                0.972017627     -138.898647
9.316                0.971969427     -139.157166
9.317                0.971921382     -139.416113
9.318                0.971873496     -139.675488
9.319                0.971825769      -139.93529
9.32                 0.971778204     -140.195515
9.321                0.971730805     -140.456164
9.322                0.971683573     -140.717234
9.323                 0.97163651     -140.978723
9.324                 0.97158962     -141.240631
9.325                0.971542905     -141.502955
9.326                0.971496366     -141.765693
9.327                0.971450007     -142.028845
9.328                 0.97140383     -142.292407
9.329                0.971357837     -142.556379
9.33                 0.971312031     -142.820758
9.331                0.971266415     -143.085544
9.332                 0.97122099     -143.350733
9.333                0.971175759     -143.616324
9.334                0.971130726     -143.882316
9.335                0.971085891     -144.148706
9.336                0.971041258     -144.415492
9.337                0.970996829     -144.682672
9.338                0.970952606     -144.950245
9.339                0.970908592     -145.218209
9.34                  0.97086479     -145.486561
9.341                0.970821202     -145.755299
9.342                 0.97077783     -146.024422
9.343                0.970734677     -146.293927
9.344                0.970691745     -146.563812
9.345                0.970649037     -146.834075
9.346                0.970606555     -147.104714
9.347                0.970564302     -147.375726
9.348                 0.97052228      -147.64711
9.349                0.970480491     -147.918864
9.35                 0.970438938     -148.190984
9.351                0.970397624     -148.463469
9.352                0.970356551     -148.736316
9.353                 0.97031572     -149.009524
9.354                0.970275136     -149.283089
9.355                0.970234799      -149.55701
9.356                0.970194713     -149.831284
9.357                 0.97015488     -150.105909
9.358                0.970115302     -150.380882
9.359                0.970075982       -150.6562
9.36                 0.970036922     -150.931862
9.361                0.969998124     -151.207865
9.362                0.969959591     -151.484206
9.363                0.969921326     -151.760883
9.364                 0.96988333     -152.037893
9.365                0.969845605     -152.315234
9.366                0.969808155     -152.592903
9.367                0.969770982     -152.870897
9.368                0.969734088     -153.149215
9.369                0.969697474     -153.427852
9.37                 0.969661144     -153.706807
9.371                  0.9696251     -153.986076
9.372                0.969589344     -154.265658
9.373                0.969553879     -154.545549
9.374                0.969518706     -154.825746
9.375                0.969483828     -155.106248
9.376                0.969449246      -155.38705
9.377                0.969414965      -155.66815
9.378                0.969380984     -155.949545
9.379                0.969347308     -156.231233
9.38                 0.969313937     -156.513211
9.381                0.969280874     -156.795475
9.382                0.969248121     -157.078022
9.383                0.969215681     -157.360851
9.384                0.969183556     -157.643957
9.385                0.969151746     -157.927338
9.386                0.969120256      -158.21099
9.387                0.969089086     -158.494912
9.388                0.969058239     -158.779099
9.389                0.969027717     -159.063548
9.39                 0.968997522     -159.348258
9.391                0.968967655     -159.633223
9.392                 0.96893812     -159.918443
9.393                0.968908917     -160.203912
9.394                 0.96888005     -160.489628
9.395                0.968851519     -160.775588
9.396                0.968823326     -161.061789
