! TOUCHSTONE file generated by CST DESIGN STUDIO
! Date and time: Tue Feb  4 13:45:10 2025
! Project name: C:\Work\MatlabApps\UnitCellOptimizationMatlab\CST\unitcell.cst
! Tree item: Tasks\Sweep1\SPara1\S-Parameters
! Header version: 2024
! Port assignment regex: !\s*Touchstone port\s*([0-9]+)\s*=\s*(CST MWS port|CST DES external port|CST DES block port)\s*(.+)\s* \(\"(.*)\"\)(\s*mode\s*([0-9]+))?.*
! Touchstone port assignment:
! Touchstone port 1 = CST DES external port 1 ("")
# GHz S MA R 50
9                    0.984964203     -77.0309966
9.001                0.984927669     -77.1478207
9.002                0.984891025     -77.2649316
9.003                0.984854268       -77.38233
9.004                0.984817401     -77.5000169
9.005                0.984780421     -77.6179931
9.006                 0.98474333     -77.7362595
9.007                0.984706126     -77.8548168
9.008                 0.98466881     -77.9736659
9.009                0.984631381     -78.0928077
9.01                 0.984593839     -78.2122431
9.011                0.984556184     -78.3319728
9.012                0.984518416     -78.4519978
9.013                0.984480534     -78.5723188
9.014                0.984442538     -78.6929368
9.015                0.984404429     -78.8138527
9.016                0.984366204     -78.9350672
9.017                0.984327866     -79.0565813
9.018                0.984289413     -79.1783958
9.019                0.984250845     -79.3005116
9.02                 0.984212162     -79.4229295
9.021                0.984173363     -79.5456505
9.022                0.984134449     -79.6686753
9.023                0.984095419      -79.792005
9.024                0.984056273     -79.9156403
9.025                0.984017011     -80.0395821
9.026                0.983977633     -80.1638313
9.027                0.983938138     -80.2883889
9.028                0.983898527     -80.4132556
9.029                0.983858798     -80.5384324
9.03                 0.983818953     -80.6639201
9.031                0.983778989     -80.7897196
9.032                0.983738909     -80.9158319
9.033                0.983698711     -81.0422578
9.034                0.983658394     -81.1689983
9.035                 0.98361796     -81.2960541
9.036                0.983577407     -81.4234262
9.037                0.983536736     -81.5511156
9.038                0.983495946      -81.679123
9.039                0.983455037     -81.8074494
9.04                  0.98341401     -81.9360958
9.041                0.983372863     -82.0650629
9.042                0.983331596     -82.1943518
9.043                0.983290211     -82.3239633
9.044                0.983248705     -82.4538983
9.045                 0.98320708     -82.5841577
9.046                0.983165334     -82.7147425
9.047                0.983123468     -82.8456535
9.048                0.983081482     -82.9768917
9.049                0.983039376      -83.108458
9.05                 0.982997148     -83.2403533
9.051                  0.9829548     -83.3725785
9.052                0.982912331     -83.5051345
9.053                0.982869741     -83.6380223
9.054                0.982827029     -83.7712428
9.055                0.982784196     -83.9047969
9.056                0.982741241     -84.0386854
9.057                0.982698165     -84.1729095
9.058                0.982654967     -84.3074699
9.059                0.982611647     -84.4423675
9.06                 0.982568205     -84.5776035
9.061                 0.98252464     -84.7131785
9.062                0.982480954     -84.8490936
9.063                0.982437144     -84.9853498
9.064                0.982393213     -85.1219479
9.065                0.982349158     -85.2588888
9.066                0.982304981     -85.3961736
9.067                0.982260681     -85.5338031
9.068                0.982216257     -85.6717783
9.069                0.982171711     -85.8101001
9.07                 0.982127041     -85.9487694
9.071                0.982082249     -86.0877873
9.072                0.982037332     -86.2271545
9.073                0.981992292     -86.3668721
9.074                0.981947129     -86.5069411
9.075                0.981901842     -86.6473622
9.076                0.981856431     -86.7881366
9.077                0.981810897     -86.9292651
9.078                0.981765238     -87.0707486
9.079                0.981719456     -87.2125882
9.08                  0.98167355     -87.3547847
9.081                0.981627519     -87.4973391
9.082                0.981581365     -87.6402524
9.083                0.981535086     -87.7835255
9.084                0.981488683     -87.9271593
9.085                0.981442156     -88.0711547
9.086                0.981395504     -88.2155129
9.087                0.981348729     -88.3602345
9.088                0.981301829     -88.5053208
9.089                0.981254804     -88.6507724
9.09                 0.981207655     -88.7965906
9.091                0.981160382      -88.942776
9.092                0.981112984     -89.0893298
9.093                0.981065462     -89.2362529
9.094                0.981017815     -89.3835461
9.095                0.980970044     -89.5312105
9.096                0.980922149     -89.6792471
9.097                0.980874129     -89.8276567
9.098                0.980825985     -89.9764402
9.099                0.980777716     -90.1255988
9.1                  0.980729323     -90.2751332
9.101                0.980680806     -90.4250445
9.102                0.980632164     -90.5753336
9.103                0.980583398     -90.7260015
9.104                0.980534508      -90.877049
9.105                0.980485494     -91.0284772
9.106                0.980436356      -91.180287
9.107                0.980387094     -91.3324793
9.108                0.980337707      -91.485055
9.109                0.980288197     -91.6380152
9.11                 0.980238563     -91.7913608
9.111                0.980188806     -91.9450927
9.112                0.980138924     -92.0992118
9.113                 0.98008892     -92.2537192
9.114                0.980038791     -92.4086157
9.115                 0.97998854     -92.5639022
9.116                0.979938165     -92.7195798
9.117                0.979887667     -92.8756494
9.118                0.979837047     -93.0321119
9.119                0.979786303     -93.1889682
9.12                 0.979735437     -93.3462193
9.121                0.979684448     -93.5038661
9.122                0.979633337     -93.6619096
9.123                0.979582103     -93.8203506
9.124                0.979530748     -93.9791902
9.125                0.979479271     -94.1384292
9.126                0.979427671     -94.2980686
9.127                0.979375951     -94.4581094
9.128                0.979324109     -94.6185523
9.129                0.979272146     -94.7793984
9.13                 0.979220062     -94.9406486
9.131                0.979167857     -95.1023039
9.132                0.979115532      -95.264365
9.133                0.979063086      -95.426833
9.134                0.979010521     -95.5897088
9.135                0.978957835     -95.7529933
9.136                 0.97890503     -95.9166874
9.137                0.978852106     -96.0807919
9.138                0.978799063      -96.245308
9.139                0.978745901     -96.4102363
9.14                  0.97869262     -96.5755779
9.141                0.978639222     -96.7413336
9.142                0.978585705     -96.9075044
9.143                0.978532071     -97.0740912
9.144                 0.97847832     -97.2410947
9.145                0.978424451     -97.4085161
9.146                0.978370466      -97.576356
9.147                0.978316365     -97.7446155
9.148                0.978262147     -97.9132954
9.149                0.978207815     -98.0823966
9.15                 0.978153366       -98.25192
9.151                0.978098804     -98.4218664
9.152                0.978044126     -98.5922368
9.153                0.977989334      -98.763032
9.154                0.977934429     -98.9342529
9.155                0.977879411     -99.1059003
9.156                0.977824279     -99.2779751
9.157                0.977769035     -99.4504782
9.158                0.977713679     -99.6234105
9.159                0.977658212     -99.7967727
9.16                 0.977602633     -99.9705658
9.161                0.977546944     -100.144791
9.162                0.977491144     -100.319448
9.163                0.977435235     -100.494539
9.164                0.977379216     -100.670064
9.165                0.977323089     -100.846023
9.166                0.977266854     -101.022419
9.167                 0.97721051     -101.199252
9.168                 0.97715406     -101.376522
9.169                0.977097503      -101.55423
9.17                  0.97704084     -101.732378
9.171                0.976984071     -101.910965
9.172                0.976927198     -102.089994
9.173                 0.97687022     -102.269464
9.174                0.976813138     -102.449376
9.175                0.976755953     -102.629731
9.176                0.976698666     -102.810531
9.177                0.976641276     -102.991775
9.178                0.976583785     -103.173464
9.179                0.976526194       -103.3556
9.18                 0.976468502     -103.538183
9.181                0.976410711     -103.721214
9.182                0.976352822     -103.904693
9.183                0.976294834     -104.088621
9.184                 0.97623675        -104.273
9.185                0.976178568      -104.45783
9.186                0.976120291     -104.643111
9.187                0.976061919     -104.828844
9.188                0.976003452      -105.01503
9.189                0.975944892      -105.20167
9.19                 0.975886239     -105.388764
9.191                0.975827494     -105.576314
9.192                0.975768657     -105.764319
9.193                0.975709731     -105.952781
9.194                0.975650714       -106.1417
9.195                0.975591609     -106.331077
9.196                0.975532416     -106.520913
9.197                0.975473135     -106.711208
9.198                0.975413769     -106.901962
9.199                0.975354317     -107.093178
9.2                   0.97529478     -107.284854
9.201                0.975235161     -107.476992
9.202                0.975175458     -107.669593
9.203                0.975115674     -107.862657
9.204                0.975055809     -108.056185
9.205                0.974995864     -108.250177
9.206                0.974935841     -108.444633
9.207                0.974875739     -108.639556
9.208                0.974815561     -108.834944
9.209                0.974755307       -109.0308
9.21                 0.974694978     -109.227122
9.211                0.974634575     -109.423913
9.212                  0.9745741     -109.621172
9.213                0.974513553     -109.818899
9.214                0.974452935     -110.017097
9.215                0.974392248     -110.215764
9.216                0.974331493     -110.414902
9.217                 0.97427067     -110.614511
9.218                0.974209782     -110.814591
9.219                0.974148828     -111.015144
9.22                  0.97408781     -111.216169
9.221                 0.97402673     -111.417667
9.222                0.973965589     -111.619639
9.223                0.973904387     -111.822085
9.224                0.973843126     -112.025005
9.225                0.973781808       -112.2284
9.226                0.973720433      -112.43227
9.227                0.973659002     -112.636616
9.228                0.973597518     -112.841438
9.229                0.973535981     -113.046737
9.23                 0.973474393     -113.252513
9.231                0.973412754     -113.458766
9.232                0.973351067     -113.665496
9.233                0.973289333     -113.872705
9.234                0.973227552     -114.080392
9.235                0.973165727     -114.288558
9.236                0.973103859     -114.497203
9.237                0.973041949     -114.706327
9.238                0.972979998     -114.915931
9.239                0.972918009     -115.126016
9.24                 0.972855982      -115.33658
9.241                0.972793919     -115.547625
9.242                0.972731822     -115.759151
9.243                0.972669691     -115.971157
9.244                0.972607529     -116.183645
9.245                0.972545338     -116.396615
9.246                0.972483117     -116.610066
9.247                 0.97242087        -116.824
9.248                0.972358598     -117.038415
9.249                0.972296302     -117.253313
9.25                 0.972233984     -117.468693
9.251                0.972171645     -117.684556
9.252                0.972109288     -117.900902
9.253                0.972046914     -118.117731
9.254                0.971984524     -118.335042
9.255                 0.97192212     -118.552837
9.256                0.971859704     -118.771115
9.257                0.971797278     -118.989876
9.258                0.971734844     -119.209121
9.259                0.971672402     -119.428849
9.26                 0.971609956      -119.64906
9.261                0.971547506     -119.869755
9.262                0.971485055     -120.090933
9.263                0.971422604     -120.312595
9.264                0.971360155      -120.53474
9.265                 0.97129771     -120.757369
9.266                0.971235272      -120.98048
9.267                 0.97117284     -121.204075
9.268                0.971110419     -121.428154
9.269                0.971048009     -121.652715
9.27                 0.970985612     -121.877759
9.271                0.970923231     -122.103287
9.272                0.970860868     -122.329296
9.273                0.970798523     -122.555789
9.274                  0.9707362     -122.782763
9.275                0.970673901      -123.01022
9.276                0.970611626     -123.238159
9.277                0.970549379      -123.46658
9.278                0.970487162     -123.695482
9.279                0.970424976     -123.924866
9.28                 0.970362823      -124.15473
9.281                0.970300706     -124.385075
9.282                0.970238627     -124.615901
9.283                0.970176588     -124.847206
9.284                0.970114591     -125.078992
9.285                0.970052638     -125.311257
9.286                0.969990732        -125.544
9.287                0.969928874     -125.777223
9.288                0.969867067     -126.010924
9.289                0.969805313     -126.245102
9.29                 0.969743614     -126.479758
9.291                0.969681972     -126.714891
9.292                 0.96962039       -126.9505
9.293                 0.96955887     -127.186585
9.294                0.969497415     -127.423146
9.295                0.969436026     -127.660182
9.296                0.969374706     -127.897692
9.297                0.969313457     -128.135676
9.298                0.969252281     -128.374133
9.299                0.969191182     -128.613063
9.3                  0.969130161     -128.852464
9.301                 0.96906922     -129.092338
9.302                0.969008363     -129.332681
9.303                0.968947591     -129.573495
9.304                0.968886906     -129.814779
9.305                0.968826313      -130.05653
9.306                0.968765812      -130.29875
9.307                0.968705406     -130.541437
9.308                0.968645098     -130.784591
9.309                 0.96858489      -131.02821
9.31                 0.968524785     -131.272293
9.311                0.968464785     -131.516841
9.312                0.968404893     -131.761852
9.313                0.968345112     -132.007325
9.314                0.968285443     -132.253259
9.315                0.968225889     -132.499654
9.316                0.968166454     -132.746508
9.317                0.968107139     -132.993821
9.318                0.968047947     -133.241591
9.319                0.967988881     -133.489818
9.32                 0.967929943     -133.738501
9.321                0.967871137     -133.987638
9.322                0.967812464     -134.237228
9.323                0.967753927     -134.487271
9.324                 0.96769553     -134.737765
9.325                0.967637274      -134.98871
9.326                0.967579162     -135.240103
9.327                0.967521197     -135.491944
9.328                0.967463382     -135.744232
9.329                0.967405719     -135.996966
9.33                 0.967348212     -136.250144
9.331                0.967290862     -136.503765
9.332                0.967233673     -136.757827
9.333                0.967176647      -137.01233
9.334                0.967119788     -137.267273
9.335                0.967063097     -137.522653
9.336                0.967006577     -137.778469
9.337                0.966950232     -138.034721
9.338                0.966894064     -138.291406
9.339                0.966838076     -138.548524
9.34                 0.966782271     -138.806073
9.341                0.966726651     -139.064051
9.342                 0.96667122     -139.322457
9.343                0.966615979     -139.581289
9.344                0.966560933     -139.840546
9.345                0.966506083     -140.100227
9.346                0.966451433     -140.360329
9.347                0.966396985     -140.620851
9.348                0.966342743     -140.881792
9.349                0.966288708      -141.14315
9.35                 0.966234885     -141.404923
9.351                0.966181275     -141.667109
9.352                0.966127882     -141.929708
9.353                0.966074708     -142.192716
9.354                0.966021756     -142.456133
9.355                 0.96596903     -142.719956
9.356                0.965916531     -142.984184
9.357                0.965864264     -143.248815
9.358                 0.96581223     -143.513847
9.359                0.965760432     -143.779279
9.36                 0.965708874     -144.045108
9.361                0.965657559     -144.311332
9.362                0.965606488     -144.577949
9.363                0.965555666     -144.844959
9.364                0.965505094     -145.112357
9.365                0.965454776     -145.380144
9.366                0.965404715     -145.648316
9.367                0.965354913     -145.916871
9.368                0.965305374     -146.185808
9.369                0.965256099     -146.455124
9.37                 0.965207093     -146.724817
9.371                0.965158357     -146.994885
9.372                0.965109895     -147.265327
9.373                0.965061709     -147.536139
9.374                0.965013803     -147.807319
9.375                0.964966179     -148.078866
9.376                 0.96491884     -148.350777
9.377                0.964871789      -148.62305
9.378                0.964825028     -148.895682
9.379                0.964778561     -149.168671
9.38                  0.96473239     -149.442015
9.381                0.964686518     -149.715712
9.382                0.964640948     -149.989758
9.383                0.964595682     -150.264153
9.384                0.964550724     -150.538892
9.385                0.964506075     -150.813975
9.386                 0.96446174     -151.089397
9.387                 0.96441772     -151.365158
9.388                0.964374019     -151.641254
9.389                0.964330638     -151.917683
9.39                 0.964287582     -152.194442
9.391                0.964244851     -152.471528
9.392                 0.96420245      -152.74894
9.393                0.964160381     -153.026674
9.394                0.964118646     -153.304728
9.395                0.964077249     -153.583099
9.396                0.964036191     -153.861784
