! TOUCHSTONE file generated by CST DESIGN STUDIO
! Date and time: Tue Feb  4 13:45:08 2025
! Project name: C:\Work\MatlabApps\UnitCellOptimizationMatlab\CST\unitcell.cst
! Tree item: Tasks\Sweep1\SPara1\S-Parameters
! Header version: 2024
! Port assignment regex: !\s*Touchstone port\s*([0-9]+)\s*=\s*(CST MWS port|CST DES external port|CST DES block port)\s*(.+)\s* \(\"(.*)\"\)(\s*mode\s*([0-9]+))?.*
! Touchstone port assignment:
! Touchstone port 1 = CST DES external port 1 ("")
# GHz S MA R 50
9                    0.984805797     -78.1987772
9.001                0.984768451     -78.3183623
9.002                0.984730991     -78.4382421
9.003                0.984693417     -78.5584176
9.004                0.984655728     -78.6788895
9.005                0.984617925     -78.7996588
9.006                0.984580007     -78.9207263
9.007                0.984541974     -79.0420928
9.008                0.984503826     -79.1637592
9.009                0.984465563     -79.2857264
9.01                 0.984427184     -79.4079952
9.011                0.984388688     -79.5305665
9.012                0.984350077     -79.6534413
9.013                0.984311349     -79.7766203
9.014                0.984272505     -79.9001044
9.015                0.984233544     -80.0238946
9.016                0.984194466     -80.1479916
9.017                0.984155271     -80.2723964
9.018                0.984115959     -80.3971099
9.019                0.984076528     -80.5221329
9.02                  0.98403698     -80.6474663
9.021                0.983997314      -80.773111
9.022                 0.98395753     -80.8990679
9.023                0.983917627     -81.0253379
9.024                0.983877606     -81.1519218
9.025                0.983837466     -81.2788206
9.026                0.983797207     -81.4060352
9.027                0.983756828     -81.5335664
9.028                0.983716331     -81.6614152
9.029                0.983675713     -81.7895824
9.03                 0.983634976      -81.918069
9.031                0.983594119     -82.0468758
9.032                0.983553142     -82.1760038
9.033                0.983512044     -82.3054538
9.034                0.983470826     -82.4352268
9.035                0.983429487     -82.5653237
9.036                0.983388028     -82.6957453
9.037                0.983346447     -82.8264926
9.038                0.983304745     -82.9575665
9.039                0.983262922     -83.0889679
9.04                 0.983220977     -83.2206978
9.041                0.983178911     -83.3527569
9.042                0.983136722     -83.4851463
9.043                0.983094412     -83.6178669
9.044                 0.98305198     -83.7509196
9.045                0.983009425     -83.8843053
9.046                0.982966747     -84.0180248
9.047                0.982923948     -84.1520793
9.048                0.982881025     -84.2864695
9.049                0.982837979     -84.4211964
9.05                 0.982794811     -84.5562609
9.051                0.982751519      -84.691664
9.052                0.982708104     -84.8274065
9.053                0.982664566     -84.9634894
9.054                0.982620904     -85.0999137
9.055                0.982577118     -85.2366802
9.056                0.982533208     -85.3737899
9.057                0.982489175     -85.5112437
9.058                0.982445017     -85.6490426
9.059                0.982400736     -85.7871875
9.06                  0.98235633     -85.9256793
9.061                  0.9823118     -86.0645189
9.062                0.982267145     -86.2037073
9.063                0.982222366     -86.3432455
9.064                0.982177462     -86.4831343
9.065                0.982132433     -86.6233748
9.066                 0.98208728     -86.7639677
9.067                0.982042001     -86.9049142
9.068                0.981996598     -87.0462151
9.069                 0.98195107     -87.1878713
9.07                 0.981905416     -87.3298839
9.071                0.981859637     -87.4722537
9.072                0.981813733     -87.6149817
9.073                0.981767704     -87.7580688
9.074                0.981721549      -87.901516
9.075                0.981675269     -88.0453242
9.076                0.981628863     -88.1894944
9.077                0.981582332     -88.3340275
9.078                0.981535675     -88.4789245
9.079                0.981488893     -88.6241862
9.08                 0.981441985     -88.7698137
9.081                0.981394951     -88.9158079
9.082                0.981347792     -89.0621698
9.083                0.981300507     -89.2089002
9.084                0.981253096     -89.3560001
9.085                 0.98120556     -89.5034705
9.086                0.981157898     -89.6513123
9.087                 0.98111011     -89.7995265
9.088                0.981062196     -89.9481141
9.089                0.981014157     -90.0970758
9.09                 0.980965992     -90.2464128
9.091                0.980917701     -90.3961259
9.092                0.980869285     -90.5462162
9.093                0.980820743     -90.6966844
9.094                0.980772075     -90.8475317
9.095                0.980723282     -90.9987589
9.096                0.980674363     -91.1503669
9.097                0.980625319     -91.3023568
9.098                 0.98057615     -91.4547295
9.099                0.980526855     -91.6074858
9.1                  0.980477435     -91.7606269
9.101                 0.98042789     -91.9141535
9.102                 0.98037822     -92.0680666
9.103                0.980328424     -92.2223672
9.104                0.980278504     -92.3770563
9.105                0.980228459     -92.5321347
9.106                0.980178289     -92.6876034
9.107                0.980127995     -92.8434633
9.108                0.980077576     -92.9997154
9.109                0.980027033     -93.1563606
9.11                 0.979976365     -93.3133999
9.111                0.979925573     -93.4708341
9.112                0.979874658     -93.6286642
9.113                0.979823618     -93.7868912
9.114                0.979772455      -93.945516
9.115                0.979721168     -94.1045395
9.116                0.979669758     -94.2639625
9.117                0.979618225     -94.4237862
9.118                0.979566569     -94.5840113
9.119                 0.97951479     -94.7446389
9.12                 0.979462888     -94.9056698
9.121                0.979410864     -95.0671049
9.122                0.979358717     -95.2289452
9.123                0.979306449     -95.3911916
9.124                0.979254059      -95.553845
9.125                0.979201547     -95.7169064
9.126                0.979148914     -95.8803765
9.127                 0.97909616     -96.0442565
9.128                0.979043285      -96.208547
9.129                 0.97899029     -96.3732492
9.13                 0.978937174     -96.5383638
9.131                0.978883938     -96.7038918
9.132                0.978830583      -96.869834
9.133                0.978777108     -97.0361914
9.134                0.978723514     -97.2029649
9.135                0.978669801     -97.3701554
9.136                0.978615969     -97.5377637
9.137                 0.97856202     -97.7057907
9.138                0.978507952     -97.8742374
9.139                0.978453767     -98.0431046
9.14                 0.978399465     -98.2123932
9.141                0.978345045      -98.382104
9.142                 0.97829051     -98.5522381
9.143                0.978235858     -98.7227961
9.144                0.978181091      -98.893779
9.145                0.978126208     -99.0651877
9.146                0.978071211      -99.237023
9.147                0.978016098     -99.4092857
9.148                0.977960872     -99.5819769
9.149                0.977905532     -99.7550972
9.15                 0.977850079     -99.9286475
9.151                0.977794514     -100.102629
9.152                0.977738835     -100.277042
9.153                0.977683045     -100.451887
9.154                0.977627144     -100.627166
9.155                0.977571132     -100.802879
9.156                0.977515009     -100.979028
9.157                0.977458776     -101.155612
9.158                0.977402435     -101.332633
9.159                0.977345984     -101.510091
9.16                 0.977289425     -101.687988
9.161                0.977232758     -101.866324
9.162                0.977175984       -102.0451
9.163                0.977119103     -102.224317
9.164                0.977062116     -102.403975
9.165                0.977005024     -102.584075
9.166                0.976947827     -102.764619
9.167                0.976890525     -102.945607
9.168                 0.97683312     -103.127039
9.169                0.976775612     -103.308917
9.17                 0.976718002     -103.491241
9.171                0.976660289     -103.674012
9.172                0.976602476     -103.857231
9.173                0.976544562     -104.040898
9.174                0.976486549     -104.225014
9.175                0.976428436     -104.409581
9.176                0.976370226     -104.594598
9.177                0.976311917     -104.780067
9.178                0.976253512     -104.965988
9.179                0.976195011     -105.152362
9.18                 0.976136414     -105.339189
9.181                0.976077723     -105.526471
9.182                0.976018938     -105.714207
9.183                 0.97596006       -105.9024
9.184                 0.97590109     -106.091049
9.185                0.975842028     -106.280155
9.186                0.975782876     -106.469718
9.187                0.975723634      -106.65974
9.188                0.975664303     -106.850222
9.189                0.975604884     -107.041162
9.19                 0.975545378     -107.232564
9.191                0.975485786     -107.424426
9.192                0.975426109      -107.61675
9.193                0.975366347     -107.809537
9.194                0.975306501     -108.002786
9.195                0.975246573     -108.196499
9.196                0.975186564     -108.390676
9.197                0.975126474     -108.585317
9.198                0.975066304     -108.780424
9.199                0.975006055     -108.975997
9.2                  0.974945729     -109.172036
9.201                0.974885327     -109.368543
9.202                0.974824848     -109.565517
9.203                0.974764295     -109.762959
9.204                0.974703669      -109.96087
9.205                0.974642971      -110.15925
9.206                0.974582201       -110.3581
9.207                 0.97452136      -110.55742
9.208                0.974460451     -110.757211
9.209                0.974399474     -110.957474
9.21                  0.97433843     -111.158208
9.211                 0.97427732     -111.359414
9.212                0.974216146     -111.561093
9.213                0.974154909     -111.763245
9.214                 0.97409361     -111.965871
9.215                 0.97403225     -112.168971
9.216                 0.97397083     -112.372546
9.217                0.973909352     -112.576595
9.218                0.973847816      -112.78112
9.219                0.973786225     -112.986121
9.22                 0.973724579     -113.191597
9.221                0.973662881     -113.397551
9.222                 0.97360113     -113.603981
9.223                0.973539328     -113.810889
9.224                0.973477478     -114.018274
9.225                0.973415579     -114.226137
9.226                0.973353634     -114.434479
9.227                0.973291644     -114.643299
9.228                0.973229611     -114.852598
9.229                0.973167535     -115.062377
9.23                 0.973105418     -115.272635
9.231                0.973043262     -115.483372
9.232                0.972981068      -115.69459
9.233                0.972918838     -115.906289
9.234                0.972856573     -116.118467
9.235                0.972794274     -116.331127
9.236                0.972731944     -116.544268
9.237                0.972669583      -116.75789
9.238                0.972607193     -116.971993
9.239                0.972544777     -117.186578
9.24                 0.972482335     -117.401645
9.241                0.972419869     -117.617193
9.242                 0.97235738     -117.833224
9.243                0.972294871     -118.049737
9.244                0.972232343     -118.266732
9.245                0.972169798      -118.48421
9.246                0.972107237     -118.702171
9.247                0.972044662     -118.920613
9.248                0.971982075     -119.139539
9.249                0.971919477     -119.358947
9.25                 0.971856871     -119.578838
9.251                0.971794258     -119.799212
9.252                0.971731639     -120.020069
9.253                0.971669017     -120.241408
9.254                0.971606394     -120.463231
9.255                0.971543771     -120.685535
9.256                 0.97148115     -120.908323
9.257                0.971418533     -121.131593
9.258                0.971355922     -121.355346
9.259                0.971293318     -121.579582
9.26                 0.971230724     -121.804299
9.261                0.971168142     -122.029499
9.262                0.971105573     -122.255181
9.263                 0.97104302     -122.481345
9.264                0.970980484     -122.707991
9.265                0.970917968     -122.935118
9.266                0.970855473     -123.162727
9.267                0.970793002     -123.390817
9.268                0.970730556     -123.619388
9.269                0.970668137     -123.848439
9.27                 0.970605749     -124.077971
9.271                0.970543392     -124.307983
9.272                0.970481068     -124.538476
9.273                0.970418781     -124.769447
9.274                0.970356531     -125.000898
9.275                0.970294322     -125.232828
9.276                0.970232155     -125.465236
9.277                0.970170033     -125.698123
9.278                0.970107957     -125.931487
9.279                 0.97004593     -126.165328
9.28                 0.969983954     -126.399647
9.281                0.969922032     -126.634442
9.282                0.969860165     -126.869713
9.283                0.969798356     -127.105459
9.284                0.969736607      -127.34168
9.285                 0.96967492     -127.578376
9.286                0.969613298     -127.815546
9.287                0.969551743     -128.053189
9.288                0.969490257     -128.291305
9.289                0.969428843     -128.529894
9.29                 0.969367503     -128.768954
9.291                 0.96930624     -129.008485
9.292                0.969245055     -129.248486
9.293                0.969183952     -129.488957
9.294                0.969122932     -129.729897
9.295                0.969061998     -129.971305
9.296                0.969001152     -130.213181
9.297                0.968940398     -130.455523
9.298                0.968879737     -130.698332
9.299                0.968819171     -130.941606
9.3                  0.968758704     -131.185344
9.301                0.968698338     -131.429546
9.302                0.968638076     -131.674211
9.303                0.968577919     -131.919338
9.304                 0.96851787     -132.164926
9.305                0.968457933     -132.410974
9.306                0.968398109     -132.657481
9.307                0.968338401     -132.904446
9.308                0.968278812     -133.151869
9.309                0.968219345     -133.399748
9.31                 0.968160001     -133.648083
9.311                0.968100784     -133.896872
9.312                0.968041696     -134.146114
9.313                0.967982739     -134.395809
9.314                0.967923918     -134.645954
9.315                0.967865233      -134.89655
9.316                0.967806688     -135.147594
9.317                0.967748286     -135.399086
9.318                0.967690028     -135.651025
9.319                0.967631919     -135.903409
9.32                  0.96757396     -136.156238
9.321                0.967516155     -136.409509
9.322                0.967458505     -136.663222
9.323                0.967401014     -136.917376
9.324                0.967343685     -137.171968
9.325                 0.96728652     -137.426998
9.326                0.967229522     -137.682465
9.327                0.967172693     -137.938367
9.328                0.967116038     -138.194703
9.329                0.967059557      -138.45147
9.33                 0.967003255     -138.708669
9.331                0.966947133     -138.966297
9.332                0.966891195     -139.224353
9.333                0.966835444     -139.482836
9.334                0.966779882     -139.741743
9.335                0.966724512     -140.001074
9.336                0.966669337     -140.260827
9.337                 0.96661436        -140.521
9.338                0.966559583     -140.781591
9.339                 0.96650501       -141.0426
9.34                 0.966450643     -141.304024
9.341                0.966396485     -141.565861
9.342                0.966342539     -141.828111
9.343                0.966288808     -142.090771
9.344                0.966235295     -142.353839
9.345                0.966182002     -142.617314
9.346                0.966128932     -142.881194
9.347                0.966076089     -143.145478
9.348                0.966023475     -143.410162
9.349                0.965971092     -143.675246
9.35                 0.965918945     -143.940728
9.351                0.965867035     -144.206606
9.352                0.965815366     -144.472877
9.353                 0.96576394      -144.73954
9.354                 0.96571276     -145.006593
9.355                0.965661829     -145.274034
9.356                0.965611151      -145.54186
9.357                0.965560727     -145.810071
9.358                0.965510561     -146.078663
9.359                0.965460655     -146.347636
9.36                 0.965411013     -146.616985
9.361                0.965361637     -146.886711
9.362                 0.96531253     -147.156809
9.363                0.965263695     -147.427279
9.364                0.965215135     -147.698118
9.365                0.965166853     -147.969323
9.366                0.965118851     -148.240893
9.367                0.965071132     -148.512825
9.368                0.965023699     -148.785118
9.369                0.964976555     -149.057768
9.37                 0.964929703     -149.330773
9.371                0.964883145     -149.604132
9.372                0.964836885     -149.877841
9.373                0.964790925     -150.151898
9.374                0.964745267     -150.426301
9.375                0.964699916     -150.701048
9.376                0.964654872     -150.976135
9.377                 0.96461014     -151.251561
9.378                0.964565722     -151.527324
9.379                 0.96452162     -151.803419
9.38                 0.964477838     -152.079846
9.381                0.964434378       -152.3566
9.382                0.964391243     -152.633681
9.383                0.964348435     -152.911085
9.384                0.964305957     -153.188809
9.385                0.964263813     -153.466852
9.386                0.964222003     -153.745209
9.387                0.964180532     -154.023879
9.388                0.964139402     -154.302859
9.389                0.964098615     -154.582146
9.39                 0.964058174     -154.861737
9.391                0.964018082      -155.14163
9.392                0.963978341     -155.421822
9.393                0.963938954     -155.702309
9.394                0.963899923      -155.98309
9.395                0.963861251     -156.264161
9.396                 0.96382294      -156.54552
