! TOUCHSTONE file generated by CST DESIGN STUDIO
! Date and time: Tue Feb  4 13:45:17 2025
! Project name: C:\Work\MatlabApps\UnitCellOptimizationMatlab\CST\unitcell.cst
! Tree item: Tasks\Sweep1\SPara1\S-Parameters
! Header version: 2024
! Port assignment regex: !\s*Touchstone port\s*([0-9]+)\s*=\s*(CST MWS port|CST DES external port|CST DES block port)\s*(.+)\s* \(\"(.*)\"\)(\s*mode\s*([0-9]+))?.*
! Touchstone port assignment:
! Touchstone port 1 = CST DES external port 1 ("")
# GHz S MA R 50
9                    0.985830279     -70.5968481
9.001                0.985798804     -70.6992252
9.002                0.985767232     -70.8018472
9.003                0.985735562      -70.904715
9.004                0.985703793     -71.0078292
9.005                0.985671925     -71.1111906
9.006                0.985639959        -71.2148
9.007                0.985607893     -71.3186581
9.008                0.985575728     -71.4227656
9.009                0.985543464     -71.5271233
9.01                 0.985511099      -71.631732
9.011                0.985478635     -71.7365925
9.012                 0.98544607     -71.8417054
9.013                0.985413405     -71.9470715
9.014                0.985380638     -72.0526917
9.015                0.985347771     -72.1585667
9.016                0.985314803     -72.2646972
9.017                0.985281732      -72.371084
9.018                0.985248561     -72.4777279
9.019                0.985215287     -72.5846296
9.02                  0.98518191       -72.69179
9.021                0.985148432     -72.7992099
9.022                 0.98511485     -72.9068899
9.023                0.985081166     -73.0148309
9.024                0.985047378     -73.1230337
9.025                0.985013487      -73.231499
9.026                0.984979492     -73.3402277
9.027                0.984945394     -73.4492206
9.028                0.984911191     -73.5584783
9.029                0.984876883     -73.6680018
9.03                 0.984842471     -73.7777918
9.031                0.984807955     -73.8878492
9.032                0.984773333     -73.9981747
9.033                0.984738605     -74.1087691
9.034                0.984703773     -74.2196332
9.035                0.984668834     -74.3307679
9.036                0.984633789      -74.442174
9.037                0.984598638     -74.5538522
9.038                0.984563381     -74.6658035
9.039                0.984528017     -74.7780285
9.04                 0.984492546     -74.8905281
9.041                0.984456967     -75.0033032
9.042                0.984421281     -75.1163545
9.043                0.984385488      -75.229683
9.044                0.984349587     -75.3432893
9.045                0.984313577     -75.4571744
9.046                 0.98427746      -75.571339
9.047                0.984241234     -75.6857841
9.048                0.984204899     -75.8005104
9.049                0.984168455     -75.9155188
9.05                 0.984131901     -76.0308101
9.051                0.984095239     -76.1463851
9.052                0.984058466     -76.2622448
9.053                0.984021584     -76.3783899
9.054                0.983984592     -76.4948213
9.055                0.983947489     -76.6115398
9.056                0.983910276     -76.7285463
9.057                0.983872952     -76.8458417
9.058                0.983835518     -76.9634267
9.059                0.983797972     -77.0813023
9.06                 0.983760314     -77.1994693
9.061                0.983722545     -77.3179286
9.062                0.983684665      -77.436681
9.063                0.983646672     -77.5557274
9.064                0.983608567     -77.6750687
9.065                 0.98357035     -77.7947057
9.066                 0.98353202     -77.9146393
9.067                0.983493577     -78.0348704
9.068                0.983455021     -78.1553998
9.069                0.983416352     -78.2762284
9.07                 0.983377569     -78.3973572
9.071                0.983338673     -78.5187869
9.072                0.983299663     -78.6405184
9.073                 0.98326054     -78.7625527
9.074                0.983221301     -78.8848906
9.075                0.983181949     -79.0075331
9.076                0.983142482     -79.1304809
9.077                  0.9831029      -79.253735
9.078                0.983063203     -79.3772963
9.079                0.983023391     -79.5011656
9.08                 0.982983464      -79.625344
9.081                0.982943421     -79.7498321
9.082                0.982903263     -79.8746311
9.083                0.982862988     -79.9997417
9.084                0.982822598     -80.1251648
9.085                0.982782092     -80.2509015
9.086                0.982741469     -80.3769525
9.087                0.982700729     -80.5033188
9.088                0.982659873     -80.6300012
9.089                  0.9826189     -80.7570008
9.09                  0.98257781     -80.8843183
9.091                0.982536602     -81.0119548
9.092                0.982495278     -81.1399111
9.093                0.982453835     -81.2681882
9.094                0.982412275     -81.3967869
9.095                0.982370598     -81.5257083
9.096                0.982328802     -81.6549531
9.097                0.982286888     -81.7845224
9.098                0.982244856      -81.914417
9.099                0.982202705     -82.0446379
9.1                  0.982160436      -82.175186
9.101                0.982118048     -82.3060622
9.102                0.982075542     -82.4372675
9.103                0.982032916     -82.5688028
9.104                0.981990171     -82.7006691
9.105                0.981947307     -82.8328672
9.106                0.981904324      -82.965398
9.107                0.981861221     -83.0982627
9.108                0.981817998      -83.231462
9.109                0.981774656     -83.3649969
9.11                 0.981731194     -83.4988683
9.111                0.981687612     -83.6330773
9.112                 0.98164391     -83.7676247
9.113                0.981600088     -83.9025114
9.114                0.981556145     -84.0377385
9.115                0.981512083     -84.1733069
9.116                0.981467899     -84.3092175
9.117                0.981423596     -84.4454712
9.118                0.981379171     -84.5820691
9.119                0.981334626      -84.719012
9.12                  0.98128996      -84.856301
9.121                0.981245173     -84.9939369
9.122                0.981200265     -85.1319208
9.123                0.981155236     -85.2702535
9.124                0.981110086     -85.4089361
9.125                0.981064815     -85.5479694
9.126                0.981019422     -85.6873545
9.127                0.980973908     -85.8270923
9.128                0.980928273     -85.9671838
9.129                0.980882516     -86.1076299
9.13                 0.980836638     -86.2484316
9.131                0.980790639     -86.3895899
9.132                0.980744518     -86.5311057
9.133                0.980698275     -86.6729799
9.134                0.980651911     -86.8152136
9.135                0.980605425     -86.9578077
9.136                0.980558817     -87.1007631
9.137                0.980512087     -87.2440809
9.138                0.980465236      -87.387762
9.139                0.980418264     -87.5318073
9.14                 0.980371169     -87.6762179
9.141                0.980323953     -87.8209947
9.142                0.980276615     -87.9661387
9.143                0.980229155     -88.1116508
9.144                0.980181574      -88.257532
9.145                0.980133871     -88.4037833
9.146                0.980086046     -88.5504056
9.147                0.980038099     -88.6973999
9.148                0.979990031     -88.8447673
9.149                0.979941842     -88.9925085
9.15                  0.97989353     -89.1406247
9.151                0.979845098     -89.2891168
9.152                0.979796543     -89.4379858
9.153                0.979747868     -89.5872326
9.154                0.979699071     -89.7368582
9.155                0.979650153     -89.8868636
9.156                0.979601113     -90.0372497
9.157                0.979551953     -90.1880176
9.158                0.979502671     -90.3391681
9.159                0.979453268     -90.4907023
9.16                 0.979403745     -90.6426211
9.161                0.979354101     -90.7949255
9.162                0.979304336     -90.9476165
9.163                 0.97925445      -91.100695
9.164                0.979204444      -91.254162
9.165                0.979154318     -91.4080185
9.166                0.979104071     -91.5622654
9.167                0.979053705     -91.7169037
9.168                0.979003218     -91.8719344
9.169                0.978952612     -92.0273584
9.17                 0.978901886     -92.1831767
9.171                0.978851041     -92.3393903
9.172                0.978800076     -92.4960001
9.173                0.978748992     -92.6530071
9.174                0.978697789     -92.8104122
9.175                0.978646467     -92.9682165
9.176                0.978595027     -93.1264208
9.177                0.978543468     -93.2850261
9.178                0.978491791     -93.4440335
9.179                0.978439997     -93.6034437
9.18                 0.978388084     -93.7632579
9.181                0.978336054     -93.9234769
9.182                0.978283906     -94.0841018
9.183                0.978231641     -94.2451333
9.184                 0.97817926     -94.4065726
9.185                0.978126762     -94.5684206
9.186                0.978074148     -94.7306781
9.187                0.978021417     -94.8933462
9.188                0.977968571     -95.0564258
9.189                0.977915609     -95.2199178
9.19                 0.977862532     -95.3838232
9.191                 0.97780934     -95.5481429
9.192                0.977756034     -95.7128778
9.193                0.977702613      -95.878029
9.194                0.977649078     -96.0435972
9.195                 0.97759543     -96.2095835
9.196                0.977541668     -96.3759888
9.197                0.977487794      -96.542814
9.198                0.977433806       -96.71006
9.199                0.977379707     -96.8777277
9.2                  0.977325496     -97.0458181
9.201                0.977271173     -97.2143321
9.202                0.977216739     -97.3832706
9.203                0.977162194     -97.5526345
9.204                0.977107539     -97.7224248
9.205                0.977052774     -97.8926422
9.206                  0.9769979     -98.0632878
9.207                0.976942917     -98.2343625
9.208                0.976887825      -98.405867
9.209                0.976832625     -98.5778024
9.21                 0.976777317     -98.7501696
9.211                0.976721903     -98.9229693
9.212                0.976666381     -99.0962025
9.213                0.976610753     -99.2698701
9.214                 0.97655502      -99.443973
9.215                0.976499181      -99.618512
9.216                0.976443237      -99.793488
9.217                 0.97638719     -99.9689019
9.218                0.976331039     -100.144755
9.219                0.976274784     -100.321047
9.22                 0.976218427     -100.497779
9.221                0.976161969     -100.674954
9.222                0.976105408      -100.85257
9.223                0.976048747     -101.030629
9.224                0.975991986     -101.209132
9.225                0.975935125      -101.38808
9.226                0.975878166     -101.567473
9.227                0.975821108     -101.747313
9.228                0.975763952     -101.927599
9.229                0.975706699     -102.108334
9.23                  0.97564935     -102.289518
9.231                0.975591905     -102.471151
9.232                0.975534365     -102.653235
9.233                0.975476731      -102.83577
9.234                0.975419004     -103.018757
9.235                0.975361183     -103.202197
9.236                 0.97530327      -103.38609
9.237                0.975245266     -103.570438
9.238                0.975187171     -103.755241
9.239                0.975128987       -103.9405
9.24                 0.975070713     -104.126215
9.241                0.975012351     -104.312388
9.242                0.974953901      -104.49902
9.243                0.974895365      -104.68611
9.244                0.974836743      -104.87366
9.245                0.974778036      -105.06167
9.246                0.974719244     -105.250142
9.247                 0.97466037     -105.439075
9.248                0.974601413     -105.628472
9.249                0.974542374     -105.818331
9.25                 0.974483255     -106.008654
9.251                0.974424056     -106.199443
9.252                0.974364778     -106.390696
9.253                0.974305423     -106.582416
9.254                 0.97424599     -106.774602
9.255                0.974186482     -106.967256
9.256                0.974126898     -107.160378
9.257                0.974067241     -107.353969
9.258                0.974007511     -107.548029
9.259                0.973947709      -107.74256
9.26                 0.973887836     -107.937561
9.261                0.973827893     -108.133033
9.262                0.973767881     -108.328977
9.263                0.973707801     -108.525394
9.264                0.973647655     -108.722284
9.265                0.973587443     -108.919648
9.266                0.973527167     -109.117486
9.267                0.973466828     -109.315799
9.268                0.973406427     -109.514587
9.269                0.973345964     -109.713852
9.27                 0.973285442     -109.913593
9.271                0.973224861     -110.113811
9.272                0.973164222     -110.314507
9.273                0.973103528     -110.515681
9.274                0.973042778     -110.717334
9.275                0.972981975     -110.919466
9.276                0.972921119     -111.122078
9.277                0.972860212      -111.32517
9.278                0.972799255     -111.528743
9.279                0.972738249     -111.732797
9.28                 0.972677196     -111.937333
9.281                0.972616097      -112.14235
9.282                0.972554954     -112.347851
9.283                0.972493767     -112.553834
9.284                0.972432538     -112.760301
9.285                0.972371269     -112.967251
9.286                 0.97230996     -113.174686
9.287                0.972248614     -113.382605
9.288                0.972187232     -113.591009
9.289                0.972125815     -113.799899
9.29                 0.972064364     -114.009274
9.291                0.972002882     -114.219135
9.292                0.971941369     -114.429483
9.293                0.971879828     -114.640317
9.294                0.971818259     -114.851639
9.295                0.971756665     -115.063447
9.296                0.971695046     -115.275744
9.297                0.971633405     -115.488528
9.298                0.971571742       -115.7018
9.299                 0.97151006     -115.915561
9.3                  0.971448361      -116.12981
9.301                0.971386645     -116.344549
9.302                0.971324914     -116.559776
9.303                0.971263171     -116.775492
9.304                0.971201417     -116.991699
9.305                0.971139653     -117.208394
9.306                0.971077882      -117.42558
9.307                0.971016104     -117.643255
9.308                0.970954322     -117.861421
9.309                0.970892538     -118.080077
9.31                 0.970830753     -118.299223
9.311                0.970768969      -118.51886
9.312                0.970707188     -118.738987
9.313                0.970645411     -118.959605
9.314                0.970583641     -119.180714
9.315                 0.97052188     -119.402313
9.316                0.970460129     -119.624403
9.317                 0.97039839     -119.846984
9.318                0.970336665     -120.070055
9.319                0.970274956     -120.293617
9.32                 0.970213265      -120.51767
9.321                0.970151594     -120.742214
9.322                0.970089945     -120.967248
9.323                0.970028319     -121.192773
9.324                 0.96996672     -121.418788
9.325                0.969905148     -121.645293
9.326                0.969843607     -121.872289
9.327                0.969782097     -122.099775
9.328                0.969720621      -122.32775
9.329                0.969659181     -122.556216
9.33                  0.96959778      -122.78517
9.331                0.969536419     -123.014615
9.332                  0.9694751     -123.244548
9.333                0.969413826     -123.474971
9.334                0.969352598     -123.705882
9.335                 0.96929142     -123.937281
9.336                0.969230292     -124.169169
9.337                0.969169218     -124.401544
9.338                0.969108199     -124.634407
9.339                0.969047238     -124.867757
9.34                 0.968986337     -125.101594
9.341                0.968925498     -125.335917
9.342                0.968864724     -125.570726
9.343                0.968804017     -125.806021
9.344                0.968743378     -126.041801
9.345                0.968682812     -126.278066
9.346                0.968622318     -126.514816
9.347                0.968561901     -126.752049
9.348                0.968501563     -126.989765
9.349                0.968441305     -127.227964
9.35                 0.968381131     -127.466646
9.351                0.968321042     -127.705809
9.352                0.968261041     -127.945454
9.353                0.968201131     -128.185579
9.354                0.968141314     -128.426184
9.355                0.968081592     -128.667268
9.356                0.968021968     -128.908832
9.357                0.967962444     -129.150873
9.358                0.967903023     -129.393391
9.359                0.967843708     -129.636386
9.36                 0.967784501     -129.879858
9.361                0.967725404     -130.123804
9.362                 0.96766642     -130.368225
9.363                0.967607551     -130.613119
9.364                0.967548801     -130.858486
9.365                0.967490171     -131.104325
9.366                0.967431665     -131.350636
9.367                0.967373285     -131.597416
9.368                0.967315033     -131.844666
9.369                0.967256912     -132.092385
9.37                 0.967198926     -132.340571
9.371                0.967141075     -132.589224
9.372                0.967083364     -132.838342
9.373                0.967025795     -133.087925
9.374                 0.96696837     -133.337972
9.375                0.966911093     -133.588481
9.376                0.966853965     -133.839452
9.377                 0.96679699     -134.090884
9.378                0.966740171     -134.342775
9.379                0.966683509     -134.595124
9.38                 0.966627009      -134.84793
9.381                0.966570672     -135.101192
9.382                0.966514501     -135.354909
9.383                  0.9664585      -135.60908
9.384                 0.96640267     -135.863703
9.385                0.966347015     -136.118777
9.386                0.966291538     -136.374301
9.387                0.966236241     -136.630273
9.388                0.966181127     -136.886693
9.389                0.966126199     -137.143558
9.39                  0.96607146     -137.400868
9.391                0.966016912     -137.658622
9.392                0.965962559     -137.916817
9.393                0.965908403     -138.175452
9.394                0.965854448     -138.434526
9.395                0.965800695     -138.694037
9.396                0.965747148     -138.953985
