! TOUCHSTONE file generated by CST DESIGN STUDIO
! Date and time: Tue Feb  4 13:45:14 2025
! Project name: C:\Work\MatlabApps\UnitCellOptimizationMatlab\CST\unitcell.cst
! Tree item: Tasks\Sweep1\SPara1\S-Parameters
! Header version: 2024
! Port assignment regex: !\s*Touchstone port\s*([0-9]+)\s*=\s*(CST MWS port|CST DES external port|CST DES block port)\s*(.+)\s* \(\"(.*)\"\)(\s*mode\s*([0-9]+))?.*
! Touchstone port assignment:
! Touchstone port 1 = CST DES external port 1 ("")
# GHz S MA R 50
9                    0.985475018     -73.2488536
9.001                0.985441455     -73.3570148
9.002                0.985407789     -73.4654378
9.003                0.985374019     -73.5741233
9.004                0.985340145     -73.6830723
9.005                0.985306168     -73.7922855
9.006                0.985272086     -73.9017636
9.007                  0.9852379     -74.0115075
9.008                0.985203609     -74.1215179
9.009                0.985169213     -74.2317957
9.01                 0.985134711     -74.3423416
9.011                0.985100104     -74.4531565
9.012                0.985065392     -74.5642411
9.013                0.985030573     -74.6755963
9.014                0.984995648     -74.7872229
9.015                0.984960617     -74.8991216
9.016                0.984925479     -75.0112933
9.017                0.984890234     -75.1237388
9.018                0.984854882     -75.2364589
9.019                0.984819422     -75.3494544
9.02                 0.984783855     -75.4627261
9.021                 0.98474818     -75.5762749
9.022                0.984712397     -75.6901016
9.023                0.984676505     -75.8042069
9.024                0.984640505     -75.9185918
9.025                0.984604396     -76.0332571
9.026                0.984568178     -76.1482035
9.027                 0.98453185     -76.2634319
9.028                0.984495413     -76.3789432
9.029                0.984458866     -76.4947382
9.03                  0.98442221     -76.6108177
9.031                0.984385443     -76.7271826
9.032                0.984348565     -76.8438336
9.033                0.984311577     -76.9607717
9.034                0.984274478     -77.0779977
9.035                0.984237268     -77.1955125
9.036                0.984199947     -77.3133168
9.037                0.984162514     -77.4314115
9.038                0.984124969     -77.5497976
9.039                0.984087312     -77.6684757
9.04                 0.984049543     -77.7874469
9.041                0.984011662     -77.9067119
9.042                0.983973668     -78.0262717
9.043                0.983935561      -78.146127
9.044                0.983897341     -78.2662788
9.045                0.983859008     -78.3867279
9.046                0.983820561     -78.5074751
9.047                   0.983782     -78.6285214
9.048                0.983743326     -78.7498676
9.049                0.983704537     -78.8715146
9.05                 0.983665634     -78.9934632
9.051                0.983626617     -79.1157144
9.052                0.983587484      -79.238269
9.053                0.983548237     -79.3611279
9.054                0.983508875      -79.484292
9.055                0.983469397     -79.6077622
9.056                0.983429804     -79.7315392
9.057                0.983390095     -79.8556241
9.058                 0.98335027     -79.9800178
9.059                0.983310329      -80.104721
9.06                 0.983270272     -80.2297347
9.061                0.983230098     -80.3550599
9.062                0.983189808     -80.4806973
9.063                0.983149401     -80.6066479
9.064                0.983108877     -80.7329126
9.065                0.983068235     -80.8594922
9.066                0.983027476     -80.9863878
9.067                  0.9829866     -81.1136001
9.068                0.982945606     -81.2411302
9.069                0.982904494     -81.3689788
9.07                 0.982863264     -81.4971469
9.071                0.982821915     -81.6256354
9.072                0.982780448     -81.7544453
9.073                0.982738863     -81.8835774
9.074                0.982697159     -82.0130326
9.075                0.982655336     -82.1428119
9.076                0.982613394     -82.2729162
9.077                0.982571333     -82.4033464
9.078                0.982529152     -82.5341033
9.079                0.982486852     -82.6651881
9.08                 0.982444432     -82.7966014
9.081                0.982401893     -82.9283444
9.082                0.982359233     -83.0604179
9.083                0.982316454     -83.1928227
9.084                0.982273554       -83.32556
9.085                0.982230534     -83.4586305
9.086                0.982187394     -83.5920353
9.087                0.982144133     -83.7257752
9.088                0.982100751     -83.8598511
9.089                0.982057248     -83.9942641
9.09                 0.982013625      -84.129015
9.091                 0.98196988     -84.2641048
9.092                0.981926014     -84.3995344
9.093                0.981882027     -84.5353047
9.094                0.981837919     -84.6714168
9.095                0.981793689     -84.8078715
9.096                0.981749337     -84.9446697
9.097                0.981704864     -85.0818125
9.098                0.981660269     -85.2193007
9.099                0.981615552     -85.3571353
9.1                  0.981570713     -85.4953173
9.101                0.981525752     -85.6338475
9.102                0.981480669      -85.772727
9.103                0.981435463     -85.9119566
9.104                0.981390136     -86.0515374
9.105                0.981344686     -86.1914703
9.106                0.981299114     -86.3317562
9.107                0.981253419     -86.4723961
9.108                0.981207601     -86.6133909
9.109                0.981161661     -86.7547415
9.11                 0.981115599     -86.8964491
9.111                0.981069414     -87.0385143
9.112                0.981023106     -87.1809384
9.113                0.980976675     -87.3237221
9.114                0.980930121     -87.4668665
9.115                0.980883445     -87.6103725
9.116                0.980836646      -87.754241
9.117                0.980789723      -87.898473
9.118                0.980742678     -88.0430696
9.119                 0.98069551     -88.1880315
9.12                  0.98064822     -88.3333598
9.121                0.980600806     -88.4790555
9.122                0.980553269     -88.6251195
9.123                0.980505609     -88.7715527
9.124                0.980457827     -88.9183562
9.125                0.980409922     -89.0655308
9.126                0.980361893     -89.2130775
9.127                0.980313742     -89.3609974
9.128                0.980265468     -89.5092913
9.129                0.980217071     -89.6579602
9.13                 0.980168552      -89.807005
9.131                 0.98011991     -89.9564268
9.132                0.980071145     -90.1062265
9.133                0.980022257      -90.256405
9.134                0.979973247     -90.4069634
9.135                0.979924115     -90.5579025
9.136                 0.97987486     -90.7092233
9.137                0.979825483     -90.8609267
9.138                0.979775984     -91.0130138
9.139                0.979726362     -91.1654855
9.14                 0.979676618     -91.3183428
9.141                0.979626753     -91.4715865
9.142                0.979576765     -91.6252178
9.143                0.979526656     -91.7792374
9.144                0.979476425     -91.9336464
9.145                0.979426073     -92.0884457
9.146                0.979375599     -92.2436363
9.147                0.979325004     -92.3992191
9.148                0.979274288     -92.5551951
9.149                 0.97922345     -92.7115652
9.15                 0.979172493     -92.8683304
9.151                0.979121414     -93.0254916
9.152                0.979070215     -93.1830498
9.153                0.979018895     -93.3410059
9.154                0.978967456     -93.4993609
9.155                0.978915896     -93.6581158
9.156                0.978864217     -93.8172713
9.157                0.978812418     -93.9768286
9.158                  0.9787605     -94.1367885
9.159                0.978708463      -94.297152
9.16                 0.978656306       -94.45792
9.161                0.978604031     -94.6190935
9.162                0.978551638     -94.7806734
9.163                0.978499126     -94.9426606
9.164                0.978446497     -95.1050561
9.165                0.978393749     -95.2678607
9.166                0.978340885     -95.4310755
9.167                0.978287903     -95.5947013
9.168                0.978234804     -95.7587391
9.169                0.978181588     -95.9231898
9.17                 0.978128257     -96.0880543
9.171                0.978074809     -96.2533336
9.172                0.978021245     -96.4190285
9.173                0.977967566       -96.58514
9.174                0.977913772      -96.751669
9.175                0.977859864     -96.9186163
9.176                0.977805841      -97.085983
9.177                0.977751704     -97.2537699
9.178                0.977697453     -97.4219779
9.179                0.977643089      -97.590608
9.18                 0.977588612     -97.7596609
9.181                0.977534022     -97.9291377
9.182                 0.97747932     -98.0990392
9.183                0.977424507     -98.2693663
9.184                0.977369582     -98.4401198
9.185                0.977314547     -98.6113008
9.186                0.977259401       -98.78291
9.187                0.977204144     -98.9549483
9.188                0.977148779     -99.1274166
9.189                0.977093304     -99.3003159
9.19                  0.97703772     -99.4736468
9.191                0.976982028     -99.6474104
9.192                0.976926229     -99.8216075
9.193                0.976870322     -99.9962389
9.194                0.976814309     -100.171306
9.195                 0.97675819     -100.346808
9.196                0.976701964     -100.522748
9.197                0.976645634     -100.699125
9.198                0.976589199     -100.875941
9.199                0.976532661     -101.053196
9.2                  0.976476018     -101.230892
9.201                0.976419273     -101.409029
9.202                0.976362426     -101.587607
9.203                0.976305477     -101.766628
9.204                0.976248426     -101.946093
9.205                0.976191276     -102.126002
9.206                0.976134025     -102.306357
9.207                0.976076676     -102.487157
9.208                0.976019227     -102.668404
9.209                0.975961681     -102.850099
9.21                 0.975904038     -103.032242
9.211                0.975846298     -103.214834
9.212                0.975788463     -103.397876
9.213                0.975730532     -103.581369
9.214                0.975672507     -103.765313
9.215                0.975614388     -103.949709
9.216                0.975556176     -104.134558
9.217                0.975497873     -104.319861
9.218                0.975439477     -104.505619
9.219                0.975380991     -104.691832
9.22                 0.975322416       -104.8785
9.221                0.975263751     -105.065626
9.222                0.975204998     -105.253208
9.223                0.975146158     -105.441249
9.224                0.975087231     -105.629749
9.225                0.975028218     -105.818708
9.226                0.974969121     -106.008127
9.227                 0.97490994     -106.198007
9.228                0.974850675     -106.388349
9.229                0.974791328     -106.579153
9.23                 0.974731901      -106.77042
9.231                0.974672392     -106.962151
9.232                0.974612805     -107.154346
9.233                0.974553139     -107.347006
9.234                0.974493395     -107.540131
9.235                0.974433575     -107.733723
9.236                0.974373679     -107.927781
9.237                0.974313709     -108.122307
9.238                0.974253666     -108.317301
9.239                 0.97419355     -108.512764
9.24                 0.974133362     -108.708696
9.241                0.974073105     -108.905098
9.242                0.974012778      -109.10197
9.243                0.973952382     -109.299313
9.244                 0.97389192     -109.497128
9.245                0.973831392     -109.695415
9.246                0.973770798     -109.894175
9.247                0.973710142     -110.093408
9.248                0.973649422     -110.293114
9.249                0.973588641     -110.493295
9.25                   0.9735278     -110.693951
9.251                  0.9734669     -110.895082
9.252                0.973405942     -111.096689
9.253                0.973344928     -111.298773
9.254                0.973283858     -111.501333
9.255                0.973222734      -111.70437
9.256                0.973161558     -111.907885
9.257                 0.97310033     -112.111878
9.258                0.973039051      -112.31635
9.259                0.972977724     -112.521301
9.26                 0.972916349     -112.726731
9.261                0.972854928     -112.932641
9.262                0.972793463     -113.139031
9.263                0.972731953     -113.345902
9.264                0.972670402     -113.553254
9.265                 0.97260881     -113.761088
9.266                0.972547178     -113.969403
9.267                0.972485509       -114.1782
9.268                0.972423803      -114.38748
9.269                0.972362063     -114.597243
9.27                 0.972300289     -114.807488
9.271                0.972238483     -115.018217
9.272                0.972176646      -115.22943
9.273                0.972114781     -115.441127
9.274                0.972052888     -115.653308
9.275                0.971990969     -115.865973
9.276                0.971929027     -116.079123
9.277                0.971867061     -116.292758
9.278                0.971805075     -116.506878
9.279                0.971743069     -116.721484
9.28                 0.971681045     -116.936575
9.281                0.971619005     -117.152152
9.282                0.971556951     -117.368215
9.283                0.971494884     -117.584764
9.284                0.971432805     -117.801799
9.285                0.971370718     -118.019321
9.286                0.971308623     -118.237329
9.287                0.971246521     -118.455823
9.288                0.971184416     -118.674805
9.289                0.971122308     -118.894273
9.29                   0.9710602     -119.114227
9.291                0.970998093     -119.334669
9.292                0.970935989     -119.555598
9.293                 0.97087389     -119.777013
9.294                0.970811797     -119.998916
9.295                0.970749713     -120.221305
9.296                 0.97068764     -120.444182
9.297                0.970625579     -120.667545
9.298                0.970563533     -120.891395
9.299                0.970501502     -121.115732
9.3                   0.97043949     -121.340555
9.301                0.970377498     -121.565865
9.302                0.970315529     -121.791662
9.303                0.970253583     -122.017945
9.304                0.970191663     -122.244714
9.305                0.970129772     -122.471969
9.306                0.970067911      -122.69971
9.307                0.970006082     -122.927936
9.308                0.969944288     -123.156649
9.309                 0.96988253     -123.385846
9.31                 0.969820811     -123.615528
9.311                0.969759132     -123.845696
9.312                0.969697496     -124.076347
9.313                0.969635905     -124.307483
9.314                0.969574361     -124.539103
9.315                0.969512867     -124.771206
9.316                0.969451424     -125.003793
9.317                0.969390035     -125.236863
9.318                0.969328701     -125.470415
9.319                0.969267426     -125.704449
9.32                 0.969206212     -125.938965
9.321                 0.96914506     -126.173962
9.322                0.969083973      -126.40944
9.323                0.969022953     -126.645398
9.324                0.968962003     -126.881837
9.325                0.968901125     -127.118755
9.326                0.968840321     -127.356152
9.327                0.968779594     -127.594027
9.328                0.968718945      -127.83238
9.329                0.968658378      -128.07121
9.33                 0.968597895     -128.310517
9.331                0.968537498       -128.5503
9.332                 0.96847719     -128.790558
9.333                0.968416973     -129.031292
9.334                0.968356849     -129.272499
9.335                0.968296821      -129.51418
9.336                0.968236892     -129.756333
9.337                0.968177064     -129.998959
9.338                0.968117339     -130.242056
9.339                 0.96805772     -130.485624
9.34                 0.967998209     -130.729661
9.341                 0.96793881     -130.974167
9.342                0.967879524     -131.219141
9.343                0.967820354     -131.464583
9.344                0.967761303     -131.710491
9.345                0.967702373     -131.956865
9.346                0.967643568     -132.203703
9.347                0.967584888     -132.451005
9.348                0.967526338      -132.69877
9.349                 0.96746792     -132.946996
9.35                 0.967409636     -133.195684
9.351                0.967351489     -133.444831
9.352                0.967293482     -133.694437
9.353                0.967235617     -133.944501
9.354                0.967177897     -134.195021
9.355                0.967120325     -134.445998
9.356                0.967062904     -134.697428
9.357                0.967005636     -134.949312
9.358                0.966948524     -135.201649
9.359                 0.96689157     -135.454436
9.36                 0.966834778     -135.707673
9.361                 0.96677815     -135.961359
9.362                0.966721689     -136.215492
9.363                0.966665397     -136.470072
9.364                0.966609279     -136.725096
9.365                0.966553335     -136.980564
9.366                0.966497569     -137.236474
9.367                0.966441984     -137.492825
9.368                0.966386583     -137.749615
9.369                0.966331368     -138.006843
9.37                 0.966276343     -138.264509
9.371                0.966221509     -138.522609
9.372                0.966166871     -138.781143
9.373                 0.96611243      -139.04011
9.374                 0.96605819     -139.299507
9.375                0.966004153     -139.559334
9.376                0.965950323     -139.819589
9.377                0.965896701     -140.080269
9.378                0.965843292     -140.341375
9.379                0.965790097     -140.602903
9.38                  0.96573712     -140.864852
9.381                0.965684364     -141.127221
9.382                0.965631831     -141.390008
9.383                0.965579525     -141.653212
9.384                0.965527447      -141.91683
9.385                0.965475602      -142.18086
9.386                0.965423992     -142.445302
9.387                0.965372619     -142.710153
9.388                0.965321488     -142.975411
9.389                0.965270599     -143.241075
9.39                 0.965219958     -143.507143
9.391                0.965169565     -143.773612
9.392                0.965119425     -144.040481
9.393                 0.96506954     -144.307748
9.394                0.965019914     -144.575411
9.395                0.964970547     -144.843468
9.396                0.964921445     -145.111917
