! TOUCHSTONE file generated by CST DESIGN STUDIO
! Date and time: Tue Feb  4 17:39:24 2025
! Project name: C:\Work\MatlabApps\UnitCellOptimizationMatlab\CST\unitcell.cst
! Tree item: Tasks\Sweep1\SPara1\S-Parameters
! Header version: 2024
! Port assignment regex: !\s*Touchstone port\s*([0-9]+)\s*=\s*(CST MWS port|CST DES external port|CST DES block port)\s*(.+)\s* \(\"(.*)\"\)(\s*mode\s*([0-9]+))?.*
! Touchstone port assignment:
! Touchstone port 1 = CST DES external port 1 ("")
# GHz S MA R 50
9                     0.96171193     -45.6745449
9.001                0.961630809     -45.7300297
9.002                0.961549434     -45.7856235
9.003                0.961467804     -45.8413267
9.004                0.961385919     -45.8971396
9.005                0.961303777     -45.9530625
9.006                0.961221378     -46.0090958
9.007                0.961138721     -46.0652397
9.008                0.961055805     -46.1214946
9.009                 0.96097263     -46.1778609
9.01                 0.960889195     -46.2343389
9.011                0.960805498     -46.2909289
9.012                 0.96072154     -46.3476312
9.013                 0.96063732     -46.4044462
9.014                0.960552836     -46.4613743
9.015                0.960468088     -46.5184157
9.016                0.960383075     -46.5755708
9.017                0.960297797       -46.63284
9.018                0.960212252     -46.6902235
9.019                 0.96012644     -46.7477218
9.02                 0.960040359     -46.8053352
9.021                 0.95995401      -46.863064
9.022                0.959867392     -46.9209086
9.023                0.959780503     -46.9788693
9.024                0.959693342     -47.0369465
9.025                 0.95960591     -47.0951405
9.026                0.959518205     -47.1534517
9.027                0.959430226     -47.2118805
9.028                0.959341972     -47.2704272
9.029                0.959253443     -47.3290921
9.03                 0.959164638     -47.3878756
9.031                0.959075556     -47.4467782
9.032                0.958986196     -47.5058001
9.033                0.958896558     -47.5649416
9.034                 0.95880664     -47.6242033
9.035                0.958716441     -47.6835854
9.036                0.958625962     -47.7430883
9.037                  0.9585352     -47.8027124
9.038                0.958444155      -47.862458
9.039                0.958352827     -47.9223256
9.04                 0.958261214     -47.9823154
9.041                0.958169315     -48.0424279
9.042                 0.95807713     -48.1026635
9.043                0.957984658     -48.1630224
9.044                0.957891897     -48.2235052
9.045                0.957798848     -48.2841122
9.046                0.957705509     -48.3448437
9.047                0.957611879     -48.4057002
9.048                0.957517957      -48.466682
9.049                0.957423742     -48.5277895
9.05                 0.957329235     -48.5890232
9.051                0.957234432     -48.6503833
9.052                0.957139335     -48.7118703
9.053                0.957043941     -48.7734846
9.054                0.956948251     -48.8352266
9.055                0.956852262     -48.8970966
9.056                0.956755974     -48.9590951
9.057                0.956659387     -49.0212225
9.058                0.956562499     -49.0834792
9.059                0.956465309     -49.1458655
9.06                 0.956367816     -49.2083819
9.061                 0.95627002     -49.2710287
9.062                 0.95617192     -49.3338065
9.063                0.956073513     -49.3967155
9.064                0.955974801     -49.4597562
9.065                0.955875781      -49.522929
9.066                0.955776453     -49.5862344
9.067                0.955676816     -49.6496727
9.068                0.955576868     -49.7132443
9.069                0.955476609     -49.7769497
9.07                 0.955376038     -49.8407893
9.071                0.955275154     -49.9047635
9.072                0.955173956     -49.9688727
9.073                0.955072442     -50.0331174
9.074                0.954970613      -50.097498
9.075                0.954868466     -50.1620148
9.076                0.954766002     -50.2266684
9.077                0.954663218     -50.2914592
9.078                0.954560114     -50.3563875
9.079                 0.95445669     -50.4214539
9.08                 0.954352943     -50.4866587
9.081                0.954248873     -50.5520025
9.082                0.954144479     -50.6174855
9.083                0.954039759     -50.6831084
9.084                0.953934714     -50.7488715
9.085                0.953829342     -50.8147752
9.086                0.953723641       -50.88082
9.087                0.953617611     -50.9470064
9.088                 0.95351125     -51.0133348
9.089                0.953404559     -51.0798057
9.09                 0.953297535     -51.1464195
9.091                0.953190177     -51.2131766
9.092                0.953082485     -51.2800775
9.093                0.952974458     -51.3471227
9.094                0.952866094     -51.4143127
9.095                0.952757392     -51.4816478
9.096                0.952648351     -51.5491286
9.097                0.952538971     -51.6167555
9.098                0.952429249      -51.684529
9.099                0.952319186     -51.7524496
9.1                  0.952208779     -51.8205177
9.101                0.952098029     -51.8887337
9.102                0.951986933     -51.9570983
9.103                 0.95187549     -52.0256118
9.104                  0.9517637     -52.0942747
9.105                0.951651562     -52.1630875
9.106                0.951539074     -52.2320507
9.107                0.951426235     -52.3011647
9.108                0.951313043     -52.3704301
9.109                0.951199499     -52.4398474
9.11                 0.951085601     -52.5094169
9.111                0.950971347     -52.5791393
9.112                0.950856737      -52.649015
9.113                0.950741769     -52.7190445
9.114                0.950626442     -52.7892283
9.115                0.950510756     -52.8595668
9.116                0.950394708     -52.9300607
9.117                0.950278298     -53.0007103
9.118                0.950161525     -53.0715163
9.119                0.950044386     -53.1424791
9.12                 0.949926883     -53.2135991
9.121                0.949809012      -53.284877
9.122                0.949690773     -53.3563133
9.123                0.949572164     -53.4279083
9.124                0.949453186     -53.4996627
9.125                0.949333835     -53.5715771
9.126                0.949214112     -53.6436518
9.127                0.949094014     -53.7158874
9.128                0.948973541     -53.7882845
9.129                0.948852691     -53.8608435
9.13                 0.948731464      -53.933565
9.131                0.948609858     -54.0064496
9.132                0.948487871     -54.0794977
9.133                0.948365503     -54.1527099
9.134                0.948242752     -54.2260867
9.135                0.948119618     -54.2996287
9.136                0.947996098     -54.3733364
9.137                0.947872192     -54.4472104
9.138                0.947747898     -54.5212511
9.139                0.947623215     -54.5954592
9.14                 0.947498142     -54.6698352
9.141                0.947372677     -54.7443796
9.142                0.947246819     -54.8190929
9.143                0.947120568     -54.8939759
9.144                0.946993921     -54.9690289
9.145                0.946866878     -55.0442526
9.146                0.946739436     -55.1196475
9.147                0.946611596     -55.1952142
9.148                0.946483355     -55.2709532
9.149                0.946354712     -55.3468652
9.15                 0.946225666     -55.4229506
9.151                0.946096216     -55.4992101
9.152                0.945966359     -55.5756442
9.153                0.945836096     -55.6522536
9.154                0.945705424     -55.7290387
9.155                0.945574343     -55.8060002
9.156                0.945442851     -55.8831387
9.157                0.945310946     -55.9604547
9.158                0.945178627     -56.0379488
9.159                0.945045893     -56.1156216
9.16                 0.944912743     -56.1934738
9.161                0.944779175     -56.2715058
9.162                0.944645187     -56.3497184
9.163                0.944510779     -56.4281121
9.164                0.944375949     -56.5066874
9.165                0.944240696     -56.5854451
9.166                0.944105018     -56.6643857
9.167                0.943968914     -56.7435098
9.168                0.943832383      -56.822818
9.169                0.943695422      -56.902311
9.17                 0.943558031     -56.9819894
9.171                0.943420209     -57.0618537
9.172                0.943281953     -57.1419047
9.173                0.943143263     -57.2221428
9.174                0.943004137     -57.3025688
9.175                0.942864573     -57.3831833
9.176                 0.94272457     -57.4639869
9.177                0.942584128     -57.5449803
9.178                0.942443243      -57.626164
9.179                0.942301916     -57.7075388
9.18                 0.942160143     -57.7891051
9.181                0.942017925     -57.8708638
9.182                0.941875259     -57.9528155
9.183                0.941732144     -58.0349607
9.184                0.941588579     -58.1173002
9.185                0.941444562     -58.1998346
9.186                0.941300091     -58.2825645
9.187                0.941155166     -58.3654906
9.188                0.941009784     -58.4486136
9.189                0.940863944     -58.5319341
9.19                 0.940717644     -58.6154528
9.191                0.940570884     -58.6991704
9.192                0.940423662     -58.7830875
9.193                0.940275975     -58.8672048
9.194                0.940127823     -58.9515231
9.195                0.939979205     -59.0360428
9.196                0.939830117     -59.1207648
9.197                 0.93968056     -59.2056898
9.198                0.939530531     -59.2908183
9.199                0.939380029     -59.3761512
9.2                  0.939229052      -59.461689
9.201                  0.9390776     -59.5474326
9.202                0.938925669     -59.6333825
9.203                0.938773259     -59.7195395
9.204                0.938620369     -59.8059043
9.205                0.938466996     -59.8924776
9.206                0.938313139     -59.9792601
9.207                0.938158796     -60.0662525
9.208                0.938003966     -60.1534555
9.209                0.937848648     -60.2408699
9.21                 0.937692839     -60.3284963
9.211                0.937536538     -60.4163355
9.212                0.937379744     -60.5043882
9.213                0.937222454     -60.5926551
9.214                0.937064668      -60.681137
9.215                0.936906383     -60.7698346
9.216                0.936747599     -60.8587486
9.217                0.936588313     -60.9478798
9.218                0.936428523     -61.0372289
9.219                0.936268229     -61.1267966
9.22                 0.936107428     -61.2165838
9.221                 0.93594612     -61.3065911
9.222                0.935784301     -61.3968193
9.223                0.935621971     -61.4872691
9.224                0.935459128     -61.5779414
9.225                 0.93529577     -61.6688368
9.226                0.935131896     -61.7599562
9.227                0.934967504     -61.8513003
9.228                0.934802592     -61.9428699
9.229                0.934637158     -62.0346657
9.23                 0.934471202     -62.1266885
9.231                0.934304721     -62.2189392
9.232                0.934137713     -62.3114184
9.233                0.933970177      -62.404127
9.234                0.933802112     -62.4970657
9.235                0.933633515     -62.5902355
9.236                0.933464384     -62.6836369
9.237                0.933294719     -62.7772709
9.238                0.933124517     -62.8711382
9.239                0.932953776     -62.9652397
9.24                 0.932782496     -63.0595761
9.241                0.932610674     -63.1541483
9.242                0.932438308      -63.248957
9.243                0.932265397     -63.3440031
9.244                0.932091939     -63.4392875
9.245                0.931917932     -63.5348108
9.246                0.931743375      -63.630574
9.247                0.931568266     -63.7265779
9.248                0.931392602     -63.8228232
9.249                0.931216383     -63.9193109
9.25                 0.931039607     -64.0160418
9.251                0.930862271     -64.1130167
9.252                0.930684374     -64.2102364
9.253                0.930505914     -64.3077019
9.254                 0.93032689     -64.4054139
9.255                  0.9301473     -64.5033733
9.256                0.929967141      -64.601581
9.257                0.929786413     -64.7000378
9.258                0.929605113     -64.7987445
9.259                 0.92942324     -64.8977021
9.26                 0.929240791     -64.9969115
9.261                0.929057765     -65.0963734
9.262                0.928874161     -65.1960888
9.263                0.928689976     -65.2960585
9.264                0.928505208     -65.3962834
9.265                0.928319857     -65.4967644
9.266                0.928133919     -65.5975025
9.267                0.927947393     -65.6984984
9.268                0.927760278     -65.7997531
9.269                0.927572572     -65.9012675
9.27                 0.927384272     -66.0030424
9.271                0.927195377     -66.1050789
9.272                0.927005885     -66.2073777
9.273                0.926815794     -66.3099398
9.274                0.926625103     -66.4127661
9.275                 0.92643381     -66.5158576
9.276                0.926241912     -66.6192152
9.277                0.926049408     -66.7228397
9.278                0.925856296     -66.8267321
9.279                0.925662575     -66.9308933
9.28                 0.925468242     -67.0353244
9.281                0.925273295     -67.1400261
9.282                0.925077734     -67.2449995
9.283                0.924881555     -67.3502455
9.284                0.924684757     -67.4557651
9.285                0.924487339     -67.5615591
9.286                0.924289297     -67.6676286
9.287                0.924090632     -67.7739745
9.288                 0.92389134     -67.8805978
9.289                0.923691419     -67.9874994
9.29                 0.923490869     -68.0946803
9.291                0.923289687     -68.2021416
9.292                 0.92308787      -68.309884
9.293                0.922885419     -68.4179087
9.294                0.922682329     -68.5262167
9.295                0.922478601     -68.6348088
9.296                0.922274231     -68.7436861
9.297                0.922069218     -68.8528497
9.298                 0.92186356     -68.9623004
9.299                0.921657256     -69.0720393
9.3                  0.921450302     -69.1820674
9.301                0.921242698     -69.2923856
9.302                0.921034442     -69.4029951
9.303                0.920825531     -69.5138969
9.304                0.920615965     -69.6250918
9.305                 0.92040574     -69.7365811
9.306                0.920194855     -69.8483656
9.307                0.919983309     -69.9604464
9.308                0.919771099     -70.0728246
9.309                0.919558224     -70.1855012
9.31                 0.919344681     -70.2984772
9.311                0.919130469     -70.4117537
9.312                0.918915586     -70.5253317
9.313                0.918700031     -70.6392123
9.314                  0.9184838     -70.7533965
9.315                0.918266893     -70.8678854
9.316                0.918049308       -70.98268
9.317                0.917831042     -71.0977815
9.318                0.917612094     -71.2131908
9.319                0.917392462      -71.328909
9.32                 0.917172144     -71.4449373
9.321                0.916951138     -71.5612767
9.322                0.916729443     -71.6779283
9.323                0.916507057     -71.7948932
9.324                0.916283977     -71.9121724
9.325                0.916060202      -72.029767
9.326                0.915835731     -72.1476783
9.327                 0.91561056     -72.2659072
9.328                0.915384689     -72.3844548
9.329                0.915158116     -72.5033224
9.33                 0.914930839     -72.6225109
9.331                0.914702855     -72.7420215
9.332                0.914474164     -72.8618554
9.333                0.914244763     -72.9820136
9.334                 0.91401465     -73.1024972
9.335                0.913783825     -73.2233075
9.336                0.913552284     -73.3444455
9.337                0.913320027     -73.4659124
9.338                0.913087051     -73.5877093
9.339                0.912853354     -73.7098373
9.34                 0.912618936     -73.8322977
9.341                0.912383793     -73.9550915
9.342                0.912147925       -74.07822
9.343                0.911911329     -74.2016842
9.344                0.911674004     -74.3254854
9.345                0.911435948     -74.4496247
9.346                0.911197159     -74.5741033
9.347                0.910957636     -74.6989224
9.348                0.910717377      -74.824083
9.349                0.910476379     -74.9495866
9.35                 0.910234642     -75.0754341
9.351                0.909992164     -75.2016268
9.352                0.909748943     -75.3281659
9.353                0.909504977     -75.4550526
9.354                0.909260264     -75.5822881
9.355                0.909014804     -75.7098736
9.356                0.908768593     -75.8378102
9.357                0.908521631     -75.9660993
9.358                0.908273916      -76.094742
9.359                0.908025447     -76.2237396
9.36                 0.907776221     -76.3530932
9.361                0.907526237     -76.4828041
9.362                0.907275493     -76.6128736
9.363                0.907023988     -76.7433028
9.364                 0.90677172      -76.874093
9.365                0.906518688     -77.0052454
9.366                 0.90626489     -77.1367614
9.367                0.906010324      -77.268642
9.368                0.905754989     -77.4008886
9.369                0.905498883     -77.5335025
9.37                 0.905242005     -77.6664848
9.371                0.904984354      -77.799837
9.372                0.904725927     -77.9335601
9.373                0.904466723     -78.0676555
9.374                0.904206741     -78.2021245
9.375                 0.90394598     -78.3369683
9.376                0.903684437     -78.4721882
9.377                0.903422112     -78.6077855
9.378                0.903159003     -78.7437616
9.379                0.902895108     -78.8801176
9.38                 0.902630426     -79.0168548
9.381                0.902364956     -79.1539747
9.382                0.902098697     -79.2914784
9.383                0.901831646     -79.4293673
9.384                0.901563804     -79.5676426
9.385                0.901295167     -79.7063058
9.386                0.901025736      -79.845358
9.387                0.900755508     -79.9848007
9.388                0.900484482     -80.1246351
9.389                0.900212658     -80.2648626
9.39                 0.899940034     -80.4054845
9.391                0.899666609     -80.5465021
9.392                0.899392381     -80.6879168
9.393                0.899117349     -80.8297299
9.394                0.898841512     -80.9719427
9.395                 0.89856487     -81.1145566
9.396                 0.89828742     -81.2575729
