! TOUCHSTONE file generated by CST DESIGN STUDIO
! Date and time: Tue Feb  4 17:39:17 2025
! Project name: C:\Work\MatlabApps\UnitCellOptimizationMatlab\CST\unitcell.cst
! Tree item: Tasks\Sweep1\SPara1\S-Parameters
! Header version: 2024
! Port assignment regex: !\s*Touchstone port\s*([0-9]+)\s*=\s*(CST MWS port|CST DES external port|CST DES block port)\s*(.+)\s* \(\"(.*)\"\)(\s*mode\s*([0-9]+))?.*
! Touchstone port assignment:
! Touchstone port 1 = CST DES external port 1 ("")
# GHz S MA R 50
9                    0.925026493     -67.5473296
9.001                0.924814876     -67.6531992
9.002                0.924602468     -67.7593483
9.003                0.924389266      -67.865778
9.004                0.924175266     -67.9724891
9.005                0.923960466     -68.0794828
9.006                0.923744864     -68.1867599
9.007                0.923528458     -68.2943215
9.008                0.923311243     -68.4021685
9.009                0.923093219      -68.510302
9.01                 0.922874382     -68.6187229
9.011                0.922654729     -68.7274322
9.012                0.922434259      -68.836431
9.013                0.922212968     -68.9457203
9.014                0.921990853      -69.055301
9.015                0.921767913     -69.1651742
9.016                0.921544144     -69.2753409
9.017                0.921319545     -69.3858021
9.018                0.921094111     -69.4965588
9.019                0.920867841     -69.6076122
9.02                 0.920640732     -69.7189632
9.021                0.920412782     -69.8306128
9.022                0.920183987     -69.9425621
9.023                0.919954345     -70.0548122
9.024                0.919723854     -70.1673641
9.025                 0.91949251     -70.2802188
9.026                0.919260312     -70.3933774
9.027                0.919027256      -70.506841
9.028                 0.91879334     -70.6206106
9.029                0.918558562     -70.7346873
9.03                 0.918322918     -70.8490721
9.031                0.918086406     -70.9637663
9.032                0.917849023     -71.0787707
9.033                0.917610767     -71.1940866
9.034                0.917371635     -71.3097149
9.035                0.917131624     -71.4256569
9.036                0.916890732     -71.5419135
9.037                0.916648957     -71.6584859
9.038                0.916406294     -71.7753752
9.039                0.916162743     -71.8925825
9.04                   0.9159183     -72.0101088
9.041                0.915672962     -72.1279554
9.042                0.915426728     -72.2461234
9.043                0.915179593     -72.3646138
9.044                0.914931557     -72.4834278
9.045                0.914682615     -72.6025664
9.046                0.914432766      -72.722031
9.047                0.914182006     -72.8418225
9.048                0.913930334     -72.9619422
9.049                0.913677747     -73.0823911
9.05                 0.913424241     -73.2031705
9.051                0.913169815     -73.3242814
9.052                0.912914465      -73.445725
9.053                 0.91265819     -73.5675026
9.054                0.912400986     -73.6896152
9.055                0.912142851     -73.8120641
9.056                0.911883783     -73.9348503
9.057                0.911623778     -74.0579751
9.058                0.911362835     -74.1814397
9.059                 0.91110095     -74.3052453
9.06                 0.910838121     -74.4293929
9.061                0.910574346     -74.5538839
9.062                0.910309621     -74.6787194
9.063                0.910043945     -74.8039007
9.064                0.909777315     -74.9294288
9.065                0.909509728     -75.0553051
9.066                0.909241182     -75.1815308
9.067                0.908971674      -75.308107
9.068                0.908701201      -75.435035
9.069                0.908429762      -75.562316
9.07                 0.908157353     -75.6899513
9.071                0.907883973      -75.817942
9.072                0.907609618     -75.9462895
9.073                0.907334287     -76.0749949
9.074                0.907057976     -76.2040594
9.075                0.906780683     -76.3334844
9.076                0.906502406     -76.4632712
9.077                0.906223143     -76.5934208
9.078                 0.90594289     -76.7239347
9.079                0.905661646      -76.854814
9.08                 0.905379408     -76.9860601
9.081                0.905096173     -77.1176741
9.082                 0.90481194     -77.2496575
9.083                0.904526705     -77.3820114
9.084                0.904240467     -77.5147372
9.085                0.903953223     -77.6478361
9.086                0.903664971     -77.7813095
9.087                0.903375708     -77.9151585
9.088                0.903085432     -78.0493846
9.089                0.902794141      -78.183989
9.09                 0.902501833     -78.3189731
9.091                0.902208504      -78.454338
9.092                0.901914154     -78.5900853
9.093                0.901618779     -78.7262161
9.094                0.901322377     -78.8627318
9.095                0.901024947     -78.9996337
9.096                0.900726485     -79.1369231
9.097                 0.90042699     -79.2746015
9.098                 0.90012646     -79.4126701
9.099                0.899824892     -79.5511302
9.1                  0.899522284     -79.6899833
9.101                0.899218634     -79.8292306
9.102                 0.89891394     -79.9688735
9.103                  0.8986082     -80.1089134
9.104                0.898301412     -80.2493516
9.105                0.897993573     -80.3901895
9.106                0.897684682     -80.5314284
9.107                0.897374737     -80.6730698
9.108                0.897063735      -80.815115
9.109                0.896751675     -80.9575654
9.11                 0.896438554     -81.1004223
9.111                0.896124371     -81.2436872
9.112                0.895809124     -81.3873614
9.113                0.895492811     -81.5314464
9.114                0.895175429     -81.6759435
9.115                0.894856978     -81.8208541
9.116                0.894537455     -81.9661797
9.117                0.894216858     -82.1119216
9.118                0.893895187     -82.2580812
9.119                0.893572438       -82.40466
9.12                  0.89324861     -82.5516595
9.121                0.892923701     -82.6990809
9.122                0.892597711     -82.8469257
9.123                0.892270636     -82.9951955
9.124                0.891942476     -83.1438915
9.125                0.891613229     -83.2930152
9.126                0.891282893     -83.4425681
9.127                0.890951466     -83.5925517
9.128                0.890618948     -83.7429672
9.129                0.890285336     -83.8938163
9.13                  0.88995063     -84.0451004
9.131                0.889614827     -84.1968208
9.132                0.889277927     -84.3489791
9.133                0.888939928     -84.5015768
9.134                0.888600828     -84.6546152
9.135                0.888260627      -84.808096
9.136                0.887919323     -84.9620204
9.137                0.887576914     -85.1163901
9.138                  0.8872334     -85.2712064
9.139                0.886888779      -85.426471
9.14                 0.886543051     -85.5821851
9.141                0.886196214     -85.7383504
9.142                0.885848267     -85.8949684
9.143                0.885499209     -86.0520404
9.144                0.885149039     -86.2095681
9.145                0.884797756     -86.3675529
9.146                0.884445359     -86.5259963
9.147                0.884091848     -86.6848998
9.148                0.883737221     -86.8442649
9.149                0.883381477     -87.0040932
9.15                 0.883024617     -87.1643861
9.151                0.882666638     -87.3251451
9.152                0.882307541     -87.4863718
9.153                0.881947325     -87.6480678
9.154                0.881585989     -87.8102344
9.155                0.881223533     -87.9728732
9.156                0.880859956     -88.1359858
9.157                0.880495258     -88.2995738
9.158                0.880129438     -88.4636385
9.159                0.879762496     -88.6281815
9.16                 0.879394431     -88.7932045
9.161                0.879025244     -88.9587089
9.162                0.878654935     -89.1246962
9.163                0.878283502     -89.2911681
9.164                0.877910946      -89.458126
9.165                0.877537266     -89.6255715
9.166                0.877162464     -89.7935061
9.167                0.876786538     -89.9619315
9.168                 0.87640949      -90.130849
9.169                0.876031318     -90.3002604
9.17                 0.875652023     -90.4701671
9.171                0.875271606     -90.6405707
9.172                0.874890067     -90.8114728
9.173                0.874507406     -90.9828748
9.174                0.874123624     -91.1547785
9.175                 0.87373872     -91.3271853
9.176                0.873352696     -91.5000968
9.177                0.872965553     -91.6735146
9.178                 0.87257729     -91.8474401
9.179                0.872187909     -92.0218751
9.18                  0.87179741     -92.1968211
9.181                0.871405794     -92.3722796
9.182                0.871013062     -92.5482522
9.183                0.870619216     -92.7247404
9.184                0.870224256     -92.9017459
9.185                0.869828182     -93.0792702
9.186                0.869430998     -93.2573149
9.187                0.869032702     -93.4358815
9.188                0.868633298     -93.6149717
9.189                0.868232786      -93.794587
9.19                 0.867831168     -93.9747289
9.191                0.867428446     -94.1553991
9.192                 0.86702462     -94.3365991
9.193                0.866619692     -94.5183305
9.194                0.866213665     -94.7005948
9.195                0.865806541     -94.8833937
9.196                 0.86539832     -95.0667288
9.197                0.864989005     -95.2506014
9.198                0.864578598     -95.4350134
9.199                0.864167101     -95.6199662
9.2                  0.863754517     -95.8054613
9.201                0.863340847     -95.9915005
9.202                0.862926094     -96.1780851
9.203                0.862510261     -96.3652169
9.204                 0.86209335     -96.5528973
9.205                0.861675363      -96.741128
9.206                0.861256304     -96.9299105
9.207                0.860836174     -97.1192463
9.208                0.860414978     -97.3091371
9.209                0.859992717     -97.4995844
9.21                 0.859569396     -97.6905897
9.211                0.859145016     -97.8821546
9.212                0.858719582     -98.0742806
9.213                0.858293097     -98.2669694
9.214                0.857865563     -98.4602225
9.215                0.857436985     -98.6540413
9.216                0.857007366     -98.8484275
9.217                 0.85657671     -99.0433826
9.218                0.856145021     -99.2389081
9.219                0.855712302     -99.4350056
9.22                 0.855278557     -99.6316767
9.221                0.854843791     -99.8289228
9.222                0.854408008     -100.026745
9.223                0.853971212     -100.225146
9.224                0.853533407     -100.424127
9.225                0.853094599     -100.623688
9.226                 0.85265479     -100.823832
9.227                0.852213987     -101.024561
9.228                0.851772194     -101.225875
9.229                0.851329416     -101.427776
9.23                 0.850885658     -101.630266
9.231                0.850440925     -101.833346
9.232                0.849995222     -102.037018
9.233                0.849548555     -102.241282
9.234                0.849100929     -102.446142
9.235                 0.84865235     -102.651598
9.236                0.848202823     -102.857651
9.237                0.847752354     -103.064303
9.238                 0.84730095     -103.271556
9.239                0.846848615      -103.47941
9.24                 0.846395357     -103.687869
9.241                0.845941181     -103.896932
9.242                0.845486095     -104.106601
9.243                0.845030104     -104.316878
9.244                0.844573215     -104.527764
9.245                0.844115435     -104.739261
9.246                 0.84365677     -104.951369
9.247                0.843197229     -105.164091
9.248                0.842736817     -105.377428
9.249                0.842275543     -105.591381
9.25                 0.841813413     -105.805951
9.251                0.841350435     -106.021141
9.252                0.840886617      -106.23695
9.253                0.840421966     -106.453382
9.254                0.839956491     -106.670436
9.255                  0.8394902     -106.888115
9.256                  0.8390231     -107.106419
9.257                  0.8385552      -107.32535
9.258                0.838086508      -107.54491
9.259                0.837617033     -107.765099
9.26                 0.837146784     -107.985919
9.261                 0.83667577     -108.207371
9.262                0.836203999     -108.429457
9.263                0.835731481     -108.652177
9.264                0.835258225     -108.875533
9.265                 0.83478424     -109.099527
9.266                0.834309537     -109.324159
9.267                0.833834124      -109.54943
9.268                0.833358011     -109.775343
9.269                0.832881209     -110.001898
9.27                 0.832403728     -110.229096
9.271                0.831925578     -110.456938
9.272                0.831446769     -110.685426
9.273                0.830967312     -110.914561
9.274                0.830487218     -111.144343
9.275                0.830006498     -111.374775
9.276                0.829525162     -111.605857
9.277                0.829043222      -111.83759
9.278                 0.82856069     -112.069975
9.279                0.828077576     -112.303014
9.28                 0.827593892     -112.536708
9.281                0.827109651     -112.771056
9.282                0.826624864     -113.006062
9.283                0.826139543     -113.241725
9.284                  0.8256537     -113.478046
9.285                0.825167349     -113.715027
9.286                0.824680501     -113.952669
9.287                 0.82419317     -114.190971
9.288                0.823705367     -114.429937
9.289                0.823217107     -114.669565
9.29                 0.822728403     -114.909858
9.291                0.822239267     -115.150816
9.292                0.821749714      -115.39244
9.293                0.821259757     -115.634731
9.294                 0.82076941     -115.877689
9.295                0.820278688     -116.121316
9.296                0.819787603     -116.365612
9.297                0.819296172     -116.610579
9.298                0.818804407     -116.856216
9.299                0.818312325     -117.102524
9.3                  0.817819939     -117.349505
9.301                0.817327265     -117.597159
9.302                0.816834318     -117.845487
9.303                0.816341114     -118.094488
9.304                0.815847667     -118.344165
9.305                0.815353994     -118.594518
9.306                0.814860111     -118.845546
9.307                0.814366033     -119.097251
9.308                0.813871777     -119.349634
9.309                0.813377359     -119.602694
9.31                 0.812882795     -119.856433
9.311                0.812388103     -120.110851
9.312                0.811893299     -120.365948
9.313                0.811398401     -120.621724
9.314                0.810903425     -120.878181
9.315                0.810408388     -121.135318
9.316                0.809913309     -121.393137
9.317                0.809418205     -121.651636
9.318                0.808923094     -121.910817
9.319                0.808427994      -122.17068
9.32                 0.807932924     -122.431225
9.321                  0.8074379     -122.692453
9.322                0.806942943     -122.954363
9.323                0.806448071     -123.216956
9.324                0.805953303     -123.480232
9.325                0.805458657     -123.744191
9.326                0.804964153     -124.008833
9.327                0.804469811     -124.274158
9.328                 0.80397565     -124.540167
9.329                0.803481689     -124.806858
9.33                 0.802987949     -125.074234
9.331                0.802494449     -125.342292
9.332                 0.80200121     -125.611034
9.333                0.801508252     -125.880459
9.334                0.801015595     -126.150567
9.335                0.800523261     -126.421358
9.336                 0.80003127     -126.692831
9.337                0.799539643     -126.964987
9.338                0.799048401     -127.237825
9.339                0.798557566     -127.511344
9.34                 0.798067159     -127.785546
9.341                0.797577201     -128.060428
9.342                0.797087715     -128.335992
9.343                0.796598722     -128.612236
9.344                0.796110245      -128.88916
9.345                0.795622305     -129.166763
9.346                0.795134926     -129.445045
9.347                0.794648128     -129.724006
9.348                0.794161936     -130.003645
9.349                0.793676373      -130.28396
9.35                  0.79319146     -130.564953
9.351                0.792707221     -130.846621
9.352                 0.79222368     -131.128964
9.353                0.791740859     -131.411982
9.354                0.791258783     -131.695673
9.355                0.790777475     -131.980037
9.356                0.790296958     -132.265073
9.357                0.789817257      -132.55078
9.358                0.789338396     -132.837156
9.359                0.788860399     -133.124202
9.36                  0.78838329     -133.411915
9.361                0.787907093     -133.700296
9.362                0.787431834     -133.989342
9.363                0.786957537     -134.279053
9.364                0.786484227     -134.569427
9.365                0.786011928     -134.860463
9.366                0.785540666      -135.15216
9.367                0.785070466     -135.444517
9.368                0.784601353     -135.737532
9.369                0.784133353     -136.031204
9.37                  0.78366649     -136.325531
9.371                0.783200791     -136.620512
9.372                0.782736282     -136.916146
9.373                0.782272987      -137.21243
9.374                0.781810934     -137.509363
9.375                0.781350147     -137.806944
9.376                0.780890654     -138.105171
9.377                0.780432479     -138.404042
9.378                 0.77997565     -138.703555
9.379                0.779520192     -139.003709
9.38                 0.779066133     -139.304502
9.381                0.778613498     -139.605931
9.382                0.778162314     -139.907994
9.383                0.777712608     -140.210691
9.384                0.777264407     -140.514018
9.385                0.776817736     -140.817974
9.386                0.776372624     -141.122556
9.387                0.775929096     -141.427762
9.388                0.775487181      -141.73359
9.389                0.775046904     -142.040038
9.39                 0.774608292     -142.347104
9.391                0.774171374     -142.654784
9.392                0.773736176     -142.963077
9.393                0.773302724     -143.271979
9.394                0.772871048      -143.58149
9.395                0.772441172     -143.891605
9.396                0.772013125     -144.202323
