! TOUCHSTONE file generated by CST DESIGN STUDIO
! Date and time: Tue Feb  4 17:39:18 2025
! Project name: C:\Work\MatlabApps\UnitCellOptimizationMatlab\CST\unitcell.cst
! Tree item: Tasks\Sweep1\SPara1\S-Parameters
! Header version: 2024
! Port assignment regex: !\s*Touchstone port\s*([0-9]+)\s*=\s*(CST MWS port|CST DES external port|CST DES block port)\s*(.+)\s* \(\"(.*)\"\)(\s*mode\s*([0-9]+))?.*
! Touchstone port assignment:
! Touchstone port 1 = CST DES external port 1 ("")
# GHz S MA R 50
9                    0.937117873     -60.8166424
9.001                 0.93695081     -60.9051024
9.002                0.936783149     -60.9937783
9.003                0.936614888     -61.0826706
9.004                0.936446023     -61.1717801
9.005                0.936276553     -61.2611075
9.006                0.936106477     -61.3506537
9.007                0.935935791     -61.4404193
9.008                0.935764495     -61.5304051
9.009                0.935592585     -61.6206119
9.01                 0.935420061     -61.7110404
9.011                0.935246919     -61.8016913
9.012                0.935073158     -61.8925655
9.013                0.934898777     -61.9836636
9.014                0.934723771     -62.0749866
9.015                0.934548141      -62.166535
9.016                0.934371883     -62.2583098
9.017                0.934194996     -62.3503116
9.018                0.934017477     -62.4425413
9.019                0.933839325     -62.5349997
9.02                 0.933660536     -62.6276874
9.021                 0.93348111     -62.7206054
9.022                0.933301045     -62.8137544
9.023                0.933120337     -62.9071352
9.024                0.932938984     -63.0007487
9.025                0.932756986     -63.0945955
9.026                0.932574339     -63.1886765
9.027                0.932391042     -63.2829925
9.028                0.932207092     -63.3775444
9.029                0.932022487     -63.4723329
9.03                 0.931837225     -63.5673588
9.031                0.931651304     -63.6626231
9.032                0.931464722     -63.7581264
9.033                0.931277476     -63.8538696
9.034                0.931089565     -63.9498536
9.035                0.930900986     -64.0460792
9.036                0.930711737     -64.1425472
9.037                0.930521816     -64.2392585
9.038                 0.93033122     -64.3362138
9.039                0.930139948     -64.4334141
9.04                 0.929947998     -64.5308602
9.041                0.929755366     -64.6285529
9.042                0.929562051     -64.7264931
9.043                0.929368051     -64.8246817
9.044                0.929173364     -64.9231195
9.045                0.928977986     -65.0218074
9.046                0.928781917     -65.1207462
9.047                0.928585153     -65.2199368
9.048                0.928387693     -65.3193801
9.049                0.928189534      -65.419077
9.05                 0.927990675     -65.5190284
9.051                0.927791112      -65.619235
9.052                0.927590844     -65.7196979
9.053                0.927389868     -65.8204179
9.054                0.927188182     -65.9213959
9.055                0.926985783     -66.0226328
9.056                0.926782671     -66.1241296
9.057                0.926578841      -66.225887
9.058                0.926374293      -66.327906
9.059                0.926169023     -66.4301876
9.06                  0.92596303     -66.5327326
9.061                0.925756311     -66.6355419
9.062                0.925548863     -66.7386165
9.063                0.925340686     -66.8419574
9.064                0.925131775     -66.9455653
9.065                 0.92492213     -67.0494413
9.066                0.924711747     -67.1535864
9.067                0.924500624     -67.2580013
9.068                 0.92428876     -67.3626871
9.069                0.924076151     -67.4676448
9.07                 0.923862796     -67.5728752
9.071                0.923648691     -67.6783793
9.072                0.923433836     -67.7841581
9.073                0.923218227     -67.8902126
9.074                0.923001862     -67.9965436
9.075                0.922784739     -68.1031522
9.076                0.922566855     -68.2100394
9.077                0.922348209     -68.3172061
9.078                0.922128797     -68.4246532
9.079                0.921908618     -68.5323818
9.08                 0.921687669     -68.6403929
9.081                0.921465948     -68.7486874
9.082                0.921243452     -68.8572663
9.083                0.921020179     -68.9661306
9.084                0.920796127     -69.0752814
9.085                0.920571294     -69.1847196
9.086                0.920345676     -69.2944462
9.087                0.920119272     -69.4044623
9.088                 0.91989208     -69.5147688
9.089                0.919664096     -69.6253668
9.09                 0.919435319     -69.7362573
9.091                0.919205747     -69.8474413
9.092                0.918975376     -69.9589198
9.093                0.918744205     -70.0706939
9.094                0.918512231     -70.1827646
9.095                0.918279452      -70.295133
9.096                0.918045865        -70.4078
9.097                0.917811469     -70.5207668
9.098                 0.91757626     -70.6340343
9.099                0.917340237     -70.7476037
9.1                  0.917103396      -70.861476
9.101                0.916865737     -70.9756523
9.102                0.916627256     -71.0901335
9.103                0.916387951     -71.2049209
9.104                0.916147819     -71.3200154
9.105                0.915906859     -71.4354182
9.106                0.915665067     -71.5511302
9.107                0.915422442     -71.6671527
9.108                0.915178982     -71.7834866
9.109                0.914934683     -71.9001332
9.11                 0.914689543     -72.0170934
9.111                0.914443561     -72.1343683
9.112                0.914196734     -72.2519592
9.113                0.913949059      -72.369867
9.114                0.913700534     -72.4880929
9.115                0.913451157      -72.606638
9.116                0.913200926     -72.7255035
9.117                0.912949837     -72.8446903
9.118                 0.91269789     -72.9641998
9.119                0.912445081     -73.0840329
9.12                 0.912191407     -73.2041909
9.121                0.911936868     -73.3246748
9.122                 0.91168146     -73.4454858
9.123                0.911425182     -73.5666251
9.124                 0.91116803     -73.6880938
9.125                0.910910003      -73.809893
9.126                0.910651098     -73.9320239
9.127                0.910391313     -74.0544877
9.128                0.910130646     -74.1772855
9.129                0.909869094     -74.3004185
9.13                 0.909606655     -74.4238879
9.131                0.909343327     -74.5476948
9.132                0.909079107     -74.6718404
9.133                0.908813994      -74.796326
9.134                0.908547985     -74.9211526
9.135                0.908281078     -75.0463215
9.136                 0.90801327     -75.1718338
9.137                0.907744559     -75.2976909
9.138                0.907474944     -75.4238938
9.139                0.907204421     -75.5504438
9.14                 0.906932989     -75.6773421
9.141                0.906660645     -75.8045898
9.142                0.906387388     -75.9321883
9.143                0.906113214     -76.0601388
9.144                0.905838122     -76.1884424
9.145                 0.90556211     -76.3171003
9.146                0.905285176      -76.446114
9.147                0.905007316     -76.5754844
9.148                 0.90472853      -76.705213
9.149                0.904448815     -76.8353009
9.15                 0.904168169     -76.9657494
9.151                0.903886589     -77.0965598
9.152                0.903604074     -77.2277332
9.153                0.903320622      -77.359271
9.154                 0.90303623     -77.4911745
9.155                0.902750897     -77.6234448
9.156                 0.90246462     -77.7560833
9.157                0.902177397     -77.8890912
9.158                0.901889226     -78.0224698
9.159                0.901600106     -78.1562205
9.16                 0.901310033     -78.2903444
9.161                0.901019007     -78.4248429
9.162                0.900727025     -78.5597172
9.163                0.900434086     -78.6949687
9.164                0.900140186     -78.8305987
9.165                0.899845325     -78.9666084
9.166                  0.8995495     -79.1029992
9.167                 0.89925271     -79.2397724
9.168                0.898954952     -79.3769293
9.169                0.898656224     -79.5144712
9.17                 0.898356526     -79.6523995
9.171                0.898055855     -79.7907154
9.172                0.897754208     -79.9294204
9.173                0.897451585     -80.0685157
9.174                0.897147983     -80.2080026
9.175                0.896843401     -80.3478826
9.176                0.896537837     -80.4881569
9.177                0.896231289     -80.6288269
9.178                0.895923755      -80.769894
9.179                0.895615235     -80.9113596
9.18                 0.895305725     -81.0532249
9.181                0.894995224     -81.1954913
9.182                0.894683732     -81.3381602
9.183                0.894371245      -81.481233
9.184                0.894057763     -81.6247111
9.185                0.893743283     -81.7685958
9.186                0.893427805     -81.9128885
9.187                0.893111327     -82.0575906
9.188                0.892793847     -82.2027035
9.189                0.892475363     -82.3482285
9.19                 0.892155875     -82.4941671
9.191                0.891835381     -82.6405207
9.192                0.891513879     -82.7872906
9.193                0.891191368     -82.9344783
9.194                0.890867847     -83.0820852
9.195                0.890543314     -83.2301127
9.196                0.890217768     -83.3785621
9.197                0.889891208      -83.527435
9.198                0.889563632     -83.6767327
9.199                0.889235039     -83.8264567
9.2                  0.888905428     -83.9766083
9.201                0.888574798     -84.1271891
9.202                0.888243148     -84.2782004
9.203                0.887910476     -84.4296438
9.204                0.887576781     -84.5815205
9.205                0.887242063     -84.7338321
9.206                 0.88690632       -84.88658
9.207                0.886569551     -85.0397657
9.208                0.886231756     -85.1933906
9.209                0.885892933     -85.3474562
9.21                 0.885553082     -85.5019639
9.211                0.885212201     -85.6569151
9.212                 0.88487029     -85.8123115
9.213                0.884527348     -85.9681543
9.214                0.884183374     -86.1244451
9.215                0.883838368     -86.2811854
9.216                0.883492329     -86.4383766
9.217                0.883145255     -86.5960202
9.218                0.882797148     -86.7541177
9.219                0.882448005     -86.9126705
9.22                 0.882097827     -87.0716802
9.221                0.881746612     -87.2311482
9.222                0.881394362     -87.3910761
9.223                0.881041074     -87.5514652
9.224                0.880686749     -87.7123172
9.225                0.880331386     -87.8736335
9.226                0.879974985     -88.0354156
9.227                0.879617547     -88.1976649
9.228                 0.87925907     -88.3603831
9.229                0.878899554     -88.5235716
9.23                    0.878539     -88.6872319
9.231                0.878177406     -88.8513655
9.232                0.877814775      -89.015974
9.233                0.877451104     -89.1810588
9.234                0.877086395     -89.3466215
9.235                0.876720647     -89.5126636
9.236                0.876353861     -89.6791866
9.237                0.875986037      -89.846192
9.238                0.875617175     -90.0136813
9.239                0.875247275     -90.1816561
9.24                 0.874876339     -90.3501179
9.241                0.874504365     -90.5190682
9.242                0.874131355     -90.6885085
9.243                 0.87375731     -90.8584405
9.244                0.873382229     -91.0288655
9.245                0.873006114     -91.1997852
9.246                0.872628965      -91.371201
9.247                0.872250783     -91.5431146
9.248                0.871871568     -91.7155273
9.249                0.871491322     -91.8884409
9.25                 0.871110046     -92.0618568
9.251                 0.87072774     -92.2357765
9.252                0.870344406     -92.4102016
9.253                0.869960045     -92.5851337
9.254                0.869574657     -92.7605742
9.255                0.869188244     -92.9365248
9.256                0.868800808     -93.1129869
9.257                 0.86841235     -93.2899621
9.258                0.868022871     -93.4674519
9.259                0.867632372     -93.6454579
9.26                 0.867240855     -93.8239817
9.261                0.866848323     -94.0030247
9.262                0.866454776     -94.1825885
9.263                0.866060216     -94.3626747
9.264                0.865664645     -94.5432848
9.265                0.865268066     -94.7244203
9.266                0.864870479     -94.9060828
9.267                0.864471887     -95.0882738
9.268                0.864072293     -95.2709949
9.269                0.863671698     -95.4542476
9.27                 0.863270104     -95.6380334
9.271                0.862867515     -95.8223539
9.272                0.862463932     -96.0072107
9.273                0.862059357     -96.1926052
9.274                0.861653794      -96.378539
9.275                0.861247246     -96.5650136
9.276                0.860839714     -96.7520306
9.277                0.860431202     -96.9395915
9.278                0.860021712     -97.1276979
9.279                0.859611248     -97.3163512
9.28                 0.859199812      -97.505553
9.281                0.858787408     -97.6953048
9.282                0.858374039     -97.8856081
9.283                0.857959709     -98.0764645
9.284                 0.85754442     -98.2678755
9.285                0.857128176     -98.4598426
9.286                0.856710981     -98.6523673
9.287                0.856292838     -98.8454512
9.288                0.855873751     -99.0390957
9.289                0.855453725     -99.2333023
9.29                 0.855032762     -99.4280726
9.291                0.854610868      -99.623408
9.292                0.854188045     -99.8193101
9.293                0.853764299      -100.01578
9.294                0.853339634      -100.21282
9.295                0.852914054     -100.410431
9.296                0.852487563     -100.608615
9.297                0.852060166     -100.807373
9.298                0.851631869     -101.006706
9.299                0.851202675     -101.206616
9.3                   0.85077259     -101.407105
9.301                0.850341618     -101.608174
9.302                0.849909766     -101.809825
9.303                0.849477037     -102.012058
9.304                0.849043438     -102.214875
9.305                0.848608973     -102.418279
9.306                0.848173649      -102.62227
9.307                0.847737471     -102.826849
9.308                0.847300444     -103.032018
9.309                0.846862575     -103.237779
9.31                  0.84642387     -103.444133
9.311                0.845984334     -103.651082
9.312                0.845543974     -103.858626
9.313                0.845102797     -104.066767
9.314                0.844660808     -104.275507
9.315                0.844218014     -104.484847
9.316                0.843774422     -104.694788
9.317                0.843330038     -104.905332
9.318                 0.84288487      -105.11648
9.319                0.842438925     -105.328233
9.32                 0.841992209     -105.540594
9.321                 0.84154473     -105.753562
9.322                0.841096495      -105.96714
9.323                0.840647513     -106.181329
9.324                0.840197789      -106.39613
9.325                0.839747333     -106.611544
9.326                0.839296152     -106.827574
9.327                0.838844254     -107.044219
9.328                0.838391646     -107.261481
9.329                0.837938339     -107.479363
9.33                 0.837484339     -107.697864
9.331                0.837029655     -107.916986
9.332                0.836574297     -108.136731
9.333                0.836118272       -108.3571
9.334                0.835661589     -108.578093
9.335                0.835204259     -108.799712
9.336                0.834746289     -109.021959
9.337                0.834287689     -109.244835
9.338                0.833828469      -109.46834
9.339                0.833368638     -109.692476
9.34                 0.832908206     -109.917244
9.341                0.832447182     -110.142645
9.342                0.831985578     -110.368681
9.343                0.831523402     -110.595352
9.344                0.831060665      -110.82266
9.345                0.830597377     -111.050605
9.346                 0.83013355      -111.27919
9.347                0.829669193     -111.508414
9.348                0.829204318     -111.738279
9.349                0.828738936     -111.968786
9.35                 0.828273057     -112.199937
9.351                0.827806693     -112.431731
9.352                0.827339855      -112.66417
9.353                0.826872556     -112.897256
9.354                0.826404806     -113.130989
9.355                0.825936617      -113.36537
9.356                0.825468002     -113.600399
9.357                0.824998972     -113.836079
9.358                0.824529541      -114.07241
9.359                0.824059719     -114.309392
9.36                 0.823589521     -114.547027
9.361                0.823118958     -114.785316
9.362                0.822648044     -115.024259
9.363                0.822176792     -115.263857
9.364                0.821705214     -115.504112
9.365                0.821233325     -115.745023
9.366                0.820761137     -115.986592
9.367                0.820288664     -116.228819
9.368                0.819815921     -116.471706
9.369                0.819342921     -116.715252
9.37                 0.818869678     -116.959459
9.371                0.818396207     -117.204328
9.372                0.817922522     -117.449858
9.373                0.817448637     -117.696051
9.374                0.816974567     -117.942908
9.375                0.816500328     -118.190428
9.376                0.816025934     -118.438613
9.377                  0.8155514     -118.687463
9.378                0.815076742     -118.936979
9.379                0.814601976     -119.187161
9.38                 0.814127117     -119.438009
9.381                 0.81365218     -119.689525
9.382                0.813177182     -119.941709
9.383                 0.81270214      -120.19456
9.384                0.812227068      -120.44808
9.385                0.811751984     -120.702269
9.386                0.811276905     -120.957127
9.387                0.810801847     -121.212655
9.388                0.810326827     -121.468853
9.389                0.809851862     -121.725721
9.39                  0.80937697      -121.98326
9.391                0.808902168     -122.241469
9.392                0.808427473     -122.500349
9.393                0.807952903     -122.759901
9.394                0.807478476     -123.020124
9.395                 0.80700421     -123.281019
9.396                0.806530123     -123.542585
