! TOUCHSTONE file generated by CST DESIGN STUDIO
! Date and time: Tue Feb  4 17:39:09 2025
! Project name: C:\Work\MatlabApps\UnitCellOptimizationMatlab\CST\unitcell.cst
! Tree item: Tasks\Sweep1\SPara1\S-Parameters
! Header version: 2024
! Port assignment regex: !\s*Touchstone port\s*([0-9]+)\s*=\s*(CST MWS port|CST DES external port|CST DES block port)\s*(.+)\s* \(\"(.*)\"\)(\s*mode\s*([0-9]+))?.*
! Touchstone port assignment:
! Touchstone port 1 = CST DES external port 1 ("")
# GHz S MA R 50
9                    0.854186218     -105.397559
9.001                0.853728734      -105.62212
9.002                0.853270141     -105.847372
9.003                0.852810445     -106.073317
9.004                0.852349654     -106.299957
9.005                0.851887773     -106.527292
9.006                0.851424811     -106.755325
9.007                0.850960773     -106.984058
9.008                0.850495669     -107.213491
9.009                0.850029503     -107.443626
9.01                 0.849562286     -107.674466
9.011                0.849094023     -107.906011
9.012                0.848624724     -108.138263
9.013                0.848154396     -108.371223
9.014                0.847683047     -108.604894
9.015                0.847210687     -108.839276
9.016                0.846737323     -109.074371
9.017                0.846262964     -109.310181
9.018                0.845787619     -109.546707
9.019                0.845311298     -109.783951
9.02                 0.844834009     -110.021913
9.021                0.844355763     -110.260595
9.022                0.843876568          -110.5
9.023                0.843396435     -110.740127
9.024                0.842915373     -110.980979
9.025                0.842433393     -111.222557
9.026                0.841950505     -111.464862
9.027                 0.84146672     -111.707896
9.028                0.840982047     -111.951659
9.029                  0.8404965     -112.196154
9.03                 0.840010087     -112.441381
9.031                0.839522821     -112.687341
9.032                0.839034713     -112.934037
9.033                0.838545775     -113.181469
9.034                0.838056018     -113.429638
9.035                0.837565456     -113.678545
9.036                0.837074098     -113.928193
9.037                 0.83658196     -114.178581
9.038                0.836089052     -114.429711
9.039                0.835595388     -114.681585
9.04                 0.835100981     -114.934202
9.041                0.834605843     -115.187565
9.042                0.834109989     -115.441674
9.043                0.833613433     -115.696531
9.044                0.833116187     -115.952136
9.045                0.832618266      -116.20849
9.046                0.832119684     -116.465594
9.047                0.831620456      -116.72345
9.048                0.831120596     -116.982058
9.049                0.830620119     -117.241419
9.05                 0.830119041     -117.501533
9.051                0.829617375     -117.762403
9.052                0.829115139     -118.024028
9.053                0.828612347     -118.286409
9.054                0.828109016     -118.549548
9.055                0.827605161     -118.813444
9.056                  0.8271008     -119.078099
9.057                0.826595948     -119.343513
9.058                0.826090621     -119.609687
9.059                0.825584839     -119.876622
9.06                 0.825078616     -120.144318
9.061                0.824571971     -120.412775
9.062                0.824064922     -120.681995
9.063                0.823557485     -120.951978
9.064                 0.82304968     -121.222723
9.065                0.822541524     -121.494233
9.066                0.822033036     -121.766507
9.067                0.821524235     -122.039545
9.068                0.821015139     -122.313348
9.069                0.820505768     -122.587916
9.07                  0.81999614      -122.86325
9.071                0.819486277      -123.13935
9.072                0.818976196     -123.416216
9.073                0.818465919     -123.693848
9.074                0.817955464     -123.972246
9.075                0.817444854     -124.251411
9.076                0.816934109     -124.531343
9.077                0.816423248     -124.812042
9.078                0.815912294     -125.093507
9.079                0.815401268     -125.375739
9.08                 0.814890191     -125.658738
9.081                0.814379084     -125.942503
9.082                0.813867971     -126.227035
9.083                0.813356872     -126.512333
9.084                0.812845811     -126.798397
9.085                 0.81233481     -127.085228
9.086                0.811823891     -127.372824
9.087                0.811313078     -127.661185
9.088                0.810802394     -127.950311
9.089                0.810291862     -128.240203
9.09                 0.809781506     -128.530858
9.091                0.809271349     -128.822277
9.092                0.808761417     -129.114459
9.093                0.808251732     -129.407404
9.094                 0.80774232     -129.701111
9.095                0.807233205     -129.995579
9.096                0.806724411     -130.290808
9.097                0.806215965     -130.586797
9.098                0.805707891     -130.883546
9.099                0.805200215     -131.181053
9.1                  0.804692962     -131.479317
9.101                0.804186159     -131.778339
9.102                 0.80367983     -132.078115
9.103                0.803174003     -132.378647
9.104                0.802668704     -132.679932
9.105                 0.80216396      -132.98197
9.106                0.801659796      -133.28476
9.107                0.801156241       -133.5883
9.108                0.800653322     -133.892588
9.109                0.800151065     -134.197625
9.11                 0.799649498     -134.503408
9.111                0.799148649     -134.809936
9.112                0.798648546     -135.117208
9.113                0.798149217     -135.425222
9.114                 0.79765069     -135.733976
9.115                0.797152994      -136.04347
9.116                0.796656156     -136.353701
9.117                0.796160206     -136.664668
9.118                0.795665172     -136.976369
9.119                0.795171084     -137.288802
9.12                 0.794677971     -137.601965
9.121                0.794185861     -137.915857
9.122                0.793694785     -138.230475
9.123                0.793204772     -138.545818
9.124                0.792715851     -138.861883
9.125                0.792228053     -139.178669
9.126                0.791741408     -139.496173
9.127                0.791255945     -139.814393
9.128                0.790771695     -140.133327
9.129                0.790288689     -140.452972
9.13                 0.789806956     -140.773326
9.131                0.789326527     -141.094386
9.132                0.788847434     -141.416151
9.133                0.788369707     -141.738617
9.134                0.787893376     -142.061781
9.135                0.787418473     -142.385642
9.136                 0.78694503     -142.710197
9.137                0.786473076     -143.035442
9.138                0.786002644     -143.361375
9.139                0.785533765     -143.687993
9.14                  0.78506647     -144.015293
9.141                0.784600791     -144.343271
9.142                 0.78413676     -144.671926
9.143                0.783674407     -145.001253
9.144                0.783213766      -145.33125
9.145                0.782754867     -145.661913
9.146                0.782297742     -145.993239
9.147                0.781842424     -146.325224
9.148                0.781388944     -146.657866
9.149                0.780937334      -146.99116
9.15                 0.780487626     -147.325103
9.151                0.780039852     -147.659691
9.152                0.779594045     -147.994922
9.153                0.779150235      -148.33079
9.154                0.778708456     -148.667292
9.155                0.778268739     -149.004424
9.156                0.777831117     -149.342183
9.157                0.777395621     -149.680565
9.158                0.776962283     -150.019564
9.159                0.776531136     -150.359178
9.16                 0.776102211     -150.699402
9.161                 0.77567554     -151.040231
9.162                0.775251156     -151.381662
9.163                 0.77482909      -151.72369
9.164                0.774409374     -152.066311
9.165                 0.77399204      -152.40952
9.166                0.773577119     -152.753313
9.167                0.773164644     -153.097684
9.168                0.772754645     -153.442631
9.169                0.772347155     -153.788146
9.17                 0.771942205     -154.134227
9.171                0.771539826     -154.480868
9.172                0.771140049     -154.828064
9.173                0.770742906      -155.17581
9.174                0.770348428     -155.524101
9.175                0.769956645     -155.872932
9.176                0.769567589     -156.222298
9.177                 0.76918129     -156.572194
9.178                0.768797778     -156.922614
9.179                0.768417085     -157.273553
9.18                 0.768039241     -157.625006
9.181                0.767664275     -157.976968
9.182                0.767292218     -158.329432
9.183                0.766923099     -158.682393
9.184                0.766556949     -159.035846
9.185                0.766193796     -159.389784
9.186                 0.76583367     -159.744203
9.187                0.765476601     -160.099096
9.188                0.765122616     -160.454458
9.189                0.764771746     -160.810282
9.19                 0.764424018     -161.166563
9.191                0.764079461     -161.523295
9.192                0.763738102     -161.880471
9.193                0.763399971     -162.238085
9.194                0.763065094     -162.596132
9.195                0.762733499     -162.954605
9.196                0.762405212     -163.313498
9.197                0.762080262     -163.672804
9.198                0.761758675     -164.032517
9.199                0.761440477     -164.392631
9.2                  0.761125694     -164.753139
9.201                0.760814353     -165.114034
9.202                0.760506478     -165.475311
9.203                0.760202096     -165.836962
9.204                0.759901231      -166.19898
9.205                0.759603908      -166.56136
9.206                0.759310152     -166.924094
9.207                0.759019986     -167.287175
9.208                0.758733435     -167.650596
9.209                0.758450522     -168.014352
9.21                  0.75817127     -168.378433
9.211                0.757895702     -168.742835
9.212                0.757623842     -169.107549
9.213                 0.75735571     -169.472568
9.214                0.757091329     -169.837886
9.215                 0.75683072     -170.203495
9.216                0.756573905     -170.569388
9.217                0.756320904     -170.935558
9.218                0.756071738     -171.301997
9.219                0.755826427     -171.668698
9.22                  0.75558499     -172.035654
9.221                0.755347448     -172.402858
9.222                0.755113818     -172.770302
9.223                 0.75488412     -173.137978
9.224                0.754658372     -173.505879
9.225                0.754436591     -173.873998
9.226                0.754218795     -174.242326
9.227                   0.754005     -174.610857
9.228                0.753795225     -174.979583
9.229                0.753589483     -175.348496
9.23                 0.753387792     -175.717589
9.231                0.753190167     -176.086853
9.232                0.752996623     -176.456281
9.233                0.752807173     -176.825866
9.234                0.752621833       -177.1956
9.235                0.752440615     -177.565474
9.236                0.752263534     -177.935481
9.237                0.752090601     -178.305613
9.238                0.751921829     -178.675863
9.239                 0.75175723     -179.046222
9.24                 0.751596816     -179.416683
9.241                0.751440597     -179.787237
9.242                0.751288584      179.842122
9.243                0.751140787      179.471404
9.244                0.750997216      179.100616
9.245                0.750857879      178.729766
9.246                0.750722786      178.358861
9.247                0.750591945      177.987911
9.248                0.750465363      177.616922
9.249                0.750343048      177.245904
9.25                 0.750225007      176.874863
9.251                0.750111246      176.503807
9.252                0.750001771      176.132746
9.253                0.749896588      175.761686
9.254                0.749795701      175.390637
9.255                0.749699115      175.019604
9.256                0.749606835      174.648598
9.257                0.749518862      174.277625
9.258                0.749435202      173.906695
9.259                0.749355856      173.535813
9.26                 0.749280827       173.16499
9.261                0.749210115      172.794232
9.262                0.749143724      172.423548
9.263                0.749081652      172.052945
9.264                0.749023901      171.682432
9.265                 0.74897047      171.312016
9.266                0.748921359      170.941705
9.267                0.748876566      170.571508
9.268                0.748836091      170.201432
9.269                 0.74879993      169.831485
9.27                 0.748768081      169.461675
9.271                0.748740541       169.09201
9.272                0.748717308      168.722497
9.273                0.748698376      168.353144
9.274                0.748683742       167.98396
9.275                  0.7486734      167.614952
9.276                0.748667346      167.246127
9.277                0.748665574      166.877494
9.278                0.748668077      166.509059
9.279                0.748674849      166.140832
9.28                 0.748685882      165.772818
9.281                 0.74870117      165.405027
9.282                0.748720704      165.037465
9.283                0.748744476      164.670141
9.284                0.748772476      164.303061
9.285                0.748804697      163.936233
9.286                0.748841127      163.569665
9.287                0.748881757      163.203364
9.288                0.748926576      162.837337
9.289                0.748975574      162.471592
9.29                 0.749028738      162.106136
9.291                0.749086058      161.740976
9.292                 0.74914752       161.37612
9.293                0.749213112      161.011575
9.294                0.749282822      160.647347
9.295                0.749356635      160.283445
9.296                0.749434539      159.919875
9.297                0.749516518      159.556644
9.298                0.749602558       159.19376
9.299                0.749692644      158.831228
9.3                  0.749786762      158.469057
9.301                0.749884894      158.107252
9.302                0.749987025      157.745821
9.303                 0.75009314      157.384771
9.304                0.750203219      157.024108
9.305                0.750317248      156.663839
9.306                0.750435207       156.30397
9.307                 0.75055708      155.944509
9.308                0.750682848      155.585461
9.309                0.750812493      155.226833
9.31                 0.750945996      154.868632
9.311                0.751083337      154.510863
9.312                0.751224497      154.153534
9.313                0.751369456      153.796651
9.314                0.751518195      153.440219
9.315                0.751670692      153.084244
9.316                0.751826928      152.728734
9.317                0.751986881      152.373694
9.318                0.752150529       152.01913
9.319                0.752317852      151.665048
9.32                 0.752488828      151.311453
9.321                0.752663433      150.958352
9.322                0.752841647      150.605751
9.323                0.753023446      150.253654
9.324                0.753208808      149.902069
9.325                0.753397709      149.550999
9.326                0.753590126      149.200452
9.327                0.753786035      148.850431
9.328                0.753985414      148.500944
9.329                0.754188236      148.151994
9.33                 0.754394479      147.803588
9.331                0.754604118      147.455731
9.332                0.754817128      147.108427
9.333                0.755033484      146.761682
9.334                0.755253161      146.415501
9.335                0.755476135      146.069889
9.336                0.755702378       145.72485
9.337                0.755931867      145.380391
9.338                0.756164575      145.036514
9.339                0.756400475      144.693226
9.34                 0.756639543      144.350531
9.341                0.756881751      144.008433
9.342                0.757127073      143.666937
9.343                0.757375483      143.326048
9.344                0.757626954      142.985769
9.345                0.757881459      142.646106
9.346                0.758138971      142.307062
9.347                0.758399463      141.968642
9.348                0.758662908       141.63085
9.349                0.758929278       141.29369
9.35                 0.759198546      140.957167
9.351                0.759470685      140.621283
9.352                0.759745666      140.286043
9.353                0.760023463      139.951451
9.354                0.760304047       139.61751
9.355                 0.76058739      139.284225
9.356                0.760873465      138.951599
9.357                0.761162243      138.619635
9.358                0.761453697      138.288338
9.359                0.761747798       137.95771
9.36                 0.762044519      137.627755
9.361                 0.76234383      137.298476
9.362                0.762645703      136.969877
9.363                0.762950112      136.641961
9.364                0.763257025      136.314731
9.365                0.763566417       135.98819
9.366                0.763878258      135.662341
9.367                0.764192519      135.337187
9.368                0.764509173      135.012731
9.369                0.764828191      134.688976
9.37                 0.765149544      134.365925
9.371                0.765473204      134.043581
9.372                0.765799143      133.721945
9.373                0.766127332      133.401021
9.374                0.766457743      133.080811
9.375                0.766790348      132.761318
9.376                0.767125117      132.442545
9.377                0.767462023      132.124493
9.378                0.767801037      131.807164
9.379                0.768142132      131.490562
9.38                 0.768485278      131.174689
9.381                0.768830448      130.859545
9.382                0.769177614      130.545135
9.383                0.769526747      130.231459
9.384                0.769877819      129.918519
9.385                0.770230803      129.606319
9.386                 0.77058567      129.294858
9.387                0.770942393       128.98414
9.388                0.771300944      128.674166
9.389                0.771661296      128.364937
9.39                 0.772023419      128.056456
9.391                0.772387288      127.748723
9.392                0.772752874      127.441741
9.393                0.773120151      127.135511
9.394                 0.77348909      126.830034
9.395                0.773859665      126.525312
9.396                0.774231849      126.221346
