! TOUCHSTONE file generated by CST DESIGN STUDIO
! Date and time: Tue Feb  4 17:39:28 2025
! Project name: C:\Work\MatlabApps\UnitCellOptimizationMatlab\CST\unitcell.cst
! Tree item: Tasks\Sweep1\SPara1\S-Parameters
! Header version: 2024
! Port assignment regex: !\s*Touchstone port\s*([0-9]+)\s*=\s*(CST MWS port|CST DES external port|CST DES block port)\s*(.+)\s* \(\"(.*)\"\)(\s*mode\s*([0-9]+))?.*
! Touchstone port assignment:
! Touchstone port 1 = CST DES external port 1 ("")
# GHz S MA R 50
9                    0.971502362     -38.6090637
9.001                0.971449934     -38.6528224
9.002                0.971397361     -38.6966556
9.003                0.971344642     -38.7405634
9.004                0.971291776     -38.7845461
9.005                0.971238764     -38.8286039
9.006                0.971185605     -38.8727369
9.007                0.971132299     -38.9169455
9.008                0.971078845     -38.9612298
9.009                0.971025243       -39.00559
9.01                 0.970971493     -39.0500264
9.011                0.970917595     -39.0945391
9.012                0.970863547     -39.1391284
9.013                0.970809351     -39.1837944
9.014                0.970755004     -39.2285375
9.015                0.970700508     -39.2733578
9.016                0.970645861     -39.3182556
9.017                0.970591064      -39.363231
9.018                0.970536115     -39.4082842
9.019                0.970481016     -39.4534156
9.02                 0.970425764     -39.4986253
9.021                0.970370361     -39.5439136
9.022                0.970314805     -39.5892806
9.023                0.970259096     -39.6347266
9.024                0.970203234     -39.6802518
9.025                0.970147218     -39.7258565
9.026                0.970091049     -39.7715408
9.027                0.970034725      -39.817305
9.028                0.969978246     -39.8631494
9.029                0.969921613     -39.9090741
9.03                 0.969864824     -39.9550793
9.031                0.969807879     -40.0011654
9.032                0.969750779     -40.0473325
9.033                0.969693521     -40.0935809
9.034                0.969636107     -40.1399108
9.035                0.969578536     -40.1863225
9.036                0.969520806     -40.2328161
9.037                0.969462919     -40.2793919
9.038                0.969404873     -40.3260502
9.039                0.969346669     -40.3727911
9.04                 0.969288305      -40.419615
9.041                0.969229781      -40.466522
9.042                0.969171098     -40.5135124
9.043                0.969112254     -40.5605865
9.044                0.969053249     -40.6077444
9.045                0.968994083     -40.6549864
9.046                0.968934755     -40.7023129
9.047                0.968875265     -40.7497239
9.048                0.968815613     -40.7972197
9.049                0.968755798     -40.8448007
9.05                 0.968695819      -40.892467
9.051                0.968635677     -40.9402189
9.052                 0.96857537     -40.9880566
9.053                0.968514899     -41.0359805
9.054                0.968454263     -41.0839906
9.055                0.968393462     -41.1320874
9.056                0.968332495     -41.1802709
9.057                0.968271361     -41.2285416
9.058                0.968210061     -41.2768996
9.059                0.968148594     -41.3253453
9.06                 0.968086959     -41.3738787
9.061                0.968025156     -41.4225003
9.062                0.967963184     -41.4712102
9.063                0.967901044     -41.5200088
9.064                0.967838734     -41.5688963
9.065                0.967776255     -41.6178729
9.066                0.967713605     -41.6669389
9.067                0.967650785     -41.7160946
9.068                0.967587793     -41.7653402
9.069                 0.96752463      -41.814676
9.07                 0.967461295     -41.8641022
9.071                0.967397787     -41.9136192
9.072                0.967334106     -41.9632272
9.073                0.967270252     -42.0129264
9.074                0.967206224     -42.0627171
9.075                0.967142021     -42.1125997
9.076                0.967077644     -42.1625743
9.077                0.967013091     -42.2126412
9.078                0.966948363     -42.2628008
9.079                0.966883458     -42.3130532
9.08                 0.966818376     -42.3633988
9.081                0.966753118     -42.4138379
9.082                0.966687681     -42.4643706
9.083                0.966622066     -42.5149973
9.084                0.966556273     -42.5657183
9.085                  0.9664903     -42.6165338
9.086                0.966424147     -42.6674442
9.087                0.966357815     -42.7184497
9.088                0.966291301     -42.7695505
9.089                0.966224606      -42.820747
9.09                  0.96615773     -42.8720395
9.091                0.966090671     -42.9234282
9.092                 0.96602343     -42.9749135
9.093                0.965956005     -43.0264955
9.094                0.965888397     -43.0781747
9.095                0.965820604     -43.1299513
9.096                0.965752627     -43.1818255
9.097                0.965684464     -43.2337977
9.098                0.965616115     -43.2858682
9.099                 0.96554758     -43.3380372
9.1                  0.965478858     -43.3903052
9.101                0.965409949     -43.4426722
9.102                0.965340851     -43.4951387
9.103                0.965271565      -43.547705
9.104                 0.96520209     -43.6003713
9.105                0.965132425      -43.653138
9.106                 0.96506257     -43.7060053
9.107                0.964992524     -43.7589735
9.108                0.964922288      -43.812043
9.109                0.964851859     -43.8652141
9.11                 0.964781238     -43.9184871
9.111                0.964710424     -43.9718622
9.112                0.964639416     -44.0253398
9.113                0.964568214     -44.0789202
9.114                0.964496818     -44.1326037
9.115                0.964425227     -44.1863906
9.116                0.964353439     -44.2402813
9.117                0.964281456      -44.294276
9.118                0.964209275      -44.348375
9.119                0.964136897     -44.4025787
9.12                 0.964064321     -44.4568874
9.121                0.963991546     -44.5113014
9.122                0.963918571     -44.5658211
9.123                0.963845397     -44.6204467
9.124                0.963772023     -44.6751785
9.125                0.963698447      -44.730017
9.126                 0.96362467     -44.7849624
9.127                 0.96355069      -44.840015
9.128                0.963476507     -44.8951752
9.129                0.963402121     -44.9504433
9.13                 0.963327531     -45.0058196
9.131                0.963252736     -45.0613045
9.132                0.963177736     -45.1168983
9.133                 0.96310253     -45.1726013
9.134                0.963027117     -45.2284139
9.135                0.962951497     -45.2843363
9.136                0.962875669      -45.340369
9.137                0.962799633     -45.3965123
9.138                0.962723387     -45.4527664
9.139                0.962646932     -45.5091318
9.14                 0.962570266     -45.5656088
9.141                 0.96249339     -45.6221978
9.142                0.962416301      -45.678899
9.143                   0.962339     -45.7357128
9.144                0.962261487     -45.7926396
9.145                0.962183759     -45.8496798
9.146                0.962105817     -45.9068336
9.147                 0.96202766     -45.9641014
9.148                0.961949288     -46.0214836
9.149                0.961870699     -46.0789805
9.15                 0.961791893     -46.1365924
9.151                 0.96171287     -46.1943199
9.152                0.961633628     -46.2521631
9.153                0.961554167     -46.3101224
9.154                0.961474486     -46.3681983
9.155                0.961394585     -46.4263911
9.156                0.961314463      -46.484701
9.157                0.961234119     -46.5431286
9.158                0.961153553     -46.6016742
9.159                0.961072763      -46.660338
9.16                 0.960991749     -46.7191206
9.161                0.960910511     -46.7780222
9.162                0.960829047     -46.8370433
9.163                0.960747358     -46.8961842
9.164                0.960665441     -46.9554453
9.165                0.960583297     -47.0148269
9.166                0.960500925     -47.0743295
9.167                0.960418324     -47.1339534
9.168                0.960335493      -47.193699
9.169                0.960252432     -47.2535666
9.17                  0.96016914     -47.3135567
9.171                0.960085616     -47.3736697
9.172                0.960001859     -47.4339059
9.173                0.959917869     -47.4942657
9.174                0.959833644     -47.5547495
9.175                0.959749185     -47.6153576
9.176                 0.95966449     -47.6760906
9.177                0.959579559     -47.7369487
9.178                 0.95949439     -47.7979324
9.179                0.959408984     -47.8590421
9.18                 0.959323338     -47.9202781
9.181                0.959237454     -47.9816409
9.182                0.959151329     -48.0431308
9.183                0.959064963     -48.1047483
9.184                0.958978355     -48.1664937
9.185                0.958891505     -48.2283675
9.186                0.958804411     -48.2903701
9.187                0.958717073     -48.3525019
9.188                0.958629489     -48.4147632
9.189                 0.95854166     -48.4771546
9.19                 0.958453585     -48.5396763
9.191                0.958365262     -48.6023289
9.192                 0.95827669     -48.6651127
9.193                 0.95818787     -48.7280282
9.194                  0.9580988     -48.7910757
9.195                0.958009479     -48.8542558
9.196                0.957919906     -48.9175687
9.197                0.957830081      -48.981015
9.198                0.957740003      -49.044595
9.199                0.957649671     -49.1083093
9.2                  0.957559083     -49.1721581
9.201                 0.95746824      -49.236142
9.202                0.957377141     -49.3002614
9.203                0.957285784     -49.3645166
9.204                0.957194168     -49.4289083
9.205                0.957102294     -49.4934367
9.206                0.957010159     -49.5581023
9.207                0.956917764     -49.6229056
9.208                0.956825107     -49.6878469
9.209                0.956732187     -49.7529268
9.21                 0.956639003     -49.8181457
9.211                0.956545555     -49.8835041
9.212                0.956451842     -49.9490023
9.213                0.956357862     -50.0146408
9.214                0.956263616     -50.0804201
9.215                0.956169101     -50.1463406
9.216                0.956074317     -50.2124029
9.217                0.955979264     -50.2786072
9.218                 0.95588394     -50.3449542
9.219                0.955788344     -50.4114442
9.22                 0.955692475     -50.4780778
9.221                0.955596333     -50.5448553
9.222                0.955499917     -50.6117773
9.223                0.955403225     -50.6788442
9.224                0.955306257     -50.7460565
9.225                0.955209012     -50.8134146
9.226                0.955111489     -50.8809191
9.227                0.955013686     -50.9485704
9.228                0.954915603     -51.0163689
9.229                 0.95481724     -51.0843152
9.23                 0.954718594     -51.1524098
9.231                0.954619665      -51.220653
9.232                0.954520452     -51.2890455
9.233                0.954420955     -51.3575877
9.234                0.954321171       -51.42628
9.235                0.954221101     -51.4951229
9.236                0.954120743     -51.5641171
9.237                0.954020096     -51.6332628
9.238                0.953919159     -51.7025607
9.239                0.953817932     -51.7720113
9.24                 0.953716412      -51.841615
9.241                  0.9536146     -51.9113723
9.242                0.953512494     -51.9812837
9.243                0.953410093     -52.0513498
9.244                0.953307396      -52.121571
9.245                0.953204402     -52.1919479
9.246                 0.95310111     -52.2624809
9.247                 0.95299752     -52.3331706
9.248                0.952893629     -52.4040175
9.249                0.952789437     -52.4750221
9.25                 0.952684944     -52.5461849
9.251                0.952580147     -52.6175064
9.252                0.952475046     -52.6889872
9.253                 0.95236964     -52.7606278
9.254                0.952263927     -52.8324287
9.255                0.952157908     -52.9043904
9.256                0.952051579     -52.9765135
9.257                0.951944942     -53.0487985
9.258                0.951837993      -53.121246
9.259                0.951730734     -53.1938563
9.26                 0.951623161     -53.2666302
9.261                0.951515274     -53.3395682
9.262                0.951407073     -53.4126707
9.263                0.951298556     -53.4859384
9.264                0.951189721     -53.5593717
9.265                0.951080569     -53.6329712
9.266                0.950971097     -53.7067376
9.267                0.950861304     -53.7806712
9.268                 0.95075119     -53.8547728
9.269                0.950640754     -53.9290427
9.27                 0.950529993     -54.0034817
9.271                0.950418908     -54.0780902
9.272                0.950307496     -54.1528689
9.273                0.950195757     -54.2278182
9.274                 0.95008369     -54.3029388
9.275                0.949971294     -54.3782312
9.276                0.949858566      -54.453696
9.277                0.949745507     -54.5293337
9.278                0.949632115      -54.605145
9.279                0.949518389     -54.6811305
9.28                 0.949404327     -54.7572906
9.281                0.949289929      -54.833626
9.282                0.949175193     -54.9101373
9.283                0.949060118      -54.986825
9.284                0.948944703     -55.0636898
9.285                0.948828947     -55.1407322
9.286                0.948712848     -55.2179529
9.287                0.948596406     -55.2953523
9.288                0.948479619     -55.3729313
9.289                0.948362485     -55.4506902
9.29                 0.948245005     -55.5286298
9.291                0.948127176     -55.6067506
9.292                0.948008997     -55.6850532
9.293                0.947890467     -55.7635383
9.294                0.947771585     -55.8422065
9.295                0.947652349     -55.9210583
9.296                0.947532758     -56.0000945
9.297                0.947412812     -56.0793156
9.298                0.947292509     -56.1587222
9.299                0.947171846     -56.2383149
9.3                  0.947050825     -56.3180945
9.301                0.946929442     -56.3980615
9.302                0.946807697     -56.4782165
9.303                0.946685588     -56.5585603
9.304                0.946563114     -56.6390933
9.305                0.946440275     -56.7198163
9.306                0.946317068     -56.8007299
9.307                0.946193492     -56.8818348
9.308                0.946069546     -56.9631316
9.309                0.945945229     -57.0446209
9.31                 0.945820539     -57.1263033
9.311                0.945695476     -57.2081797
9.312                0.945570037     -57.2902505
9.313                0.945444221     -57.3725165
9.314                0.945318028     -57.4549783
9.315                0.945191455     -57.5376367
9.316                0.945064502     -57.6204921
9.317                0.944937167     -57.7035454
9.318                0.944809448     -57.7867972
9.319                0.944681345     -57.8702481
9.32                 0.944552856     -57.9538989
9.321                 0.94442398     -58.0377503
9.322                0.944294715     -58.1218028
9.323                 0.94416506     -58.2060572
9.324                0.944035014     -58.2905142
9.325                0.943904575     -58.3751744
9.326                0.943773741     -58.4600386
9.327                0.943642513     -58.5451075
9.328                0.943510887     -58.6303817
9.329                0.943378863      -58.715862
9.33                 0.943246439      -58.801549
9.331                0.943113614     -58.8874435
9.332                0.942980386     -58.9735461
9.333                0.942846754     -59.0598577
9.334                0.942712718     -59.1463788
9.335                0.942578274     -59.2331102
9.336                0.942443422     -59.3200527
9.337                 0.94230816     -59.4072069
9.338                0.942172488     -59.4945736
9.339                0.942036403     -59.5821534
9.34                 0.941899903     -59.6699473
9.341                0.941762989     -59.7579557
9.342                0.941625657     -59.8461796
9.343                0.941487908     -59.9346196
9.344                0.941349738     -60.0232765
9.345                0.941211148     -60.1121511
9.346                0.941072134      -60.201244
9.347                0.940932697      -60.290556
9.348                0.940792833     -60.3800879
9.349                0.940652543     -60.4698404
9.35                 0.940511824     -60.5598143
9.351                0.940370675     -60.6500104
9.352                0.940229094     -60.7404293
9.353                 0.94008708      -60.831072
9.354                0.939944632     -60.9219391
9.355                0.939801747     -61.0130314
9.356                0.939658425     -61.1043497
9.357                0.939514664     -61.1958948
9.358                0.939370462     -61.2876675
9.359                0.939225818     -61.3796685
9.36                  0.93908073     -61.4718986
9.361                0.938935197     -61.5643586
9.362                0.938789217     -61.6570494
9.363                0.938642789     -61.7499717
9.364                0.938495911     -61.8431263
9.365                0.938348582      -61.936514
9.366                0.938200799     -62.0301356
9.367                0.938052562     -62.1239919
9.368                 0.93790387     -62.2180838
9.369                0.937754719      -62.312412
9.37                 0.937605109     -62.4069774
9.371                0.937455039     -62.5017808
9.372                0.937304506      -62.596823
9.373                 0.93715351     -62.6921048
9.374                0.937002047     -62.7876271
9.375                0.936850118     -62.8833907
9.376                 0.93669772     -62.9793965
9.377                0.936544852     -63.0756452
9.378                0.936391512     -63.1721378
9.379                0.936237699      -63.268875
9.38                  0.93608341     -63.3658577
9.381                0.935928645     -63.4630868
9.382                0.935773402     -63.5605631
9.383                0.935617679     -63.6582875
9.384                0.935461474     -63.7562608
9.385                0.935304786     -63.8544839
9.386                0.935147613     -63.9529577
9.387                0.934989954     -64.0516831
9.388                0.934831807     -64.1506608
9.389                0.934673171     -64.2498919
9.39                 0.934514043     -64.3493771
9.391                0.934354422     -64.4491174
9.392                0.934194307     -64.5491136
9.393                0.934033696     -64.6493667
9.394                0.933872586     -64.7498775
9.395                0.933710978     -64.8506469
9.396                0.933548868     -64.9516758
