! TOUCHSTONE file generated by CST DESIGN STUDIO
! Date and time: Tue Feb  4 17:39:13 2025
! Project name: C:\Work\MatlabApps\UnitCellOptimizationMatlab\CST\unitcell.cst
! Tree item: Tasks\Sweep1\SPara1\S-Parameters
! Header version: 2024
! Port assignment regex: !\s*Touchstone port\s*([0-9]+)\s*=\s*(CST MWS port|CST DES external port|CST DES block port)\s*(.+)\s* \(\"(.*)\"\)(\s*mode\s*([0-9]+))?.*
! Touchstone port assignment:
! Touchstone port 1 = CST DES external port 1 ("")
# GHz S MA R 50
9                    0.893434855      -84.292539
9.001                0.893098605     -84.4480112
9.002                0.892761175     -84.6039444
9.003                0.892422563     -84.7603401
9.004                0.892082768     -84.9171999
9.005                0.891741788     -85.0745254
9.006                0.891399621     -85.2323181
9.007                0.891056265     -85.3905798
9.008                0.890711718     -85.5493118
9.009                0.890365979      -85.708516
9.01                 0.890019046     -85.8681937
9.011                0.889670917     -86.0283467
9.012                 0.88932159     -86.1889766
9.013                0.888971065      -86.350085
9.014                0.888619339     -86.5116734
9.015                0.888266411     -86.6737435
9.016                0.887912279      -86.836297
9.017                0.887556942     -86.9993354
9.018                0.887200399     -87.1628603
9.019                0.886842648     -87.3268734
9.02                 0.886483688     -87.4913763
9.021                0.886123517     -87.6563707
9.022                0.885762135     -87.8218582
9.023                0.885399541     -87.9878404
9.024                0.885035732     -88.1543189
9.025                0.884670708     -88.3212955
9.026                0.884304469     -88.4887717
9.027                0.883937012     -88.6567492
9.028                0.883568338     -88.8252297
9.029                0.883198444     -88.9942147
9.03                 0.882827331      -89.163706
9.031                0.882454998     -89.3337053
9.032                0.882081443     -89.5042141
9.033                0.881706666     -89.6752341
9.034                0.881330667     -89.8467671
9.035                0.880953444     -90.0188146
9.036                0.880574998     -90.1913783
9.037                0.880195328       -90.36446
9.038                0.879814433     -90.5380612
9.039                0.879432313     -90.7121837
9.04                 0.879048969     -90.8868291
9.041                0.878664398     -91.0619991
9.042                0.878278602     -91.2376954
9.043                 0.87789158     -91.4139196
9.044                0.877503333     -91.5906735
9.045                0.877113859     -91.7679587
9.046                 0.87672316      -91.945777
9.047                0.876331235     -92.1241299
9.048                0.875938085     -92.3030192
9.049                 0.87554371     -92.4824465
9.05                 0.875148109     -92.6624136
9.051                0.874751285     -92.8429222
9.052                0.874353236     -93.0239738
9.053                0.873953964     -93.2055703
9.054                0.873553469     -93.3877134
9.055                0.873151752     -93.5704046
9.056                0.872748813     -93.7536457
9.057                0.872344654     -93.9374384
9.058                0.871939276     -94.1217844
9.059                0.871532678     -94.3066854
9.06                 0.871124863      -94.492143
9.061                0.870715832      -94.678159
9.062                0.870305585     -94.8647351
9.063                0.869894124     -95.0518728
9.064                0.869481451     -95.2395741
9.065                0.869067566     -95.4278404
9.066                0.868652472     -95.6166736
9.067                 0.86823617     -95.8060753
9.068                0.867818661     -95.9960472
9.069                0.867399948      -96.186591
9.07                 0.866980032     -96.3777084
9.071                0.866558915      -96.569401
9.072                  0.8661366     -96.7616706
9.073                0.865713089     -96.9545188
9.074                0.865288383     -97.1479474
9.075                0.864862485     -97.3419579
9.076                0.864435398     -97.5365521
9.077                0.864007123     -97.7317317
9.078                0.863577664     -97.9274983
9.079                0.863147024     -98.1238537
9.08                 0.862715205     -98.3207994
9.081                0.862282209     -98.5183371
9.082                0.861848041     -98.7164686
9.083                0.861412703     -98.9151955
9.084                0.860976199     -99.1145194
9.085                0.860538531      -99.314442
9.086                0.860099703      -99.514965
9.087                0.859659718       -99.71609
9.088                0.859218581     -99.9178187
9.089                0.858776295     -100.120153
9.09                 0.858332864     -100.323094
9.091                0.857888292     -100.526643
9.092                0.857442582     -100.730803
9.093                0.856995739     -100.935575
9.094                0.856547768      -101.14096
9.095                0.856098673      -101.34696
9.096                0.855648458     -101.553577
9.097                0.855197127     -101.760812
9.098                0.854744687     -101.968668
9.099                0.854291141     -102.177144
9.1                  0.853836494     -102.386244
9.101                0.853380753     -102.595969
9.102                0.852923921      -102.80632
9.103                0.852466004     -103.017299
9.104                0.852007009     -103.228908
9.105                 0.85154694     -103.441147
9.106                0.851085803      -103.65402
9.107                0.850623604     -103.867526
9.108                0.850160349     -104.081668
9.109                0.849696045     -104.296448
9.11                 0.849230697     -104.511866
9.111                0.848764312     -104.727925
9.112                0.848296896     -104.944626
9.113                0.847828457      -105.16197
9.114                0.847359001     -105.379959
9.115                0.846888535     -105.598594
9.116                0.846417065     -105.817877
9.117                  0.8459446      -106.03781
9.118                0.845471147     -106.258393
9.119                0.844996713     -106.479629
9.12                 0.844521306     -106.701519
9.121                0.844044934     -106.924064
9.122                0.843567604     -107.147265
9.123                0.843089325     -107.371125
9.124                0.842610105     -107.595645
9.125                0.842129953     -107.820825
9.126                0.841648877     -108.046667
9.127                0.841166885     -108.273174
9.128                0.840683987     -108.500345
9.129                0.840200192     -108.728183
9.13                 0.839715508     -108.956689
9.131                0.839229946     -109.185864
9.132                0.838743514     -109.415709
9.133                0.838256223     -109.646227
9.134                0.837768082     -109.877417
9.135                0.837279101     -110.109282
9.136                 0.83678929     -110.341823
9.137                 0.83629866      -110.57504
9.138                0.835807221     -110.808936
9.139                0.835314983     -111.043512
9.14                 0.834821958     -111.278768
9.141                0.834328156     -111.514706
9.142                0.833833589     -111.751328
9.143                0.833338268     -111.988633
9.144                0.832842204     -112.226625
9.145                0.832345409     -112.465303
9.146                0.831847895     -112.704668
9.147                0.831349674     -112.944723
9.148                0.830850758     -113.185468
9.149                0.830351159     -113.426904
9.15                 0.829850889     -113.669032
9.151                0.829349963     -113.911853
9.152                0.828848392     -114.155369
9.153                0.828346189     -114.399581
9.154                0.827843368     -114.644488
9.155                0.827339941     -114.890093
9.156                0.826835924     -115.136396
9.157                0.826331329     -115.383399
9.158                 0.82582617     -115.631102
9.159                0.825320462     -115.879506
9.16                 0.824814219     -116.128612
9.161                0.824307455     -116.378421
9.162                0.823800185     -116.628934
9.163                0.823292425     -116.880151
9.164                0.822784188     -117.132074
9.165                 0.82227549     -117.384704
9.166                0.821766347      -117.63804
9.167                0.821256774     -117.892084
9.168                0.820746787     -118.146836
9.169                0.820236403     -118.402298
9.17                 0.819725636     -118.658469
9.171                0.819214505     -118.915351
9.172                0.818703024     -119.172945
9.173                0.818191211      -119.43125
9.174                0.817679084     -119.690267
9.175                0.817166658     -119.949998
9.176                0.816653952     -120.210442
9.177                0.816140983       -120.4716
9.178                0.815627768     -120.733472
9.179                0.815114325      -120.99606
9.18                 0.814600674     -121.259362
9.181                0.814086831     -121.523381
9.182                0.813572815     -121.788116
9.183                0.813058646     -122.053567
9.184                0.812544341     -122.319736
9.185                0.812029921     -122.586621
9.186                0.811515403     -122.854224
9.187                0.811000808     -123.122545
9.188                0.810486156     -123.391584
9.189                0.809971465     -123.661341
9.19                 0.809456756     -123.931816
9.191                 0.80894205     -124.203009
9.192                0.808427366     -124.474921
9.193                0.807912726     -124.747552
9.194                0.807398149     -125.020901
9.195                0.806883657     -125.294968
9.196                0.806369272     -125.569755
9.197                0.805855013     -125.845259
9.198                0.805340904     -126.121483
9.199                0.804826965     -126.398424
9.2                  0.804313219     -126.676084
9.201                0.803799687     -126.954461
9.202                0.803286392     -127.233556
9.203                0.802773356     -127.513369
9.204                0.802260602     -127.793899
9.205                0.801748153     -128.075145
9.206                0.801236032     -128.357108
9.207                0.800724261     -128.639787
9.208                0.800212864     -128.923181
9.209                0.799701865     -129.207291
9.21                 0.799191288     -129.492115
9.211                0.798681155     -129.777653
9.212                0.798171492     -130.063905
9.213                0.797662322     -130.350869
9.214                0.797153671     -130.638545
9.215                0.796645561     -130.926933
9.216                0.796138019     -131.216031
9.217                0.795631069      -131.50584
9.218                0.795124735     -131.796357
9.219                0.794619044     -132.087582
9.22                 0.794114021     -132.379515
9.221                0.793609691     -132.672154
9.222                 0.79310608     -132.965498
9.223                0.792603213     -133.259547
9.224                0.792101117     -133.554298
9.225                0.791599818     -133.849752
9.226                0.791099342     -134.145906
9.227                0.790599716     -134.442761
9.228                0.790100966     -134.740313
9.229                0.789603118     -135.038563
9.23                 0.789106201     -135.337508
9.231                 0.78861024     -135.637148
9.232                0.788115264     -135.937481
9.233                0.787621298     -136.238505
9.234                0.787128371     -136.540219
9.235                 0.78663651     -136.842622
9.236                0.786145744     -137.145711
9.237                0.785656098     -137.449486
9.238                0.785167602     -137.753943
9.239                0.784680284     -138.059083
9.24                 0.784194171     -138.364902
9.241                0.783709293     -138.671399
9.242                0.783225676     -138.978572
9.243                 0.78274335     -139.286419
9.244                0.782262344     -139.594938
9.245                0.781782685     -139.904128
9.246                0.781304403     -140.213985
9.247                0.780827527     -140.524508
9.248                0.780352084     -140.835695
9.249                0.779878106     -141.147542
9.25                  0.77940562     -141.460049
9.251                0.778934655     -141.773213
9.252                0.778465242     -142.087031
9.253                0.777997409     -142.401501
9.254                0.777531185      -142.71662
9.255                0.777066601     -143.032385
9.256                0.776603685     -143.348795
9.257                0.776142467     -143.665846
9.258                0.775682977     -143.983537
9.259                0.775225244     -144.301863
9.26                 0.774769299     -144.620822
9.261                 0.77431517     -144.940411
9.262                0.773862888     -145.260628
9.263                0.773412483     -145.581469
9.264                0.772963983     -145.902932
9.265                 0.77251742     -146.225012
9.266                0.772072823     -146.547708
9.267                0.771630221     -146.871016
9.268                0.771189645     -147.194933
9.269                0.770751125     -147.519454
9.27                  0.77031469     -147.844578
9.271                0.769880371       -148.1703
9.272                0.769448196     -148.496618
9.273                0.769018197     -148.823527
9.274                0.768590403     -149.151024
9.275                0.768164843     -149.479105
9.276                0.767741548     -149.807767
9.277                0.767320548     -150.137006
9.278                0.766901871     -150.466818
9.279                0.766485548       -150.7972
9.28                 0.766071608     -151.128147
9.281                 0.76566008     -151.459655
9.282                0.765250995     -151.791721
9.283                0.764844382      -152.12434
9.284                 0.76444027     -152.457508
9.285                0.764038688     -152.791221
9.286                0.763639666     -153.125475
9.287                0.763243232     -153.460266
9.288                0.762849417     -153.795588
9.289                0.762458247     -154.131439
9.29                 0.762069754     -154.467813
9.291                0.761683964     -154.804705
9.292                0.761300908     -155.142112
9.293                0.760920613     -155.480029
9.294                0.760543107      -155.81845
9.295                0.760168419     -156.157372
9.296                0.759796578     -156.496789
9.297                0.759427611     -156.836697
9.298                0.759061545      -157.17709
9.299                0.758698409     -157.517965
9.3                   0.75833823     -157.859315
9.301                0.757981036     -158.201136
9.302                0.757626853     -158.543423
9.303                 0.75727571      -158.88617
9.304                0.756927631     -159.229373
9.305                0.756582645     -159.573026
9.306                0.756240778     -159.917123
9.307                0.755902056     -160.261661
9.308                0.755566505     -160.606632
9.309                0.755234151     -160.952032
9.31                  0.75490502     -161.297855
9.311                0.754579137     -161.644096
9.312                0.754256527     -161.990749
9.313                0.753937216     -162.337808
9.314                0.753621228     -162.685268
9.315                0.753308588     -163.033123
9.316                0.752999321     -163.381367
9.317                0.752693449     -163.729995
9.318                0.752390998        -164.079
9.319                 0.75209199     -164.428377
9.32                  0.75179645     -164.778119
9.321                0.751504399     -165.128221
9.322                0.751215862     -165.478676
9.323                0.750930859     -165.829479
9.324                0.750649415     -166.180624
9.325                 0.75037155     -166.532103
9.326                0.750097286     -166.883911
9.327                0.749826644     -167.236043
9.328                0.749559646      -167.58849
9.329                0.749296313     -167.941248
9.33                 0.749036664     -168.294309
9.331                 0.74878072     -168.647667
9.332                0.748528501     -169.001317
9.333                0.748280026      -169.35525
9.334                0.748035315     -169.709462
9.335                0.747794386     -170.063944
9.336                0.747557257     -170.418692
9.337                0.747323948     -170.773697
9.338                0.747094475     -171.128953
9.339                0.746868857     -171.484455
9.34                 0.746647109     -171.840194
9.341                 0.74642925     -172.196164
9.342                0.746215295     -172.552358
9.343                0.746005261      -172.90877
9.344                0.745799163     -173.265393
9.345                0.745597017      -173.62222
9.346                0.745398837     -173.979243
9.347                0.745204638     -174.336456
9.348                0.745014435     -174.693853
9.349                 0.74482824     -175.051425
9.35                 0.744646068     -175.409166
9.351                0.744467931      -175.76707
9.352                0.744293842     -176.125128
9.353                0.744123814     -176.483334
9.354                0.743957858     -176.841681
9.355                0.743795985     -177.200161
9.356                0.743638208     -177.558768
9.357                0.743484535     -177.917495
9.358                0.743334978     -178.276333
9.359                0.743189547     -178.635277
9.36                  0.74304825     -178.994318
9.361                0.742911097      -179.35345
9.362                0.742778096     -179.712665
9.363                0.742649256      179.928044
9.364                0.742524584      179.568683
9.365                0.742404088      179.209261
9.366                0.742287774      178.849785
9.367                0.742175649      178.490262
9.368                0.742067719      178.130698
9.369                 0.74196399      177.771103
9.37                 0.741864467      177.411482
9.371                0.741769154      177.051843
9.372                0.741678056      176.692194
9.373                0.741591177      176.332541
9.374                0.741508521      175.972892
9.375                 0.74143009      175.613255
9.376                0.741355887      175.253636
9.377                0.741285915      174.894043
9.378                0.741220174      174.534484
9.379                0.741158667      174.174965
9.38                 0.741101394      173.815494
9.381                0.741048356      173.456078
9.382                0.740999553      173.096724
9.383                0.740954985       172.73744
9.384                 0.74091465      172.378233
9.385                0.740878547      172.019111
9.386                0.740846675       171.66008
9.387                0.740819032      171.301147
9.388                0.740795615      170.942321
9.389                0.740776421      170.583608
9.39                 0.740761447      170.225015
9.391                0.740750688       169.86655
9.392                0.740744142      169.508219
9.393                0.740741803      169.150031
9.394                0.740743666      168.791991
9.395                0.740749725      168.434108
9.396                0.740759975      168.076388
