! TOUCHSTONE file generated by CST DESIGN STUDIO
! Date and time: Tue Feb  4 17:29:44 2025
! Project name: C:\Work\MatlabApps\UnitCellOptimizationMatlab\CST\unitcell.cst
! Tree item: Tasks\Sweep1\SPara1\S-Parameters
! Header version: 2024
! Port assignment regex: !\s*Touchstone port\s*([0-9]+)\s*=\s*(CST MWS port|CST DES external port|CST DES block port)\s*(.+)\s* \(\"(.*)\"\)(\s*mode\s*([0-9]+))?.*
! Touchstone port assignment:
! Touchstone port 1 = CST DES external port 1 ("")
# GHz S MA R 50
9                     0.92468659     -80.3011414
9.001                0.924473305     -80.4480639
9.002                0.924258946     -80.5954267
9.003                0.924043509     -80.7432315
9.004                0.923826989     -80.8914795
9.005                0.923609383     -81.0401725
9.006                0.923390686     -81.1893118
9.007                0.923170895     -81.3388991
9.008                0.922950005     -81.4889357
9.009                0.922728013     -81.6394233
9.01                 0.922504914     -81.7903634
9.011                0.922280705     -81.9417575
9.012                0.922055382     -82.0936071
9.013                 0.92182894     -82.2459137
9.014                0.921601376      -82.398679
9.015                0.921372685     -82.5519044
9.016                0.921142865     -82.7055915
9.017                0.920911911     -82.8597418
9.018                0.920679819      -83.014357
9.019                0.920446585     -83.1694384
9.02                 0.920212205     -83.3249878
9.021                0.919976677     -83.4810066
9.022                0.919739994     -83.6374964
9.023                0.919502155     -83.7944588
9.024                0.919263155     -83.9518954
9.025                0.919022991     -84.1098076
9.026                0.918781658     -84.2681972
9.027                0.918539153     -84.4270656
9.028                0.918295472     -84.5864144
9.029                0.918050612     -84.7462453
9.03                 0.917804568     -84.9065597
9.031                0.917557338     -85.0673593
9.032                0.917308917     -85.2286457
9.033                0.917059302     -85.3904204
9.034                0.916808489     -85.5526851
9.035                0.916556475     -85.7154413
9.036                0.916303256     -85.8786906
9.037                0.916048829     -86.0424346
9.038                 0.91579319      -86.206675
9.039                0.915536336     -86.3714132
9.04                 0.915278263      -86.536651
9.041                0.915018968       -86.70239
9.042                0.914758447     -86.8686316
9.043                0.914496698     -87.0353776
9.044                0.914233716     -87.2026295
9.045                0.913969498      -87.370389
9.046                0.913704042     -87.5386576
9.047                0.913437344     -87.7074371
9.048                0.913169401     -87.8767289
9.049                0.912900209     -88.0465347
9.05                 0.912629765     -88.2168562
9.051                0.912358067     -88.3876949
9.052                0.912085112     -88.5590524
9.053                0.911810895     -88.7309305
9.054                0.911535415     -88.9033306
9.055                0.911258669     -89.0762545
9.056                0.910980652     -89.2497037
9.057                0.910701363     -89.4236799
9.058                0.910420799     -89.5981847
9.059                0.910138957     -89.7732197
9.06                 0.909855834     -89.9487865
9.061                0.909571428     -90.1248868
9.062                0.909285735     -90.3015222
9.063                0.908998754     -90.4786944
9.064                0.908710481     -90.6564049
9.065                0.908420915     -90.8346553
9.066                0.908130052     -91.0134474
9.067                 0.90783789     -91.1927827
9.068                0.907544427     -91.3726628
9.069                0.907249661     -91.5530895
9.07                 0.906953589     -91.7340642
9.071                0.906656209     -91.9155887
9.072                0.906357519     -92.0976645
9.073                0.906057517     -92.2802933
9.074                0.905756201     -92.4634767
9.075                0.905453568     -92.6472163
9.076                0.905149617     -92.8315138
9.077                0.904844346     -93.0163708
9.078                0.904537753     -93.2017888
9.079                0.904229837     -93.3877696
9.08                 0.903920595     -93.5743147
9.081                0.903610026     -93.7614257
9.082                0.903298129     -93.9491043
9.083                0.902984901      -94.137352
9.084                0.902670343     -94.3261706
9.085                0.902354451     -94.5155615
9.086                0.902037225     -94.7055264
9.087                0.901718664     -94.8960669
9.088                0.901398766     -95.0871846
9.089                0.901077531     -95.2788812
9.09                 0.900754957     -95.4711581
9.091                0.900431044     -95.6640171
9.092                 0.90010579     -95.8574596
9.093                0.899779195     -96.0514873
9.094                0.899451258     -96.2461018
9.095                0.899121978     -96.4413046
9.096                0.898791356     -96.6370974
9.097                 0.89845939     -96.8334817
9.098                 0.89812608     -97.0304591
9.099                0.897791425     -97.2280312
9.1                  0.897455427     -97.4261995
9.101                0.897118083     -97.6249655
9.102                0.896779396      -97.824331
9.103                0.896439363     -98.0242973
9.104                0.896097986     -98.2248661
9.105                0.895755265      -98.426039
9.106                  0.8954112     -98.6278173
9.107                0.895065792     -98.8302028
9.108                0.894719041     -99.0331969
9.109                0.894370947     -99.2368011
9.11                 0.894021512     -99.4410171
9.111                0.893670736     -99.6458462
9.112                 0.89331862       -99.85129
9.113                0.892965165      -100.05735
9.114                0.892610372     -100.264028
9.115                0.892254243     -100.471325
9.116                0.891896779     -100.679242
9.117                 0.89153798     -100.887782
9.118                 0.89117785     -101.096946
9.119                0.890816388     -101.306735
9.12                 0.890453598      -101.51715
9.121                0.890089481     -101.728193
9.122                0.889724039     -101.939866
9.123                0.889357274      -102.15217
9.124                0.888989189     -102.365106
9.125                0.888619785     -102.578676
9.126                0.888249065     -102.792881
9.127                0.887877031     -103.007723
9.128                0.887503687     -103.223203
9.129                0.887129036     -103.439322
9.13                 0.886753079     -103.656083
9.131                0.886375821     -103.873485
9.132                0.885997264     -104.091531
9.133                0.885617411     -104.310222
9.134                0.885236267     -104.529559
9.135                0.884853835     -104.749544
9.136                0.884470118     -104.970178
9.137                0.884085121     -105.191462
9.138                0.883698847     -105.413398
9.139                  0.8833113     -105.635987
9.14                 0.882922485      -105.85923
9.141                0.882532406     -106.083128
9.142                0.882141068     -106.307683
9.143                0.881748476     -106.532896
9.144                0.881354634     -106.758769
9.145                0.880959547     -106.985302
9.146                 0.88056322     -107.212497
9.147                0.880165659     -107.440354
9.148                0.879766869     -107.668876
9.149                0.879366856     -107.898063
9.15                 0.878965625     -108.127917
9.151                0.878563182     -108.358438
9.152                0.878159534     -108.589628
9.153                0.877754686     -108.821489
9.154                0.877348645      -109.05402
9.155                0.876941417     -109.287223
9.156                 0.87653301       -109.5211
9.157                0.876123429     -109.755651
9.158                0.875712682     -109.990878
9.159                0.875300776     -110.226781
9.16                 0.874887719     -110.463361
9.161                0.874473517     -110.700621
9.162                0.874058179     -110.938559
9.163                0.873641713     -111.177179
9.164                0.873224125      -111.41648
9.165                0.872805426     -111.656463
9.166                0.872385622      -111.89713
9.167                0.871964722     -112.138481
9.168                0.871542736     -112.380517
9.169                0.871119672      -112.62324
9.17                 0.870695538      -112.86665
9.171                0.870270345     -113.110747
9.172                0.869844102     -113.355533
9.173                0.869416817     -113.601009
9.174                0.868988502     -113.847175
9.175                0.868559166     -114.094033
9.176                0.868128819     -114.341582
9.177                0.867697471     -114.589824
9.178                0.867265133     -114.838759
9.179                0.866831816     -115.088388
9.18                  0.86639753     -115.338713
9.181                0.865962287     -115.589732
9.182                0.865526098     -115.841448
9.183                0.865088974      -116.09386
9.184                0.864650927     -116.346969
9.185                0.864211969     -116.600777
9.186                0.863772111     -116.855283
9.187                0.863331367     -117.110488
9.188                0.862889748     -117.366392
9.189                0.862447267     -117.622996
9.19                 0.862003937     -117.880301
9.191                0.861559771     -118.138306
9.192                0.861114783     -118.397013
9.193                0.860668984     -118.656422
9.194                 0.86022239     -118.916532
9.195                0.859775014     -119.177345
9.196                 0.85932687     -119.438861
9.197                0.858877972     -119.701079
9.198                0.858428334     -119.964001
9.199                0.857977972     -120.227627
9.2                  0.857526899     -120.491956
9.201                0.857075132     -120.756989
9.202                0.856622685     -121.022726
9.203                0.856169573     -121.289168
9.204                0.855715813     -121.556314
9.205                 0.85526142     -121.824164
9.206                0.854806411     -122.092719
9.207                  0.8543508     -122.361978
9.208                0.853894606     -122.631942
9.209                0.853437844      -122.90261
9.21                 0.852980531     -123.173982
9.211                0.852522685     -123.446059
9.212                0.852064322      -123.71884
9.213                0.851605461     -123.992325
9.214                0.851146118     -124.266514
9.215                0.850686312     -124.541407
9.216                0.850226061     -124.817002
9.217                0.849765383     -125.093301
9.218                0.849304297     -125.370303
9.219                0.848842821     -125.648008
9.22                 0.848380974     -125.926414
9.221                0.847918776     -126.205522
9.222                0.847456245     -126.485331
9.223                0.846993401     -126.765841
9.224                0.846530264     -127.047052
9.225                0.846066854     -127.328962
9.226                 0.84560319     -127.611571
9.227                0.845139294     -127.894878
9.228                0.844675185     -128.178884
9.229                0.844210885     -128.463587
9.23                 0.843746414     -128.748986
9.231                0.843281794     -129.035081
9.232                0.842817045     -129.321871
9.233                0.842352189     -129.609355
9.234                0.841887249     -129.897532
9.235                0.841422245     -130.186401
9.236                  0.8409572     -130.475962
9.237                0.840492136     -130.766214
9.238                0.840027075     -131.057154
9.239                0.839562041     -131.348783
9.24                 0.839097055       -131.6411
9.241                0.838632142     -131.934102
9.242                0.838167324      -132.22779
9.243                0.837702624     -132.522161
9.244                0.837238066     -132.817215
9.245                0.836773675      -133.11295
9.246                0.836309473     -133.409365
9.247                0.835845485     -133.706458
9.248                0.835381735     -134.004228
9.249                0.834918247     -134.302674
9.25                 0.834455047     -134.601794
9.251                0.833992158     -134.901587
9.252                0.833529607     -135.202051
9.253                0.833067417     -135.503184
9.254                0.832605614     -135.804985
9.255                0.832144224     -136.107451
9.256                0.831683272     -136.410583
9.257                0.831222784     -136.714376
9.258                0.830762785      -137.01883
9.259                0.830303302     -137.323943
9.26                 0.829844362     -137.629713
9.261                0.829385989     -137.936137
9.262                0.828928211     -138.243214
9.263                0.828471054     -138.550942
9.264                0.828014545     -138.859319
9.265                0.827558711     -139.168342
9.266                0.827103579     -139.478009
9.267                0.826649175     -139.788319
9.268                0.826195528     -140.099268
9.269                0.825742664     -140.410854
9.27                 0.825290612     -140.723075
9.271                0.824839397     -141.035929
9.272                0.824389049     -141.349413
9.273                0.823939596     -141.663525
9.274                0.823491064     -141.978262
9.275                0.823043482      -142.29362
9.276                0.822596878     -142.609599
9.277                0.822151281     -142.926194
9.278                0.821706718     -143.243404
9.279                0.821263218     -143.561225
9.28                 0.820820809     -143.879655
9.281                0.820379521      -144.19869
9.282                0.819939381     -144.518328
9.283                0.819500418     -144.838565
9.284                0.819062661     -145.159399
9.285                 0.81862614     -145.480827
9.286                0.818190882     -145.802845
9.287                0.817756916      -146.12545
9.288                0.817324272     -146.448638
9.289                0.816892979     -146.772408
9.29                 0.816463066     -147.096754
9.291                0.816034561     -147.421675
9.292                0.815607495     -147.747165
9.293                0.815181895     -148.073223
9.294                0.814757792     -148.399844
9.295                0.814335214     -148.727024
9.296                0.813914191     -149.054761
9.297                0.813494753      -149.38305
9.298                0.813076927     -149.711887
9.299                0.812660744     -150.041269
9.3                  0.812246233     -150.371193
9.301                0.811833423     -150.701653
9.302                0.811422343     -151.032647
9.303                0.811013022     -151.364169
9.304                 0.81060549     -151.696217
9.305                0.810199776     -152.028786
9.306                0.809795909     -152.361871
9.307                0.809393918     -152.695469
9.308                0.808993832     -153.029576
9.309                 0.80859568     -153.364187
9.31                 0.808199491     -153.699297
9.311                0.807805293     -154.034903
9.312                0.807413117        -154.371
9.313                 0.80702299     -154.707584
9.314                0.806634942     -155.044649
9.315                   0.806249     -155.382192
9.316                0.805865194     -155.720207
9.317                0.805483551     -156.058691
9.318                0.805104101     -156.397638
9.319                0.804726871     -156.737044
9.32                  0.80435189     -157.076903
9.321                0.803979186     -157.417211
9.322                0.803608786     -157.757964
9.323                0.803240718     -158.099155
9.324                0.802875011     -158.440781
9.325                0.802511691     -158.782835
9.326                0.802150787     -159.125313
9.327                0.801792325     -159.468211
9.328                0.801436332     -159.811522
9.329                0.801082836     -160.155241
9.33                 0.800731863     -160.499363
9.331                 0.80038344     -160.843883
9.332                0.800037594     -161.188796
9.333                0.799694351     -161.534095
9.334                0.799353737     -161.879777
9.335                0.799015778     -162.225834
9.336                  0.7986805     -162.572262
9.337                0.798347929     -162.919055
9.338                0.798018089     -163.266207
9.339                0.797691007     -163.613714
9.34                 0.797366707     -163.961568
9.341                0.797045213     -164.309765
9.342                0.796726552     -164.658298
9.343                0.796410746     -165.007162
9.344                 0.79609782     -165.356351
9.345                0.795787798      -165.70586
9.346                0.795480704     -166.055681
9.347                0.795176561     -166.405809
9.348                0.794875392     -166.756239
9.349                 0.79457722     -167.106964
9.35                 0.794282068     -167.457978
9.351                0.793989958     -167.809275
9.352                0.793700913     -168.160849
9.353                0.793414954     -168.512694
9.354                0.793132103     -168.864803
9.355                0.792852382     -169.217171
9.356                 0.79257581     -169.569791
9.357                 0.79230241     -169.922656
9.358                0.792032201     -170.275761
9.359                0.791765204       -170.6291
9.36                 0.791501439     -170.982665
9.361                0.791240925      -171.33645
9.362                0.790983681     -171.690449
9.363                0.790729727     -172.044655
9.364                0.790479082     -172.399063
9.365                0.790231762     -172.753665
9.366                0.789987787     -173.108455
9.367                0.789747175     -173.463426
9.368                0.789509942     -173.818572
9.369                0.789276105     -174.173887
9.37                 0.789045682     -174.529362
9.371                0.788818689     -174.884993
9.372                0.788595141     -175.240772
9.373                0.788375055     -175.596693
9.374                0.788158445     -175.952748
9.375                0.787945327     -176.308932
9.376                0.787735715     -176.665236
9.377                0.787529623     -177.021656
9.378                0.787327066     -177.378183
9.379                0.787128057     -177.734812
9.38                 0.786932609     -178.091535
9.381                0.786740735     -178.448345
9.382                0.786552448     -178.805236
9.383                0.786367758       -179.1622
9.384                0.786186679     -179.519232
9.385                0.786009222     -179.876323
9.386                0.785835396      179.766532
9.387                0.785665214       179.40934
9.388                0.785498684       179.05211
9.389                0.785335818      178.694847
9.39                 0.785176624      178.337558
9.391                 0.78502111       177.98025
9.392                0.784869287       177.62293
9.393                0.784721162      177.265606
9.394                0.784576743      176.908283
9.395                0.784436038      176.550969
9.396                0.784299053      176.193671
