! TOUCHSTONE file generated by CST DESIGN STUDIO
! Date and time: Tue Feb  4 17:29:38 2025
! Project name: C:\Work\MatlabApps\UnitCellOptimizationMatlab\CST\unitcell.cst
! Tree item: Tasks\Sweep1\SPara1\S-Parameters
! Header version: 2024
! Port assignment regex: !\s*Touchstone port\s*([0-9]+)\s*=\s*(CST MWS port|CST DES external port|CST DES block port)\s*(.+)\s* \(\"(.*)\"\)(\s*mode\s*([0-9]+))?.*
! Touchstone port assignment:
! Touchstone port 1 = CST DES external port 1 ("")
# GHz S MA R 50
9                    0.885804746     -106.433644
9.001                0.885500436     -106.667372
9.002                0.885195024     -106.901844
9.003                0.884888511     -107.137061
9.004                0.884580899     -107.373025
9.005                0.884272191     -107.609736
9.006                0.883962389     -107.847198
9.007                0.883651495      -108.08541
9.008                0.883339514     -108.324375
9.009                0.883026446     -108.564094
9.01                 0.882712296     -108.804569
9.011                0.882397067     -109.045801
9.012                0.882080761     -109.287791
9.013                0.881763382     -109.530541
9.014                0.881444934     -109.774052
9.015                0.881125421     -110.018326
9.016                0.880804845     -110.263364
9.017                0.880483212     -110.509167
9.018                0.880160525     -110.755737
9.019                0.879836789     -111.003075
9.02                 0.879512007     -111.251182
9.021                0.879186185     -111.500059
9.022                0.878859328     -111.749709
9.023                0.878531439     -112.000131
9.024                0.878202524     -112.251328
9.025                0.877872589       -112.5033
9.026                0.877541639     -112.756048
9.027                0.877209678     -113.009574
9.028                0.876876713     -113.263879
9.029                 0.87654275     -113.518963
9.03                 0.876207795     -113.774829
9.031                0.875871853     -114.031476
9.032                0.875534931     -114.288906
9.033                0.875197035     -114.547121
9.034                0.874858173      -114.80612
9.035                0.874518351     -115.065905
9.036                0.874177576     -115.326477
9.037                0.873835854     -115.587836
9.038                0.873493195     -115.849984
9.039                0.873149604     -116.112922
9.04                  0.87280509     -116.376649
9.041                0.872459661     -116.641168
9.042                0.872113324     -116.906478
9.043                0.871766088     -117.172581
9.044                0.871417961     -117.439477
9.045                0.871068953     -117.707166
9.046                0.870719071      -117.97565
9.047                0.870368324     -118.244929
9.048                0.870016723     -118.515004
9.049                0.869664276     -118.785875
9.05                 0.869310992     -119.057542
9.051                0.868956883     -119.330007
9.052                0.868601956     -119.603269
9.053                0.868246223     -119.877329
9.054                0.867889695     -120.152188
9.055                 0.86753238     -120.427845
9.056                0.867174291     -120.704302
9.057                0.866815438     -120.981558
9.058                0.866455832     -121.259613
9.059                0.866095485     -121.538468
9.06                 0.865734407     -121.818123
9.061                0.865372612     -122.098578
9.062                 0.86501011     -122.379834
9.063                0.864646914      -122.66189
9.064                0.864283037     -122.944746
9.065                 0.86391849     -123.228402
9.066                0.863553286     -123.512859
9.067                0.863187439     -123.798116
9.068                0.862820962     -124.084172
9.069                0.862453867     -124.371029
9.07                 0.862086169     -124.658686
9.071                0.861717882     -124.947141
9.072                0.861349019     -125.236396
9.073                0.860979594      -125.52645
9.074                0.860609622     -125.817302
9.075                0.860239118     -126.108953
9.076                0.859868096     -126.401401
9.077                0.859496572     -126.694645
9.078                0.859124561     -126.988687
9.079                0.858752078     -127.283524
9.08                 0.858379138     -127.579157
9.081                0.858005759     -127.875585
9.082                0.857631955     -128.172806
9.083                0.857257744     -128.470821
9.084                0.856883141     -128.769627
9.085                0.856508164     -129.069226
9.086                 0.85613283     -129.369615
9.087                0.855757155     -129.670794
9.088                0.855381157     -129.972761
9.089                0.855004854     -130.275516
9.09                 0.854628263     -130.579057
9.091                0.854251402     -130.883384
9.092                 0.85387429     -131.188495
9.093                0.853496945     -131.494389
9.094                0.853119386     -131.801065
9.095                0.852741631     -132.108521
9.096                  0.8523637     -132.416755
9.097                0.851985612     -132.725768
9.098                0.851607386     -133.035556
9.099                0.851229042     -133.346118
9.1                  0.850850599     -133.657454
9.101                0.850472078      -133.96956
9.102                  0.8500935     -134.282436
9.103                0.849714884      -134.59608
9.104                0.849336251      -134.91049
9.105                0.848957622     -135.225663
9.106                0.848579018     -135.541599
9.107                0.848200461     -135.858295
9.108                0.847821971     -136.175748
9.109                0.847443571     -136.493958
9.11                 0.847065282     -136.812922
9.111                0.846687126     -137.132637
9.112                0.846309125     -137.453102
9.113                0.845931302     -137.774313
9.114                0.845553679      -138.09627
9.115                0.845176279     -138.418968
9.116                0.844799125     -138.742407
9.117                 0.84442224     -139.066582
9.118                0.844045647     -139.391492
9.119                0.843669369     -139.717134
9.12                 0.843293431     -140.043506
9.121                0.842917855     -140.370604
9.122                0.842542667     -140.698425
9.123                0.842167889     -141.026967
9.124                0.841793546     -141.356227
9.125                0.841419662     -141.686202
9.126                0.841046262     -142.016888
9.127                0.840673371     -142.348283
9.128                0.840301013     -142.680383
9.129                0.839929214     -143.013185
9.13                 0.839557998     -143.346686
9.131                 0.83918739     -143.680882
9.132                0.838817417      -144.01577
9.133                0.838448103     -144.351347
9.134                0.838079474     -144.687608
9.135                0.837711555     -145.024551
9.136                0.837344374     -145.362171
9.137                0.836977955     -145.700465
9.138                0.836612324     -146.039429
9.139                0.836247509     -146.379059
9.14                 0.835883534     -146.719351
9.141                0.835520427     -147.060301
9.142                0.835158214     -147.401906
9.143                0.834796921      -147.74416
9.144                0.834436576      -148.08706
9.145                0.834077204     -148.430602
9.146                0.833718833      -148.77478
9.147                 0.83336149     -149.119592
9.148                0.833005201     -149.465032
9.149                0.832649993     -149.811096
9.15                 0.832295894     -150.157779
9.151                0.831942931     -150.505077
9.152                 0.83159113     -150.852985
9.153                 0.83124052     -151.201499
9.154                0.830891126     -151.550612
9.155                0.830542978     -151.900322
9.156                0.830196101     -152.250622
9.157                0.829850523     -152.601508
9.158                0.829506272     -152.952974
9.159                0.829163375     -153.305016
9.16                  0.82882186     -153.657629
9.161                0.828481753     -154.010806
9.162                0.828143083     -154.364544
9.163                0.827805876     -154.718835
9.164                 0.82747016     -155.073676
9.165                0.827135962     -155.429061
9.166                 0.82680331     -155.784983
9.167                0.826472231     -156.141438
9.168                0.826142753      -156.49842
9.169                0.825814902     -156.855923
9.17                 0.825488705     -157.213941
9.171                0.825164191     -157.572469
9.172                0.824841386       -157.9315
9.173                0.824520317     -158.291029
9.174                0.824201011      -158.65105
9.175                0.823883495     -159.011556
9.176                0.823567795     -159.372542
9.177                 0.82325394     -159.734001
9.178                0.822941955     -160.095927
9.179                0.822631866     -160.458314
9.18                 0.822323701     -160.821156
9.181                0.822017486     -161.184446
9.182                0.821713246     -161.548177
9.183                0.821411009     -161.912344
9.184                  0.8211108     -162.276939
9.185                0.820812645     -162.641957
9.186                 0.82051657      -163.00739
9.187                  0.8202226     -163.373232
9.188                0.819930761     -163.739475
9.189                0.819641079     -164.106114
9.19                 0.819353578     -164.473142
9.191                0.819068283     -164.840551
9.192                 0.81878522     -165.208334
9.193                0.818504413     -165.576485
9.194                0.818225887     -165.944997
9.195                0.817949665     -166.313862
9.196                0.817675773     -166.683073
9.197                0.817404233     -167.052624
9.198                 0.81713507     -167.422507
9.199                0.816868307     -167.792715
9.2                  0.816603968      -168.16324
9.201                0.816342076     -168.534075
9.202                0.816082653     -168.905213
9.203                0.815825722     -169.276647
9.204                0.815571306     -169.648368
9.205                0.815319426      -170.02037
9.206                0.815070106     -170.392645
9.207                0.814823366     -170.765186
9.208                0.814579228     -171.137984
9.209                0.814337713     -171.511033
9.21                 0.814098842     -171.884324
9.211                0.813862636      -172.25785
9.212                0.813629114     -172.631603
9.213                0.813398299     -173.005576
9.214                0.813170208      -173.37976
9.215                0.812944862     -173.754148
9.216                 0.81272228     -174.128733
9.217                 0.81250248     -174.503505
9.218                0.812285482     -174.878458
9.219                0.812071305     -175.253584
9.22                 0.811859965     -175.628873
9.221                0.811651481      -176.00432
9.222                0.811445869     -176.379915
9.223                0.811243149      -176.75565
9.224                0.811043335     -177.131519
9.225                0.810846445     -177.507511
9.226                0.810652495      -177.88362
9.227                  0.8104615     -178.259838
9.228                0.810273476     -178.636156
9.229                0.810088438     -179.012566
9.23                 0.809906401     -179.389061
9.231                0.809727379     -179.765632
9.232                0.809551387       179.85773
9.233                0.809378438      179.481032
9.234                0.809208545      179.104282
9.235                0.809041722      178.727488
9.236                0.808877981      178.350659
9.237                0.808717335      177.973803
9.238                0.808559795      177.596928
9.239                0.808405373      177.220042
9.24                  0.80825408      176.843154
9.241                0.808105928      176.466271
9.242                0.807960926      176.089401
9.243                0.807819084      175.712554
9.244                0.807680413      175.335736
9.245                0.807544921      174.958957
9.246                0.807412618      174.582224
9.247                0.807283511      174.205545
9.248                 0.80715761      173.828929
9.249                0.807034922      173.452384
9.25                 0.806915455      173.075918
9.251                0.806799215      172.699539
9.252                0.806686208      172.323255
9.253                0.806576443      171.947074
9.254                0.806469923      171.571005
9.255                0.806366655      171.195055
9.256                0.806266644      170.819232
9.257                0.806169893      170.443545
9.258                0.806076409      170.068002
9.259                0.805986194       169.69261
9.26                 0.805899252      169.317378
9.261                0.805815587      168.942313
9.262                  0.8057352      168.567424
9.263                0.805658095      168.192718
9.264                0.805584272      167.818204
9.265                0.805513735      167.443888
9.266                0.805446484       167.06978
9.267                0.805382519      166.695886
9.268                0.805321841      166.322215
9.269                0.805264451      165.948774
9.27                 0.805210347      165.575572
9.271                 0.80515953      165.202615
9.272                0.805111998      164.829912
9.273                0.805067749       164.45747
9.274                0.805026781      164.085296
9.275                0.804989094      163.713399
9.276                0.804954683      163.341786
9.277                0.804923545      162.970464
9.278                0.804895678      162.599441
9.279                0.804871078      162.228724
9.28                 0.804849741      161.858321
9.281                0.804831661      161.488239
9.282                0.804816836      161.118485
9.283                0.804805258      160.749067
9.284                0.804796923      160.379991
9.285                0.804791825      160.011266
9.286                0.804789957      159.642897
9.287                0.804791313      159.274893
9.288                0.804795887      158.907259
9.289                 0.80480367      158.540004
9.29                 0.804814656      158.173135
9.291                0.804828836      157.806657
9.292                0.804846203      157.440578
9.293                0.804866747      157.074905
9.294                0.804890459      156.709645
9.295                0.804917331      156.344804
9.296                0.804947353      155.980388
9.297                0.804980515      155.616405
9.298                0.805016807      155.252861
9.299                0.805056218      154.889763
9.3                  0.805098738      154.527117
9.301                0.805144356      154.164929
9.302                 0.80519306      153.803206
9.303                0.805244838      153.441953
9.304                0.805299679      153.081178
9.305                0.805357571      152.720887
9.306                0.805418501      152.361085
9.307                0.805482456      152.001778
9.308                0.805549423      151.642973
9.309                0.805619389      151.284676
9.31                  0.80569234      150.926892
9.311                0.805768263      150.569627
9.312                0.805847143      150.212888
9.313                0.805928966      149.856679
9.314                0.806013718      149.501006
9.315                0.806101384      149.145875
9.316                0.806191948      148.791292
9.317                0.806285396      148.437262
9.318                0.806381712       148.08379
9.319                 0.80648088      147.730882
9.32                 0.806582885      147.378542
9.321                 0.80668771      147.026777
9.322                0.806795338      146.675591
9.323                0.806905754       146.32499
9.324                0.807018941      145.974978
9.325                0.807134881      145.625561
9.326                0.807253558      145.276743
9.327                0.807374954      144.928529
9.328                0.807499052      144.580924
9.329                0.807625833      144.233932
9.33                 0.807755281      143.887559
9.331                0.807887378      143.541809
9.332                0.808022104      143.196686
9.333                0.808159442      142.852195
9.334                0.808299373      142.508341
9.335                0.808441879      142.165126
9.336                0.808586941      141.822557
9.337                 0.80873454      141.480637
9.338                0.808884657       141.13937
9.339                0.809037272       140.79876
9.34                 0.809192368      140.458812
9.341                0.809349923      140.119529
9.342                0.809509919      139.780914
9.343                0.809672336      139.442973
9.344                0.809837154      139.105708
9.345                0.810004354      138.769124
9.346                0.810173915      138.433224
9.347                0.810345818      138.098011
9.348                0.810520042      137.763489
9.349                0.810696567      137.429662
9.35                 0.810875373      137.096532
9.351                0.811056439      136.764103
9.352                0.811239746      136.432379
9.353                0.811425272      136.101362
9.354                0.811612997      135.771056
9.355                0.811802901      135.441464
9.356                0.811994962      135.112588
9.357                0.812189161      134.784432
9.358                0.812385476      134.456999
9.359                0.812583886       134.13029
9.36                  0.81278437       133.80431
9.361                0.812986909       133.47906
9.362                 0.81319148      133.154544
9.363                0.813398063      132.830763
9.364                0.813606637      132.507721
9.365                0.813817181       132.18542
9.366                0.814029674      131.863862
9.367                0.814244094      131.543049
9.368                0.814460422      131.222984
9.369                0.814678635      130.903669
9.37                 0.814898713      130.585106
9.371                0.815120635      130.267298
9.372                0.815344379      129.950245
9.373                0.815569925      129.633951
9.374                0.815797252      129.318417
9.375                0.816026339      129.003644
9.376                0.816257164      128.689636
9.377                0.816489707      128.376393
9.378                0.816723946      128.063917
9.379                0.816959862       127.75221
9.38                 0.817197433      127.441273
9.381                0.817436637      127.131108
9.382                0.817677456      126.821716
9.383                0.817919867        126.5131
9.384                0.818163849      126.205259
9.385                0.818409383      125.898196
9.386                0.818656448      125.591911
9.387                0.818905022      125.286406
9.388                0.819155086      124.981683
9.389                0.819406619      124.677741
9.39                 0.819659601      124.374583
9.391                0.819914011      124.072209
9.392                0.820169828       123.77062
9.393                0.820427034      123.469816
9.394                0.820685606        123.1698
9.395                0.820945527      122.870572
9.396                0.821206774      122.572131
