! TOUCHSTONE file generated by CST DESIGN STUDIO
! Date and time: Tue Feb  4 17:29:51 2025
! Project name: C:\Work\MatlabApps\UnitCellOptimizationMatlab\CST\unitcell.cst
! Tree item: Tasks\Sweep1\SPara1\S-Parameters
! Header version: 2024
! Port assignment regex: !\s*Touchstone port\s*([0-9]+)\s*=\s*(CST MWS port|CST DES external port|CST DES block port)\s*(.+)\s* \(\"(.*)\"\)(\s*mode\s*([0-9]+))?.*
! Touchstone port assignment:
! Touchstone port 1 = CST DES external port 1 ("")
# GHz S MA R 50
9                    0.959467132     -55.6452865
9.001                0.959359071       -55.72387
9.002                0.959250501     -55.8026347
9.003                0.959141422     -55.8815811
9.004                0.959031831     -55.9607097
9.005                0.958921727     -56.0400213
9.006                0.958811108     -56.1195163
9.007                0.958699972     -56.1991953
9.008                0.958588318     -56.2790589
9.009                0.958476144     -56.3591077
9.01                 0.958363447     -56.4393422
9.011                0.958250227     -56.5197632
9.012                0.958136481     -56.6003711
9.013                0.958022209     -56.6811665
9.014                0.957907407     -56.7621501
9.015                0.957792075     -56.8433224
9.016                 0.95767621      -56.924684
9.017                0.957559811     -57.0062356
9.018                0.957442876     -57.0879777
9.019                0.957325404      -57.169911
9.02                 0.957207392      -57.252036
9.021                0.957088838     -57.3343534
9.022                0.956969742     -57.4168637
9.023                  0.9568501     -57.4995677
9.024                0.956729912     -57.5824659
9.025                0.956609176     -57.6655589
9.026                0.956487889     -57.7488474
9.027                 0.95636605     -57.8323319
9.028                0.956243658     -57.9160132
9.029                0.956120709     -57.9998918
9.03                 0.955997204     -58.0839683
9.031                0.955873139     -58.1682435
9.032                0.955748512     -58.2527179
9.033                0.955623323     -58.3373922
9.034                0.955497569      -58.422267
9.035                0.955371249      -58.507343
9.036                 0.95524436     -58.5926208
9.037                  0.9551169     -58.6781011
9.038                0.954988869     -58.7637845
9.039                0.954860263     -58.8496717
9.04                 0.954731082     -58.9357633
9.041                0.954601323     -59.0220599
9.042                0.954470984     -59.1085624
9.043                0.954340064     -59.1952712
9.044                0.954208561     -59.2821871
9.045                0.954076472     -59.3693108
9.046                0.953943797     -59.4566429
9.047                0.953810533     -59.5441841
9.048                0.953676677     -59.6319351
9.049                0.953542229     -59.7198965
9.05                 0.953407187      -59.808069
9.051                0.953271548     -59.8964534
9.052                0.953135311     -59.9850503
9.053                0.952998473     -60.0738604
9.054                0.952861034     -60.1628844
9.055                 0.95272299     -60.2521229
9.056                 0.95258434     -60.3415768
9.057                0.952445083     -60.4312466
9.058                0.952305215     -60.5211331
9.059                0.952164736     -60.6112371
9.06                 0.952023643     -60.7015591
9.061                0.951881935     -60.7920999
9.062                0.951739609     -60.8828603
9.063                0.951596664     -60.9738409
9.064                0.951453097     -61.0650425
9.065                0.951308908     -61.1564658
9.066                0.951164092     -61.2481115
9.067                 0.95101865     -61.3399803
9.068                0.950872579      -61.432073
9.069                0.950725876     -61.5243904
9.07                 0.950578541      -61.616933
9.071                 0.95043057     -61.7097018
9.072                0.950281963     -61.8026974
9.073                0.950132717     -61.8959205
9.074                0.949982829      -61.989372
9.075                0.949832299     -62.0830525
9.076                0.949681124     -62.1769629
9.077                0.949529303     -62.2711038
9.078                0.949376832     -62.3654761
9.079                0.949223711     -62.4600804
9.08                 0.949069937     -62.5549177
9.081                0.948915509     -62.6499886
9.082                0.948760424     -62.7452938
9.083                 0.94860468     -62.8408343
9.084                0.948448275     -62.9366107
9.085                0.948291208     -63.0326238
9.086                0.948133476     -63.1288744
9.087                0.947975077     -63.2253634
9.088                 0.94781601     -63.3220914
9.089                0.947656272     -63.4190593
9.09                 0.947495862     -63.5162679
9.091                0.947334777      -63.613718
9.092                0.947173015     -63.7114103
9.093                0.947010574     -63.8093457
9.094                0.946847453      -63.907525
9.095                0.946683649      -64.005949
9.096                 0.94651916     -64.1046185
9.097                0.946353985     -64.2035343
9.098                0.946188121     -64.3026972
9.099                0.946021566     -64.4021081
9.1                  0.945854318     -64.5017678
9.101                0.945686375     -64.6016771
9.102                0.945517736     -64.7018368
9.103                0.945348397     -64.8022479
9.104                0.945178358      -64.902911
9.105                0.945007616     -65.0038271
9.106                0.944836168      -65.104997
9.107                0.944664014     -65.2064215
9.108                 0.94449115     -65.3081015
9.109                0.944317576     -65.4100379
9.11                 0.944143288     -65.5122314
9.111                0.943968285     -65.6146831
9.112                0.943792565     -65.7173936
9.113                0.943616126      -65.820364
9.114                0.943438965      -65.923595
9.115                0.943261081     -66.0270875
9.116                0.943082472     -66.1308425
9.117                0.942903135     -66.2348607
9.118                0.942723069     -66.3391431
9.119                0.942542271     -66.4436906
9.12                  0.94236074      -66.548504
9.121                0.942178473     -66.6535842
9.122                0.941995468     -66.7589322
9.123                0.941811724     -66.8645488
9.124                0.941627238     -66.9704349
9.125                0.941442008     -67.0765915
9.126                0.941256033     -67.1830194
9.127                0.941069309     -67.2897195
9.128                0.940881835     -67.3966928
9.129                 0.94069361     -67.5039402
9.13                  0.94050463     -67.6114626
9.131                0.940314895      -67.719261
9.132                0.940124401     -67.8273362
9.133                0.939933147     -67.9356892
9.134                0.939741131     -68.0443209
9.135                0.939548351     -68.1532323
9.136                0.939354804     -68.2624244
9.137                0.939160489     -68.3718979
9.138                0.938965404      -68.481654
9.139                0.938769547     -68.5916935
9.14                 0.938572914     -68.7020175
9.141                0.938375506     -68.8126268
9.142                0.938177319     -68.9235224
9.143                0.937978351     -69.0347054
9.144                0.937778601     -69.1461766
9.145                0.937578066      -69.257937
9.146                0.937376745     -69.3699877
9.147                0.937174635     -69.4823296
9.148                0.936971734     -69.5949636
9.149                0.936768041     -69.7078909
9.15                 0.936563553     -69.8211123
9.151                0.936358268     -69.9346288
9.152                0.936152185     -70.0484415
9.153                  0.9359453     -70.1625513
9.154                0.935737614     -70.2769593
9.155                0.935529122     -70.3916665
9.156                0.935319823     -70.5066739
9.157                0.935109716     -70.6219824
9.158                0.934898798     -70.7375931
9.159                0.934687068     -70.8535071
9.16                 0.934474522     -70.9697254
9.161                 0.93426116     -71.0862489
9.162                0.934046979     -71.2030788
9.163                0.933831978      -71.320216
9.164                0.933616154     -71.4376616
9.165                0.933399506     -71.5554167
9.166                 0.93318203     -71.6734822
9.167                0.932963727     -71.7918593
9.168                0.932744593      -71.910549
9.169                0.932524626     -72.0295524
9.17                 0.932303826     -72.1488704
9.171                0.932082188     -72.2685043
9.172                0.931859713      -72.388455
9.173                0.931636398     -72.5087236
9.174                 0.93141224     -72.6293112
9.175                0.931187239     -72.7502189
9.176                0.930961392     -72.8714478
9.177                0.930734697      -72.992999
9.178                0.930507152     -73.1148734
9.179                0.930278755     -73.2370724
9.18                 0.930049506     -73.3595968
9.181                0.929819401     -73.4824479
9.182                0.929588438     -73.6056268
9.183                0.929356617     -73.7291345
9.184                0.929123935     -73.8529721
9.185                 0.92889039     -73.9771409
9.186                 0.92865598     -74.1016419
9.187                0.928420705     -74.2264761
9.188                 0.92818456     -74.3516449
9.189                0.927947546     -74.4771492
9.19                  0.92770966     -74.6029903
9.191                  0.9274709     -74.7291692
9.192                0.927231265     -74.8556872
9.193                0.926990753     -74.9825453
9.194                0.926749362     -75.1097447
9.195                0.926507089     -75.2372865
9.196                0.926263935      -75.365172
9.197                0.926019896     -75.4934022
9.198                0.925774971     -75.6219784
9.199                0.925529159     -75.7509017
9.2                  0.925282457     -75.8801732
9.201                0.925034864     -76.0097943
9.202                0.924786379     -76.1397659
9.203                0.924536999     -76.2700894
9.204                0.924286722     -76.4007659
9.205                0.924035549     -76.5317965
9.206                0.923783475     -76.6631826
9.207                0.923530501     -76.7949252
9.208                0.923276624     -76.9270257
9.209                0.923021843     -77.0594851
9.21                 0.922766156     -77.1923047
9.211                0.922509562     -77.3254857
9.212                0.922252058     -77.4590294
9.213                0.921993645     -77.5929369
9.214                0.921734319     -77.7272095
9.215                0.921474079     -77.8618484
9.216                0.921212925     -77.9968548
9.217                0.920950854       -78.13223
9.218                0.920687865     -78.2679752
9.219                0.920423957     -78.4040916
9.22                 0.920159128     -78.5405805
9.221                0.919893376     -78.6774431
9.222                0.919626701     -78.8146807
9.223                  0.9193591     -78.9522946
9.224                0.919090573     -79.0902859
9.225                0.918821118      -79.228656
9.226                0.918550734     -79.3674062
9.227                 0.91827942     -79.5065376
9.228                0.918007173     -79.6460516
9.229                0.917733994     -79.7859495
9.23                  0.91745988     -79.9262325
9.231                 0.91718483     -80.0669019
9.232                0.916908844      -80.207959
9.233                0.916631919     -80.3494051
9.234                0.916354056     -80.4912414
9.235                0.916075252     -80.6334694
9.236                0.915795506     -80.7760902
9.237                0.915514817     -80.9191052
9.238                0.915233185     -81.0625157
9.239                0.914950608      -81.206323
9.24                 0.914667085     -81.3505284
9.241                0.914382615     -81.4951332
9.242                0.914097197     -81.6401388
9.243                 0.91381083     -81.7855465
9.244                0.913523512     -81.9313575
9.245                0.913235244     -82.0775734
9.246                0.912946025     -82.2241952
9.247                0.912655852     -82.3712245
9.248                0.912364726     -82.5186625
9.249                0.912072645     -82.6665107
9.25                 0.911779609     -82.8147702
9.251                0.911485617     -82.9634426
9.252                0.911190669      -83.112529
9.253                0.910894762      -83.262031
9.254                0.910597898     -83.4119498
9.255                0.910300074     -83.5622869
9.256                0.910001291     -83.7130435
9.257                0.909701548     -83.8642211
9.258                0.909400843      -84.015821
9.259                0.909099178     -84.1678445
9.26                  0.90879655     -84.3202932
9.261                 0.90849296     -84.4731683
9.262                0.908188407     -84.6264712
9.263                0.907882891     -84.7802034
9.264                0.907576411     -84.9343662
9.265                0.907268966     -85.0889609
9.266                0.906960557     -85.2439891
9.267                0.906651184      -85.399452
9.268                0.906340845     -85.5553511
9.269                0.906029541     -85.7116878
9.27                 0.905717271     -85.8684636
9.271                0.905404036     -86.0256797
9.272                0.905089834     -86.1833376
9.273                0.904774667     -86.3414387
9.274                0.904458534     -86.4999845
9.275                0.904141434     -86.6589763
9.276                0.903823369     -86.8184156
9.277                0.903504337     -86.9783039
9.278                0.903184339     -87.1386424
9.279                0.902863376     -87.2994326
9.28                 0.902541447     -87.4606761
9.281                0.902218552     -87.6223741
9.282                0.901894692     -87.7845282
9.283                0.901569867     -87.9471398
9.284                0.901244078     -88.1102103
9.285                0.900917324     -88.2737411
9.286                0.900589606     -88.4377337
9.287                0.900260925     -88.6021896
9.288                0.899931281     -88.7671101
9.289                0.899600675     -88.9324968
9.29                 0.899269107      -89.098351
9.291                0.898936578     -89.2646742
9.292                0.898603088      -89.431468
9.293                0.898268639     -89.5987337
9.294                 0.89793323     -89.7664727
9.295                0.897596863     -89.9346866
9.296                0.897259539     -90.1033768
9.297                0.896921259     -90.2725448
9.298                0.896582023      -90.442192
9.299                0.896241833     -90.6123199
9.3                   0.89590069     -90.7829299
9.301                0.895558594     -90.9540236
9.302                0.895215548     -91.1256023
9.303                0.894871551     -91.2976676
9.304                0.894526606     -91.4702209
9.305                0.894180714     -91.6432636
9.306                0.893833876     -91.8167974
9.307                0.893486094     -91.9908235
9.308                0.893137368     -92.1653436
9.309                0.892787702      -92.340359
9.31                 0.892437095     -92.5158713
9.311                0.892085551     -92.6918818
9.312                0.891733071     -92.8683922
9.313                0.891379655     -93.0454039
9.314                0.891025308     -93.2229182
9.315                0.890670029     -93.4009368
9.316                0.890313822     -93.5794611
9.317                0.889956688     -93.7584925
9.318                0.889598629     -93.9380326
9.319                0.889239647     -94.1180828
9.32                 0.888879746     -94.2986445
9.321                0.888518926     -94.4797194
9.322                0.888157191     -94.6613087
9.323                0.887794542     -94.8434141
9.324                0.887430983      -95.026037
9.325                0.887066516     -95.2091788
9.326                0.886701142      -95.392841
9.327                0.886334867     -95.5770251
9.328                 0.88596769     -95.7617326
9.329                0.885599617      -95.946965
9.33                 0.885230649     -96.1327236
9.331                 0.88486079       -96.31901
9.332                0.884490042     -96.5058257
9.333                0.884118409      -96.693172
9.334                0.883745894     -96.8810506
9.335                  0.8833725     -97.0694627
9.336                 0.88299823     -97.2584099
9.337                0.882623089     -97.4478937
9.338                0.882247079     -97.6379155
9.339                0.881870204     -97.8284768
9.34                 0.881492467     -98.0195789
9.341                0.881113873     -98.2112234
9.342                0.880734425     -98.4034117
9.343                0.880354127     -98.5961453
9.344                0.879972984     -98.7894256
9.345                0.879590998      -98.983254
9.346                0.879208174     -99.1776319
9.347                0.878824517     -99.3725609
9.348                0.878440031     -99.5680423
9.349                 0.87805472     -99.7640776
9.35                 0.877668588     -99.9606682
9.351                0.877281641     -100.157815
9.352                0.876893882     -100.355521
9.353                0.876505317     -100.553786
9.354                0.876115951     -100.752612
9.355                0.875725788        -100.952
9.356                0.875334833     -101.151952
9.357                0.874943091     -101.352469
9.358                0.874550568     -101.553553
9.359                0.874157269     -101.755205
9.36                   0.8737632     -101.957426
9.361                0.873368365     -102.160218
9.362                 0.87297277     -102.363582
9.363                0.872576422     -102.567519
9.364                0.872179325     -102.772032
9.365                0.871781486      -102.97712
9.366                 0.87138291     -103.182786
9.367                0.870983604     -103.389031
9.368                0.870583574     -103.595856
9.369                0.870182826     -103.803263
9.37                 0.869781366     -104.011252
9.371                0.869379201     -104.219826
9.372                0.868976338     -104.428986
9.373                0.868572783     -104.638732
9.374                0.868168543     -104.849067
9.375                0.867763624     -105.059991
9.376                0.867358034     -105.271505
9.377                 0.86695178     -105.483612
9.378                 0.86654487     -105.696312
9.379                0.866137309     -105.909607
9.38                 0.865729107     -106.123498
9.381                0.865320269     -106.337985
9.382                0.864910805     -106.553071
9.383                0.864500721     -106.768757
9.384                0.864090026     -106.985044
9.385                0.863678728     -107.201932
9.386                0.863266834     -107.419424
9.387                0.862854353      -107.63752
9.388                0.862441293     -107.856222
9.389                0.862027663     -108.075531
9.39                 0.861613471     -108.295448
9.391                0.861198726     -108.515974
9.392                0.860783436     -108.737111
9.393                0.860367611     -108.958859
9.394                 0.85995126     -109.181219
9.395                0.859534391     -109.404193
9.396                0.859117014     -109.627782
