! TOUCHSTONE file generated by CST DESIGN STUDIO
! Date and time: Tue Feb  4 17:29:49 2025
! Project name: C:\Work\MatlabApps\UnitCellOptimizationMatlab\CST\unitcell.cst
! Tree item: Tasks\Sweep1\SPara1\S-Parameters
! Header version: 2024
! Port assignment regex: !\s*Touchstone port\s*([0-9]+)\s*=\s*(CST MWS port|CST DES external port|CST DES block port)\s*(.+)\s* \(\"(.*)\"\)(\s*mode\s*([0-9]+))?.*
! Touchstone port assignment:
! Touchstone port 1 = CST DES external port 1 ("")
# GHz S MA R 50
9                    0.952791239     -60.7432816
9.001                0.952665641     -60.8342676
9.002                0.952539388     -60.9254795
9.003                0.952412477     -61.0169181
9.004                0.952284907      -61.108584
9.005                0.952156675     -61.2004781
9.006                0.952027778     -61.2926011
9.007                0.951898215     -61.3849537
9.008                0.951767983     -61.4775367
9.009                0.951637079     -61.5703508
9.01                 0.951505501     -61.6633967
9.011                0.951373247     -61.7566752
9.012                0.951240314     -61.8501871
9.013                0.951106701     -61.9439332
9.014                0.950972404      -62.037914
9.015                0.950837422     -62.1321306
9.016                0.950701751     -62.2265835
9.017                 0.95056539     -62.3212737
9.018                0.950428336     -62.4162017
9.019                0.950290587     -62.5113685
9.02                  0.95015214     -62.6067748
9.021                0.950012993     -62.7024214
9.022                0.949873144      -62.798309
9.023                0.949732589     -62.8944385
9.024                0.949591328     -62.9908106
9.025                0.949449356     -63.0874262
9.026                0.949306673      -63.184286
9.027                0.949163275     -63.2813908
9.028                 0.94901916     -63.3787414
9.029                0.948874326     -63.4763387
9.03                 0.948728769     -63.5741834
9.031                0.948582489     -63.6722763
9.032                0.948435482     -63.7706183
9.033                0.948287745     -63.8692102
9.034                0.948139277     -63.9680528
9.035                0.947990075     -64.0671469
9.036                0.947840137     -64.1664933
9.037                0.947689459     -64.2660929
9.038                0.947538041     -64.3659465
9.039                0.947385878     -64.4660549
9.04                 0.947232969      -64.566419
9.041                0.947079311     -64.6670396
9.042                0.946924902     -64.7679176
9.043                 0.94676974     -64.8690537
9.044                0.946613821      -64.970449
9.045                0.946457143     -65.0721041
9.046                0.946299705       -65.17402
9.047                0.946141503     -65.2761975
9.048                0.945982535     -65.3786375
9.049                0.945822798     -65.4813408
9.05                  0.94566229     -65.5843083
9.051                0.945501009      -65.687541
9.052                0.945338952     -65.7910396
9.053                0.945176116      -65.894805
9.054                0.945012499     -65.9988382
9.055                0.944848099     -66.1031399
9.056                0.944682913     -66.2077112
9.057                0.944516939     -66.3125529
9.058                0.944350174     -66.4176658
9.059                0.944182615     -66.5230509
9.06                 0.944014261     -66.6287091
9.061                0.943845108     -66.7346413
9.062                0.943675154     -66.8408484
9.063                0.943504397     -66.9473313
9.064                0.943332834     -67.0540909
9.065                0.943160462     -67.1611281
9.066                 0.94298728     -67.2684439
9.067                0.942813284     -67.3760392
9.068                0.942638473     -67.4839149
9.069                0.942462843     -67.5920719
9.07                 0.942286392     -67.7005112
9.071                0.942109118     -67.8092337
9.072                0.941931018     -67.9182404
9.073                 0.94175209     -68.0275321
9.074                 0.94157233     -68.1371099
9.075                0.941391738     -68.2469747
9.076                0.941210309     -68.3571275
9.077                0.941028043     -68.4675692
9.078                0.940844935     -68.5783007
9.079                0.940660984     -68.6893231
9.08                 0.940476187     -68.8006372
9.081                0.940290542     -68.9122442
9.082                0.940104046     -69.0241449
9.083                0.939916697     -69.1363403
9.084                0.939728492     -69.2488314
9.085                0.939539429     -69.3616193
9.086                0.939349505     -69.4747048
9.087                0.939158717      -69.588089
9.088                0.938967064     -69.7017729
9.089                0.938774543     -69.8157574
9.09                 0.938581151     -69.9300437
9.091                0.938386886     -70.0446326
9.092                0.938191745     -70.1595252
9.093                0.937995726     -70.2747225
9.094                0.937798826     -70.3902256
9.095                0.937601044     -70.5060353
9.096                0.937402375     -70.6221529
9.097                0.937202819     -70.7385793
9.098                0.937002372     -70.8553155
9.099                0.936801033     -70.9723625
9.1                  0.936598798     -71.0897215
9.101                0.936395665     -71.2073934
9.102                0.936191632     -71.3253793
9.103                0.935986697     -71.4436802
9.104                0.935780856     -71.5622973
9.105                0.935574107     -71.6812314
9.106                0.935366449     -71.8004838
9.107                0.935157878     -71.9200555
9.108                0.934948393     -72.0399475
9.109                 0.93473799     -72.1601609
9.11                 0.934526667     -72.2806968
9.111                0.934314423     -72.4015563
9.112                0.934101254     -72.5227404
9.113                0.933887158     -72.6442503
9.114                0.933672133      -72.766087
9.115                0.933456177     -72.8882515
9.116                0.933239286     -73.0107451
9.117                0.933021459     -73.1335689
9.118                0.932802693     -73.2567238
9.119                0.932582987      -73.380211
9.12                 0.932362337     -73.5040317
9.121                0.932140741     -73.6281869
9.122                0.931918197     -73.7526778
9.123                0.931694703     -73.8775055
9.124                0.931470255      -74.002671
9.125                0.931244853     -74.1281757
9.126                0.931018494     -74.2540204
9.127                0.930791175     -74.3802065
9.128                0.930562894     -74.5067351
9.129                0.930333649     -74.6336072
9.13                 0.930103437     -74.7608241
9.131                0.929872257     -74.8883869
9.132                0.929640105     -75.0162967
9.133                0.929406981     -75.1445548
9.134                0.929172881     -75.2731622
9.135                0.928937803     -75.4021201
9.136                0.928701745     -75.5314297
9.137                0.928464706     -75.6610922
9.138                0.928226682     -75.7911088
9.139                0.927987671     -75.9214806
9.14                 0.927747672     -76.0522088
9.141                0.927506683     -76.1832946
9.142                  0.9272647     -76.3147392
9.143                0.927021722     -76.4465438
9.144                0.926777747     -76.5787095
9.145                0.926532773     -76.7112377
9.146                0.926286798     -76.8441294
9.147                0.926039819      -76.977386
9.148                0.925791834     -77.1110086
9.149                0.925542842     -77.2449984
9.15                 0.925292841     -77.3793567
9.151                0.925041827     -77.5140846
9.152                0.924789801     -77.6491835
9.153                0.924536758     -77.7846544
9.154                0.924282698     -77.9204988
9.155                0.924027618     -78.0567177
9.156                0.923771517     -78.1933126
9.157                0.923514392     -78.3302845
9.158                0.923256242     -78.4676347
9.159                0.922997064     -78.6053645
9.16                 0.922736858     -78.7434752
9.161                 0.92247562      -78.881968
9.162                0.922213349     -79.0208442
9.163                0.921950044      -79.160105
9.164                0.921685702     -79.2997518
9.165                0.921420322     -79.4397857
9.166                0.921153902      -79.580208
9.167                0.920886439     -79.7210202
9.168                0.920617933     -79.8622233
9.169                0.920348382     -80.0038187
9.17                 0.920077784     -80.1458078
9.171                0.919806137     -80.2881917
9.172                0.919533439     -80.4309718
9.173                 0.91925969     -80.5741495
9.174                0.918984887     -80.7177259
9.175                0.918709029     -80.8617024
9.176                0.918432114     -81.0060803
9.177                 0.91815414      -81.150861
9.178                0.917875107     -81.2960457
9.179                0.917595012     -81.4416358
9.18                 0.917313854     -81.5876326
9.181                0.917031633     -81.7340374
9.182                0.916748345     -81.8808515
9.183                 0.91646399     -82.0280763
9.184                0.916178567     -82.1757132
9.185                0.915892074     -82.3237634
9.186                0.915604509     -82.4722283
9.187                0.915315872     -82.6211092
9.188                0.915026162     -82.7704076
9.189                0.914735376     -82.9201247
9.19                 0.914443514     -83.0702619
9.191                0.914150575     -83.2208206
9.192                0.913856557     -83.3718021
9.193                0.913561459     -83.5232077
9.194                0.913265281      -83.675039
9.195                 0.91296802     -83.8272972
9.196                0.912669677     -83.9799836
9.197                 0.91237025     -84.1330998
9.198                0.912069737      -84.286647
9.199                0.911768139     -84.4406267
9.2                  0.911465454     -84.5950401
9.201                0.911161682     -84.7498888
9.202                0.910856821     -84.9051741
9.203                0.910550871     -85.0608974
9.204                 0.91024383     -85.2170601
9.205                0.909935699     -85.3736636
9.206                0.909626476     -85.5307092
9.207                0.909316161     -85.6881985
9.208                0.909004753     -85.8461328
9.209                0.908692251     -86.0045134
9.21                 0.908378656     -86.1633419
9.211                0.908063966     -86.3226197
9.212                0.907748181      -86.482348
9.213                  0.9074313     -86.6425285
9.214                0.907113324     -86.8031624
9.215                0.906794251     -86.9642513
9.216                0.906474082     -87.1257965
9.217                0.906152816     -87.2877994
9.218                0.905830453     -87.4502616
9.219                0.905506992     -87.6131843
9.22                 0.905182435     -87.7765692
9.221                0.904856779     -87.9404175
9.222                0.904530026     -88.1047308
9.223                0.904202175     -88.2695104
9.224                0.903873227     -88.4347579
9.225                0.903543181     -88.6004746
9.226                0.903212037     -88.7666621
9.227                0.902879797     -88.9333216
9.228                0.902546459     -89.1004548
9.229                0.902212024     -89.2680631
9.23                 0.901876493     -89.4361478
9.231                0.901539866     -89.6047105
9.232                0.901202143     -89.7737526
9.233                0.900863325     -89.9432756
9.234                0.900523411     -90.1132809
9.235                0.900182404       -90.28377
9.236                0.899840303     -90.4547444
9.237                0.899497109     -90.6262054
9.238                0.899152823     -90.7981546
9.239                0.898807445     -90.9705935
9.24                 0.898460977     -91.1435235
9.241                0.898113419      -91.316946
9.242                0.897764773     -91.4908626
9.243                0.897415038     -91.6652747
9.244                0.897064217     -91.8401837
9.245                 0.89671231     -92.0155912
9.246                0.896359319     -92.1914986
9.247                0.896005244     -92.3679074
9.248                0.895650088      -92.544819
9.249                0.895293851     -92.7222349
9.25                 0.894936535     -92.9001567
9.251                0.894578141     -93.0785857
9.252                0.894218672     -93.2575234
9.253                0.893858128     -93.4369714
9.254                0.893496511      -93.616931
9.255                0.893133823     -93.7974038
9.256                0.892770066     -93.9783913
9.257                0.892405241     -94.1598948
9.258                0.892039352     -94.3419159
9.259                0.891672398      -94.524456
9.26                 0.891304384     -94.7075167
9.261                 0.89093531     -94.8910993
9.262                 0.89056518     -95.0752054
9.263                0.890193995     -95.2598364
9.264                0.889821758     -95.4449938
9.265                0.889448471      -95.630679
9.266                0.889074136     -95.8168936
9.267                0.888698758     -96.0036389
9.268                0.888322337     -96.1909165
9.269                0.887944877     -96.3787278
9.27                  0.88756638     -96.5670743
9.271                 0.88718685     -96.7559575
9.272                 0.88680629     -96.9453787
9.273                0.886424702     -97.1353395
9.274                 0.88604209     -97.3258412
9.275                0.885658456     -97.5168854
9.276                0.885273805     -97.7084736
9.277                 0.88488814     -97.9006071
9.278                0.884501464     -98.0932874
9.279                 0.88411378     -98.2865159
9.28                 0.883725093     -98.4802941
9.281                0.883335406     -98.6746235
9.282                0.882944723     -98.8695054
9.283                0.882553047     -99.0649413
9.284                0.882160383     -99.2609326
9.285                0.881766735     -99.4574808
9.286                0.881372108     -99.6545873
9.287                0.880976504     -99.8522534
9.288                0.880579929     -100.050481
9.289                0.880182388     -100.249271
9.29                 0.879783884     -100.448624
9.291                0.879384422     -100.648543
9.292                0.878984007     -100.849029
9.293                0.878582645     -101.050083
9.294                0.878180339     -101.251707
9.295                0.877777095     -101.453901
9.296                0.877372918     -101.656668
9.297                0.876967813     -101.860008
9.298                0.876561786     -102.063924
9.299                0.876154841     -102.268416
9.3                  0.875746986     -102.473486
9.301                0.875338224     -102.679135
9.302                0.874928562     -102.885364
9.303                0.874518007     -103.092176
9.304                0.874106562      -103.29957
9.305                0.873694236      -103.50755
9.306                0.873281033     -103.716115
9.307                0.872866961     -103.925267
9.308                0.872452025     -104.135008
9.309                0.872036232     -104.345339
9.31                 0.871619589      -104.55626
9.311                0.871202103     -104.767775
9.312                0.870783779     -104.979883
9.313                0.870364626     -105.192586
9.314                 0.86994465     -105.405885
9.315                0.869523859     -105.619782
9.316                0.869102259     -105.834278
9.317                0.868679858     -106.049374
9.318                0.868256664     -106.265072
9.319                0.867832684     -106.481372
9.32                 0.867407926     -106.698275
9.321                0.866982397     -106.915784
9.322                0.866556107     -107.133899
9.323                0.866129063     -107.352622
9.324                0.865701273     -107.571953
9.325                0.865272745     -107.791894
9.326                0.864843489     -108.012446
9.327                0.864413512     -108.233611
9.328                0.863982824     -108.455389
9.329                0.863551433     -108.677781
9.33                 0.863119349     -108.900789
9.331                0.862686579     -109.124413
9.332                0.862253135     -109.348656
9.333                0.861819024     -109.573517
9.334                0.861384257     -109.798999
9.335                0.860948843     -110.025101
9.336                0.860512792     -110.251826
9.337                0.860076114     -110.479175
9.338                0.859638818     -110.707147
9.339                0.859200916     -110.935745
9.34                 0.858762417      -111.16497
9.341                0.858323332     -111.394821
9.342                0.857883671     -111.625302
9.343                0.857443444     -111.856411
9.344                0.857002664     -112.088151
9.345                0.856561341     -112.320522
9.346                0.856119485     -112.553526
9.347                0.855677109     -112.787163
9.348                0.855234223     -113.021434
9.349                0.854790839     -113.256339
9.35                 0.854346969     -113.491881
9.351                0.853902624      -113.72806
9.352                0.853457817     -113.964876
9.353                0.853012559      -114.20233
9.354                0.852566863     -114.440424
9.355                0.852120742     -114.679158
9.356                0.851674207     -114.918533
9.357                0.851227271     -115.158549
9.358                0.850779947     -115.399208
9.359                0.850332248      -115.64051
9.36                 0.849884188     -115.882456
9.361                0.849435779     -116.125047
9.362                0.848987034     -116.368283
9.363                0.848537968     -116.612164
9.364                0.848088593     -116.856693
9.365                0.847638925     -117.101868
9.366                0.847188976     -117.347692
9.367                 0.84673876     -117.594164
9.368                0.846288293     -117.841285
9.369                0.845837588     -118.089055
9.37                  0.84538666     -118.337476
9.371                0.844935523     -118.586547
9.372                0.844484193     -118.836269
9.373                0.844032685     -119.086643
9.374                0.843581013     -119.337669
9.375                0.843129192     -119.589348
9.376                0.842677239      -119.84168
9.377                0.842225169     -120.094664
9.378                0.841772997     -120.348303
9.379                 0.84132074     -120.602595
9.38                 0.840868413     -120.857542
9.381                0.840416032     -121.113143
9.382                0.839963614       -121.3694
9.383                0.839511176     -121.626311
9.384                0.839058733     -121.883878
9.385                0.838606303     -122.142101
9.386                0.838153903     -122.400979
9.387                0.837701548     -122.660513
9.388                0.837249258     -122.920704
9.389                0.836797049      -123.18155
9.39                 0.836344938     -123.443053
9.391                0.835892943     -123.705212
9.392                0.835441082     -123.968027
9.393                0.834989372     -124.231499
9.394                0.834537833     -124.495627
9.395                0.834086481     -124.760411
9.396                0.833635335     -125.025852
