! TOUCHSTONE file generated by CST DESIGN STUDIO
! Date and time: Tue Feb  4 17:29:45 2025
! Project name: C:\Work\MatlabApps\UnitCellOptimizationMatlab\CST\unitcell.cst
! Tree item: Tasks\Sweep1\SPara1\S-Parameters
! Header version: 2024
! Port assignment regex: !\s*Touchstone port\s*([0-9]+)\s*=\s*(CST MWS port|CST DES external port|CST DES block port)\s*(.+)\s* \(\"(.*)\"\)(\s*mode\s*([0-9]+))?.*
! Touchstone port assignment:
! Touchstone port 1 = CST DES external port 1 ("")
# GHz S MA R 50
9                    0.935504697     -73.0082607
9.001                0.935326926     -73.1329636
9.002                0.935148191     -73.2580213
9.003                0.934968491      -73.383435
9.004                 0.93478782     -73.5092058
9.005                0.934606175     -73.6353351
9.006                0.934423553     -73.7618239
9.007                0.934239949     -73.8886736
9.008                0.934055359     -74.0158853
9.009                0.933869781     -74.1434602
9.01                  0.93368321     -74.2713996
9.011                0.933495642     -74.3997048
9.012                0.933307074     -74.5283768
9.013                0.933117502      -74.657417
9.014                0.932926922     -74.7868266
9.015                 0.93273533     -74.9166069
9.016                0.932542723      -75.046759
9.017                0.932349097     -75.1772843
9.018                0.932154448     -75.3081839
9.019                0.931958772     -75.4394592
9.02                 0.931762066     -75.5711114
9.021                0.931564325     -75.7031418
9.022                0.931365547     -75.8355516
9.023                0.931165728     -75.9683421
9.024                0.930964863     -76.1015146
9.025                0.930762949     -76.2350703
9.026                0.930559982     -76.3690106
9.027                0.930355959     -76.5033366
9.028                0.930150875     -76.6380498
9.029                0.929944728     -76.7731514
9.03                 0.929737514     -76.9086426
9.031                0.929529228     -77.0445249
9.032                0.929319868     -77.1807994
9.033                0.929109429     -77.3174675
9.034                0.928897908     -77.4545306
9.035                0.928685301     -77.5919898
9.036                0.928471605     -77.7298466
9.037                0.928256815     -77.8681022
9.038                 0.92804093      -78.006758
9.039                0.927823943     -78.1458153
9.04                 0.927605854     -78.2852754
9.041                0.927386656     -78.4251397
9.042                0.927166348     -78.5654095
9.043                0.926944926     -78.7060861
9.044                0.926722385     -78.8471709
9.045                0.926498723     -78.9886652
9.046                0.926273936     -79.1305703
9.047                 0.92604802     -79.2728878
9.048                0.925820972     -79.4156188
9.049                0.925592789     -79.5587647
9.05                 0.925363466     -79.7023269
9.051                0.925133001     -79.8463068
9.052                0.924901391     -79.9907058
9.053                0.924668631     -80.1355252
9.054                0.924434718     -80.2807663
9.055                 0.92419965     -80.4264306
9.056                0.923963422     -80.5725195
9.057                0.923726031     -80.7190343
9.058                0.923487474     -80.8659765
9.059                0.923247748     -81.0133473
9.06                  0.92300685     -81.1611483
9.061                0.922764775     -81.3093807
9.062                0.922521521     -81.4580461
9.063                0.922277085     -81.6071458
9.064                0.922031463     -81.7566812
9.065                0.921784653     -81.9066537
9.066                 0.92153665     -82.0570648
9.067                0.921287452     -82.2079159
9.068                0.921037057     -82.3592083
9.069                 0.92078546     -82.5109435
9.07                 0.920532658     -82.6631229
9.071                0.920278649      -82.815748
9.072                 0.92002343     -82.9688201
9.073                0.919766998     -83.1223408
9.074                0.919509349     -83.2763114
9.075                 0.91925048     -83.4307334
9.076                 0.91899039     -83.5856083
9.077                0.918729074     -83.7409374
9.078                 0.91846653     -83.8967222
9.079                0.918202756     -84.0529642
9.08                 0.917937748     -84.2096648
9.081                0.917671504     -84.3668254
9.082                 0.91740402     -84.5244476
9.083                0.917135295     -84.6825328
9.084                0.916865325     -84.8410825
9.085                0.916594108      -85.000098
9.086                0.916321641     -85.1595809
9.087                0.916047922     -85.3195327
9.088                0.915772948     -85.4799548
9.089                0.915496717     -85.6408487
9.09                 0.915219226     -85.8022158
9.091                0.914940473     -85.9640577
9.092                0.914660454     -86.1263758
9.093                0.914379169     -86.2891716
9.094                0.914096615     -86.4524466
9.095                0.913812789     -86.6162022
9.096                0.913527689       -86.78044
9.097                0.913241313     -86.9451615
9.098                0.912953658     -87.1103681
9.099                0.912664723     -87.2760613
9.1                  0.912374506     -87.4422427
9.101                0.912083004     -87.6089137
9.102                0.911790216     -87.7760758
9.103                0.911496139     -87.9437305
9.104                0.911200772     -88.1118793
9.105                0.910904113     -88.2805238
9.106                0.910606159     -88.4496654
9.107                 0.91030691     -88.6193056
9.108                0.910006363     -88.7894459
9.109                0.909704518     -88.9600879
9.11                 0.909401371     -89.1312331
9.111                0.909096922     -89.3028829
9.112                0.908791169     -89.4750389
9.113                 0.90848411     -89.6477026
9.114                0.908175745     -89.8208755
9.115                0.907866072     -89.9945591
9.116                0.907555089      -90.168755
9.117                0.907242796     -90.3434646
9.118                 0.90692919     -90.5186894
9.119                0.906614272     -90.6944311
9.12                 0.906298039      -90.870691
9.121                0.905980492     -91.0474708
9.122                0.905661628     -91.2247719
9.123                0.905341447     -91.4025958
9.124                0.905019948     -91.5809442
9.125                0.904697131     -91.7598184
9.126                0.904372994       -91.93922
9.127                0.904047537     -92.1191506
9.128                 0.90372076     -92.2996116
9.129                0.903392661     -92.4806046
9.13                 0.903063241     -92.6621311
9.131                0.902732499     -92.8441926
9.132                0.902400434     -93.0267906
9.133                0.902067047     -93.2099267
9.134                0.901732337     -93.3936023
9.135                0.901396304     -93.5778191
9.136                0.901058948     -93.7625784
9.137                0.900720269     -93.9478818
9.138                0.900380267     -94.1337309
9.139                0.900038943     -94.3201271
9.14                 0.899696296      -94.507072
9.141                0.899352327      -94.694567
9.142                0.899007036     -94.8826137
9.143                0.898660425     -95.0712136
9.144                0.898312492     -95.2603682
9.145                0.897963239      -95.450079
9.146                0.897612667     -95.6403476
9.147                0.897260777     -95.8311753
9.148                0.896907569     -96.0225637
9.149                0.896553044     -96.2145143
9.15                 0.896197203     -96.4070287
9.151                0.895840048     -96.6001082
9.152                 0.89548158     -96.7937544
9.153                  0.8951218     -96.9879688
9.154                0.894760709     -97.1827529
9.155                0.894398309     -97.3781081
9.156                0.894034601      -97.574036
9.157                0.893669588      -97.770538
9.158                0.893303271     -97.9676156
9.159                0.892935651     -98.1652702
9.16                 0.892566731     -98.3635033
9.161                0.892196513     -98.5623165
9.162                0.891824999     -98.7617111
9.163                0.891452191     -98.9616887
9.164                0.891078092     -99.1622506
9.165                0.890702704     -99.3633983
9.166                0.890326029     -99.5651333
9.167                 0.88994807     -99.7674571
9.168                 0.88956883      -99.970371
9.169                0.889188312     -100.173876
9.17                 0.888806519     -100.377975
9.171                0.888423453     -100.582668
9.172                0.888039119     -100.787957
9.173                0.887653518     -100.993843
9.174                0.887266656     -101.200328
9.175                0.886878534     -101.407413
9.176                0.886489158     -101.615099
9.177                 0.88609853     -101.823388
9.178                0.885706654     -102.032282
9.179                0.885313534     -102.241781
9.18                 0.884919175     -102.451887
9.181                0.884523581     -102.662602
9.182                0.884126755     -102.873926
9.183                0.883728703     -103.085862
9.184                0.883329429      -103.29841
9.185                0.882928937     -103.511572
9.186                0.882527233     -103.725349
9.187                0.882124321     -103.939742
9.188                0.881720207     -104.154754
9.189                0.881314895     -104.370384
9.19                  0.88090839     -104.586635
9.191                0.880500699     -104.803508
9.192                0.880091827     -105.021003
9.193                 0.87968178     -105.239123
9.194                0.879270562     -105.457869
9.195                0.878858182     -105.677241
9.196                0.878444643     -105.897242
9.197                0.878029953     -106.117872
9.198                0.877614118     -106.339132
9.199                0.877197145     -106.561024
9.2                   0.87677904     -106.783549
9.201                0.876359809     -107.006709
9.202                0.875939461     -107.230504
9.203                0.875518001     -107.454935
9.204                0.875095437     -107.680005
9.205                0.874671777     -107.905713
9.206                0.874247028     -108.132061
9.207                0.873821197     -108.359051
9.208                0.873394293     -108.586683
9.209                0.872966323     -108.814959
9.21                 0.872537295     -109.043879
9.211                0.872107218     -109.273445
9.212                  0.8716761     -109.503658
9.213                0.871243949     -109.734519
9.214                0.870810775     -109.966028
9.215                0.870376585     -110.198188
9.216                 0.86994139     -110.430999
9.217                0.869505197     -110.664462
9.218                0.869068017     -110.898577
9.219                0.868629859     -111.133347
9.22                 0.868190733     -111.368772
9.221                0.867750648     -111.604854
9.222                0.867309613     -111.841592
9.223                0.866867641     -112.078988
9.224                 0.86642474     -112.317042
9.225                 0.86598092     -112.555757
9.226                0.865536194     -112.795132
9.227                 0.86509057     -113.035169
9.228                0.864644061     -113.275868
9.229                0.864196678      -113.51723
9.23                 0.863748431     -113.759256
9.231                0.863299331     -114.001947
9.232                0.862849392     -114.245304
9.233                0.862398623     -114.489328
9.234                0.861947038     -114.734018
9.235                0.861494649     -114.979376
9.236                0.861041466     -115.225403
9.237                0.860587504       -115.4721
9.238                0.860132774     -115.719466
9.239                 0.85967729     -115.967503
9.24                 0.859221064     -116.216212
9.241                 0.85876411     -116.465592
9.242                 0.85830644     -116.715645
9.243                0.857848068     -116.966372
9.244                0.857389009     -117.217772
9.245                0.856929275     -117.469846
9.246                 0.85646888     -117.722595
9.247                 0.85600784      -117.97602
9.248                0.855546168      -118.23012
9.249                0.855083878     -118.484897
9.25                 0.854620986      -118.74035
9.251                0.854157507     -118.996481
9.252                0.853693454     -119.253289
9.253                0.853228845     -119.510775
9.254                0.852763693     -119.768939
9.255                0.852298015     -120.027782
9.256                0.851831827     -120.287304
9.257                0.851365143     -120.547505
9.258                0.850897982     -120.808385
9.259                0.850430358     -121.069945
9.26                 0.849962289     -121.332185
9.261                0.849493791     -121.595105
9.262                0.849024881     -121.858705
9.263                0.848555575     -122.122986
9.264                0.848085892     -122.387947
9.265                0.847615848     -122.653588
9.266                0.847145462      -122.91991
9.267                0.846674751     -123.186913
9.268                0.846203732     -123.454596
9.269                0.845732424      -123.72296
9.27                 0.845260846     -123.992004
9.271                0.844789015     -124.261728
9.272                0.844316951     -124.532133
9.273                0.843844672     -124.803218
9.274                0.843372198     -125.074983
9.275                0.842899547     -125.347428
9.276                0.842426738     -125.620552
9.277                0.841953792     -125.894355
9.278                0.841480728     -126.168838
9.279                0.841007566     -126.443999
9.28                 0.840534326     -126.719838
9.281                0.840061028     -126.996355
9.282                0.839587693      -127.27355
9.283                0.839114342     -127.551421
9.284                0.838640994     -127.829969
9.285                0.838167671     -128.109193
9.286                0.837694394     -128.389093
9.287                0.837221185     -128.669667
9.288                0.836748064     -128.950915
9.289                0.836275053     -129.232837
9.29                 0.835802175     -129.515432
9.291                 0.83532945     -129.798699
9.292                0.834856902     -130.082638
9.293                0.834384552     -130.367247
9.294                0.833912423     -130.652526
9.295                0.833440537     -130.938473
9.296                0.832968917     -131.225089
9.297                0.832497586     -131.512372
9.298                0.832026568     -131.800321
9.299                0.831555884     -132.088935
9.3                  0.831085559     -132.378212
9.301                0.830615615     -132.668153
9.302                0.830146078     -132.958756
9.303                 0.82967697     -133.250019
9.304                0.829208315     -133.541942
9.305                0.828740138     -133.834523
9.306                0.828272462     -134.127761
9.307                0.827805313     -134.421655
9.308                0.827338714     -134.716203
9.309                 0.82687269     -135.011403
9.31                 0.826407266     -135.307255
9.311                0.825942467     -135.603757
9.312                0.825478318     -135.900908
9.313                0.825014844     -136.198705
9.314                 0.82455207     -136.497147
9.315                0.824090022     -136.796234
9.316                0.823628725     -137.095962
9.317                0.823168204      -137.39633
9.318                0.822708487     -137.697336
9.319                0.822249598      -137.99898
9.32                 0.821791563     -138.301258
9.321                0.821334409     -138.604168
9.322                0.820878161      -138.90771
9.323                0.820422847     -139.211881
9.324                0.819968492     -139.516678
9.325                0.819515122     -139.822101
9.326                0.819062766     -140.128146
9.327                0.818611448     -140.434811
9.328                0.818161196     -140.742095
9.329                0.817712036     -141.049995
9.33                 0.817263997     -141.358509
9.331                0.816817104     -141.667634
9.332                0.816371384     -141.977368
9.333                0.815926865     -142.287709
9.334                0.815483575     -142.598654
9.335                0.815041539     -142.910201
9.336                0.814600786     -143.222346
9.337                0.814161344     -143.535088
9.338                0.813723238     -143.848424
9.339                0.813286498     -144.162351
9.34                  0.81285115     -144.476866
9.341                0.812417222     -144.791967
9.342                0.811984741      -145.10765
9.343                0.811553736     -145.423913
9.344                0.811124234     -145.740753
9.345                0.810696263     -146.058167
9.346                0.810269851     -146.376151
9.347                0.809845024     -146.694704
9.348                0.809421812      -147.01382
9.349                0.809000242     -147.333498
9.35                 0.808580341     -147.653735
9.351                0.808162138     -147.974526
9.352                 0.80774566     -148.295869
9.353                0.807330935     -148.617759
9.354                0.806917991     -148.940195
9.355                0.806506855     -149.263172
9.356                0.806097556     -149.586687
9.357                0.805690122     -149.910736
9.358                0.805284579     -150.235315
9.359                0.804880956     -150.560422
9.36                  0.80447928     -150.886051
9.361                0.804079579     -151.212201
9.362                 0.80368188     -151.538866
9.363                0.803286212     -151.866042
9.364                0.802892601     -152.193727
9.365                0.802501075     -152.521916
9.366                0.802111661     -152.850605
9.367                0.801724387      -153.17979
9.368                 0.80133928     -153.509466
9.369                0.800956366     -153.839631
9.37                 0.800575674     -154.170279
9.371                 0.80019723     -154.501406
9.372                0.799821061     -154.833009
9.373                0.799447193     -155.165082
9.374                0.799075654     -155.497621
9.375                 0.79870647     -155.830623
9.376                0.798339668     -156.164082
9.377                0.797975274     -156.497995
9.378                0.797613314     -156.832355
9.379                0.797253815      -157.16716
9.38                 0.796896802     -157.502404
9.381                0.796542302     -157.838082
9.382                0.796190339      -158.17419
9.383                0.795840941     -158.510724
9.384                0.795494132     -158.847677
9.385                0.795149937     -159.185046
9.386                0.794808382     -159.522826
9.387                0.794469492     -159.861011
9.388                0.794133292     -160.199596
9.389                0.793799806     -160.538577
9.39                 0.793469059     -160.877948
9.391                0.793141075     -161.217705
9.392                0.792815879     -161.557842
9.393                0.792493493     -161.898354
9.394                0.792173943     -162.239235
9.395                0.791857252     -162.580481
9.396                0.791543443     -162.922086
