! TOUCHSTONE file generated by CST DESIGN STUDIO
! Date and time: Wed Feb  5 13:34:34 2025
! Project name: C:\Work\MatlabApps\UnitCellOptimizationMatlab\CST\unitcell.cst
! Tree item: Tasks\Sweep1\SPara1\S-Parameters
! Header version: 2024
! Port assignment regex: !\s*Touchstone port\s*([0-9]+)\s*=\s*(CST MWS port|CST DES external port|CST DES block port)\s*(.+)\s* \(\"(.*)\"\)(\s*mode\s*([0-9]+))?.*
! Touchstone port assignment:
! Touchstone port 1 = CST DES external port 1 ("")
# GHz S MA R 50
9                    0.966900316     -42.1000661
9.001                0.966849526     -42.1504125
9.002                0.966798588     -42.2008534
9.003                  0.9667475     -42.2513892
9.004                0.966696264       -42.30202
9.005                0.966644877     -42.3527462
9.006                0.966593339      -42.403568
9.007                0.966541651     -42.4544857
9.008                0.966489811     -42.5054996
9.009                0.966437818       -42.55661
9.01                 0.966385674     -42.6078172
9.011                0.966333376     -42.6591213
9.012                0.966280925     -42.7105228
9.013                 0.96622832     -42.7620218
9.014                 0.96617556     -42.8136188
9.015                0.966122645     -42.8653138
9.016                0.966069575     -42.9171074
9.017                0.966016348     -42.9689996
9.018                0.965962965     -43.0209909
9.019                0.965909425     -43.0730815
9.02                 0.965855727     -43.1252717
9.021                0.965801871     -43.1775618
9.022                0.965747856     -43.2299521
9.023                0.965693682     -43.2824428
9.024                0.965639349     -43.3350343
9.025                0.965584855     -43.3877269
9.026                  0.9655302     -43.4405208
9.027                0.965475384     -43.4934164
9.028                0.965420406     -43.5464139
9.029                0.965365266     -43.5995137
9.03                 0.965309963      -43.652716
9.031                0.965254496     -43.7060212
9.032                0.965198865     -43.7594296
9.033                 0.96514307     -43.8129414
9.034                0.965087109      -43.866557
9.035                0.965030983     -43.9202766
9.036                0.964974691     -43.9741007
9.037                0.964918232     -44.0280294
9.038                0.964861605     -44.0820631
9.039                0.964804811     -44.1362021
9.04                 0.964747848     -44.1904468
9.041                0.964690716     -44.2447974
9.042                0.964633415     -44.2992542
9.043                0.964575944     -44.3538176
9.044                0.964518301     -44.4084878
9.045                0.964460488     -44.4632653
9.046                0.964402502     -44.5181502
9.047                0.964344344      -44.573143
9.048                0.964286013     -44.6282439
9.049                0.964227509     -44.6834533
9.05                  0.96416883     -44.7387715
9.051                0.964109977     -44.7941988
9.052                0.964050948     -44.8497356
9.053                0.963991743     -44.9053821
9.054                0.963932362     -44.9611387
9.055                0.963872804     -45.0170058
9.056                0.963813067     -45.0729836
9.057                0.963753153     -45.1290725
9.058                0.963693059     -45.1852728
9.059                0.963632786     -45.2415848
9.06                 0.963572333      -45.298009
9.061                0.963511699     -45.3545455
9.062                0.963450884     -45.4111949
9.063                0.963389887     -45.4679573
9.064                0.963328707     -45.5248331
9.065                0.963267344     -45.5818228
9.066                0.963205797     -45.6389265
9.067                0.963144066     -45.6961447
9.068                 0.96308215     -45.7534778
9.069                0.963020048      -45.810926
9.07                 0.962957759     -45.8684896
9.071                0.962895284     -45.9261692
9.072                0.962832621     -45.9839649
9.073                 0.96276977     -46.0418772
9.074                 0.96270673     -46.0999064
9.075                0.962643501     -46.1580528
9.076                0.962580081     -46.2163168
9.077                 0.96251647     -46.2746988
9.078                0.962452668     -46.3331992
9.079                0.962388674     -46.3918182
9.08                 0.962324488     -46.4505562
9.081                0.962260107     -46.5094137
9.082                0.962195533     -46.5683909
9.083                0.962130764     -46.6274883
9.084                  0.9620658     -46.6867061
9.085                0.962000639     -46.7460448
9.086                0.961935282     -46.8055048
9.087                0.961869727     -46.8650863
9.088                0.961803975     -46.9247898
9.089                0.961738023     -46.9846156
9.09                 0.961671873     -47.0445642
9.091                0.961605522     -47.1046358
9.092                 0.96153897      -47.164831
9.093                0.961472217     -47.2251499
9.094                0.961405261     -47.2855931
9.095                0.961338103     -47.3461609
9.096                0.961270741     -47.4068536
9.097                0.961203175     -47.4676718
9.098                0.961135404     -47.5286156
9.099                0.961067427     -47.5896856
9.1                  0.960999244     -47.6508822
9.101                0.960930854     -47.7122056
9.102                0.960862256     -47.7736564
9.103                 0.96079345     -47.8352349
9.104                0.960724434     -47.8969414
9.105                0.960655209     -47.9587764
9.106                0.960585772     -48.0207403
9.107                0.960516125     -48.0828335
9.108                0.960446265     -48.1450564
9.109                0.960376193     -48.2074093
9.11                 0.960305907     -48.2698927
9.111                0.960235406      -48.332507
9.112                0.960164691     -48.3952526
9.113                 0.96009376     -48.4581298
9.114                0.960022612     -48.5211392
9.115                0.959951247     -48.5842811
9.116                0.959879665     -48.6475559
9.117                0.959807863      -48.710964
9.118                0.959735842     -48.7745059
9.119                  0.9596636     -48.8381819
9.12                 0.959591138     -48.9019926
9.121                0.959518454     -48.9659382
9.122                0.959445547     -49.0300192
9.123                0.959372417     -49.0942361
9.124                0.959299063     -49.1585892
9.125                0.959225484     -49.2230791
9.126                0.959151679      -49.287706
9.127                0.959077648     -49.3524705
9.128                 0.95900339      -49.417373
9.129                0.958928903     -49.4824139
9.13                 0.958854188     -49.5475936
9.131                0.958779244     -49.6129126
9.132                0.958704069     -49.6783712
9.133                0.958628663     -49.7439701
9.134                0.958553025     -49.8097095
9.135                0.958477154     -49.8755899
9.136                 0.95840105     -49.9416118
9.137                0.958324711     -50.0077757
9.138                0.958248137     -50.0740819
9.139                0.958171327     -50.1405309
9.14                  0.95809428     -50.2071231
9.141                0.958016996     -50.2738591
9.142                0.957939473     -50.3407392
9.143                0.957861711     -50.4077639
9.144                0.957783709     -50.4749337
9.145                0.957705466      -50.542249
9.146                0.957626981     -50.6097103
9.147                0.957548254     -50.6773181
9.148                0.957469283     -50.7450728
9.149                0.957390068     -50.8129748
9.15                 0.957310608     -50.8810247
9.151                0.957230902     -50.9492229
9.152                0.957150948     -51.0175699
9.153                0.957070748     -51.0860661
9.154                0.956990298     -51.1547121
9.155                  0.9569096     -51.2235083
9.156                0.956828651     -51.2924551
9.157                0.956747451     -51.3615531
9.158                0.956665998     -51.4308027
9.159                0.956584293     -51.5002045
9.16                 0.956502335     -51.5697589
9.161                0.956420121     -51.6394663
9.162                0.956337652     -51.7093273
9.163                0.956254927     -51.7793424
9.164                0.956171944     -51.8495121
9.165                0.956088703     -51.9198368
9.166                0.956005204     -51.9903171
9.167                0.955921444     -52.0609534
9.168                0.955837423     -52.1317462
9.169                 0.95575314     -52.2026961
9.17                 0.955668595     -52.2738035
9.171                0.955583786      -52.345069
9.172                0.955498713      -52.416493
9.173                0.955413374     -52.4880762
9.174                0.955327769     -52.5598188
9.175                0.955241896     -52.6317216
9.176                0.955155756      -52.703785
9.177                0.955069346     -52.7760095
9.178                0.954982666     -52.8483956
9.179                0.954895715     -52.9209439
9.18                 0.954808492     -52.9936549
9.181                0.954720997     -53.0665291
9.182                0.954633227      -53.139567
9.183                0.954545183     -53.2127691
9.184                0.954456863     -53.2861361
9.185                0.954368266     -53.3596684
9.186                0.954279392     -53.4333665
9.187                0.954190239      -53.507231
9.188                0.954100806     -53.5812624
9.189                0.954011093     -53.6554613
9.19                 0.953921099     -53.7298282
9.191                0.953830822     -53.8043637
9.192                0.953740261     -53.8790682
9.193                0.953649416     -53.9539424
9.194                0.953558286     -54.0289868
9.195                0.953466869      -54.104202
9.196                0.953375165     -54.1795884
9.197                0.953283173     -54.2551467
9.198                0.953190891     -54.3308775
9.199                0.953098318     -54.4067812
9.2                  0.953005455     -54.4828584
9.201                0.952912299     -54.5591098
9.202                0.952818849     -54.6355358
9.203                0.952725105      -54.712137
9.204                0.952631066     -54.7889141
9.205                 0.95253673     -54.8658676
9.206                0.952442097      -54.942998
9.207                0.952347165     -55.0203059
9.208                0.952251934      -55.097792
9.209                0.952156402     -55.1754568
9.21                 0.952060568     -55.2533009
9.211                0.951964432     -55.3313248
9.212                0.951867992     -55.4095292
9.213                0.951771248     -55.4879146
9.214                0.951674198     -55.5664817
9.215                0.951576841      -55.645231
9.216                0.951479176     -55.7241632
9.217                0.951381202     -55.8032788
9.218                0.951282918     -55.8825784
9.219                0.951184323     -55.9620627
9.22                 0.951085416     -56.0417322
9.221                0.950986196     -56.1215876
9.222                0.950886661     -56.2016295
9.223                0.950786811     -56.2818584
9.224                0.950686645      -56.362275
9.225                0.950586161       -56.44288
9.226                0.950485359     -56.5236739
9.227                0.950384236     -56.6046573
9.228                0.950282794     -56.6858309
9.229                0.950181029     -56.7671954
9.23                 0.950078941     -56.8487513
9.231                0.949976529     -56.9304992
9.232                0.949873792     -57.0124399
9.233                0.949770729     -57.0945739
9.234                0.949667338     -57.1769019
9.235                0.949563619     -57.2594245
9.236                 0.94945957     -57.3421424
9.237                 0.94935519     -57.4250562
9.238                0.949250479     -57.5081666
9.239                0.949145434     -57.5914741
9.24                 0.949040056     -57.6749796
9.241                0.948934342     -57.7586836
9.242                0.948828291     -57.8425867
9.243                0.948721903     -57.9266898
9.244                0.948615177     -58.0109933
9.245                 0.94850811      -58.095498
9.246                0.948400703     -58.1802045
9.247                0.948292953     -58.2651136
9.248                 0.94818486     -58.3502258
9.249                0.948076423     -58.4355419
9.25                  0.94796764     -58.5210626
9.251                 0.94785851     -58.6067885
9.252                0.947749032     -58.6927202
9.253                0.947639205     -58.7788586
9.254                0.947529028     -58.8652043
9.255                0.947418499     -58.9517579
9.256                0.947307618     -59.0385202
9.257                0.947196382     -59.1254919
9.258                0.947084792     -59.2126736
9.259                0.946972846     -59.3000662
9.26                 0.946860542     -59.3876701
9.261                0.946747879     -59.4754863
9.262                0.946634857     -59.5635153
9.263                0.946521473     -59.6517579
9.264                0.946407728     -59.7402149
9.265                0.946293619     -59.8288869
9.266                0.946179145     -59.9177746
9.267                0.946064306     -60.0068788
9.268                0.945949099     -60.0962002
9.269                0.945833524     -60.1857395
9.27                  0.94571758     -60.2754975
9.271                0.945601265     -60.3654749
9.272                0.945484578     -60.4556724
9.273                0.945367518     -60.5460908
9.274                0.945250084     -60.6367308
9.275                0.945132273     -60.7275931
9.276                0.945014086     -60.8186786
9.277                0.944895521     -60.9099878
9.278                0.944776577     -61.0015217
9.279                0.944657252      -61.093281
9.28                 0.944537545     -61.1852663
9.281                0.944417455     -61.2774786
9.282                 0.94429698     -61.3699185
9.283                 0.94417612     -61.4625868
9.284                0.944054873     -61.5554842
9.285                0.943933238     -61.6486117
9.286                0.943811214     -61.7419698
9.287                0.943688799     -61.8355595
9.288                0.943565992     -61.9293814
9.289                0.943442792     -62.0234364
9.29                 0.943319197     -62.1177252
9.291                0.943195207     -62.2122487
9.292                0.943070819     -62.3070077
9.293                0.942946033     -62.4020028
9.294                0.942820848      -62.497235
9.295                0.942695262      -62.592705
9.296                0.942569274     -62.6884137
9.297                0.942442882     -62.7843618
9.298                0.942316086     -62.8805501
9.299                0.942188883     -62.9769795
9.3                  0.942061274     -63.0736508
9.301                0.941933255     -63.1705647
9.302                0.941804827     -63.2677222
9.303                0.941675988      -63.365124
9.304                0.941546736      -63.462771
9.305                 0.94141707      -63.560664
9.306                0.941286989     -63.6588038
9.307                0.941156492     -63.7571913
9.308                0.941025577     -63.8558273
9.309                0.940894243     -63.9547127
9.31                 0.940762489     -64.0538482
9.311                0.940630313     -64.1532348
9.312                0.940497714     -64.2528733
9.313                 0.94036469     -64.3527645
9.314                0.940231241     -64.4529093
9.315                0.940097365     -64.5533086
9.316                0.939963061     -64.6539633
9.317                0.939828328     -64.7548741
9.318                0.939693163      -64.856042
9.319                0.939557566     -64.9574678
9.32                 0.939421536     -65.0591524
9.321                0.939285071     -65.1610968
9.322                0.939148169     -65.2633017
9.323                 0.93901083     -65.3657681
9.324                0.938873052     -65.4684968
9.325                0.938734834     -65.5714887
9.326                0.938596174     -65.6747448
9.327                0.938457072     -65.7782659
9.328                0.938317525      -65.882053
9.329                0.938177533     -65.9861069
9.33                 0.938037094     -66.0904285
9.331                0.937896206     -66.1950188
9.332                 0.93775487     -66.2998786
9.333                0.937613082      -66.405009
9.334                0.937470842     -66.5104107
9.335                0.937328148     -66.6160848
9.336                   0.937185     -66.7220321
9.337                0.937041395     -66.8282536
9.338                0.936897332     -66.9347502
9.339                0.936752811     -67.0415228
9.34                 0.936607829     -67.1485724
9.341                0.936462386        -67.2559
9.342                 0.93631648     -67.3635064
9.343                 0.93617011     -67.4713927
9.344                0.936023274     -67.5795597
9.345                0.935875971     -67.6880085
9.346                0.935728199       -67.79674
9.347                0.935579958     -67.9057551
9.348                0.935431246     -68.0150548
9.349                0.935282062     -68.1246401
9.35                 0.935132404     -68.2345119
9.351                0.934982271     -68.3446713
9.352                0.934831662     -68.4551191
9.353                0.934680575     -68.5658565
9.354                0.934529009     -68.6768843
9.355                0.934376962     -68.7882036
9.356                0.934224434     -68.8998153
9.357                0.934071423     -69.0117205
9.358                0.933917928     -69.1239201
9.359                0.933763947     -69.2364152
9.36                 0.933609479     -69.3492066
9.361                0.933454523     -69.4622956
9.362                0.933299077      -69.575683
9.363                 0.93314314     -69.6893699
9.364                0.932986711     -69.8033572
9.365                0.932829788     -69.9176461
9.366                 0.93267237     -70.0322375
9.367                0.932514456     -70.1471325
9.368                0.932356045      -70.262332
9.369                0.932197135     -70.3778372
9.37                 0.932037724      -70.493649
9.371                0.931877812     -70.6097686
9.372                0.931717398     -70.7261969
9.373                0.931556479      -70.842935
9.374                0.931395055     -70.9599839
9.375                0.931233124     -71.0773447
9.376                0.931070685     -71.1950185
9.377                0.930907738     -71.3130063
9.378                0.930744279     -71.4313092
9.379                0.930580309     -71.5499282
9.38                 0.930415826     -71.6688644
9.381                0.930250828     -71.7881189
9.382                0.930085315     -71.9076928
9.383                0.929919285     -72.0275871
9.384                0.929752736     -72.1478029
9.385                0.929585669     -72.2683414
9.386                 0.92941808     -72.3892035
9.387                 0.92924997     -72.5103905
9.388                0.929081337     -72.6319033
9.389                0.928912179     -72.7537432
9.39                 0.928742496     -72.8759111
9.391                0.928572286     -72.9984082
9.392                0.928401547     -73.1212357
9.393                 0.92823028     -73.2443945
9.394                0.928058482     -73.3678859
9.395                0.927886152      -73.491711
9.396                0.927713289     -73.6158708
