! TOUCHSTONE file generated by CST DESIGN STUDIO
! Date and time: Wed Feb  5 13:34:22 2025
! Project name: C:\Work\MatlabApps\UnitCellOptimizationMatlab\CST\unitcell.cst
! Tree item: Tasks\Sweep1\SPara1\S-Parameters
! Header version: 2024
! Port assignment regex: !\s*Touchstone port\s*([0-9]+)\s*=\s*(CST MWS port|CST DES external port|CST DES block port)\s*(.+)\s* \(\"(.*)\"\)(\s*mode\s*([0-9]+))?.*
! Touchstone port assignment:
! Touchstone port 1 = CST DES external port 1 ("")
# GHz S MA R 50
9                    0.945971952      -71.681979
9.001                0.945835049     -71.7918585
9.002                0.945697711     -71.9020186
9.003                0.945559936     -72.0124603
9.004                0.945421723     -72.1231845
9.005                 0.94528307     -72.2341921
9.006                0.945143977      -72.345484
9.007                0.945004441     -72.4570611
9.008                0.944864463     -72.5689244
9.009                 0.94472404     -72.6810747
9.01                 0.944583172     -72.7935131
9.011                0.944441857     -72.9062403
9.012                0.944300095     -73.0192575
9.013                0.944157883     -73.1325654
9.014                 0.94401522      -73.246165
9.015                0.943872106     -73.3600574
9.016                 0.94372854     -73.4742433
9.017                0.943584519     -73.5887238
9.018                0.943440044     -73.7034998
9.019                0.943295112     -73.8185723
9.02                 0.943149722     -73.9339422
9.021                0.943003874     -74.0496104
9.022                0.942857566      -74.165578
9.023                0.942710796     -74.2818459
9.024                0.942563565     -74.3984151
9.025                 0.94241587     -74.5152864
9.026                 0.94226771      -74.632461
9.027                0.942119085     -74.7499398
9.028                0.941969992     -74.8677237
9.029                0.941820432     -74.9858137
9.03                 0.941670402     -75.1042108
9.031                0.941519901      -75.222916
9.032                0.941368929     -75.3419303
9.033                0.941217484     -75.4612547
9.034                0.941065565     -75.5808901
9.035                0.940913171     -75.7008376
9.036                  0.9407603     -75.8210982
9.037                0.940606952     -75.9416728
9.038                0.940453126     -76.0625624
9.039                 0.94029882     -76.1837682
9.04                 0.940144033      -76.305291
9.041                0.939988764     -76.4271318
9.042                0.939833012     -76.5492918
9.043                0.939676776     -76.6717719
9.044                0.939520054     -76.7945731
9.045                0.939362846     -76.9176965
9.046                0.939205151     -77.0411431
9.047                0.939046967     -77.1649138
9.048                0.938888293     -77.2890098
9.049                0.938729128     -77.4134321
9.05                 0.938569472     -77.5381817
9.051                0.938409322     -77.6632596
9.052                0.938248678     -77.7886669
9.053                 0.93808754     -77.9144047
9.054                0.937925905     -78.0404739
9.055                0.937763772     -78.1668756
9.056                0.937601142     -78.2936109
9.057                0.937438012     -78.4206808
9.058                0.937274382     -78.5480864
9.059                 0.93711025     -78.6758288
9.06                 0.936945616     -78.8039089
9.061                0.936780479     -78.9323279
9.062                0.936614837     -79.0610868
9.063                0.936448689     -79.1901867
9.064                0.936282036     -79.3196287
9.065                0.936114874     -79.4494138
9.066                0.935947205     -79.5795432
9.067                0.935779026     -79.7100178
9.068                0.935610336     -79.8408388
9.069                0.935441135     -79.9720073
9.07                 0.935271422     -80.1035243
9.071                0.935101196     -80.2353909
9.072                0.934930456     -80.3676083
9.073                  0.9347592     -80.5001774
9.074                0.934587429     -80.6330995
9.075                 0.93441514     -80.7663756
9.076                0.934242334     -80.9000067
9.077                 0.93406901     -81.0339941
9.078                0.933895165     -81.1683388
9.079                0.933720801     -81.3030419
9.08                 0.933545915     -81.4381046
9.081                0.933370507     -81.5735278
9.082                0.933194576     -81.7093128
9.083                0.933018121     -81.8454607
9.084                0.932841142     -81.9819726
9.085                0.932663638     -82.1188495
9.086                0.932485607     -82.2560927
9.087                0.932307049     -82.3937032
9.088                0.932127964     -82.5316822
9.089                 0.93194835     -82.6700308
9.09                 0.931768207     -82.8087502
9.091                0.931587534     -82.9478413
9.092                 0.93140633     -83.0873055
9.093                0.931224595     -83.2271438
9.094                0.931042328     -83.3673574
9.095                0.930859528     -83.5079474
9.096                0.930676194     -83.6489149
9.097                0.930492327     -83.7902612
9.098                0.930307925     -83.9319872
9.099                0.930122987     -84.0740943
9.1                  0.929937514     -84.2165835
9.101                0.929751504      -84.359456
9.102                0.929564957     -84.5027129
9.103                0.929377872     -84.6463554
9.104                0.929190249     -84.7903847
9.105                0.929002087     -84.9348019
9.106                0.928813385     -85.0796081
9.107                0.928624144     -85.2248046
9.108                0.928434363     -85.3703925
9.109                0.928244041     -85.5163729
9.11                 0.928053177     -85.6627471
9.111                0.927861772     -85.8095161
9.112                0.927669824     -85.9566812
9.113                0.927477335     -86.1042435
9.114                0.927284302     -86.2522043
9.115                0.927090726     -86.4005646
9.116                0.926896606     -86.5493256
9.117                0.926701942     -86.6984886
9.118                0.926506734     -86.8480547
9.119                0.926310981      -86.998025
9.12                 0.926114683     -87.1484008
9.121                0.925917841     -87.2991833
9.122                0.925720452     -87.4503736
9.123                0.925522519     -87.6019728
9.124                0.925324039     -87.7539823
9.125                0.925125013     -87.9064031
9.126                0.924925441     -88.0592365
9.127                0.924725323     -88.2124837
9.128                0.924524659     -88.3661457
9.129                0.924323448     -88.5202239
9.13                  0.92412169     -88.6747194
9.131                0.923919386     -88.8296334
9.132                0.923716535     -88.9849671
9.133                0.923513137     -89.1407217
9.134                0.923309193     -89.2968983
9.135                0.923104702     -89.4534983
9.136                0.922899665     -89.6105226
9.137                0.922694081     -89.7679727
9.138                 0.92248795     -89.9258495
9.139                0.922281274     -90.0841545
9.14                 0.922074051     -90.2428886
9.141                0.921866283     -90.4020532
9.142                0.921657969     -90.5616494
9.143                0.921449109     -90.7216784
9.144                0.921239704     -90.8821415
9.145                0.921029755     -91.0430398
9.146                0.920819261     -91.2043744
9.147                0.920608222     -91.3661467
9.148                 0.92039664     -91.5283578
9.149                0.920184515     -91.6910089
9.15                 0.919971846     -91.8541011
9.151                0.919758635     -92.0176358
9.152                0.919544882      -92.181614
9.153                0.919330587     -92.3460371
9.154                0.919115752      -92.510906
9.155                0.918900376     -92.6762222
9.156                 0.91868446     -92.8419867
9.157                0.918468005     -93.0082007
9.158                0.918251011     -93.1748655
9.159                 0.91803348     -93.3419822
9.16                 0.917815412     -93.5095521
9.161                0.917596807     -93.6775762
9.162                0.917377667     -93.8460559
9.163                0.917157992     -94.0149922
9.164                0.916937784     -94.1843864
9.165                0.916717042     -94.3542397
9.166                0.916495769     -94.5245532
9.167                0.916273964     -94.6953281
9.168                 0.91605163     -94.8665656
9.169                0.915828766     -95.0382669
9.17                 0.915605375     -95.2104332
9.171                0.915381456     -95.3830656
9.172                0.915157013     -95.5561654
9.173                0.914932044     -95.7297336
9.174                0.914706553     -95.9037715
9.175                0.914480539     -96.0782802
9.176                0.914254005     -96.2532609
9.177                0.914026951     -96.4287147
9.178                0.913799379     -96.6046429
9.179                0.913571291     -96.7810466
9.18                 0.913342688     -96.9579269
9.181                 0.91311357     -97.1352851
9.182                0.912883941     -97.3131221
9.183                0.912653801     -97.4914393
9.184                0.912423153     -97.6702378
9.185                0.912191997     -97.8495186
9.186                0.911960335     -98.0292831
9.187                0.911728169     -98.2095322
9.188                0.911495502     -98.3902671
9.189                0.911262334      -98.571489
9.19                 0.911028667     -98.7531989
9.191                0.910794504     -98.9353981
9.192                0.910559847     -99.1180877
9.193                0.910324697     -99.3012687
9.194                0.910089057     -99.4849423
9.195                0.909852928     -99.6691096
9.196                0.909616313     -99.8537717
9.197                0.909379214      -100.03893
9.198                0.909141633     -100.224585
9.199                0.908903572     -100.410738
9.2                  0.908665034      -100.59739
9.201                0.908426022     -100.784543
9.202                0.908186536     -100.972197
9.203                0.907946581     -101.160354
9.204                0.907706158     -101.349014
9.205                0.907465271     -101.538178
9.206                0.907223921     -101.727849
9.207                0.906982112     -101.918026
9.208                0.906739845     -102.108711
9.209                0.906497125     -102.299905
9.21                 0.906253953     -102.491609
9.211                0.906010333     -102.683823
9.212                0.905766268      -102.87655
9.213                 0.90552176      -103.06979
9.214                0.905276812     -103.263543
9.215                0.905031428     -103.457812
9.216                0.904785611     -103.652597
9.217                0.904539364     -103.847899
9.218                0.904292691     -104.043719
9.219                0.904045594     -104.240058
9.22                 0.903798076     -104.436917
9.221                0.903550143     -104.634297
9.222                0.903301796       -104.8322
9.223                0.903053039     -105.030625
9.224                0.902803876     -105.229574
9.225                0.902554312     -105.429048
9.226                0.902304348     -105.629048
9.227                 0.90205399     -105.829575
9.228                 0.90180324     -106.030629
9.229                0.901552104     -106.232213
9.23                 0.901300584     -106.434325
9.231                0.901048686     -106.636968
9.232                0.900796412     -106.840143
9.233                0.900543767      -107.04385
9.234                0.900290756      -107.24809
9.235                0.900037382     -107.452864
9.236                 0.89978365     -107.658173
9.237                0.899529565     -107.864017
9.238                 0.89927513     -108.070399
9.239                 0.89902035     -108.277317
9.24                  0.89876523     -108.484774
9.241                0.898509775      -108.69277
9.242                0.898253989     -108.901306
9.243                0.897997877     -109.110383
9.244                0.897741444     -109.320001
9.245                0.897484694     -109.530162
9.246                0.897227633     -109.740866
9.247                0.896970266     -109.952113
9.248                0.896712598     -110.163905
9.249                0.896454634     -110.376242
9.25                 0.896196379     -110.589126
9.251                0.895937839     -110.802556
9.252                0.895679019     -111.016534
9.253                0.895419924      -111.23106
9.254                0.895160561     -111.446134
9.255                0.894900933     -111.661759
9.256                0.894641049     -111.877933
9.257                0.894380912     -112.094659
9.258                0.894120528     -112.311936
9.259                0.893859905     -112.529765
9.26                 0.893599047     -112.748146
9.261                0.893337961     -112.967082
9.262                0.893076652     -113.186571
9.263                0.892815127     -113.406614
9.264                0.892553393     -113.627213
9.265                0.892291455     -113.848367
9.266                0.892029319     -114.070078
9.267                0.891766993     -114.292345
9.268                0.891504483      -114.51517
9.269                0.891241794     -114.738552
9.27                 0.890978935     -114.962492
9.271                0.890715912     -115.186991
9.272                0.890452731     -115.412049
9.273                  0.8901894     -115.637667
9.274                0.889925925     -115.863845
9.275                0.889662314     -116.090583
9.276                0.889398573     -116.317882
9.277                 0.88913471     -116.545742
9.278                0.888870732     -116.774163
9.279                0.888606647     -117.003147
9.28                 0.888342461     -117.232692
9.281                0.888078183     -117.462801
9.282                0.887813819     -117.693472
9.283                0.887549378     -117.924706
9.284                0.887284868     -118.156503
9.285                0.887020295     -118.388864
9.286                0.886755668     -118.621789
9.287                0.886490995     -118.855278
9.288                0.886226284     -119.089332
9.289                0.885961543      -119.32395
9.29                  0.88569678     -119.559132
9.291                0.885432004     -119.794879
9.292                0.885167222     -120.031191
9.293                0.884902443     -120.268068
9.294                0.884637676     -120.505511
9.295                0.884372929     -120.743518
9.296                0.884108211     -120.982091
9.297                 0.88384353     -121.221228
9.298                0.883578896     -121.460932
9.299                0.883314317       -121.7012
9.3                  0.883049802     -121.942034
9.301                0.882785359     -122.183432
9.302                0.882520999     -122.425396
9.303                0.882256731     -122.667925
9.304                0.881992563     -122.911019
9.305                0.881728504     -123.154678
9.306                0.881464565     -123.398902
9.307                0.881200755      -123.64369
9.308                0.880937082     -123.889042
9.309                0.880673558     -124.134958
9.31                 0.880410191     -124.381438
9.311                0.880146991     -124.628482
9.312                0.879883969      -124.87609
9.313                0.879621133      -125.12426
9.314                0.879358494     -125.372993
9.315                0.879096063     -125.622288
9.316                0.878833848     -125.872146
9.317                 0.87857186     -126.122565
9.318                0.878310111     -126.373545
9.319                0.878048609     -126.625086
9.32                 0.877787365     -126.877188
9.321                 0.87752639     -127.129849
9.322                0.877265694      -127.38307
9.323                0.877005288     -127.636849
9.324                0.876745182     -127.891187
9.325                0.876485388     -128.146082
9.326                0.876225916     -128.401535
9.327                0.875966776     -128.657544
9.328                0.875707981     -128.914109
9.329                 0.87544954     -129.171229
9.33                 0.875191466     -129.428903
9.331                0.874933768     -129.687131
9.332                0.874676459     -129.945912
9.333                0.874419549     -130.205246
9.334                 0.87416305      -130.46513
9.335                0.873906974     -130.725566
9.336                0.873651331      -130.98655
9.337                0.873396133     -131.248084
9.338                0.873141392     -131.510166
9.339                0.872887119     -131.772794
9.34                 0.872633327     -132.035969
9.341                0.872380026     -132.299688
9.342                0.872127229     -132.563952
9.343                0.871874948     -132.828759
9.344                0.871623193     -133.094107
9.345                0.871371979     -133.359996
9.346                0.871121315     -133.626425
9.347                0.870871215     -133.893392
9.348                 0.87062169     -134.160897
9.349                0.870372753     -134.428937
9.35                 0.870124416     -134.697513
9.351                0.869876691     -134.966622
9.352                0.869629591     -135.236263
9.353                0.869383128     -135.506436
9.354                0.869137313     -135.777138
9.355                0.868892161     -136.048368
9.356                0.868647682     -136.320125
9.357                 0.86840389     -136.592407
9.358                0.868160798     -136.865213
9.359                0.867918417     -137.138542
9.36                 0.867676761     -137.412391
9.361                0.867435842      -137.68676
9.362                0.867195673     -137.961646
9.363                0.866956267     -138.237048
9.364                0.866717636     -138.512965
9.365                0.866479794     -138.789394
9.366                0.866242752     -139.066335
9.367                0.866006525     -139.343785
9.368                0.865771124     -139.621742
9.369                0.865536564     -139.900205
9.37                 0.865302856     -140.179171
9.371                0.865070014      -140.45864
9.372                0.864838051     -140.738609
9.373                0.864606979     -141.019076
9.374                0.864376813     -141.300039
9.375                0.864147564     -141.581496
9.376                0.863919247     -141.863446
9.377                0.863691873     -142.145885
9.378                0.863465457     -142.428813
9.379                0.863240011     -142.712226
9.38                 0.863015548     -142.996123
9.381                0.862792082     -143.280502
9.382                0.862569626      -143.56536
9.383                0.862348192     -143.850696
9.384                0.862127795     -144.136506
9.385                0.861908447     -144.422788
9.386                0.861690161     -144.709541
9.387                0.861472951     -144.996762
9.388                0.861256829     -145.284448
9.389                0.861041809     -145.572597
9.39                 0.860827904     -145.861206
9.391                0.860615127     -146.150274
9.392                0.860403491     -146.439797
9.393                 0.86019301     -146.729773
9.394                0.859983696     -147.020199
9.395                0.859775563     -147.311073
9.396                0.859568623     -147.602392
