! TOUCHSTONE file generated by CST DESIGN STUDIO
! Date and time: Wed Feb  5 13:34:32 2025
! Project name: C:\Work\MatlabApps\UnitCellOptimizationMatlab\CST\unitcell.cst
! Tree item: Tasks\Sweep1\SPara1\S-Parameters
! Header version: 2024
! Port assignment regex: !\s*Touchstone port\s*([0-9]+)\s*=\s*(CST MWS port|CST DES external port|CST DES block port)\s*(.+)\s* \(\"(.*)\"\)(\s*mode\s*([0-9]+))?.*
! Touchstone port assignment:
! Touchstone port 1 = CST DES external port 1 ("")
# GHz S MA R 50
9                    0.964377351     -45.7202389
9.001                0.964317392     -45.7760937
9.002                0.964257255     -45.8320592
9.003                0.964196938     -45.8881359
9.004                0.964136442     -45.9443241
9.005                0.964075766     -46.0006241
9.006                 0.96401491     -46.0570363
9.007                0.963953872     -46.1135609
9.008                0.963892652     -46.1701983
9.009                0.963831249     -46.2269488
9.01                 0.963769664     -46.2838129
9.011                0.963707894     -46.3407907
9.012                0.963645941     -46.3978827
9.013                0.963583802     -46.4550893
9.014                0.963521478     -46.5124106
9.015                0.963458967     -46.5698471
9.016                 0.96339627     -46.6273992
9.017                0.963333385     -46.6850671
9.018                0.963270312     -46.7428513
9.019                0.963207051      -46.800752
9.02                   0.9631436     -46.8587696
9.021                0.963079959     -46.9169045
9.022                0.963016127      -46.975157
9.023                0.962952104     -47.0335275
9.024                 0.96288789     -47.0920163
9.025                0.962823482     -47.1506238
9.026                0.962758882     -47.2093504
9.027                0.962694087     -47.2681963
9.028                0.962629098      -47.327162
9.029                0.962563914     -47.3862478
9.03                 0.962498534     -47.4454541
9.031                0.962432958     -47.5047812
9.032                0.962367184     -47.5642295
9.033                0.962301213     -47.6237994
9.034                0.962235043     -47.6834913
9.035                0.962168674     -47.7433054
9.036                0.962102105     -47.8032423
9.037                0.962035335     -47.8633022
9.038                0.961968365     -47.9234855
9.039                0.961901192     -47.9837926
9.04                 0.961833817     -48.0442239
9.041                0.961766239     -48.1047797
9.042                0.961698457     -48.1654605
9.043                 0.96163047     -48.2262666
9.044                0.961562278     -48.2871983
9.045                 0.96149388     -48.3482562
9.046                0.961425275     -48.4094405
9.047                0.961356463     -48.4707516
9.048                0.961287443       -48.53219
9.049                0.961218214     -48.5937559
9.05                 0.961148775     -48.6554499
9.051                0.961079127     -48.7172723
9.052                0.961009267     -48.7792235
9.053                0.960939195     -48.8413039
9.054                0.960868912     -48.9035138
9.055                0.960798415     -48.9658537
9.056                0.960727704      -49.028324
9.057                0.960656779      -49.090925
9.058                0.960585638     -49.1536573
9.059                0.960514282     -49.2165211
9.06                 0.960442708     -49.2795169
9.061                0.960370917     -49.3426451
9.062                0.960298908      -49.405906
9.063                 0.96022668     -49.4693002
9.064                0.960154232      -49.532828
9.065                0.960081564     -49.5964898
9.066                0.960008675      -49.660286
9.067                0.959935563     -49.7242171
9.068                0.959862229     -49.7882835
9.069                0.959788671     -49.8524855
9.07                 0.959714889     -49.9168237
9.071                0.959640882     -49.9812984
9.072                 0.95956665       -50.04591
9.073                 0.95949219      -50.110659
9.074                0.959417504     -50.1755458
9.075                0.959342589     -50.2405708
9.076                0.959267445     -50.3057345
9.077                0.959192072     -50.3710372
9.078                0.959116468     -50.4364795
9.079                0.959040633     -50.5020617
9.08                 0.958964566     -50.5677843
9.081                0.958888266     -50.6336477
9.082                0.958811732     -50.6996524
9.083                0.958734964     -50.7657987
9.084                0.958657961     -50.8320872
9.085                0.958580721     -50.8985183
9.086                0.958503245     -50.9650924
9.087                0.958425531       -51.03181
9.088                0.958347579     -51.0986715
9.089                0.958269387     -51.1656774
9.09                 0.958190955     -51.2328281
9.091                0.958112283      -51.300124
9.092                0.958033368     -51.3675657
9.093                0.957954211     -51.4351536
9.094                0.957874811     -51.5028881
9.095                0.957795166     -51.5707698
9.096                0.957715276     -51.6387989
9.097                 0.95763514     -51.7069762
9.098                0.957554758     -51.7753019
9.099                0.957474127     -51.8437765
9.1                  0.957393249     -51.9124006
9.101                0.957312121     -51.9811746
9.102                0.957230742      -52.050099
9.103                0.957149113     -52.1191741
9.104                0.957067232     -52.1884007
9.105                0.956985098      -52.257779
9.106                0.956902711     -52.3273096
9.107                0.956820069     -52.3969929
9.108                0.956737171     -52.4668295
9.109                0.956654017     -52.5368197
9.11                 0.956570607     -52.6069642
9.111                0.956486938     -52.6772634
9.112                 0.95640301     -52.7477178
9.113                0.956318822     -52.8183279
9.114                0.956234374     -52.8890941
9.115                0.956149664      -52.960017
9.116                0.956064692      -53.031097
9.117                0.955979456     -53.1023347
9.118                0.955893956     -53.1737306
9.119                0.955808191     -53.2452851
9.12                  0.95572216     -53.3169988
9.121                0.955635862     -53.3888721
9.122                0.955549296     -53.4609057
9.123                0.955462461     -53.5330999
9.124                0.955375356     -53.6054553
9.125                 0.95528798     -53.6779725
9.126                0.955200333     -53.7506519
9.127                0.955112414      -53.823494
9.128                 0.95502422     -53.8964994
9.129                0.954935753     -53.9696686
9.13                  0.95484701     -54.0430021
9.131                0.954757991     -54.1165004
9.132                0.954668694     -54.1901642
9.133                0.954579119     -54.2639938
9.134                0.954489266     -54.3379898
9.135                0.954399132     -54.4121528
9.136                0.954308716     -54.4864833
9.137                0.954218019     -54.5609818
9.138                0.954127039     -54.6356489
9.139                0.954035775     -54.7104851
9.14                 0.953944226      -54.785491
9.141                0.953852391     -54.8606671
9.142                0.953760269     -54.9360139
9.143                0.953667859      -55.011532
9.144                0.953575161      -55.087222
9.145                0.953482172     -55.1630844
9.146                0.953388893     -55.2391197
9.147                0.953295322     -55.3153286
9.148                0.953201458     -55.3917115
9.149                  0.9531073     -55.4682691
9.15                 0.953012847     -55.5450018
9.151                0.952918099     -55.6219104
9.152                0.952823054     -55.6989952
9.153                 0.95272771      -55.776257
9.154                0.952632068     -55.8536963
9.155                0.952536126     -55.9313136
9.156                0.952439883     -56.0091095
9.157                0.952343338     -56.0870847
9.158                 0.95224649     -56.1652396
9.159                0.952149339     -56.2435749
9.16                 0.952051882     -56.3220912
9.161                0.951954119      -56.400789
9.162                0.951856048     -56.4796689
9.163                 0.95175767     -56.5587316
9.164                0.951658983     -56.6379776
9.165                0.951559985     -56.7174075
9.166                0.951460676     -56.7970219
9.167                0.951361054     -56.8768215
9.168                0.951261119     -56.9568067
9.169                 0.95116087     -57.0369783
9.17                 0.951060305     -57.1173368
9.171                0.950959423     -57.1978828
9.172                0.950858224      -57.278617
9.173                0.950756705       -57.35954
9.174                0.950654867     -57.4406523
9.175                0.950552708     -57.5219547
9.176                0.950450227     -57.6034476
9.177                0.950347423     -57.6851318
9.178                0.950244295     -57.7670079
9.179                0.950140841     -57.8490765
9.18                 0.950037061     -57.9313382
9.181                0.949932954     -58.0137937
9.182                0.949828518     -58.0964435
9.183                0.949723752     -58.1792884
9.184                0.949618655      -58.262329
9.185                0.949513227     -58.3455658
9.186                0.949407465     -58.4289997
9.187                0.949301369     -58.5126311
9.188                0.949194938     -58.5964608
9.189                0.949088171     -58.6804894
9.19                 0.948981066     -58.7647175
9.191                0.948873622     -58.8491459
9.192                0.948765838     -58.9337751
9.193                0.948657714     -59.0186059
9.194                0.948549247     -59.1036389
9.195                0.948440438     -59.1888747
9.196                0.948331284     -59.2743141
9.197                0.948221784     -59.3599577
9.198                0.948111938     -59.4458061
9.199                0.948001744     -59.5318601
9.2                    0.9478912     -59.6181204
9.201                0.947780307     -59.7045875
9.202                0.947669063     -59.7912623
9.203                0.947557466     -59.8781453
9.204                0.947445515     -59.9652373
9.205                 0.94733321      -60.052539
9.206                0.947220548      -60.140051
9.207                 0.94710753      -60.227774
9.208                0.946994153     -60.3157088
9.209                0.946880417     -60.4038561
9.21                 0.946766319     -60.4922165
9.211                 0.94665186     -60.5807908
9.212                0.946537038     -60.6695796
9.213                0.946421852     -60.7585838
9.214                  0.9463063     -60.8478039
9.215                0.946190382     -60.9372407
9.216                0.946074095      -61.026895
9.217                 0.94595744     -61.1167674
9.218                0.945840414     -61.2068587
9.219                0.945723017     -61.2971695
9.22                 0.945605247     -61.3877008
9.221                0.945487104      -61.478453
9.222                0.945368585     -61.5694271
9.223                0.945249689     -61.6606238
9.224                0.945130417     -61.7520437
9.225                0.945010765     -61.8436876
9.226                0.944890733     -61.9355563
9.227                 0.94477032     -62.0276505
9.228                0.944649525     -62.1199709
9.229                0.944528346     -62.2125184
9.23                 0.944406782     -62.3052937
9.231                0.944284831     -62.3982975
9.232                0.944162494     -62.4915306
9.233                0.944039767     -62.5849938
9.234                0.943916651     -62.6786878
9.235                0.943793144     -62.7726134
9.236                0.943669244     -62.8667714
9.237                 0.94354495     -62.9611625
9.238                0.943420262     -63.0557875
9.239                0.943295177     -63.1506473
9.24                 0.943169695     -63.2457426
9.241                0.943043814     -63.3410741
9.242                0.942917533     -63.4366427
9.243                0.942790851     -63.5324492
9.244                0.942663766     -63.6284943
9.245                0.942536278     -63.7247789
9.246                0.942408385     -63.8213038
9.247                0.942280085     -63.9180697
9.248                0.942151378     -64.0150775
9.249                0.942022262      -64.112328
9.25                 0.941892735     -64.2098219
9.251                0.941762798     -64.3075602
9.252                0.941632447     -64.4055436
9.253                0.941501683     -64.5037729
9.254                0.941370503      -64.602249
9.255                0.941238907     -64.7009727
9.256                0.941106893     -64.7999449
9.257                 0.94097446     -64.8991663
9.258                0.940841606     -64.9986378
9.259                0.940708331     -65.0983602
9.26                 0.940574633     -65.1983344
9.261                 0.94044051     -65.2985613
9.262                0.940305962     -65.3990416
9.263                0.940170987     -65.4997762
9.264                0.940035583      -65.600766
9.265                0.939899751     -65.7020119
9.266                0.939763487     -65.8035146
9.267                0.939626791     -65.9052751
9.268                0.939489662     -66.0072941
9.269                0.939352098     -66.1095727
9.27                 0.939214099     -66.2121117
9.271                0.939075661     -66.3149118
9.272                0.938936786     -66.4179741
9.273                 0.93879747     -66.5212994
9.274                0.938657713     -66.6248885
9.275                0.938517514     -66.7287424
9.276                 0.93837687      -66.832862
9.277                0.938235782     -66.9372481
9.278                0.938094247     -67.0419016
9.279                0.937952264     -67.1468235
9.28                 0.937809833     -67.2520146
9.281                 0.93766695     -67.3574759
9.282                0.937523616     -67.4632082
9.283                 0.93737983     -67.5692124
9.284                0.937235588     -67.6754896
9.285                0.937090891     -67.7820405
9.286                0.936945737     -67.8888661
9.287                0.936800125     -67.9959674
9.288                0.936654054     -68.1033453
9.289                0.936507521     -68.2110006
9.29                 0.936360526     -68.3189344
9.291                0.936213068     -68.4271475
9.292                0.936065145     -68.5356409
9.293                0.935916756     -68.6444156
9.294                0.935767899     -68.7534724
9.295                0.935618573     -68.8628124
9.296                0.935468778     -68.9724365
9.297                0.935318511     -69.0823456
9.298                0.935167772     -69.1925407
9.299                0.935016558     -69.3030227
9.3                  0.934864869     -69.4137927
9.301                0.934712704     -69.5248516
9.302                0.934560061     -69.6362003
9.303                0.934406938     -69.7478399
9.304                0.934253336     -69.8597712
9.305                0.934099251     -69.9719954
9.306                0.933944683     -70.0845133
9.307                0.933789631      -70.197326
9.308                0.933634094     -70.3104344
9.309                0.933478069     -70.4238396
9.31                 0.933321556     -70.5375425
9.311                0.933164554     -70.6515441
9.312                0.933007061     -70.7658454
9.313                0.932849076     -70.8804475
9.314                0.932690597     -70.9953514
9.315                0.932531624      -71.110558
9.316                0.932372155     -71.2260683
9.317                0.932212188     -71.3418835
9.318                0.932051724     -71.4580045
9.319                0.931890759     -71.5744323
9.32                 0.931729294     -71.6911679
9.321                0.931567326     -71.8082125
9.322                0.931404855     -71.9255669
9.323                0.931241879     -72.0432324
9.324                0.931078398     -72.1612098
9.325                0.930914409     -72.2795003
9.326                0.930749911     -72.3981048
9.327                0.930584904     -72.5170245
9.328                0.930419385     -72.6362604
9.329                0.930253355     -72.7558136
9.33                 0.930086811      -72.875685
9.331                0.929919753     -72.9958758
9.332                0.929752179      -73.116387
9.333                0.929584087     -73.2372198
9.334                0.929415477     -73.3583751
9.335                0.929246348      -73.479854
9.336                0.929076699     -73.6016577
9.337                0.928906527     -73.7237872
9.338                0.928735832     -73.8462435
9.339                0.928564613     -73.9690279
9.34                 0.928392869     -74.0921413
9.341                0.928220598     -74.2155848
9.342                0.928047799     -74.3393596
9.343                0.927874471     -74.4634668
9.344                0.927700613     -74.5879074
9.345                0.927526224     -74.7126826
9.346                0.927351303     -74.8377935
9.347                0.927175848     -74.9632411
9.348                0.926999858     -75.0890266
9.349                0.926823333     -75.2151512
9.35                 0.926646271     -75.3416159
9.351                 0.92646867     -75.4684219
9.352                0.926290531     -75.5955702
9.353                0.926111851     -75.7230621
9.354                0.925932631     -75.8508986
9.355                0.925752867     -75.9790809
9.356                0.925572561     -76.1076101
9.357                 0.92539171     -76.2364875
9.358                0.925210313      -76.365714
9.359                 0.92502837     -76.4952909
9.36                 0.924845879     -76.6252193
9.361                0.924662839     -76.7555004
9.362                 0.92447925     -76.8861353
9.363                 0.92429511     -77.0171252
9.364                0.924110418     -77.1484713
9.365                0.923925174     -77.2801747
9.366                0.923739376     -77.4122366
9.367                0.923553023     -77.5446581
9.368                0.923366115     -77.6774405
9.369                 0.92317865     -77.8105849
9.37                 0.922990628     -77.9440925
9.371                0.922802047     -78.0779645
9.372                0.922612907      -78.212202
9.373                0.922423206     -78.3468063
9.374                0.922232945     -78.4817786
9.375                0.922042121       -78.61712
9.376                0.921850735     -78.7528318
9.377                0.921658784     -78.8889151
9.378                0.921466269     -79.0253711
9.379                0.921273189     -79.1622011
9.38                 0.921079542     -79.2994063
9.381                0.920885328     -79.4369878
9.382                0.920690546      -79.574947
9.383                0.920495195     -79.7132849
9.384                0.920299275     -79.8520029
9.385                0.920102785     -79.9911021
9.386                0.919905724     -80.1305838
9.387                0.919708091     -80.2704492
9.388                0.919509885     -80.4106995
9.389                0.919311106     -80.5513361
9.39                 0.919111754       -80.69236
9.391                0.918911827     -80.8337725
9.392                0.918711325      -80.975575
9.393                0.918510247     -81.1177685
9.394                0.918308593     -81.2603544
9.395                0.918106361      -81.403334
9.396                0.917903552     -81.5467084
