! TOUCHSTONE file generated by CST DESIGN STUDIO
! Date and time: Wed Feb  5 13:34:24 2025
! Project name: C:\Work\MatlabApps\UnitCellOptimizationMatlab\CST\unitcell.cst
! Tree item: Tasks\Sweep1\SPara1\S-Parameters
! Header version: 2024
! Port assignment regex: !\s*Touchstone port\s*([0-9]+)\s*=\s*(CST MWS port|CST DES external port|CST DES block port)\s*(.+)\s* \(\"(.*)\"\)(\s*mode\s*([0-9]+))?.*
! Touchstone port assignment:
! Touchstone port 1 = CST DES external port 1 ("")
# GHz S MA R 50
9                     0.94929719     -66.9209752
9.001                0.949174768      -67.019275
9.002                0.949051957     -67.1178181
9.003                0.948928757     -67.2166053
9.004                0.948805165     -67.3156375
9.005                0.948681181     -67.4149154
9.006                0.948556803     -67.5144399
9.007                0.948432031     -67.6142117
9.008                0.948306862     -67.7142316
9.009                0.948181296     -67.8145005
9.01                 0.948055332     -67.9150191
9.011                0.947928968     -68.0157883
9.012                0.947802203     -68.1168088
9.013                0.947675035     -68.2180815
9.014                0.947547465     -68.3196072
9.015                 0.94741949     -68.4213868
9.016                0.947291109     -68.5234209
9.017                0.947162321     -68.6257106
9.018                0.947033125     -68.7282566
9.019                0.946903519     -68.8310597
9.02                 0.946773503     -68.9341207
9.021                0.946643075     -69.0374406
9.022                0.946512233     -69.1410201
9.023                0.946380978     -69.2448601
9.024                0.946249306     -69.3489615
9.025                0.946117218      -69.453325
9.026                0.945984712     -69.5579516
9.027                0.945851786      -69.662842
9.028                 0.94571844     -69.7679972
9.029                0.945584673      -69.873418
9.03                 0.945450482     -69.9791052
9.031                0.945315867     -70.0850598
9.032                0.945180826     -70.1912826
9.033                0.945045359     -70.2977744
9.034                0.944909464     -70.4045362
9.035                 0.94477314     -70.5115688
9.036                0.944636386      -70.618873
9.037                0.944499199     -70.7264499
9.038                0.944361581     -70.8343002
9.039                0.944223528     -70.9424248
9.04                 0.944085039     -71.0508247
9.041                0.943946115     -71.1595007
9.042                0.943806752     -71.2684537
9.043                0.943666951     -71.3776847
9.044                0.943526709     -71.4871944
9.045                0.943386026     -71.5969839
9.046                  0.9432449      -71.707054
9.047                0.943103331     -71.8174056
9.048                0.942961316     -71.9280397
9.049                0.942818855     -72.0389571
9.05                 0.942675946     -72.1501588
9.051                0.942532589     -72.2616457
9.052                0.942388782     -72.3734187
9.053                0.942244524     -72.4854788
9.054                0.942099813     -72.5978268
9.055                0.941954648     -72.7104638
9.056                0.941809029     -72.8233905
9.057                0.941662954     -72.9366081
9.058                0.941516421     -73.0501173
9.059                 0.94136943     -73.1639193
9.06                  0.94122198     -73.2780148
9.061                0.941074068     -73.3924048
9.062                0.940925695     -73.5070904
9.063                0.940776858     -73.6220724
9.064                0.940627556     -73.7373518
9.065                 0.94047779     -73.8529295
9.066                0.940327556     -73.9688066
9.067                0.940176854      -74.084984
9.068                0.940025683     -74.2014626
9.069                0.939874041     -74.3182435
9.07                 0.939721928     -74.4353275
9.071                0.939569342     -74.5527158
9.072                0.939416283     -74.6704091
9.073                0.939262748     -74.7884086
9.074                0.939108737     -74.9067153
9.075                0.938954248       -75.02533
9.076                0.938799281     -75.1442538
9.077                0.938643834     -75.2634877
9.078                0.938487906     -75.3830327
9.079                0.938331496     -75.5028897
9.08                 0.938174603     -75.6230598
9.081                0.938017225      -75.743544
9.082                0.937859362     -75.8643433
9.083                0.937701012     -75.9854587
9.084                0.937542175     -76.1068911
9.085                0.937382849     -76.2286417
9.086                0.937223032     -76.3507114
9.087                0.937062725     -76.4731012
9.088                0.936901925     -76.5958123
9.089                0.936740632     -76.7188455
9.09                 0.936578845     -76.8422019
9.091                0.936416562     -76.9658826
9.092                0.936253782     -77.0898885
9.093                0.936090505     -77.2142208
9.094                0.935926728     -77.3388804
9.095                0.935762452     -77.4638684
9.096                0.935597675     -77.5891859
9.097                0.935432396     -77.7148338
9.098                0.935266614     -77.8408133
9.099                0.935100328     -77.9671253
9.1                  0.934933537      -78.093771
9.101                0.934766239     -78.2207514
9.102                0.934598435     -78.3480675
9.103                0.934430122     -78.4757204
9.104                  0.9342613     -78.6037112
9.105                0.934091967     -78.7320409
9.106                0.933922124     -78.8607106
9.107                0.933751768     -78.9897214
9.108                0.933580899     -79.1190744
9.109                0.933409516     -79.2487706
9.11                 0.933237617      -79.378811
9.111                0.933065202     -79.5091969
9.112                0.932892271     -79.6399292
9.113                0.932718821     -79.7710091
9.114                0.932544852     -79.9024376
9.115                0.932370364     -80.0342159
9.116                0.932195354      -80.166345
9.117                0.932019823      -80.298826
9.118                 0.93184377       -80.43166
9.119                0.931667192     -80.5648481
9.12                 0.931490091     -80.6983915
9.121                0.931312464     -80.8322912
9.122                0.931134311     -80.9665483
9.123                0.930955631      -81.101164
9.124                0.930776423     -81.2361393
9.125                0.930596687     -81.3714753
9.126                0.930416421     -81.5071733
9.127                0.930235625     -81.6432343
9.128                0.930054298     -81.7796594
9.129                0.929872439     -81.9164497
9.13                 0.929690047     -82.0536064
9.131                0.929507122     -82.1911306
9.132                0.929323663     -82.3290234
9.133                0.929139669      -82.467286
9.134                 0.92895514     -82.6059195
9.135                0.928770074      -82.744925
9.136                0.928584471     -82.8843036
9.137                0.928398331     -83.0240566
9.138                0.928211652      -83.164185
9.139                0.928024434       -83.30469
9.14                 0.927836677     -83.4455728
9.141                0.927648379     -83.5868344
9.142                 0.92745954      -83.728476
9.143                 0.92727016     -83.8704989
9.144                0.927080238     -84.0129041
9.145                0.926889774     -84.1556927
9.146                0.926698766      -84.298866
9.147                0.926507214     -84.4424251
9.148                0.926315118     -84.5863712
9.149                0.926122477     -84.7307054
9.15                 0.925929291     -84.8754289
9.151                 0.92573556     -85.0205429
9.152                0.925541282     -85.1660484
9.153                0.925346457     -85.3119468
9.154                0.925151085     -85.4582391
9.155                0.924955166     -85.6049266
9.156                0.924758699     -85.7520104
9.157                0.924561684     -85.8994916
9.158                 0.92436412     -86.0473715
9.159                0.924166007     -86.1956513
9.16                 0.923967345      -86.344332
9.161                0.923768133      -86.493415
9.162                0.923568372     -86.6429013
9.163                 0.92336806     -86.7927922
9.164                0.923167198     -86.9430888
9.165                0.922965786     -87.0937923
9.166                0.922763822      -87.244904
9.167                0.922561308     -87.3964249
9.168                0.922358243     -87.5483564
9.169                0.922154626     -87.7006995
9.17                 0.921950458     -87.8534555
9.171                0.921745739     -88.0066256
9.172                0.921540468     -88.1602109
9.173                0.921334645     -88.3142126
9.174                0.921128271      -88.468632
9.175                0.920921345     -88.6234703
9.176                0.920713868     -88.7787285
9.177                0.920505839      -88.934408
9.178                0.920297258     -89.0905099
9.179                0.920088126     -89.2470355
9.18                 0.919878443     -89.4039858
9.181                0.919668209     -89.5613622
9.182                0.919457424     -89.7191658
9.183                0.919246087     -89.8773978
9.184                0.919034201     -90.0360595
9.185                0.918821764     -90.1951519
9.186                0.918608777     -90.3546764
9.187                 0.91839524     -90.5146341
9.188                0.918181154     -90.6750263
9.189                0.917966518      -90.835854
9.19                 0.917751334     -90.9971186
9.191                0.917535602     -91.1588212
9.192                0.917319321      -91.320963
9.193                0.917102493     -91.4835453
9.194                0.916885119     -91.6465692
9.195                0.916667197     -91.8100359
9.196                 0.91644873     -91.9739466
9.197                0.916229718     -92.1383026
9.198                0.916010161     -92.3031051
9.199                 0.91579006     -92.4683551
9.2                  0.915569416      -92.634054
9.201                0.915348229     -92.8002029
9.202                  0.9151265     -92.9668031
9.203                 0.91490423     -93.1338556
9.204                 0.91468142     -93.3013618
9.205                 0.91445807     -93.4693228
9.206                0.914234181     -93.6377399
9.207                0.914009755     -93.8066141
9.208                0.913784792     -93.9759467
9.209                0.913559293     -94.1457389
9.21                 0.913333259     -94.3159919
9.211                0.913106692     -94.4867069
9.212                0.912879592      -94.657885
9.213                 0.91265196     -94.8295275
9.214                0.912423798     -95.0016355
9.215                0.912195106     -95.1742102
9.216                0.911965887     -95.3472528
9.217                0.911736141     -95.5207645
9.218                0.911505869     -95.6947464
9.219                0.911275074     -95.8691998
9.22                 0.911043755     -96.0441258
9.221                0.910811915     -96.2195255
9.222                0.910579556     -96.3954003
9.223                0.910346678     -96.5717511
9.224                0.910113283     -96.7485792
9.225                0.909879373     -96.9258857
9.226                0.909644949     -97.1036719
9.227                0.909410014     -97.2819389
9.228                0.909174568     -97.4606877
9.229                0.908938613     -97.6399197
9.23                 0.908702152     -97.8196359
9.231                0.908465187     -97.9998374
9.232                0.908227718     -98.1805255
9.233                0.907989748     -98.3617013
9.234                0.907751279     -98.5433658
9.235                0.907512312     -98.7255203
9.236                0.907272851     -98.9081659
9.237                0.907032897     -99.0913037
9.238                0.906792452     -99.2749348
9.239                0.906551518     -99.4590604
9.24                 0.906310099     -99.6436816
9.241                0.906068195     -99.8287994
9.242                0.905825809     -100.014415
9.243                0.905582944      -100.20053
9.244                0.905339602     -100.387144
9.245                0.905095786      -100.57426
9.246                0.904851498     -100.761878
9.247                0.904606741     -100.949999
9.248                0.904361517     -101.138624
9.249                0.904115829     -101.327755
9.25                  0.90386968     -101.517393
9.251                0.903623072     -101.707538
9.252                0.903376009     -101.898192
9.253                0.903128493     -102.089355
9.254                0.902880528      -102.28103
9.255                0.902632116     -102.473216
9.256                 0.90238326     -102.665915
9.257                0.902133964     -102.859128
9.258                 0.90188423     -103.052856
9.259                0.901634063       -103.2471
9.26                 0.901383464     -103.441861
9.261                0.901132438      -103.63714
9.262                0.900880988     -103.832938
9.263                0.900629117     -104.029256
9.264                0.900376829     -104.226095
9.265                0.900124127     -104.423456
9.266                0.899871015      -104.62134
9.267                0.899617498     -104.819748
9.268                0.899363577     -105.018681
9.269                0.899109258      -105.21814
9.27                 0.898854544     -105.418126
9.271                0.898599439      -105.61864
9.272                0.898343947     -105.819683
9.273                0.898088072     -106.021255
9.274                0.897831819     -106.223358
9.275                 0.89757519     -106.425992
9.276                0.897318192     -106.629159
9.277                0.897060827     -106.832859
9.278                0.896803101     -107.037094
9.279                0.896545017     -107.241863
9.28                  0.89628658     -107.447169
9.281                0.896027795     -107.653012
9.282                0.895768667     -107.859392
9.283                0.895509199     -108.066311
9.284                0.895249397     -108.273769
9.285                0.894989266     -108.481768
9.286                0.894728811     -108.690308
9.287                0.894468035     -108.899389
9.288                0.894206945     -109.109014
9.289                0.893945546     -109.319182
9.29                 0.893683843     -109.529894
9.291                 0.89342184     -109.741151
9.292                0.893159543     -109.952954
9.293                0.892896958     -110.165304
9.294                 0.89263409     -110.378201
9.295                0.892370945     -110.591646
9.296                0.892107527      -110.80564
9.297                0.891843843     -111.020183
9.298                0.891579899     -111.235277
9.299                0.891315699     -111.450921
9.3                  0.891051251     -111.667117
9.301                 0.89078656     -111.883865
9.302                0.890521631     -112.101166
9.303                0.890256472     -112.319021
9.304                0.889991087      -112.53743
9.305                0.889725484     -112.756393
9.306                0.889459669     -112.975912
9.307                0.889193647     -113.195987
9.308                0.888927426     -113.416618
9.309                0.888661012     -113.637806
9.31                 0.888394412     -113.859552
9.311                0.888127631     -114.081856
9.312                0.887860678     -114.304719
9.313                0.887593558     -114.528141
9.314                0.887326278     -114.752122
9.315                0.887058847     -114.976664
9.316                0.886791269     -115.201766
9.317                0.886523554      -115.42743
9.318                0.886255707     -115.653654
9.319                0.885987736     -115.880441
9.32                 0.885719649      -116.10779
9.321                0.885451452     -116.335702
9.322                0.885183154     -116.564177
9.323                0.884914762     -116.793216
9.324                0.884646283     -117.022818
9.325                0.884377726     -117.252984
9.326                0.884109097     -117.483715
9.327                0.883840405     -117.715011
9.328                0.883571658     -117.946871
9.329                0.883302864     -118.179297
9.33                 0.883034031     -118.412288
9.331                0.882765167     -118.645846
9.332                0.882496281     -118.879969
9.333                 0.88222738     -119.114658
9.334                0.881958473     -119.349913
9.335                0.881689569     -119.585735
9.336                0.881420676     -119.822124
9.337                0.881151803     -120.059079
9.338                0.880882958     -120.296601
9.339                0.880614151      -120.53469
9.34                  0.88034539     -120.773346
9.341                0.880076684     -121.012569
9.342                0.879808042     -121.252359
9.343                0.879539474     -121.492716
9.344                0.879270987     -121.733641
9.345                0.879002593     -121.975132
9.346                0.878734299      -122.21719
9.347                0.878466116     -122.459815
9.348                0.878198053     -122.703007
9.349                 0.87793012     -122.946765
9.35                 0.877662325      -123.19109
9.351                 0.87739468     -123.435982
9.352                0.877127192     -123.681439
9.353                0.876859874     -123.927463
9.354                0.876592734     -124.174052
9.355                0.876325782     -124.421207
9.356                0.876059028     -124.668927
9.357                0.875792484     -124.917212
9.358                0.875526158     -125.166062
9.359                0.875260061     -125.415476
9.36                 0.874994204     -125.665454
9.361                0.874728597     -125.915996
9.362                0.874463251       -126.1671
9.363                0.874198175     -126.418768
9.364                0.873933381     -126.670998
9.365                 0.87366888      -126.92379
9.366                0.873404682     -127.177143
9.367                0.873140799     -127.431057
9.368                 0.87287724     -127.685531
9.369                0.872614018     -127.940565
9.37                 0.872351143     -128.196158
9.371                0.872088626      -128.45231
9.372                0.871826479      -128.70902
9.373                0.871564712     -128.966286
9.374                0.871303338      -129.22411
9.375                0.871042368     -129.482489
9.376                0.870781812     -129.741423
9.377                0.870521683     -130.000911
9.378                0.870261993     -130.260953
9.379                0.870002752     -130.521548
9.38                 0.869743973     -130.782694
9.381                0.869485667     -131.044391
9.382                0.869227846     -131.306638
9.383                0.868970523     -131.569435
9.384                0.868713709     -131.832779
9.385                0.868457416     -132.096671
9.386                0.868201656     -132.361109
9.387                0.867946441     -132.626092
9.388                0.867691784     -132.891618
9.389                0.867437697     -133.157688
9.39                 0.867184191       -133.4243
9.391                0.866931281     -133.691452
9.392                0.866678976     -133.959144
9.393                0.866427292     -134.227374
9.394                0.866176239     -134.496142
9.395                 0.86592583     -134.765445
9.396                0.865676078     -135.035282
