! TOUCHSTONE file generated by CST DESIGN STUDIO
! Date and time: Wed Feb  5 13:34:27 2025
! Project name: C:\Work\MatlabApps\UnitCellOptimizationMatlab\CST\unitcell.cst
! Tree item: Tasks\Sweep1\SPara1\S-Parameters
! Header version: 2024
! Port assignment regex: !\s*Touchstone port\s*([0-9]+)\s*=\s*(CST MWS port|CST DES external port|CST DES block port)\s*(.+)\s* \(\"(.*)\"\)(\s*mode\s*([0-9]+))?.*
! Touchstone port assignment:
! Touchstone port 1 = CST DES external port 1 ("")
# GHz S MA R 50
9                    0.955749901      -57.849719
9.001                0.955655349     -57.9278973
9.002                0.955560502     -58.0062546
9.003                0.955465359     -58.0847917
9.004                0.955369919     -58.1635091
9.005                0.955274182     -58.2424074
9.006                0.955178146     -58.3214871
9.007                 0.95508181     -58.4007487
9.008                0.954985173      -58.480193
9.009                0.954888235     -58.5598205
9.01                 0.954790995     -58.6396317
9.011                 0.95469345     -58.7196272
9.012                0.954595601     -58.7998077
9.013                0.954497445     -58.8801736
9.014                0.954398983     -58.9607257
9.015                0.954300213     -59.0414645
9.016                0.954201135     -59.1223906
9.017                0.954101746     -59.2035046
9.018                0.954002046     -59.2848071
9.019                0.953902034     -59.3662986
9.02                 0.953801709     -59.4479799
9.021                 0.95370107     -59.5298515
9.022                0.953600116      -59.611914
9.023                0.953498846     -59.6941681
9.024                0.953397258     -59.7766142
9.025                0.953295352     -59.8592532
9.026                0.953193126     -59.9420855
9.027                 0.95309058     -60.0251118
9.028                0.952987713     -60.1083328
9.029                0.952884522      -60.191749
9.03                 0.952781008      -60.275361
9.031                 0.95267717     -60.3591696
9.032                0.952573005     -60.4431753
9.033                0.952468513     -60.5273787
9.034                0.952363693     -60.6117806
9.035                0.952258545     -60.6963815
9.036                0.952153065      -60.781182
9.037                0.952047255     -60.8661829
9.038                0.951941112     -60.9513848
9.039                0.951834636     -61.0367883
9.04                 0.951727825      -61.122394
9.041                0.951620678     -61.2082027
9.042                0.951513194     -61.2942149
9.043                0.951405372     -61.3804313
9.044                0.951297212     -61.4668527
9.045                0.951188711     -61.5534796
9.046                0.951079868     -61.6403127
9.047                0.950970684     -61.7273526
9.048                0.950861155     -61.8146002
9.049                0.950751282     -61.9020559
9.05                 0.950641064     -61.9897205
9.051                0.950530498     -62.0775947
9.052                0.950419584     -62.1656792
9.053                0.950308321     -62.2539745
9.054                0.950196707     -62.3424815
9.055                0.950084742     -62.4312007
9.056                0.949972425      -62.520133
9.057                0.949859753     -62.6092789
9.058                0.949746727     -62.6986391
9.059                0.949633344     -62.7882144
9.06                 0.949519604     -62.8780055
9.061                0.949405506      -62.968013
9.062                0.949291048     -63.0582377
9.063                0.949176229     -63.1486803
9.064                0.949061048     -63.2393414
9.065                0.948945505     -63.3302217
9.066                0.948829597     -63.4213221
9.067                0.948713323     -63.5126432
9.068                0.948596683     -63.6041857
9.069                0.948479676     -63.6959503
9.07                 0.948362299     -63.7879378
9.071                0.948244552     -63.8801489
9.072                0.948126434     -63.9725843
9.073                0.948007943     -64.0652448
9.074                0.947889078      -64.158131
9.075                0.947769839     -64.2512438
9.076                0.947650223     -64.3445837
9.077                0.947530231     -64.4381517
9.078                 0.94740986     -64.5319484
9.079                0.947289109     -64.6259746
9.08                 0.947167977      -64.720231
9.081                0.947046463     -64.8147184
9.082                0.946924566     -64.9094376
9.083                0.946802284     -65.0043892
9.084                0.946679617      -65.099574
9.085                0.946556563     -65.1949929
9.086                 0.94643312     -65.2906465
9.087                0.946309289     -65.3865356
9.088                0.946185067     -65.4826611
9.089                0.946060453     -65.5790236
9.09                 0.945935446      -65.675624
9.091                0.945810044      -65.772463
9.092                0.945684248     -65.8695414
9.093                0.945558055     -65.9668599
9.094                0.945431464     -66.0644195
9.095                0.945304473     -66.1622208
9.096                0.945177083     -66.2602647
9.097                0.945049291     -66.3585519
9.098                0.944921096     -66.4570832
9.099                0.944792497     -66.5558594
9.1                  0.944663493     -66.6548814
9.101                0.944534083       -66.75415
9.102                0.944404264     -66.8536658
9.103                0.944274037     -66.9534299
9.104                  0.9441434     -67.0534429
9.105                0.944012351     -67.1537056
9.106                 0.94388089      -67.254219
9.107                0.943749014     -67.3549837
9.108                0.943616724     -67.4560008
9.109                0.943484017     -67.5572708
9.11                 0.943350892     -67.6587948
9.111                0.943217349     -67.7605735
9.112                0.943083385     -67.8626077
9.113                   0.942949     -67.9648983
9.114                0.942814193     -68.0674462
9.115                0.942678961     -68.1702521
9.116                0.942543305     -68.2733169
9.117                0.942407222     -68.3766416
9.118                0.942270711     -68.4802268
9.119                0.942133772     -68.5840735
9.12                 0.941996402     -68.6881825
9.121                0.941858601     -68.7925546
9.122                0.941720368     -68.8971909
9.123                0.941581701      -69.002092
9.124                0.941442598     -69.1072589
9.125                0.941303059     -69.2126925
9.126                0.941163083     -69.3183935
9.127                0.941022668      -69.424363
9.128                0.940881812     -69.5306017
9.129                0.940740516     -69.6371106
9.13                 0.940598776     -69.7438905
9.131                0.940456593     -69.8509423
9.132                0.940313965      -69.958267
9.133                 0.94017089     -70.0658653
9.134                0.940027367     -70.1737383
9.135                0.939883396     -70.2818867
9.136                0.939738975     -70.3903115
9.137                0.939594102     -70.4990137
9.138                0.939448777      -70.607994
9.139                0.939302998     -70.7172535
9.14                 0.939156764     -70.8267929
9.141                0.939010073     -70.9366134
9.142                0.938862925     -71.0467157
9.143                0.938715318     -71.1571008
9.144                0.938567251     -71.2677695
9.145                0.938418723      -71.378723
9.146                0.938269732     -71.4899619
9.147                0.938120277     -71.6014874
9.148                0.937970358     -71.7133003
9.149                0.937819972     -71.8254016
9.15                 0.937669119     -71.9377922
9.151                0.937517797      -72.050473
9.152                0.937366005     -72.1634451
9.153                0.937213742     -72.2767093
9.154                0.937061006     -72.3902666
9.155                0.936907797     -72.5041179
9.156                0.936754114     -72.6182643
9.157                0.936599954     -72.7327066
9.158                0.936445317     -72.8474459
9.159                0.936290201     -72.9624831
9.16                 0.936134606     -73.0778192
9.161                 0.93597853     -73.1934551
9.162                0.935821972     -73.3093919
9.163                 0.93566493     -73.4256304
9.164                0.935507405     -73.5421718
9.165                0.935349393     -73.6590169
9.166                0.935190895     -73.7761668
9.167                0.935031908     -73.8936224
9.168                0.934872433     -74.0113847
9.169                0.934712467     -74.1294548
9.17                 0.934552009     -74.2478336
9.171                0.934391059     -74.3665222
9.172                0.934229614     -74.4855214
9.173                0.934067675     -74.6048325
9.174                0.933905239     -74.7244563
9.175                0.933742306     -74.8443938
9.176                0.933578875     -74.9646461
9.177                0.933414943     -75.0852143
9.178                0.933250511     -75.2060992
9.179                0.933085577      -75.327302
9.18                  0.93292014     -75.4488237
9.181                0.932754198     -75.5706652
9.182                0.932587751     -75.6928277
9.183                0.932420798     -75.8153122
9.184                0.932253337     -75.9381197
9.185                0.932085367     -76.0612512
9.186                0.931916888     -76.1847078
9.187                0.931747897     -76.3084905
9.188                0.931578395     -76.4326004
9.189                0.931408379     -76.5570386
9.19                 0.931237849      -76.681806
9.191                0.931066804     -76.8069038
9.192                0.930895243      -76.932333
9.193                0.930723165     -77.0580947
9.194                0.930550568     -77.1841899
9.195                0.930377451     -77.3106197
9.196                0.930203814     -77.4373852
9.197                0.930029656     -77.5644874
9.198                0.929854975     -77.6919275
9.199                 0.92967977     -77.8197065
9.2                  0.929504041     -77.9478254
9.201                0.929327786     -78.0762854
9.202                0.929151005     -78.2050876
9.203                0.928973696      -78.334233
9.204                0.928795858     -78.4637227
9.205                0.928617491     -78.5935579
9.206                0.928438594     -78.7237396
9.207                0.928259165     -78.8542689
9.208                0.928079204      -78.985147
9.209                 0.92789871     -79.1163749
9.21                 0.927717681     -79.2479537
9.211                0.927536118     -79.3798846
9.212                0.927354018     -79.5121687
9.213                0.927171381      -79.644807
9.214                0.926988207     -79.7778008
9.215                0.926804494      -79.911151
9.216                0.926620241     -80.0448589
9.217                0.926435448     -80.1789256
9.218                0.926250114     -80.3133521
9.219                0.926064238     -80.4481397
9.22                 0.925877819     -80.5832895
9.221                0.925690856     -80.7188025
9.222                0.925503349       -80.85468
9.223                0.925315297      -80.990923
9.224                0.925126698     -81.1275327
9.225                0.924937553     -81.2645103
9.226                0.924747861     -81.4018569
9.227                 0.92455762     -81.5395736
9.228                 0.92436683     -81.6776617
9.229                 0.92417549     -81.8161222
9.23                   0.9239836     -81.9549563
9.231                0.923791159     -82.0941651
9.232                0.923598167     -82.2337499
9.233                0.923404621     -82.3737118
9.234                0.923210523     -82.5140519
9.235                0.923015872     -82.6547715
9.236                0.922820666     -82.7958716
9.237                0.922624905     -82.9373535
9.238                0.922428589     -83.0792183
9.239                0.922231717     -83.2214672
9.24                 0.922034288     -83.3641014
9.241                0.921836302     -83.5071221
9.242                0.921637759     -83.6505304
9.243                0.921438658     -83.7943275
9.244                0.921238998     -83.9385146
9.245                0.921038779     -84.0830929
9.246                   0.920838     -84.2280636
9.247                0.920636662     -84.3734278
9.248                0.920434764     -84.5191868
9.249                0.920232304     -84.6653418
9.25                 0.920029284     -84.8118939
9.251                0.919825702     -84.9588443
9.252                0.919621559     -85.1061943
9.253                0.919416853      -85.253945
9.254                0.919211585     -85.4020977
9.255                0.919005755     -85.5506535
9.256                0.918799361     -85.6996137
9.257                0.918592404     -85.8489794
9.258                0.918384884     -85.9987518
9.259                  0.9181768     -86.1489323
9.26                 0.917968153     -86.2995219
9.261                0.917758941     -86.4505219
9.262                0.917549166     -86.6019335
9.263                0.917338826      -86.753758
9.264                0.917127922     -86.9059964
9.265                0.916916454     -87.0586502
9.266                0.916704421     -87.2117204
9.267                0.916491824     -87.3652082
9.268                0.916278663      -87.519115
9.269                0.916064937     -87.6734419
9.27                 0.915850647     -87.8281902
9.271                0.915635792      -87.983361
9.272                0.915420374     -88.1389556
9.273                0.915204391     -88.2949752
9.274                0.914987845     -88.4514211
9.275                0.914770734     -88.6082944
9.276                0.914553061     -88.7655965
9.277                0.914334824     -88.9233285
9.278                0.914116024     -89.0814916
9.279                0.913896661     -89.2400871
9.28                 0.913676736     -89.3991162
9.281                0.913456248     -89.5585801
9.282                0.913235199     -89.7184801
9.283                0.913013589     -89.8788175
9.284                0.912791417     -90.0395933
9.285                0.912568685     -90.2008089
9.286                0.912345394     -90.3624655
9.287                0.912121542     -90.5245643
9.288                0.911897132     -90.6871066
9.289                0.911672163     -90.8500935
9.29                 0.911446637     -91.0135264
9.291                0.911220553     -91.1774064
9.292                0.910993913     -91.3417349
9.293                0.910766717     -91.5065129
9.294                0.910538966     -91.6717417
9.295                0.910310661     -91.8374227
9.296                0.910081802     -92.0035569
9.297                0.909852391     -92.1701456
9.298                0.909622428     -92.3371902
9.299                0.909391914     -92.5046917
9.3                  0.909160849     -92.6726514
9.301                0.908929236     -92.8410706
9.302                0.908697075     -93.0099504
9.303                0.908464367     -93.1792922
9.304                0.908231113      -93.349097
9.305                0.907997314     -93.5193663
9.306                0.907762972      -93.690101
9.307                0.907528087     -93.8613026
9.308                0.907292661     -94.0329722
9.309                0.907056694      -94.205111
9.31                  0.90682019     -94.3777203
9.311                0.906583148     -94.5508012
9.312                 0.90634557      -94.724355
9.313                0.906107457     -94.8983829
9.314                0.905868811     -95.0728861
9.315                0.905629634     -95.2478658
9.316                0.905389927     -95.4233233
9.317                0.905149691     -95.5992596
9.318                0.904908929     -95.7756762
9.319                0.904667641      -95.952574
9.32                  0.90442583     -96.1299544
9.321                0.904183497     -96.3078185
9.322                0.903940645     -96.4861676
9.323                0.903697274     -96.6650028
9.324                0.903453387     -96.8443253
9.325                0.903208986     -97.0241363
9.326                0.902964073     -97.2044369
9.327                0.902718649     -97.3852285
9.328                0.902472718     -97.5665121
9.329                 0.90222628      -97.748289
9.33                 0.901979338     -97.9305602
9.331                0.901731895     -98.1133271
9.332                0.901483953     -98.2965907
9.333                0.901235513     -98.4803522
9.334                0.900986579     -98.6646127
9.335                0.900737152     -98.8493735
9.336                0.900487236     -99.0346357
9.337                0.900236832     -99.2204004
9.338                0.899985943     -99.4066688
9.339                0.899734573      -99.593442
9.34                 0.899482722     -99.7807212
9.341                0.899230395     -99.9685074
9.342                0.898977594     -100.156802
9.343                0.898724322     -100.345606
9.344                0.898470581      -100.53492
9.345                0.898216375     -100.724746
9.346                0.897961707     -100.915085
9.347                0.897706579     -101.105937
9.348                0.897450995     -101.297304
9.349                0.897194958     -101.489188
9.35                 0.896938471     -101.681588
9.351                0.896681537     -101.874507
9.352                 0.89642416     -102.067945
9.353                0.896166343     -102.261903
9.354                 0.89590809     -102.456383
9.355                0.895649403     -102.651385
9.356                0.895390287     -102.846911
9.357                0.895130746     -103.042961
9.358                0.894870781     -103.239537
9.359                0.894610399     -103.436639
9.36                 0.894349602      -103.63427
9.361                0.894088394     -103.832429
9.362                0.893826779     -104.031118
9.363                0.893564761     -104.230337
9.364                0.893302345     -104.430089
9.365                0.893039534     -104.630373
9.366                0.892776332     -104.831191
9.367                0.892512743     -105.032544
9.368                0.892248773     -105.234432
9.369                0.891984425     -105.436857
9.37                 0.891719704      -105.63982
9.371                0.891454614     -105.843322
9.372                 0.89118916     -106.047363
9.373                0.890923346     -106.251944
9.374                0.890657177     -106.457067
9.375                0.890390658     -106.662733
9.376                0.890123794     -106.868942
9.377                 0.88985659     -107.075695
9.378                 0.88958905     -107.282993
9.379                 0.88932118     -107.490837
9.38                 0.889052984     -107.699227
9.381                0.888784468     -107.908166
9.382                0.888515638     -108.117653
9.383                0.888246497      -108.32769
9.384                0.887977053     -108.538276
9.385                 0.88770731     -108.749414
9.386                0.887437273     -108.961104
9.387                0.887166949     -109.173347
9.388                0.886896344     -109.386143
9.389                0.886625462     -109.599493
9.39                 0.886354309     -109.813399
9.391                0.886082892      -110.02786
9.392                0.885811217     -110.242878
9.393                0.885539289     -110.458453
9.394                0.885267114     -110.674587
9.395                  0.8849947     -110.891279
9.396                0.884722051     -111.108531
