! TOUCHSTONE file generated by CST DESIGN STUDIO
! Date and time: Wed Feb  5 13:34:20 2025
! Project name: C:\Work\MatlabApps\UnitCellOptimizationMatlab\CST\unitcell.cst
! Tree item: Tasks\Sweep1\SPara1\S-Parameters
! Header version: 2024
! Port assignment regex: !\s*Touchstone port\s*([0-9]+)\s*=\s*(CST MWS port|CST DES external port|CST DES block port)\s*(.+)\s* \(\"(.*)\"\)(\s*mode\s*([0-9]+))?.*
! Touchstone port assignment:
! Touchstone port 1 = CST DES external port 1 ("")
# GHz S MA R 50
9                     0.94266239     -76.5260303
9.001                0.942511059     -76.6482733
9.002                0.942359251     -76.7708368
9.003                0.942206966     -76.8937218
9.004                0.942054202     -77.0169293
9.005                0.941900958     -77.1404604
9.006                0.941747234      -77.264316
9.007                0.941593027     -77.3884973
9.008                0.941438337     -77.5130052
9.009                0.941283163     -77.6378408
9.01                 0.941127504     -77.7630051
9.011                0.940971358     -77.8884991
9.012                0.940814724      -78.014324
9.013                0.940657603     -78.1404807
9.014                0.940499991     -78.2669703
9.015                0.940341889     -78.3937939
9.016                0.940183295     -78.5209525
9.017                0.940024208     -78.6484471
9.018                0.939864627     -78.7762788
9.019                0.939704552     -78.9044488
9.02                 0.939543981     -79.0329579
9.021                0.939382912     -79.1618074
9.022                0.939221346     -79.2909983
9.023                0.939059281     -79.4205316
9.024                0.938896715     -79.5504085
9.025                0.938733649     -79.6806299
9.026                0.938570081     -79.8111971
9.027                0.938406009      -79.942111
9.028                0.938241434     -80.0733727
9.029                0.938076354     -80.2049834
9.03                 0.937910768     -80.3369442
9.031                0.937744676      -80.469256
9.032                0.937578075       -80.60192
9.033                0.937410966     -80.7349374
9.034                0.937243347     -80.8683091
9.035                0.937075218     -81.0020364
9.036                0.936906577     -81.1361202
9.037                0.936737424     -81.2705618
9.038                0.936567758     -81.4053622
9.039                0.936397577     -81.5405225
9.04                 0.936226882     -81.6760438
9.041                 0.93605567     -81.8119273
9.042                0.935883942     -81.9481741
9.043                0.935711697     -82.0847852
9.044                0.935538933     -82.2217619
9.045                 0.93536565     -82.3591052
9.046                0.935191847     -82.4968162
9.047                0.935017523     -82.6348962
9.048                0.934842678     -82.7733461
9.049                 0.93466731     -82.9121672
9.05                 0.934491419     -83.0513605
9.051                0.934315004     -83.1909273
9.052                0.934138065     -83.3308686
9.053                  0.9339606     -83.4711856
9.054                0.933782609     -83.6118794
9.055                0.933604092     -83.7529512
9.056                0.933425047      -83.894402
9.057                0.933245474     -84.0362332
9.058                0.933065372     -84.1784457
9.059                0.932884741     -84.3210408
9.06                  0.93270358     -84.4640196
9.061                0.932521888     -84.6073833
9.062                0.932339664      -84.751133
9.063                0.932156909     -84.8952698
9.064                0.931973621      -85.039795
9.065                0.931789801     -85.1847097
9.066                0.931605447      -85.330015
9.067                0.931420558     -85.4757122
9.068                0.931235135     -85.6218023
9.069                0.931049177     -85.7682866
9.07                 0.930862684     -85.9151662
9.071                0.930675654     -86.0624423
9.072                0.930488087      -86.210116
9.073                0.930299984     -86.3581885
9.074                0.930111344     -86.5066611
9.075                0.929922165     -86.6555348
9.076                0.929732449     -86.8048109
9.077                0.929542193     -86.9544906
9.078                0.929351399     -87.1045749
9.079                0.929160066     -87.2550651
9.08                 0.928968193     -87.4059624
9.081                0.928775781     -87.5572679
9.082                0.928582828     -87.7089829
9.083                0.928389335     -87.8611085
9.084                0.928195302     -88.0136459
9.085                0.928000727     -88.1665963
9.086                0.927805612     -88.3199608
9.087                0.927609956     -88.4737408
9.088                0.927413758     -88.6279372
9.089                0.927217019     -88.7825515
9.09                 0.927019738     -88.9375846
9.091                0.926821915     -89.0930379
9.092                0.926623551     -89.2489125
9.093                0.926424646     -89.4052096
9.094                0.926225198     -89.5619304
9.095                0.926025209     -89.7190761
9.096                0.925824678     -89.8766479
9.097                0.925623605      -90.034647
9.098                0.925421991     -90.1930745
9.099                0.925219835     -90.3519317
9.1                  0.925017138     -90.5112198
9.101                0.924813899       -90.67094
9.102                 0.92461012     -90.8310934
9.103                  0.9244058     -90.9916812
9.104                0.924200939     -91.1527047
9.105                0.923995537     -91.3141651
9.106                0.923789596     -91.4760635
9.107                0.923583114     -91.6384011
9.108                0.923376094     -91.8011792
9.109                0.923168534     -91.9643989
9.11                 0.922960435     -92.1280614
9.111                0.922751798     -92.2921679
9.112                0.922542623     -92.4567196
9.113                0.922332911     -92.6217177
9.114                0.922122662     -92.7871635
9.115                0.921911876      -92.953058
9.116                0.921700555     -93.1194025
9.117                0.921488698     -93.2861982
9.118                0.921276307     -93.4534462
9.119                0.921063382     -93.6211478
9.12                 0.920849923     -93.7893041
9.121                0.920635932     -93.9579164
9.122                0.920421409     -94.1269857
9.123                0.920206355     -94.2965134
9.124                0.919990771     -94.4665006
9.125                0.919774657     -94.6369484
9.126                0.919558015     -94.8078581
9.127                0.919340845     -94.9792308
9.128                0.919123149     -95.1510677
9.129                0.918904927       -95.32337
9.13                  0.91868618     -95.4961389
9.131                 0.91846691     -95.6693755
9.132                0.918247117      -95.843081
9.133                0.918026802     -96.0172567
9.134                0.917805968     -96.1919035
9.135                0.917584614     -96.3670228
9.136                0.917362743     -96.5426157
9.137                0.917140355     -96.7186833
9.138                0.916917451     -96.8952268
9.139                0.916694034     -97.0722474
9.14                 0.916470104     -97.2497462
9.141                0.916245664     -97.4277244
9.142                0.916020713     -97.6061831
9.143                0.915795255     -97.7851234
9.144                 0.91556929     -97.9645466
9.145                 0.91534282     -98.1444538
9.146                0.915115846      -98.324846
9.147                0.914888371     -98.5057245
9.148                0.914660396     -98.6870904
9.149                0.914431922     -98.8689447
9.15                 0.914202953     -99.0512887
9.151                0.913973488     -99.2341234
9.152                0.913743531       -99.41745
9.153                0.913513083     -99.6012696
9.154                0.913282146     -99.7855833
9.155                0.913050723     -99.9703922
9.156                0.912818815     -100.155697
9.157                0.912586424       -100.3415
9.158                0.912353553     -100.527801
9.159                0.912120203     -100.714602
9.16                 0.911886377     -100.901903
9.161                0.911652078     -101.089707
9.162                0.911417307     -101.278013
9.163                0.911182068     -101.466823
9.164                0.910946362     -101.656138
9.165                0.910710191     -101.845959
9.166                0.910473559     -102.036287
9.167                0.910236469     -102.227123
9.168                0.909998922     -102.418469
9.169                0.909760921     -102.610325
9.17                  0.90952247     -102.802692
9.171                 0.90928357     -102.995572
9.172                0.909044226     -103.188965
9.173                0.908804439     -103.382872
9.174                0.908564212     -103.577295
9.175                 0.90832355     -103.772234
9.176                0.908082454     -103.967691
9.177                0.907840928     -104.163666
9.178                0.907598974      -104.36016
9.179                0.907356598     -104.557175
9.18                   0.9071138     -104.754712
9.181                0.906870586      -104.95277
9.182                0.906626957     -105.151352
9.183                0.906382919     -105.350459
9.184                0.906138473      -105.55009
9.185                0.905893624     -105.750248
9.186                0.905648376     -105.950933
9.187                0.905402732     -106.152146
9.188                0.905156695     -106.353888
9.189                 0.90491027      -106.55616
9.19                 0.904663461     -106.758962
9.191                 0.90441627     -106.962297
9.192                0.904168703     -107.166164
9.193                0.903920764     -107.370564
9.194                0.903672456     -107.575499
9.195                0.903423784     -107.780968
9.196                0.903174751     -107.986974
9.197                0.902925363     -108.193517
9.198                0.902675623     -108.400598
9.199                0.902425536     -108.608217
9.2                  0.902175106     -108.816376
9.201                0.901924339     -109.025074
9.202                0.901673238     -109.234314
9.203                0.901421808     -109.444096
9.204                0.901170054      -109.65442
9.205                 0.90091798     -109.865287
9.206                0.900665593     -110.076699
9.207                0.900412896     -110.288655
9.208                0.900159894     -110.501157
9.209                0.899906593     -110.714205
9.21                 0.899652997     -110.927801
9.211                0.899399113     -111.141944
9.212                0.899144945     -111.356635
9.213                0.898890498     -111.571876
9.214                0.898635778     -111.787666
9.215                0.898380791     -112.004007
9.216                0.898125541     -112.220899
9.217                0.897870035     -112.438343
9.218                0.897614278     -112.656339
9.219                0.897358276     -112.874887
9.22                 0.897102035      -113.09399
9.221                0.896845561     -113.313647
9.222                0.896588859     -113.533858
9.223                0.896331936     -113.754625
9.224                0.896074798     -113.975947
9.225                0.895817451     -114.197826
9.226                  0.8955599     -114.420262
9.227                0.895302154     -114.643255
9.228                0.895044217     -114.866806
9.229                0.894786097     -115.090915
9.23                 0.894527799     -115.315583
9.231                0.894269331     -115.540811
9.232                0.894010699     -115.766598
9.233                 0.89375191     -115.992945
9.234                0.893492971     -116.219853
9.235                0.893233889     -116.447322
9.236                 0.89297467     -116.675352
9.237                0.892715322     -116.903944
9.238                0.892455851     -117.133097
9.239                0.892196266     -117.362813
9.24                 0.891936573     -117.593092
9.241                 0.89167678     -117.823934
9.242                0.891416893     -118.055338
9.243                0.891156922     -118.287307
9.244                0.890896872     -118.519839
9.245                0.890636752     -118.752934
9.246                0.890376569     -118.986595
9.247                0.890116332     -119.220819
9.248                0.889856048     -119.455608
9.249                0.889595725     -119.690961
9.25                 0.889335372      -119.92688
9.251                0.889074995     -120.163363
9.252                0.888814604     -120.400412
9.253                0.888554206     -120.638025
9.254                 0.88829381     -120.876204
9.255                0.888033425     -121.114948
9.256                0.887773059     -121.354257
9.257                0.887512719     -121.594131
9.258                0.887252416     -121.834571
9.259                0.886992158     -122.075576
9.26                 0.886731952     -122.317146
9.261                 0.88647181     -122.559282
9.262                0.886211738     -122.801982
9.263                0.885951746     -123.045247
9.264                0.885691844     -123.289077
9.265                 0.88543204     -123.533472
9.266                0.885172344     -123.778431
9.267                0.884912764     -124.023954
9.268                0.884653311     -124.270042
9.269                0.884393993     -124.516693
9.27                 0.884134821     -124.763908
9.271                0.883875803     -125.011686
9.272                 0.88361695     -125.260027
9.273                0.883358271      -125.50893
9.274                0.883099776     -125.758396
9.275                0.882841474     -126.008424
9.276                0.882583376     -126.259013
9.277                0.882325492     -126.510164
9.278                0.882067832     -126.761875
9.279                0.881810405     -127.014146
9.28                 0.881553223     -127.266977
9.281                0.881296295     -127.520368
9.282                0.881039632     -127.774316
9.283                0.880783244     -128.028823
9.284                0.880527142     -128.283888
9.285                0.880271335     -128.539509
9.286                0.880015836     -128.795687
9.287                0.879760654      -129.05242
9.288                0.879505801     -129.309708
9.289                0.879251286     -129.567551
9.29                 0.878997122     -129.825947
9.291                0.878743318     -130.084896
9.292                0.878489887     -130.344396
9.293                0.878236838     -130.604448
9.294                0.877984183      -130.86505
9.295                0.877731934     -131.126202
9.296                0.877480101     -131.387902
9.297                0.877228696     -131.650149
9.298                 0.87697773     -131.912944
9.299                0.876727215     -132.176284
9.3                  0.876477162     -132.440169
9.301                0.876227583     -132.704597
9.302                0.875978489     -132.969568
9.303                0.875729891     -133.235081
9.304                0.875481803     -133.501134
9.305                0.875234235     -133.767726
9.306                0.874987198     -134.034857
9.307                0.874740706     -134.302524
9.308                 0.87449477     -134.570728
9.309                0.874249402     -134.839465
9.31                 0.874004614     -135.108736
9.311                0.873760417     -135.378539
9.312                0.873516825     -135.648873
9.313                0.873273849     -135.919735
9.314                0.873031501     -136.191126
9.315                0.872789794     -136.463043
9.316                0.872548739     -136.735484
9.317                 0.87230835      -137.00845
9.318                0.872068639     -137.281937
9.319                0.871829617     -137.555944
9.32                 0.871591298     -137.830471
9.321                0.871353694     -138.105514
9.322                0.871116817     -138.381074
9.323                 0.87088068     -138.657147
9.324                0.870645295     -138.933732
9.325                0.870410676     -139.210828
9.326                0.870176834     -139.488433
9.327                0.869943783     -139.766544
9.328                0.869711534     -140.045161
9.329                0.869480102     -140.324281
9.33                 0.869249497     -140.603903
9.331                0.869019734     -140.884024
9.332                0.868790826     -141.164643
9.333                0.868562783     -141.445757
9.334                0.868335621     -141.727366
9.335                0.868109351     -142.009465
9.336                0.867883987     -142.292054
9.337                 0.86765954     -142.575131
9.338                0.867436025     -142.858693
9.339                0.867213454     -143.142738
9.34                 0.866991839     -143.427265
9.341                0.866771195     -143.712269
9.342                0.866551533     -143.997751
9.343                0.866332866     -144.283707
9.344                0.866115209     -144.570134
9.345                0.865898573     -144.857031
9.346                0.865682971     -145.144396
9.347                0.865468416     -145.432225
9.348                0.865254922     -145.720516
9.349                0.865042501     -146.009268
9.35                 0.864831167     -146.298476
9.351                0.864620931      -146.58814
9.352                0.864411807     -146.878256
9.353                0.864203808     -147.168821
9.354                0.863996946     -147.459834
9.355                0.863791236     -147.751291
9.356                0.863586688     -148.043189
9.357                0.863383317     -148.335527
9.358                0.863181134       -148.6283
9.359                0.862980154     -148.921507
9.36                 0.862780388     -149.215145
9.361                0.862581849      -149.50921
9.362                 0.86238455     -149.803701
9.363                0.862188504     -150.098613
9.364                0.861993723     -150.393944
9.365                0.861800219     -150.689691
9.366                0.861608007     -150.985851
9.367                0.861417097     -151.282421
9.368                0.861227502     -151.579398
9.369                0.861039236     -151.876778
9.37                 0.860852309      -152.17456
9.371                0.860666736     -152.472739
9.372                0.860482527     -152.771312
9.373                0.860299696     -153.070276
9.374                0.860118254     -153.369628
9.375                0.859938214     -153.669364
9.376                0.859759587     -153.969482
9.377                0.859582386     -154.269977
9.378                0.859406624     -154.570847
9.379                 0.85923231     -154.872088
9.38                 0.859059459     -155.173697
9.381                 0.85888808      -155.47567
9.382                0.858718187     -155.778003
9.383                0.858549791     -156.080694
9.384                0.858382903     -156.383738
9.385                0.858217535     -156.687132
9.386                0.858053699     -156.990873
9.387                0.857891405     -157.294957
9.388                0.857730665     -157.599379
9.389                0.857571491     -157.904137
9.39                 0.857413893     -158.209227
9.391                0.857257883     -158.514645
9.392                0.857103471     -158.820386
9.393                0.856950668     -159.126449
9.394                0.856799486     -159.432827
9.395                0.856649935     -159.739519
9.396                0.856502025     -160.046519
