! TOUCHSTONE file generated by CST DESIGN STUDIO
! Date and time: Tue Feb  4 13:54:22 2025
! Project name: C:\Work\MatlabApps\UnitCellOptimizationMatlab\CST\unitcell.cst
! Tree item: Tasks\Sweep1\SPara1\S-Parameters
! Header version: 2024
! Port assignment regex: !\s*Touchstone port\s*([0-9]+)\s*=\s*(CST MWS port|CST DES external port|CST DES block port)\s*(.+)\s* \(\"(.*)\"\)(\s*mode\s*([0-9]+))?.*
! Touchstone port assignment:
! Touchstone port 1 = CST DES external port 1 ("")
# GHz S MA R 50
9                    0.743128055     -139.924667
9.001                0.742328456     -140.290143
9.002                0.741530877     -140.656652
9.003                0.740735383     -141.024192
9.004                0.739942035      -141.39276
9.005                0.739150896     -141.762354
9.006                 0.73836203     -142.132971
9.007                0.737575499     -142.504609
9.008                0.736791368     -142.877265
9.009                  0.7360097     -143.250937
9.01                  0.73523056      -143.62562
9.011                0.734454012     -144.001313
9.012                0.733680121     -144.378011
9.013                0.732908951     -144.755713
9.014                0.732140567     -145.134413
9.015                0.731375036      -145.51411
9.016                0.730612422     -145.894799
9.017                0.729852791     -146.276477
9.018                0.729096209     -146.659139
9.019                0.728342741     -147.042782
9.02                 0.727592455     -147.427403
9.021                0.726845415     -147.812995
9.022                0.726101688     -148.199556
9.023                0.725361342     -148.587081
9.024                0.724624441     -148.975565
9.025                0.723891053     -149.365004
9.026                0.723161245     -149.755393
9.027                0.722435082     -150.146726
9.028                0.721712632        -150.539
9.029                0.720993962     -150.932209
9.03                 0.720279138     -151.326347
9.031                0.719568227     -151.721409
9.032                0.718861295      -152.11739
9.033                0.718158409     -152.514285
9.034                0.717459637     -152.912086
9.035                0.716765043     -153.310789
9.036                0.716074695     -153.710387
9.037                 0.71538866     -154.110874
9.038                0.714707003     -154.512244
9.039                 0.71402979     -154.914491
9.04                 0.713357087     -155.317607
9.041                0.712688961     -155.721587
9.042                0.712025476     -156.126423
9.043                0.711366699     -156.532109
9.044                0.710712694     -156.938638
9.045                0.710063526     -157.346001
9.046                 0.70941926     -157.754193
9.047                0.708779961     -158.163205
9.048                0.708145693     -158.573031
9.049                0.707516519     -158.983661
9.05                 0.706892504     -159.395089
9.051                 0.70627371     -159.807306
9.052                0.705660201     -160.220305
9.053                0.705052038     -160.634077
9.054                0.704449285     -161.048614
9.055                0.703852003     -161.463906
9.056                0.703260254     -161.879947
9.057                0.702674097     -162.296727
9.058                0.702093595     -162.714236
9.059                0.701518807     -163.132467
9.06                 0.700949793      -163.55141
9.061                0.700386611     -163.971055
9.062                 0.69982932     -164.391394
9.063                0.699277979     -164.812417
9.064                0.698732644     -165.234114
9.065                0.698193374     -165.656475
9.066                0.697660223     -166.079491
9.067                0.697133249     -166.503151
9.068                0.696612505     -166.927446
9.069                0.696098048     -167.352366
9.07                 0.695589929     -167.777899
9.071                0.695088204     -168.204036
9.072                0.694592923     -168.630766
9.073                 0.69410414     -169.058078
9.074                0.693621906     -169.485961
9.075                0.693146269     -169.914405
9.076                0.692677282     -170.343398
9.077                0.692214991      -170.77293
9.078                0.691759447     -171.202988
9.079                0.691310695     -171.633563
9.08                 0.690868782     -172.064641
9.081                0.690433755     -172.496213
9.082                0.690005657     -172.928265
9.083                0.689584534     -173.360787
9.084                0.689170429     -173.793766
9.085                0.688763383     -174.227191
9.086                0.688363438     -174.661049
9.087                0.687970635     -175.095329
9.088                0.687585013     -175.530017
9.089                0.687206612     -175.965102
9.09                 0.686835468     -176.400572
9.091                 0.68647162     -176.836414
9.092                0.686115101     -177.272615
9.093                0.685765949     -177.709162
9.094                0.685424196     -178.146044
9.095                0.685089875     -178.583246
9.096                0.684763019     -179.020757
9.097                0.684443657     -179.458564
9.098                0.684131821     -179.896653
9.099                0.683827539      179.664989
9.1                  0.683530838      179.226375
9.101                0.683241746      178.787518
9.102                0.682960288      178.348431
9.103                0.682686488      177.909128
9.104                0.682420371      177.469621
9.105                0.682161959      177.029925
9.106                0.681911272      176.590053
9.107                0.681668332      176.150018
9.108                0.681433157      175.709834
9.109                0.681205765      175.269514
9.11                 0.680986174      174.829072
9.111                0.680774399      174.388521
9.112                0.680570455      173.947876
9.113                0.680374355       173.50715
9.114                0.680186111      173.066356
9.115                0.680005736      172.625509
9.116                0.679833239      172.184622
9.117                0.679668628      171.743709
9.118                0.679511913      171.302783
9.119                0.679363099       170.86186
9.12                 0.679222192      170.420951
9.121                0.679089197      169.980071
9.122                0.678964117      169.539235
9.123                0.678846953      169.098454
9.124                0.678737707      168.657745
9.125                0.678636378      168.217119
9.126                0.678542966      167.776592
9.127                0.678457467      167.336176
9.128                0.678379879      166.895886
9.129                0.678310195      166.455735
9.13                 0.678248411      166.015737
9.131                 0.67819452      165.575905
9.132                0.678148512      165.136254
9.133                0.678110379      164.696796
9.134                0.678080111      164.257546
9.135                0.678057695      163.818516
9.136                 0.67804312      163.379721
9.137                0.678036371      162.941174
9.138                0.678037434      162.502888
9.139                0.678046293      162.064876
9.14                  0.67806293      161.627152
9.141                0.678087328      161.189729
9.142                0.678119468       160.75262
9.143                0.678159329      160.315839
9.144                 0.67820689      159.879398
9.145                0.678262128       159.44331
9.146                0.678325021      159.007589
9.147                0.678395544      158.572247
9.148                0.678473672      158.137297
9.149                0.678559378      157.702751
9.15                 0.678652635      157.268623
9.151                0.678753415      156.834924
9.152                0.678861688      156.401667
9.153                0.678977424      155.968866
9.154                0.679100593      155.536531
9.155                0.679231161      155.104675
9.156                0.679369095       154.67331
9.157                0.679514363      154.242449
9.158                0.679666928      153.812102
9.159                0.679826756      153.382283
9.16                 0.679993809      152.953002
9.161                0.680168051      152.524271
9.162                0.680349442      152.096103
9.163                0.680537944      151.668507
9.164                0.680733517      151.241496
9.165                 0.68093612       150.81508
9.166                0.681145712      150.389272
9.167                 0.68136225      149.964081
9.168                0.681585691      149.539518
9.169                0.681815992      149.115595
9.17                 0.682053108      148.692322
9.171                0.682296994      148.269709
9.172                0.682547604      147.847767
9.173                0.682804891      147.426506
9.174                0.683068808      147.005936
9.175                0.683339308      146.586067
9.176                0.683616342       146.16691
9.177                 0.68389986      145.748473
9.178                0.684189814      145.330767
9.179                0.684486152      144.913801
9.18                 0.684788824      144.497585
9.181                0.685097779      144.082127
9.182                0.685412965      143.667437
9.183                0.685734328      143.253524
9.184                0.686061818      142.840396
9.185                0.686395379      142.428063
9.186                0.686734958      142.016533
9.187                  0.6870805      141.605815
9.188                0.687431952      141.195916
9.189                0.687789258      140.786846
9.19                 0.688152361      140.378611
9.191                0.688521207      139.971221
9.192                0.688895739      139.564682
9.193                0.689275901      139.159003
9.194                0.689661634      138.754192
9.195                0.690052883      138.350254
9.196                0.690449589      137.947199
9.197                0.690851694      137.545032
9.198                0.691259141      137.143761
9.199                 0.69167187      136.743393
9.2                  0.692089824      136.343934
9.201                0.692512943      135.945391
9.202                0.692941168      135.547771
9.203                0.693374439       135.15108
9.204                0.693812698      134.755323
9.205                0.694255885      134.360508
9.206                0.694703939       133.96664
9.207                0.695156801      133.573724
9.208                0.695614412      133.181767
9.209                0.696076709      132.790774
9.21                 0.696543635       132.40075
9.211                0.697015127      132.011701
9.212                0.697491126      131.623631
9.213                0.697971571      131.236546
9.214                0.698456402      130.850451
9.215                0.698945559       130.46535
9.216                 0.69943898      130.081248
9.217                0.699936605       129.69815
9.218                0.700438374      129.316059
9.219                0.700944226      128.934981
9.22                 0.701454101      128.554919
9.221                0.701967938      128.175876
9.222                0.702485678      127.797858
9.223                0.703007259      127.420868
9.224                0.703532622      127.044909
9.225                0.704061707      126.669985
9.226                0.704594453      126.296099
9.227                0.705130802      125.923254
9.228                0.705670693      125.551455
9.229                0.706214066      125.180703
9.23                 0.706760863      124.811001
9.231                0.707311024      124.442354
9.232                 0.70786449      124.074762
9.233                0.708421202      123.708229
9.234                0.708981102      123.342757
9.235                0.709544131      122.978348
9.236                0.710110231      122.615006
9.237                0.710679344      122.252731
9.238                0.711251412      121.891526
9.239                0.711826377      121.531394
9.24                 0.712404183      121.172334
9.241                0.712984772      120.814351
9.242                0.713568087      120.457444
9.243                0.714154072      120.101616
9.244                0.714742671      119.746867
9.245                0.715333827        119.3932
9.246                0.715927485      119.040616
9.247                 0.71652359      118.689115
9.248                0.717122087      118.338699
9.249                 0.71772292      117.989369
9.25                 0.718326036      117.641124
9.251                0.718931381      117.293968
9.252                  0.7195389      116.947899
9.253                 0.72014854      116.602918
9.254                0.720760248      116.259026
9.255                0.721373972      115.916224
9.256                0.721989659      115.574512
9.257                0.722607257      115.233889
9.258                0.723226714      114.894356
9.259                0.723847979      114.555914
9.26                 0.724471001      114.218561
9.261                 0.72509573      113.882299
9.262                0.725722115      113.547126
9.263                0.726350107      113.213043
9.264                0.726979656       112.88005
9.265                0.727610713      112.548145
9.266                0.728243231      112.217329
9.267                0.728877159        111.8876
9.268                0.729512451      111.558959
9.269                 0.73014906      111.231405
9.27                 0.730786937      110.904936
9.271                0.731426037      110.579553
9.272                0.732066314      110.255254
9.273                0.732707722      109.932038
9.274                0.733350214      109.609904
9.275                0.733993748      109.288852
9.276                0.734638277      108.968879
9.277                0.735283758      108.649986
9.278                0.735930147       108.33217
9.279                0.736577401       108.01543
9.28                 0.737225477      107.699766
9.281                0.737874332      107.385174
9.282                0.738523926      107.071656
9.283                0.739174215      106.759207
9.284                0.739825159      106.447828
9.285                0.740476718      106.137516
9.286                0.741128851      105.828269
9.287                0.741781518      105.520087
9.288                0.742434679      105.212967
9.289                0.743088297      104.906907
9.29                 0.743742332      104.601905
9.291                0.744396746      104.297961
9.292                0.745051501       103.99507
9.293                0.745706561      103.693233
9.294                0.746361888      103.392446
9.295                0.747017445      103.092707
9.296                0.747673198      102.794015
9.297                 0.74832911      102.496367
9.298                0.748985147      102.199761
9.299                0.749641273      101.904195
9.3                  0.750297454      101.609666
9.301                0.750953657      101.316173
9.302                0.751609847      101.023712
9.303                0.752265993      100.732282
9.304                0.752922061      100.441879
9.305                0.753578018      100.152502
9.306                0.754233835      99.8641486
9.307                0.754889478      99.5768155
9.308                0.755544917      99.2905003
9.309                0.756200122      99.0052006
9.31                 0.756855062      98.7209138
9.311                0.757509708      98.4376371
9.312                 0.75816403       98.155368
9.313                   0.758818      97.8741039
9.314                0.759471588      97.5938419
9.315                0.760124768      97.3145793
9.316                 0.76077751      97.0363135
9.317                0.761429788      96.7590416
9.318                0.762081575      96.4827607
9.319                0.762732844      96.2074682
9.32                 0.763383569      95.9331612
9.321                0.764033724      95.6598367
9.322                0.764683285       95.387492
9.323                0.765332225       95.116124
9.324                0.765980521        94.84573
9.325                0.766628147      94.5763069
9.326                0.767275081      94.3078518
9.327                0.767921299      94.0403617
9.328                0.768566777      93.7738336
9.329                0.769211493      93.5082646
9.33                 0.769855424      93.2436515
9.331                0.770498548      92.9799915
9.332                0.771140844      92.7172813
9.333                 0.77178229      92.4555181
9.334                0.772422866      92.1946986
9.335                 0.77306255      91.9348199
9.336                0.773701323      91.6758787
9.337                0.774339163      91.4178721
9.338                0.774976053      91.1607968
9.339                0.775611972      90.9046499
9.34                 0.776246902       90.649428
9.341                0.776880823      90.3951281
9.342                0.777513719       90.141747
9.343                 0.77814557      89.8892816
9.344                0.778776359      89.6377287
9.345                0.779406069      89.3870851
9.346                0.780034683      89.1373476
9.347                0.780662184      88.8885131
9.348                0.781288556      88.6405783
9.349                0.781913783        88.39354
9.35                 0.782537848       88.147395
9.351                0.783160737      87.9021402
9.352                0.783782435      87.6577722
9.353                0.784402926      87.4142879
9.354                0.785022196      87.1716841
9.355                0.785640231      86.9299575
9.356                0.786257017      86.6891048
9.357                 0.78687254       86.449123
9.358                0.787486787      86.2100086
9.359                0.788099744      85.9717586
9.36                 0.788711399      85.7343696
9.361                 0.78932174      85.4978384
9.362                0.789930753      85.2621617
9.363                0.790538427      85.0273364
9.364                 0.79114475      84.7933592
9.365                0.791749711      84.5602268
9.366                0.792353298      84.3279361
9.367                  0.7929555      84.0964836
9.368                0.793556307      83.8658664
9.369                0.794155708       83.636081
9.37                 0.794753693      83.4071242
9.371                0.795350252      83.1789929
9.372                0.795945375      82.9516838
9.373                0.796539053      82.7251936
9.374                0.797131276      82.4995191
9.375                0.797722035      82.2746572
9.376                0.798311322      82.0506045
9.377                0.798899127      81.8273579
9.378                0.799485444      81.6049141
9.379                0.800070262        81.38327
9.38                 0.800653575      81.1624223
9.381                0.801235375      80.9423679
9.382                0.801815654      80.7231035
9.383                0.802394405      80.5046259
9.384                0.802971621      80.2869319
9.385                0.803547295      80.0700185
9.386                0.804121421      79.8538823
9.387                0.804693991      79.6385202
9.388                0.805265001       79.423929
9.389                0.805834442      79.2101057
9.39                 0.806402311      78.9970469
9.391                0.806968601      78.7847496
9.392                0.807533306      78.5732107
9.393                0.808096422      78.3624269
9.394                0.808657943      78.1523952
9.395                0.809217864      77.9431124
9.396                0.809776181      77.7345754
