! TOUCHSTONE file generated by CST DESIGN STUDIO
! Date and time: Tue Feb  4 13:54:33 2025
! Project name: C:\Work\MatlabApps\UnitCellOptimizationMatlab\CST\unitcell.cst
! Tree item: Tasks\Sweep1\SPara1\S-Parameters
! Header version: 2024
! Port assignment regex: !\s*Touchstone port\s*([0-9]+)\s*=\s*(CST MWS port|CST DES external port|CST DES block port)\s*(.+)\s* \(\"(.*)\"\)(\s*mode\s*([0-9]+))?.*
! Touchstone port assignment:
! Touchstone port 1 = CST DES external port 1 ("")
# GHz S MA R 50
9                    0.947541888     -55.2917899
9.001                0.947414262     -55.3685619
9.002                0.947286249     -55.4455228
9.003                0.947157847     -55.5226734
9.004                0.947029056     -55.6000144
9.005                0.946899873     -55.6775464
9.006                0.946770296     -55.7552701
9.007                0.946640325     -55.8331862
9.008                0.946509956     -55.9112954
9.009                0.946379189     -55.9895985
9.01                 0.946248022      -56.068096
9.011                0.946116452     -56.1467888
9.012                0.945984478     -56.2256775
9.013                0.945852099     -56.3047628
9.014                0.945719313     -56.3840455
9.015                0.945586117     -56.4635263
9.016                 0.94545251     -56.5432058
9.017                 0.94531849     -56.6230849
9.018                0.945184056     -56.7031641
9.019                0.945049205     -56.7834444
9.02                 0.944913936     -56.8639264
9.021                0.944778247     -56.9446108
9.022                0.944642135     -57.0254984
9.023                  0.9445056     -57.1065899
9.024                0.944368639      -57.187886
9.025                0.944231251     -57.2693876
9.026                0.944093432     -57.3510953
9.027                0.943955183       -57.43301
9.028                  0.9438165     -57.5151323
9.029                0.943677382      -57.597463
9.03                 0.943537826      -57.680003
9.031                0.943397832     -57.7627529
9.032                0.943257396     -57.8457136
9.033                0.943116517     -57.9288857
9.034                0.942975194     -58.0122702
9.035                0.942833423     -58.0958677
9.036                0.942691204     -58.1796791
9.037                0.942548534     -58.2637051
9.038                 0.94240541     -58.3479465
9.039                0.942261832     -58.4324042
9.04                 0.942117797     -58.5170789
9.041                0.941973303     -58.6019714
9.042                0.941828348     -58.6870825
9.043                0.941682929      -58.772413
9.044                0.941537046     -58.8579638
9.045                0.941390695     -58.9437356
9.046                0.941243876     -59.0297293
9.047                0.941096585     -59.1159457
9.048                 0.94094882     -59.2023856
9.049                 0.94080058     -59.2890498
9.05                 0.940651862     -59.3759392
9.051                0.940502665     -59.4630546
9.052                0.940352985     -59.5503969
9.053                0.940202822     -59.6379668
9.054                0.940052172     -59.7257653
9.055                0.939901035     -59.8137931
9.056                0.939749406     -59.9020512
9.057                0.939597285     -59.9905403
9.058                0.939444669     -60.0792614
9.059                0.939291556     -60.1682153
9.06                 0.939137943     -60.2574029
9.061                 0.93898383      -60.346825
9.062                0.938829212     -60.4364825
9.063                0.938674088     -60.5263763
9.064                0.938518457     -60.6165073
9.065                0.938362314     -60.7068764
9.066                0.938205659     -60.7974844
9.067                0.938048489     -60.8883322
9.068                0.937890802     -60.9794208
9.069                0.937732595      -61.070751
9.07                 0.937573867     -61.1623237
9.071                0.937414614     -61.2541399
9.072                0.937254834     -61.3462005
9.073                0.937094526     -61.4385063
9.074                0.936933687     -61.5310583
9.075                0.936772314     -61.6238574
9.076                0.936610405     -61.7169046
9.077                0.936447958     -61.8102007
9.078                 0.93628497     -61.9037467
9.079                0.936121439     -61.9975436
9.08                 0.935957363     -62.0915922
9.081                0.935792738     -62.1858936
9.082                0.935627564     -62.2804486
9.083                0.935461837     -62.3752583
9.084                0.935295555     -62.4703235
9.085                0.935128715     -62.5656454
9.086                0.934961315     -62.6612247
9.087                0.934793352     -62.7570625
9.088                0.934624825     -62.8531598
9.089                 0.93445573     -62.9495175
9.09                 0.934286065     -63.0461366
9.091                0.934115828     -63.1430181
9.092                0.933945015      -63.240163
9.093                0.933773625     -63.3375723
9.094                0.933601655      -63.435247
9.095                0.933429103     -63.5331881
9.096                0.933255965     -63.6313966
9.097                 0.93308224     -63.7298735
9.098                0.932907924     -63.8286198
9.099                0.932733015     -63.9276365
9.1                  0.932557511     -64.0269247
9.101                0.932381409     -64.1264854
9.102                0.932204706     -64.2263196
9.103                  0.9320274     -64.3264284
9.104                0.931849488     -64.4268127
9.105                0.931670968     -64.5274738
9.106                0.931491836     -64.6284125
9.107                 0.93131209     -64.7296299
9.108                0.931131728     -64.8311272
9.109                0.930950746     -64.9329053
9.11                 0.930769143     -65.0349653
9.111                0.930586915     -65.1373084
9.112                 0.93040406     -65.2399355
9.113                0.930220574     -65.3428478
9.114                0.930036456     -65.4460463
9.115                0.929851703     -65.5495322
9.116                0.929666311     -65.6533064
9.117                0.929480278     -65.7573702
9.118                0.929293602     -65.8617247
9.119                0.929106279     -65.9663708
9.12                 0.928918307     -66.0713098
9.121                0.928729682     -66.1765427
9.122                0.928540403     -66.2820707
9.123                0.928350466     -66.3878949
9.124                0.928159869     -66.4940165
9.125                0.927968609     -66.6004364
9.126                0.927776682      -66.707156
9.127                0.927584087     -66.8141764
9.128                0.927390819     -66.9214986
9.129                0.927196877     -67.0291239
9.13                 0.927002258     -67.1370533
9.131                0.926806958     -67.2452882
9.132                0.926610974     -67.3538295
9.133                0.926414305     -67.4626786
9.134                0.926216947     -67.5718365
9.135                0.926018896     -67.6813045
9.136                0.925820151     -67.7910837
9.137                0.925620708     -67.9011753
9.138                0.925420564     -68.0115806
9.139                0.925219717     -68.1223007
9.14                 0.925018163     -68.2333368
9.141                0.924815899     -68.3446901
9.142                0.924612923     -68.4563619
9.143                0.924409231     -68.5683534
9.144                0.924204821     -68.6806658
9.145                 0.92399969     -68.7933003
9.146                0.923793834     -68.9062581
9.147                0.923587251     -69.0195406
9.148                0.923379937     -69.1331488
9.149                 0.92317189     -69.2470842
9.15                 0.922963106     -69.3613479
9.151                0.922753583     -69.4759412
9.152                0.922543317     -69.5908654
9.153                0.922332306     -69.7061217
9.154                0.922120546     -69.8217113
9.155                0.921908035     -69.9376357
9.156                0.921694769      -70.053896
9.157                0.921480745     -70.1704936
9.158                 0.92126596     -70.2874297
9.159                0.921050411     -70.4047057
9.16                 0.920834096     -70.5223228
9.161                 0.92061701     -70.6402824
9.162                0.920399151     -70.7585857
9.163                0.920180516     -70.8772341
9.164                0.919961101     -70.9962289
9.165                0.919740904     -71.1155715
9.166                0.919519922     -71.2352631
9.167                 0.91929815     -71.3553052
9.168                0.919075587      -71.475699
9.169                0.918852229     -71.5964459
9.17                 0.918628073     -71.7175472
9.171                0.918403115     -71.8390044
9.172                0.918177353     -71.9608188
9.173                0.917950784     -72.0829917
9.174                0.917723404     -72.2055245
9.175                 0.91749521     -72.3284187
9.176                0.917266199     -72.4516755
9.177                0.917036368     -72.5752965
9.178                0.916805713     -72.6992829
9.179                0.916574232     -72.8236362
9.18                 0.916341922     -72.9483578
9.181                0.916108778      -73.073449
9.182                0.915874799     -73.1989115
9.183                 0.91563998     -73.3247464
9.184                0.915404319     -73.4509553
9.185                0.915167813     -73.5775397
9.186                0.914930457     -73.7045008
9.187                 0.91469225     -73.8318403
9.188                0.914453188     -73.9595595
9.189                0.914213267     -74.0876599
9.19                 0.913972485     -74.2161429
9.191                0.913730838       -74.34501
9.192                0.913488323     -74.4742627
9.193                0.913244938     -74.6039025
9.194                0.913000677     -74.7339309
9.195                 0.91275554     -74.8643492
9.196                0.912509522     -74.9951591
9.197                 0.91226262      -75.126362
9.198                0.912014831     -75.2579594
9.199                0.911766151     -75.3899528
9.2                  0.911516579     -75.5223438
9.201                0.911266109     -75.6551338
9.202                 0.91101474     -75.7883245
9.203                0.910762468     -75.9219172
9.204                 0.91050929     -76.0559136
9.205                0.910255203     -76.1903151
9.206                0.910000202     -76.3251234
9.207                0.909744287       -76.46034
9.208                0.909487452     -76.5959665
9.209                0.909229695     -76.7320043
9.21                 0.908971014     -76.8684551
9.211                0.908711403     -77.0053204
9.212                0.908450862     -77.1426019
9.213                0.908189385      -77.280301
9.214                0.907926971     -77.4184195
9.215                0.907663616     -77.5569588
9.216                0.907399317     -77.6959206
9.217                0.907134071     -77.8353066
9.218                0.906867874     -77.9751182
9.219                0.906600724     -78.1153571
9.22                 0.906332617      -78.256025
9.221                0.906063551     -78.3971234
9.222                0.905793522      -78.538654
9.223                0.905522527     -78.6806184
9.224                0.905250563     -78.8230183
9.225                0.904977628     -78.9658554
9.226                0.904703717     -79.1091312
9.227                0.904428828     -79.2528474
9.228                0.904152958     -79.3970057
9.229                0.903876104     -79.5416078
9.23                 0.903598263     -79.6866553
9.231                0.903319432     -79.8321499
9.232                0.903039607     -79.9780933
9.233                0.902758787     -80.1244873
9.234                0.902476967     -80.2713333
9.235                0.902194145     -80.4186333
9.236                0.901910318     -80.5663889
9.237                0.901625484     -80.7146017
9.238                0.901339638     -80.8632736
9.239                0.901052779     -81.0124062
9.24                 0.900764903     -81.1620012
9.241                0.900476008     -81.3120604
9.242                 0.90018609     -81.4625856
9.243                0.899895147     -81.6135784
9.244                0.899603176     -81.7650406
9.245                0.899310174      -81.916974
9.246                0.899016139     -82.0693803
9.247                0.898721067     -82.2222613
9.248                0.898424956     -82.3756187
9.249                0.898127803     -82.5294543
9.25                 0.897829606     -82.6837699
9.251                0.897530361     -82.8385673
9.252                0.897230066     -82.9938483
9.253                0.896928719     -83.1496145
9.254                0.896626317      -83.305868
9.255                0.896322857     -83.4626103
9.256                0.896018336     -83.6198434
9.257                0.895712753     -83.7775691
9.258                0.895406104     -83.9357891
9.259                0.895098387     -84.0945053
9.26                   0.8947896     -84.2537195
9.261                 0.89447974     -84.4134335
9.262                0.894168804     -84.5736492
9.263                0.893856791     -84.7343685
9.264                0.893543698      -84.895593
9.265                0.893229522     -85.0573248
9.266                0.892914262     -85.2195655
9.267                0.892597914     -85.3823172
9.268                0.892280477     -85.5455816
9.269                0.891961949     -85.7093607
9.27                 0.891642327     -85.8736562
9.271                0.891321609     -86.0384701
9.272                0.890999793     -86.2038042
9.273                0.890676877     -86.3696604
9.274                0.890352859     -86.5360407
9.275                0.890027736     -86.7029468
9.276                0.889701508     -86.8703806
9.277                0.889374172     -87.0383442
9.278                0.889045725     -87.2068393
9.279                0.888716167     -87.3758678
9.28                 0.888385495     -87.5454318
9.281                0.888053707      -87.715533
9.282                0.887720802     -87.8861734
9.283                0.887386779      -88.057355
9.284                0.887051634     -88.2290796
9.285                0.886715368     -88.4013491
9.286                0.886377978     -88.5741656
9.287                0.886039462     -88.7475309
9.288                0.885699819     -88.9214469
9.289                0.885359048     -89.0959156
9.29                 0.885017148      -89.270939
9.291                0.884674116      -89.446519
9.292                0.884329952     -89.6226574
9.293                0.883984655     -89.7993564
9.294                0.883638222     -89.9766178
9.295                0.883290654     -90.1544436
9.296                0.882941949     -90.3328357
9.297                0.882592106     -90.5117961
9.298                0.882241123     -90.6913268
9.299                0.881889001     -90.8714298
9.3                  0.881535737     -91.0521069
9.301                0.881181332     -91.2333602
9.302                0.880825785     -91.4151916
9.303                0.880469094     -91.5976032
9.304                 0.88011126     -91.7805969
9.305                0.879752281     -91.9641746
9.306                0.879392157     -92.1483385
9.307                0.879030888     -92.3330903
9.308                0.878668473     -92.5184322
9.309                0.878304912      -92.704366
9.31                 0.877940205     -92.8908939
9.311                0.877574351     -93.0780178
9.312                0.877207351     -93.2657396
9.313                0.876839204     -93.4540614
9.314                 0.87646991     -93.6429852
9.315                0.876099469     -93.8325128
9.316                0.875727882     -94.0226465
9.317                0.875355148     -94.2133881
9.318                0.874981269     -94.4047396
9.319                0.874606244      -94.596703
9.32                 0.874230074     -94.7892804
9.321                0.873852759     -94.9824736
9.322                0.873474301     -95.1762848
9.323                0.873094699     -95.3707159
9.324                0.872713954     -95.5657689
9.325                0.872332068     -95.7614458
9.326                0.871949041     -95.9577486
9.327                0.871564875     -96.1546793
9.328                 0.87117957     -96.3522398
9.329                0.870793127     -96.5504323
9.33                 0.870405548     -96.7492586
9.331                0.870016835     -96.9487207
9.332                0.869626988     -97.1488208
9.333                 0.86923601     -97.3495606
9.334                0.868843902     -97.5509423
9.335                0.868450665     -97.7529678
9.336                0.868056302      -97.955639
9.337                0.867660814     -98.1589581
9.338                0.867264203     -98.3629269
9.339                0.866866473     -98.5675474
9.34                 0.866467624     -98.7728217
9.341                0.866067659     -98.9787516
9.342                0.865666581     -99.1853392
9.343                0.865264392     -99.3925863
9.344                0.864861096     -99.6004951
9.345                0.864456693     -99.8090674
9.346                0.864051188     -100.018305
9.347                0.863644584      -100.22821
9.348                0.863236883     -100.438785
9.349                0.862828089     -100.650031
9.35                 0.862418205      -100.86195
9.351                0.862007234     -101.074544
9.352                 0.86159518     -101.287816
9.353                0.861182047     -101.501767
9.354                0.860767839     -101.716398
9.355                0.860352559     -101.931713
9.356                0.859936211     -102.147712
9.357                  0.8595188     -102.364398
9.358                 0.85910033     -102.581773
9.359                0.858680805     -102.799838
9.36                 0.858260229     -103.018596
9.361                0.857838609     -103.238047
9.362                0.857415947     -103.458195
9.363                 0.85699225     -103.679041
9.364                0.856567521     -103.900587
9.365                0.856141767     -104.122835
9.366                0.855714993     -104.345786
9.367                0.855287204     -104.569443
9.368                0.854858406     -104.793807
9.369                0.854428604     -105.018879
9.37                 0.853997805     -105.244663
9.371                0.853566014      -105.47116
9.372                0.853133238     -105.698371
9.373                0.852699482     -105.926298
9.374                0.852264754     -106.154943
9.375                 0.85182906     -106.384308
9.376                0.851392407     -106.614394
9.377                0.850954802     -106.845204
9.378                0.850516251     -107.076739
9.379                0.850076762        -107.309
9.38                 0.849636342      -107.54199
9.381                   0.849195      -107.77571
9.382                0.848752741     -108.010162
9.383                0.848309576     -108.245347
9.384                 0.84786551     -108.481268
9.385                0.847420554     -108.717925
9.386                0.846974714     -108.955321
9.387                   0.846528     -109.193457
9.388                0.846080419     -109.432335
9.389                0.845631982     -109.671956
9.39                 0.845182697     -109.912321
9.391                0.844732573     -110.153434
9.392                0.844281619     -110.395294
9.393                0.843829846     -110.637903
9.394                0.843377262     -110.881264
9.395                0.842923878     -111.125377
9.396                0.842469703     -111.370245
