! TOUCHSTONE file generated by CST DESIGN STUDIO
! Date and time: Tue Feb  4 13:54:28 2025
! Project name: C:\Work\MatlabApps\UnitCellOptimizationMatlab\CST\unitcell.cst
! Tree item: Tasks\Sweep1\SPara1\S-Parameters
! Header version: 2024
! Port assignment regex: !\s*Touchstone port\s*([0-9]+)\s*=\s*(CST MWS port|CST DES external port|CST DES block port)\s*(.+)\s* \(\"(.*)\"\)(\s*mode\s*([0-9]+))?.*
! Touchstone port assignment:
! Touchstone port 1 = CST DES external port 1 ("")
# GHz S MA R 50
9                     0.89562749     -76.5959316
9.001                0.895277217     -76.7334518
9.002                0.894925771     -76.8713985
9.003                0.894573148     -77.0097735
9.004                0.894219345     -77.1485784
9.005                0.893864359     -77.2878152
9.006                0.893508187     -77.4274855
9.007                0.893150824     -77.5675912
9.008                0.892792269      -77.708134
9.009                0.892432517     -77.8491158
9.01                 0.892071565     -77.9905384
9.011                0.891709411     -78.1324035
9.012                 0.89134605     -78.2747131
9.013                 0.89098148      -78.417469
9.014                0.890615697     -78.5606729
9.015                0.890248699     -78.7043268
9.016                0.889880481     -78.8484324
9.017                0.889511041     -78.9929918
9.018                0.889140376     -79.1380066
9.019                0.888768482     -79.2834789
9.02                 0.888395356     -79.4294104
9.021                0.888020996     -79.5758032
9.022                0.887645397      -79.722659
9.023                0.887268558     -79.8699798
9.024                0.886890474     -80.0177675
9.025                0.886511143      -80.166024
9.026                0.886130562     -80.3147513
9.027                0.885748727     -80.4639513
9.028                0.885365635     -80.6136258
9.029                0.884981285      -80.763777
9.03                 0.884595672     -80.9144067
9.031                0.884208793     -81.0655169
9.032                0.883820646     -81.2171095
9.033                0.883431228     -81.3691866
9.034                0.883040536     -81.5217501
9.035                0.882648566     -81.6748021
9.036                0.882255317     -81.8283445
9.037                0.881860785     -81.9823793
9.038                0.881464967     -82.1369085
9.039                0.881067861     -82.2919343
9.04                 0.880669464     -82.4474585
9.041                0.880269773     -82.6034833
9.042                0.879868785     -82.7600106
9.043                0.879466498     -82.9170426
9.044                0.879062909     -83.0745813
9.045                0.878658015     -83.2326287
9.046                0.878251814     -83.3911869
9.047                0.877844304     -83.5502581
9.048                0.877435481     -83.7098442
9.049                0.877025343     -83.8699474
9.05                 0.876613888     -84.0305698
9.051                0.876201113     -84.1917135
9.052                0.875787016     -84.3533806
9.053                0.875371595     -84.5155733
9.054                0.874954846     -84.6782936
9.055                0.874536769     -84.8415436
9.056                 0.87411736     -85.0053256
9.057                0.873696617     -85.1696417
9.058                0.873274538     -85.3344941
9.059                0.872851122     -85.4998848
9.06                 0.872426365     -85.6658161
9.061                0.872000266     -85.8322901
9.062                0.871572823     -85.9993091
9.063                0.871144033     -86.1668752
9.064                0.870713896     -86.3349906
9.065                0.870282408     -86.5036575
9.066                0.869849568     -86.6728782
9.067                0.869415375     -86.8426548
9.068                0.868979826     -87.0129895
9.069                0.868542921     -87.1838847
9.07                 0.868104656     -87.3553424
9.071                0.867665031     -87.5273651
9.072                0.867224044     -87.6999549
9.073                0.866781694      -87.873114
9.074                0.866337978     -88.0468448
9.075                0.865892897     -88.2211495
9.076                0.865446447     -88.3960304
9.077                0.864998629     -88.5714897
9.078                0.864549441     -88.7475297
9.079                0.864098882     -88.9241528
9.08                  0.86364695     -89.1013612
9.081                0.863193645     -89.2791573
9.082                0.862738965     -89.4575433
9.083                 0.86228291     -89.6365215
9.084                0.861825479     -89.8160943
9.085                0.861366672      -89.996264
9.086                0.860906486      -90.177033
9.087                0.860444923     -90.3584035
9.088                 0.85998198     -90.5403779
9.089                0.859517659     -90.7229586
9.09                 0.859051957     -90.9061479
9.091                0.858584876     -91.0899482
9.092                0.858116414     -91.2743618
9.093                0.857646572     -91.4593911
9.094                0.857175349     -91.6450385
9.095                0.856702746     -91.8313063
9.096                0.856228761      -92.018197
9.097                0.855753397     -92.2057129
9.098                0.855276652     -92.3938564
9.099                0.854798527       -92.58263
9.1                  0.854319022     -92.7720359
9.101                0.853838138     -92.9620767
9.102                0.853355876     -93.1527547
9.103                0.852872236     -93.3440723
9.104                0.852387218      -93.536032
9.105                0.851900824     -93.7286362
9.106                0.851413054     -93.9218873
9.107                 0.85092391     -94.1157877
9.108                0.850433393     -94.3103399
9.109                0.849941503     -94.5055463
9.11                 0.849448243     -94.7014094
9.111                0.848953613     -94.8979316
9.112                0.848457616     -95.0951153
9.113                0.847960252     -95.2929629
9.114                0.847461523     -95.4914771
9.115                0.846961432     -95.6906601
9.116                 0.84645998     -95.8905145
9.117                 0.84595717     -96.0910427
9.118                0.845453003     -96.2922471
9.119                0.844947482     -96.4941303
9.12                 0.844440609     -96.6966947
9.121                0.843932387     -96.8999428
9.122                0.843422818     -97.1038771
9.123                0.842911905     -97.3084999
9.124                0.842399652     -97.5138139
9.125                 0.84188606     -97.7198214
9.126                0.841371134     -97.9265249
9.127                0.840854876      -98.133927
9.128                 0.84033729     -98.3420301
9.129                 0.83981838     -98.5508366
9.13                 0.839298148     -98.7603491
9.131                  0.8387766     -98.9705701
9.132                0.838253738     -99.1815019
9.133                0.837729568     -99.3931472
9.134                0.837204092     -99.6055083
9.135                0.836677316     -99.8185877
9.136                0.836149244     -100.032388
9.137                0.835619881     -100.246912
9.138                0.835089231     -100.462161
9.139                  0.8345573     -100.678139
9.14                 0.834024092     -100.894847
9.141                0.833489613     -101.112289
9.142                0.832953868     -101.330466
9.143                0.832416863     -101.549381
9.144                0.831878604     -101.769037
9.145                0.831339096     -101.989436
9.146                0.830798346     -102.210581
9.147                0.830256359     -102.432473
9.148                0.829713143     -102.655116
9.149                0.829168703     -102.878512
9.15                 0.828623047     -103.102664
9.151                 0.82807618     -103.327573
9.152                0.827528112     -103.553242
9.153                0.826978848     -103.779674
9.154                0.826428396     -104.006871
9.155                0.825876764     -104.234835
9.156                 0.82532396      -104.46357
9.157                0.824769991     -104.693076
9.158                0.824214866     -104.923358
9.159                0.823658593     -105.154416
9.16                  0.82310118     -105.386255
9.161                0.822542637     -105.618875
9.162                0.821982973     -105.852279
9.163                0.821422196      -106.08647
9.164                0.820860316      -106.32145
9.165                0.820297342     -106.557222
9.166                0.819733284     -106.793787
9.167                0.819168153     -107.031149
9.168                0.818601958     -107.269308
9.169                0.818034709     -107.508269
9.17                 0.817466418     -107.748033
9.171                0.816897094     -107.988602
9.172                 0.81632675     -108.229979
9.173                0.815755396     -108.472165
9.174                0.815183044     -108.715164
9.175                0.814609705     -108.958978
9.176                0.814035392     -109.203608
9.177                0.813460116     -109.449057
9.178                0.812883889     -109.695327
9.179                0.812306725     -109.942421
9.18                 0.811728637      -110.19034
9.181                0.811149636     -110.439087
9.182                0.810569737     -110.688665
9.183                0.809988953     -110.939074
9.184                0.809407297     -111.190317
9.185                0.808824785     -111.442397
9.186                0.808241429     -111.695316
9.187                0.807657245     -111.949075
9.188                0.807072247     -112.203676
9.189                 0.80648645     -112.459123
9.19                 0.805899869     -112.715416
9.191                 0.80531252     -112.972558
9.192                0.804724419     -113.230551
9.193                0.804135582     -113.489397
9.194                0.803546024     -113.749097
9.195                0.802955762     -114.009654
9.196                0.802364814      -114.27107
9.197                0.801773196     -114.533347
9.198                0.801180925     -114.796486
9.199                0.800588019     -115.060489
9.2                  0.799994495     -115.325358
9.201                0.799400373     -115.591096
9.202                 0.79880567     -115.857703
9.203                0.798210404     -116.125182
9.204                0.797614595     -116.393534
9.205                0.797018262     -116.662761
9.206                0.796421425     -116.932866
9.207                0.795824102     -117.203848
9.208                0.795226314     -117.475711
9.209                0.794628082     -117.748455
9.21                 0.794029426     -118.022083
9.211                0.793430366     -118.296595
9.212                0.792830924     -118.571994
9.213                0.792231122     -118.848281
9.214                 0.79163098     -119.125458
9.215                0.791030521     -119.403525
9.216                0.790429768     -119.682484
9.217                0.789828742     -119.962338
9.218                0.789227467     -120.243086
9.219                0.788625965     -120.524731
9.22                 0.788024261     -120.807273
9.221                0.787422377     -121.090715
9.222                0.786820338     -121.375056
9.223                0.786218169     -121.660299
9.224                0.785615893     -121.946444
9.225                0.785013536     -122.233493
9.226                0.784411122     -122.521447
9.227                0.783808678     -122.810307
9.228                0.783206229     -123.100073
9.229                0.782603801     -123.390747
9.23                  0.78200142      -123.68233
9.231                0.781399114     -123.974822
9.232                0.780796908     -124.268225
9.233                0.780194831     -124.562539
9.234                0.779592909     -124.857764
9.235                0.778991172     -125.153903
9.236                0.778389645     -125.450955
9.237                0.777788359     -125.748921
9.238                0.777187342     -126.047802
9.239                0.776586623     -126.347597
9.24                 0.775986231     -126.648309
9.241                0.775386195     -126.949936
9.242                0.774786546      -127.25248
9.243                0.774187314     -127.555941
9.244                0.773588529     -127.860319
9.245                0.772990222     -128.165615
9.246                0.772392424     -128.471828
9.247                0.771795166     -128.778959
9.248                 0.77119848     -129.087008
9.249                0.770602398     -129.395975
9.25                 0.770006952      -129.70586
9.251                0.769412174     -130.016662
9.252                0.768818098     -130.328383
9.253                0.768224755     -130.641021
9.254                 0.76763218     -130.954577
9.255                0.767040405     -131.269049
9.256                0.766449466     -131.584439
9.257                0.765859395     -131.900745
9.258                0.765270227     -132.217967
9.259                0.764681997     -132.536104
9.26                  0.76409474     -132.855157
9.261                0.763508491     -133.175123
9.262                0.762923285     -133.496003
9.263                0.762339157     -133.817796
9.264                0.761756145     -134.140501
9.265                0.761174283     -134.464117
9.266                0.760593609     -134.788643
9.267                0.760014159     -135.114079
9.268                0.759435969     -135.440422
9.269                0.758859078     -135.767673
9.27                 0.758283521     -136.095829
9.271                0.757709338     -136.424889
9.272                0.757136565     -136.754853
9.273                0.756565241     -137.085718
9.274                0.755995404     -137.417483
9.275                0.755427092     -137.750147
9.276                0.754860344     -138.083708
9.277                0.754295199     -138.418165
9.278                0.753731696     -138.753514
9.279                0.753169874     -139.089756
9.28                 0.752609772     -139.426887
9.281                0.752051431     -139.764906
9.282                 0.75149489      -140.10381
9.283                0.750940188     -140.443598
9.284                0.750387367     -140.784268
9.285                0.749836466     -141.125816
9.286                0.749287527     -141.468241
9.287                0.748740588      -141.81154
9.288                0.748195692      -142.15571
9.289                 0.74765288      -142.50075
9.29                 0.747112191     -142.846655
9.291                0.746573668     -143.193424
9.292                0.746037352     -143.541054
9.293                0.745503283     -143.889541
9.294                0.744971505     -144.238883
9.295                0.744442058     -144.589077
9.296                0.743914983     -144.940119
9.297                0.743390324     -145.292005
9.298                0.742868122     -145.644734
9.299                0.742348418     -145.998301
9.3                  0.741831255     -146.352702
9.301                0.741316675     -146.707934
9.302                 0.74080472     -147.063994
9.303                0.740295432     -147.420877
9.304                0.739788854      -147.77858
9.305                0.739285027     -148.137099
9.306                0.738783995     -148.496429
9.307                  0.7382858     -148.856566
9.308                0.737790483     -149.217507
9.309                0.737298087     -149.579247
9.31                 0.736808655     -149.941782
9.311                0.736322228     -150.305106
9.312                 0.73583885     -150.669216
9.313                0.735358562     -151.034106
9.314                0.734881407     -151.399773
9.315                0.734407427      -151.76621
9.316                0.733936663     -152.133414
9.317                0.733469158     -152.501378
9.318                0.733004955     -152.870099
9.319                0.732544094      -153.23957
9.32                 0.732086618     -153.609787
9.321                0.731632568     -153.980744
9.322                0.731181985     -154.352435
9.323                0.730734913     -154.724855
9.324                 0.73029139     -155.097999
9.325                 0.72985146     -155.471859
9.326                0.729415163     -155.846432
9.327                0.728982539      -156.22171
9.328                 0.72855363     -156.597687
9.329                0.728128476     -156.974358
9.33                 0.727707117     -157.351717
9.331                0.727289594     -157.729756
9.332                0.726875947     -158.108469
9.333                0.726466214     -158.487851
9.334                0.726060437     -158.867894
9.335                0.725658653     -159.248591
9.336                0.725260903     -159.629937
9.337                0.724867224     -160.011924
9.338                0.724477655     -160.394544
9.339                0.724092235     -160.777792
9.34                 0.723711002      -161.16166
9.341                0.723333993     -161.546141
9.342                0.722961245     -161.931227
9.343                0.722592796     -162.316911
9.344                0.722228682     -162.703186
9.345                 0.72186894     -163.090044
9.346                0.721513606     -163.477478
9.347                0.721162715     -163.865479
9.348                0.720816302      -164.25404
9.349                0.720474404     -164.643153
9.35                 0.720137053     -165.032811
9.351                0.719804285     -165.423004
9.352                0.719476134     -165.813725
9.353                0.719152632     -166.204966
9.354                0.718833812     -166.596719
9.355                0.718519708     -166.988974
9.356                0.718210351     -167.381724
9.357                0.717905772      -167.77496
9.358                0.717606004     -168.168674
9.359                0.717311077     -168.562857
9.36                 0.717021021     -168.957499
9.361                0.716735865     -169.352593
9.362                 0.71645564      -169.74813
9.363                0.716180373       -170.1441
9.364                0.715910094     -170.540494
9.365                 0.71564483     -170.937304
9.366                0.715384608      -171.33452
9.367                0.715129455     -171.732133
9.368                0.714879397     -172.130133
9.369                0.714634459     -172.528512
9.37                 0.714394668     -172.927261
9.371                0.714160047     -173.326368
9.372                 0.71393062     -173.725826
9.373                0.713706411     -174.125624
9.374                0.713487442     -174.525753
9.375                0.713273735     -174.926203
9.376                0.713065313     -175.326964
9.377                0.712862196     -175.728027
9.378                0.712664405     -176.129381
9.379                0.712471959     -176.531018
9.38                 0.712284877     -176.932926
9.381                0.712103178     -177.335096
9.382                 0.71192688     -177.737518
9.383                   0.711756     -178.140182
9.384                0.711590555     -178.543078
9.385                 0.71143056     -178.946195
9.386                0.711276031     -179.349523
9.387                0.711126982     -179.753053
9.388                0.710983428      179.843227
9.389                0.710845381      179.439326
9.39                 0.710712855      179.035255
9.391                 0.71058586      178.631024
9.392                 0.71046441      178.226643
9.393                0.710348513      177.822124
9.394                 0.71023818      177.417475
9.395                 0.71013342      177.012709
9.396                0.710034242      176.607835
