! TOUCHSTONE file generated by CST DESIGN STUDIO
! Date and time: Tue Feb  4 13:54:30 2025
! Project name: C:\Work\MatlabApps\UnitCellOptimizationMatlab\CST\unitcell.cst
! Tree item: Tasks\Sweep1\SPara1\S-Parameters
! Header version: 2024
! Port assignment regex: !\s*Touchstone port\s*([0-9]+)\s*=\s*(CST MWS port|CST DES external port|CST DES block port)\s*(.+)\s* \(\"(.*)\"\)(\s*mode\s*([0-9]+))?.*
! Touchstone port assignment:
! Touchstone port 1 = CST DES external port 1 ("")
# GHz S MA R 50
9                    0.917929738     -67.9029904
9.001                0.917681364     -68.0137653
9.002                0.917432135     -68.1248581
9.003                0.917182047     -68.2362701
9.004                0.916931097     -68.3480025
9.005                0.916679283     -68.4600567
9.006                  0.9164266     -68.5724338
9.007                0.916173047     -68.6851352
9.008                 0.91591862     -68.7981621
9.009                0.915663316     -68.9115159
9.01                 0.915407131     -69.0251978
9.011                0.915150064     -69.1392092
9.012                0.914892109     -69.2535514
9.013                0.914633265     -69.3682256
9.014                0.914373529     -69.4832332
9.015                0.914112896     -69.5985755
9.016                0.913851365     -69.7142538
9.017                0.913588931     -69.8302696
9.018                0.913325592      -69.946624
9.019                0.913061345     -70.0633186
9.02                 0.912796186     -70.1803546
9.021                0.912530112     -70.2977334
9.022                 0.91226312     -70.4154563
9.023                0.911995206     -70.5335248
9.024                0.911726368     -70.6519402
9.025                0.911456603     -70.7707039
9.026                0.911185907     -70.8898172
9.027                0.910914277     -71.0092817
9.028                0.910641709     -71.1290986
9.029                0.910368201     -71.2492695
9.03                  0.91009375     -71.3697956
9.031                0.909818351     -71.4906785
9.032                0.909542003     -71.6119195
9.033                0.909264701     -71.7335201
9.034                0.908986442     -71.8554818
9.035                0.908707224     -71.9778059
9.036                0.908427042     -72.1004939
9.037                0.908145894     -72.2235473
9.038                0.907863777     -72.3469676
9.039                0.907580687     -72.4707561
9.04                  0.90729662     -72.5949145
9.041                0.907011575     -72.7194441
9.042                0.906725547     -72.8443465
9.043                0.906438533     -72.9696231
9.044                 0.90615053     -73.0952754
9.045                0.905861534      -73.221305
9.046                0.905571543     -73.3477134
9.047                0.905280554     -73.4745021
9.048                0.904988562     -73.6016725
9.049                0.904695564     -73.7292264
9.05                 0.904401558      -73.857165
9.051                 0.90410654     -73.9854902
9.052                0.903810507     -74.1142032
9.053                0.903513455     -74.2433059
9.054                0.903215382     -74.3727996
9.055                0.902916283     -74.5026859
9.056                0.902616157     -74.6329666
9.057                0.902314999      -74.763643
9.058                0.902012806     -74.8947168
9.059                0.901709575     -75.0261897
9.06                 0.901405303     -75.1580631
9.061                0.901099986     -75.2903388
9.062                0.900793621     -75.4230183
9.063                0.900486206     -75.5561033
9.064                0.900177736     -75.6895953
9.065                0.899868209      -75.823496
9.066                0.899557621     -75.9578071
9.067                0.899245969     -76.0925302
9.068                0.898933249     -76.2276669
9.069                 0.89861946      -76.363219
9.07                 0.898304596      -76.499188
9.071                0.897988656     -76.6355757
9.072                0.897671636     -76.7723837
9.073                0.897353532     -76.9096137
9.074                0.897034342     -77.0472675
9.075                0.896714063     -77.1853466
9.076                 0.89639269     -77.3238529
9.077                0.896070222      -77.462788
9.078                0.895746654     -77.6021536
9.079                0.895421984     -77.7419515
9.08                 0.895096208     -77.8821835
9.081                0.894769324     -78.0228511
9.082                0.894441328     -78.1639563
9.083                0.894112218     -78.3055007
9.084                0.893781989     -78.4474861
9.085                0.893450639     -78.5899143
9.086                0.893118165      -78.732787
9.087                0.892784564      -78.876106
9.088                0.892449832     -79.0198731
9.089                0.892113967     -79.1640901
9.09                 0.891776966     -79.3087588
9.091                0.891438825      -79.453881
9.092                0.891099541     -79.5994585
9.093                0.890759113     -79.7454932
9.094                0.890417535     -79.8919868
9.095                0.890074807     -80.0389411
9.096                0.889730924     -80.1863581
9.097                0.889385883     -80.3342396
9.098                0.889039683     -80.4825874
9.099                0.888692319     -80.6314033
9.1                  0.888343789     -80.7806893
9.101                 0.88799409     -80.9304472
9.102                 0.88764322     -81.0806789
9.103                0.887291175     -81.2313863
9.104                0.886937952     -81.3825712
9.105                 0.88658355     -81.5342356
9.106                0.886227964     -81.6863814
9.107                0.885871192     -81.8390104
9.108                0.885513232     -81.9921246
9.109                0.885154081      -82.145726
9.11                 0.884793736     -82.2998163
9.111                0.884432195     -82.4543977
9.112                0.884069454      -82.609472
9.113                0.883705511     -82.7650411
9.114                0.883340364     -82.9211071
9.115                0.882974011     -83.0776718
9.116                0.882606447     -83.2347374
9.117                0.882237672     -83.3923056
9.118                0.881867682     -83.5503786
9.119                0.881496475     -83.7089582
9.12                 0.881124049     -83.8680466
9.121                0.880750402     -84.0276456
9.122                 0.88037553     -84.1877574
9.123                0.879999431     -84.3483838
9.124                0.879622104      -84.509527
9.125                0.879243546     -84.6711889
9.126                0.878863755     -84.8333716
9.127                0.878482728     -84.9960772
9.128                0.878100464     -85.1593076
9.129                 0.87771696     -85.3230649
9.13                 0.877332214     -85.4873512
9.131                0.876946225     -85.6521685
9.132                0.876558989     -85.8175189
9.133                0.876170506     -85.9834044
9.134                0.875780773     -86.1498273
9.135                0.875389788     -86.3167894
9.136                0.874997549      -86.484293
9.137                0.874604056       -86.65234
9.138                0.874209305     -86.8209327
9.139                0.873813295     -86.9900732
9.14                 0.873416025     -87.1597634
9.141                0.873017493     -87.3300057
9.142                0.872617697      -87.500802
9.143                0.872216635     -87.6721545
9.144                0.871814307     -87.8440653
9.145                0.871410711     -88.0165367
9.146                0.871005845     -88.1895707
9.147                0.870599708     -88.3631694
9.148                0.870192299     -88.5373351
9.149                0.869783616     -88.7120699
9.15                 0.869373659      -88.887376
9.151                0.868962426     -89.0632555
9.152                0.868549917     -89.2397106
9.153                0.868136129     -89.4167435
9.154                0.867721062     -89.5943564
9.155                0.867304716     -89.7725515
9.156                 0.86688709     -89.9513309
9.157                0.866468182      -90.130697
9.158                0.866047992     -90.3106517
9.159                0.865626519     -90.4911975
9.16                 0.865203763     -90.6723365
9.161                0.864779724     -90.8540709
9.162                  0.8643544     -91.0364029
9.163                0.863927792     -91.2193348
9.164                0.863499898     -91.4028688
9.165                 0.86307072     -91.5870072
9.166                0.862640256     -91.7717521
9.167                0.862208507     -91.9571058
9.168                0.861775473     -92.1430706
9.169                0.861341153     -92.3296487
9.17                 0.860905548     -92.5168423
9.171                0.860468658     -92.7046538
9.172                0.860030483     -92.8930854
9.173                0.859591024     -93.0821393
9.174                0.859150281     -93.2718179
9.175                0.858708254     -93.4621233
9.176                0.858264945     -93.6530579
9.177                0.857820353     -93.8446239
9.178                0.857374481     -94.0368237
9.179                0.856927328     -94.2296594
9.18                 0.856478895     -94.4231334
9.181                0.856029184      -94.617248
9.182                0.855578196     -94.8120055
9.183                0.855125932     -95.0074081
9.184                0.854672393     -95.2034581
9.185                0.854217581     -95.4001579
9.186                0.853761497     -95.5975098
9.187                0.853304143     -95.7955159
9.188                 0.85284552     -95.9941787
9.189                0.852385631     -96.1935005
9.19                 0.851924478     -96.3934835
9.191                0.851462061       -96.59413
9.192                0.850998385     -96.7954424
9.193                 0.85053345     -96.9974229
9.194                0.850067259     -97.2000739
9.195                0.849599815     -97.4033977
9.196                 0.84913112     -97.6073965
9.197                0.848661177     -97.8120728
9.198                0.848189989     -98.0174287
9.199                0.847717558     -98.2234667
9.2                  0.847243888     -98.4301889
9.201                0.846768982     -98.6375978
9.202                0.846292843     -98.8456956
9.203                0.845815475     -99.0544846
9.204                 0.84533688     -99.2639672
9.205                0.844857064     -99.4741456
9.206                0.844376028     -99.6850222
9.207                0.843893779     -99.8965992
9.208                0.843410318     -100.108879
9.209                0.842925652     -100.321864
9.21                 0.842439783     -100.535556
9.211                0.841952717     -100.749958
9.212                0.841464457     -100.965071
9.213                 0.84097501     -101.180899
9.214                0.840484379     -101.397444
9.215                 0.83999257     -101.614707
9.216                0.839499587     -101.832691
9.217                0.839005436     -102.051399
9.218                0.838510123     -102.270832
9.219                0.838013653     -102.490993
9.22                 0.837516032     -102.711884
9.221                0.837017266     -102.933507
9.222                 0.83651736     -103.155866
9.223                0.836016322     -103.378961
9.224                0.835514156     -103.602795
9.225                0.835010871     -103.827371
9.226                0.834506473      -104.05269
9.227                0.834000967     -104.278755
9.228                0.833494363     -104.505568
9.229                0.832986666     -104.733131
9.23                 0.832477883     -104.961447
9.231                0.831968024     -105.190518
9.232                0.831457095     -105.420345
9.233                0.830945104     -105.650932
9.234                0.830432059     -105.882279
9.235                0.829917968     -106.114391
9.236                 0.82940284     -106.347267
9.237                0.828886684     -106.580912
9.238                0.828369508     -106.815326
9.239                 0.82785132     -107.050512
9.24                 0.827332131     -107.286473
9.241                 0.82681195     -107.523209
9.242                0.826290786     -107.760724
9.243                0.825768648      -107.99902
9.244                0.825245547     -108.238097
9.245                0.824721493      -108.47796
9.246                0.824196496     -108.718609
9.247                0.823670567     -108.960047
9.248                0.823143716     -109.202275
9.249                0.822615953     -109.445297
9.25                 0.822087292     -109.689113
9.251                0.821557741     -109.933726
9.252                0.821027314     -110.179137
9.253                0.820496022     -110.425349
9.254                0.819963876     -110.672364
9.255                0.819430889     -110.920184
9.256                0.818897073      -111.16881
9.257                0.818362441     -111.418244
9.258                0.817827005     -111.668489
9.259                0.817290779     -111.919546
9.26                 0.816753776     -112.171417
9.261                0.816216009     -112.424104
9.262                0.815677491     -112.677609
9.263                0.815138238     -112.931933
9.264                0.814598262     -113.187078
9.265                0.814057579     -113.443047
9.266                0.813516202      -113.69984
9.267                0.812974147      -113.95746
9.268                0.812431429     -114.215909
9.269                0.811888062     -114.475187
9.27                 0.811344063     -114.735297
9.271                0.810799447      -114.99624
9.272                0.810254231     -115.258018
9.273                0.809708429     -115.520633
9.274                 0.80916206     -115.784085
9.275                0.808615138     -116.048378
9.276                0.808067683     -116.313511
9.277                 0.80751971     -116.579487
9.278                0.806971237     -116.846308
9.279                0.806422282     -117.113974
9.28                 0.805872862     -117.382487
9.281                0.805322997     -117.651848
9.282                0.804772703      -117.92206
9.283                0.804222001     -118.193122
9.284                0.803670908     -118.465037
9.285                0.803119445     -118.737806
9.286                 0.80256763      -119.01143
9.287                0.802015483     -119.285911
9.288                0.801463025     -119.561249
9.289                0.800910275     -119.837445
9.29                 0.800357253     -120.114502
9.291                0.799803981     -120.392419
9.292                 0.79925048     -120.671198
9.293                 0.79869677     -120.950841
9.294                0.798142873     -121.231348
9.295                0.797588812      -121.51272
9.296                0.797034607     -121.794958
9.297                0.796480282     -122.078063
9.298                0.795925858     -122.362035
9.299                0.795371359     -122.646877
9.3                  0.794816807     -122.932588
9.301                0.794262227     -123.219169
9.302                 0.79370764     -123.506621
9.303                0.793153073     -123.794945
9.304                0.792598547     -124.084142
9.305                0.792044089     -124.374211
9.306                0.791489721     -124.665154
9.307                 0.79093547     -124.956971
9.308                0.790381361     -125.249663
9.309                0.789827418      -125.54323
9.31                 0.789273668     -125.837672
9.311                0.788720136      -126.13299
9.312                0.788166849     -126.429184
9.313                0.787613833     -126.726255
9.314                0.787061115     -127.024202
9.315                0.786508721     -127.323026
9.316                0.785956679     -127.622727
9.317                0.785405017     -127.923306
9.318                0.784853762     -128.224761
9.319                0.784302942     -128.527094
9.32                 0.783752586     -128.830303
9.321                0.783202721      -129.13439
9.322                0.782653377     -129.439354
9.323                0.782104582     -129.745194
9.324                0.781556367      -130.05191
9.325                0.781008759     -130.359503
9.326                 0.78046179     -130.667972
9.327                0.779915488     -130.977316
9.328                0.779369885     -131.287535
9.329                0.778825011     -131.598628
9.33                 0.778280896     -131.910595
9.331                0.777737571     -132.223436
9.332                0.777195067     -132.537148
9.333                0.776653417     -132.851733
9.334                 0.77611265     -133.167189
9.335                  0.7755728     -133.483515
9.336                0.775033899      -133.80071
9.337                0.774495978     -134.118773
9.338                 0.77395907     -134.437704
9.339                0.773423208     -134.757501
9.34                 0.772888424     -135.078163
9.341                0.772354753     -135.399689
9.342                0.771822227     -135.722077
9.343                 0.77129088     -136.045326
9.344                0.770760745     -136.369436
9.345                0.770231857     -136.694403
9.346                 0.76970425     -137.020228
9.347                0.769177957     -137.346907
9.348                0.768653014     -137.674441
9.349                0.768129456     -138.002826
9.35                 0.767607316     -138.332061
9.351                0.767086631     -138.662144
9.352                0.766567435     -138.993074
9.353                0.766049764     -139.324848
9.354                0.765533654     -139.657464
9.355                0.765019139      -139.99092
9.356                0.764506257     -140.325214
9.357                0.763995042     -140.660344
9.358                0.763485532     -140.996306
9.359                0.762977762       -141.3331
9.36                 0.762471769     -141.670722
9.361                 0.76196759      -142.00917
9.362                 0.76146526     -142.348441
9.363                0.760964818     -142.688532
9.364                  0.7604663     -143.029441
9.365                0.759969742     -143.371165
9.366                0.759475183     -143.713701
9.367                0.758982659     -144.057045
9.368                0.758492207     -144.401195
9.369                0.758003866     -144.746148
9.37                 0.757517672       -145.0919
9.371                0.757033663     -145.438448
9.372                0.756551877     -145.785789
9.373                0.756072352     -146.133919
9.374                0.755595125     -146.482835
9.375                0.755120233     -146.832532
9.376                0.754647716     -147.183008
9.377                 0.75417761     -147.534259
9.378                0.753709954      -147.88628
9.379                0.753244786     -148.239068
9.38                 0.752782143     -148.592618
9.381                0.752322063     -148.946927
9.382                0.751864585      -149.30199
9.383                0.751409747     -149.657804
9.384                0.750957586     -150.014363
9.385                 0.75050814     -150.371664
9.386                0.750061447     -150.729701
9.387                0.749617545     -151.088471
9.388                0.749176472     -151.447968
9.389                0.748738266     -151.808188
9.39                 0.748302964     -152.169126
9.391                0.747870604     -152.530777
9.392                0.747441224     -152.893136
9.393                0.747014861     -153.256198
9.394                0.746591552     -153.619958
9.395                0.746171335      -153.98441
9.396                0.745754247      -154.34955
