! TOUCHSTONE file generated by CST DESIGN STUDIO
! Date and time: Tue Feb  4 13:54:24 2025
! Project name: C:\Work\MatlabApps\UnitCellOptimizationMatlab\CST\unitcell.cst
! Tree item: Tasks\Sweep1\SPara1\S-Parameters
! Header version: 2024
! Port assignment regex: !\s*Touchstone port\s*([0-9]+)\s*=\s*(CST MWS port|CST DES external port|CST DES block port)\s*(.+)\s* \(\"(.*)\"\)(\s*mode\s*([0-9]+))?.*
! Touchstone port assignment:
! Touchstone port 1 = CST DES external port 1 ("")
# GHz S MA R 50
9                      0.7861975     -118.845036
9.001                0.785420663     -119.135993
9.002                0.784643144     -119.427929
9.003                0.783864975     -119.720844
9.004                0.783086186     -120.014743
9.005                0.782306809     -120.309625
9.006                0.781526877     -120.605493
9.007                0.780746423      -120.90235
9.008                0.779965479     -121.200195
9.009                0.779184079     -121.499033
9.01                 0.778402258     -121.798863
9.011                0.777620049     -122.099688
9.012                0.776837488      -122.40151
9.013                0.776054609     -122.704329
9.014                0.775271449     -123.008149
9.015                0.774488043     -123.312969
9.016                0.773704428     -123.618791
9.017                0.772920641     -123.925618
9.018                0.772136719      -124.23345
9.019                  0.7713527     -124.542288
9.02                 0.770568623     -124.852135
9.021                0.769784525     -125.162991
9.022                0.769000446     -125.474857
9.023                0.768216426     -125.787734
9.024                0.767432504     -126.101625
9.025                0.766648721     -126.416528
9.026                0.765865117     -126.732447
9.027                0.765081734     -127.049381
9.028                0.764298613     -127.367332
9.029                0.763515796       -127.6863
9.03                 0.762733326     -128.006286
9.031                0.761951245     -128.327291
9.032                0.761169598     -128.649316
9.033                0.760388427     -128.972361
9.034                0.759607776     -129.296426
9.035                0.758827691     -129.621513
9.036                0.758048215     -129.947621
9.037                0.757269395     -130.274752
9.038                0.756491276     -130.602904
9.039                0.755713904     -130.932079
9.04                 0.754937327     -131.262278
9.041                0.754161589     -131.593498
9.042                 0.75338674     -131.925742
9.043                0.752612826     -132.259009
9.044                0.751839896     -132.593299
9.045                0.751067999     -132.928611
9.046                0.750297182     -133.264946
9.047                0.749527496     -133.602303
9.048                 0.74875899     -133.940681
9.049                0.747991714     -134.280082
9.05                 0.747225718     -134.620502
9.051                0.746461053     -134.961944
9.052                 0.74569777     -135.304404
9.053                0.744935921     -135.647884
9.054                0.744175557     -135.992382
9.055                 0.74341673     -136.337896
9.056                0.742659493     -136.684427
9.057                0.741903898     -137.031973
9.058                0.741149999     -137.380532
9.059                0.740397849     -137.730105
9.06                 0.739647502     -138.080688
9.061                0.738899011     -138.432282
9.062                0.738152432     -138.784884
9.063                0.737407818     -139.138493
9.064                0.736665225     -139.493107
9.065                0.735924707     -139.848724
9.066                0.735186321     -140.205343
9.067                0.734450122     -140.562961
9.068                0.733716166     -140.921577
9.069                0.732984509     -141.281189
9.07                 0.732255208     -141.641793
9.071                0.731528319     -142.003389
9.072                  0.7308039     -142.365973
9.073                0.730082007     -142.729542
9.074                0.729362698     -143.094096
9.075                0.728646031     -143.459629
9.076                0.727932062      -143.82614
9.077                0.727220852     -144.193627
9.078                0.726512456     -144.562084
9.079                0.725806934     -144.931511
9.08                 0.725104345     -145.301903
9.081                0.724404746     -145.673257
9.082                0.723708197     -146.045569
9.083                0.723014756     -146.418837
9.084                0.722324482     -146.793056
9.085                0.721637434     -147.168223
9.086                0.720953673     -147.544333
9.087                0.720273256     -147.921383
9.088                0.719596243     -148.299369
9.089                0.718922694     -148.678286
9.09                 0.718252667      -149.05813
9.091                0.717586223     -149.438897
9.092                0.716923422     -149.820581
9.093                0.716264321      -150.20318
9.094                0.715608982     -150.586686
9.095                0.714957463     -150.971097
9.096                0.714309824     -151.356406
9.097                0.713666125     -151.742609
9.098                0.713026424       -152.1297
9.099                0.712390782     -152.517674
9.1                  0.711759257     -152.906526
9.101                0.711131908     -153.296249
9.102                0.710508796     -153.686838
9.103                0.709889978     -154.078288
9.104                0.709275514     -154.470592
9.105                0.708665461     -154.863744
9.106                 0.70805988     -155.257739
9.107                0.707458828     -155.652568
9.108                0.706862363     -156.048228
9.109                0.706270543     -156.444709
9.11                 0.705683427     -156.842007
9.111                0.705101071     -157.240114
9.112                0.704523533     -157.639023
9.113                 0.70395087     -158.038728
9.114                0.703383139      -158.43922
9.115                0.702820397     -158.840493
9.116                0.702262699     -159.242539
9.117                0.701710102     -159.645352
9.118                 0.70116266     -160.048922
9.119                0.700620431     -160.453242
9.12                 0.700083467     -160.858306
9.121                0.699551824     -161.264103
9.122                0.699025557     -161.670627
9.123                0.698504718     -162.077869
9.124                0.697989361      -162.48582
9.125                0.697479538     -162.894473
9.126                0.696975304     -163.303818
9.127                0.696476708     -163.713847
9.128                0.695983804     -164.124552
9.129                0.695496641     -164.535922
9.13                 0.695015271     -164.947949
9.131                0.694539743     -165.360624
9.132                0.694070107     -165.773938
9.133                0.693606412     -166.187881
9.134                0.693148707     -166.602443
9.135                0.692697038     -167.017615
9.136                0.692251454     -167.433388
9.137                   0.691812      -167.84975
9.138                0.691378723     -168.266694
9.139                0.690951669     -168.684207
9.14                 0.690530882     -169.102281
9.141                0.690116405     -169.520905
9.142                0.689708283     -169.940068
9.143                0.689306558     -170.359761
9.144                0.688911272     -170.779972
9.145                0.688522466      -171.20069
9.146                0.688140182     -171.621906
9.147                0.687764458     -172.043608
9.148                0.687395334     -172.465786
9.149                0.687032848     -172.888427
9.15                 0.686677037     -173.311522
9.151                0.686327939     -173.735058
9.152                0.685985589     -174.159025
9.153                0.685650023     -174.583412
9.154                0.685321275     -175.008205
9.155                0.684999377     -175.433395
9.156                0.684684364      -175.85897
9.157                0.684376266     -176.284917
9.158                0.684075115     -176.711225
9.159                0.683780941     -177.137882
9.16                 0.683493772     -177.564876
9.161                0.683213637     -177.992195
9.162                0.682940564     -178.419828
9.163                0.682674578     -178.847761
9.164                0.682415706     -179.275983
9.165                0.682163971     -179.704481
9.166                0.681919398      179.866756
9.167                 0.68168201      179.437742
9.168                0.681451827      179.008488
9.169                0.681228871      178.579008
9.17                 0.681013162      178.149313
9.171                0.680804718      177.719417
9.172                0.680603557      177.289331
9.173                0.680409697       176.85907
9.174                0.680223152      176.428644
9.175                0.680043939      175.998068
9.176                 0.67987207      175.567353
9.177                0.679707559      175.136513
9.178                0.679550418       174.70556
9.179                0.679400657      174.274508
9.18                 0.679258286      173.843369
9.181                0.679123314      173.412156
9.182                0.678995749      172.980882
9.183                0.678875598       172.54956
9.184                0.678762865      172.118203
9.185                0.678657557      171.686824
9.186                0.678559677      171.255436
9.187                0.678469227      170.824051
9.188                0.678386209      170.392683
9.189                0.678310623      169.961345
9.19                  0.67824247       169.53005
9.191                0.678181747      169.098811
9.192                0.678128453       168.66764
9.193                0.678082582      168.236551
9.194                0.678044132      167.805557
9.195                0.678013097       167.37467
9.196                0.677989469      166.943903
9.197                0.677973241       166.51327
9.198                0.677964405      166.082783
9.199                 0.67796295      165.652455
9.2                  0.677968867      165.222298
9.201                0.677982144      164.792326
9.202                0.678002767      164.362552
9.203                0.678030724      163.932987
9.204                0.678065999      163.503645
9.205                0.678108578      163.074538
9.206                0.678158442      162.645679
9.207                0.678215576       162.21708
9.208                 0.67827996      161.788754
9.209                0.678351574      161.360713
9.21                 0.678430399       160.93297
9.211                0.678516413      160.505537
9.212                0.678609594      160.078426
9.213                0.678709918      159.651649
9.214                0.678817362      159.225218
9.215                  0.6789319      158.799146
9.216                0.679053506      158.373445
9.217                0.679182153      157.948126
9.218                0.679317815      157.523201
9.219                0.679460462      157.098682
9.22                 0.679610064      156.674581
9.221                0.679766592      156.250909
9.222                0.679930014      155.827678
9.223                0.680100299        155.4049
9.224                0.680277414      154.982585
9.225                0.680461325      154.560745
9.226                0.680651997      154.139391
9.227                0.680849396      153.718534
9.228                0.681053486      153.298186
9.229                 0.68126423      152.878357
9.23                 0.681481591      152.459058
9.231                 0.68170553      152.040299
9.232                 0.68193601      151.622092
9.233                0.682172989      151.204447
9.234                0.682416429      150.787374
9.235                0.682666287      150.370884
9.236                0.682922524      149.954987
9.237                0.683185095      149.539692
9.238                0.683453959      149.125011
9.239                0.683729073      148.710952
9.24                 0.684010391      148.297527
9.241                0.684297869      147.884743
9.242                0.684591463      147.472612
9.243                0.684891126      147.061141
9.244                0.685196812      146.650342
9.245                0.685508474      146.240223
9.246                0.685826064      145.830792
9.247                0.686149535       145.42206
9.248                0.686478838      145.014035
9.249                0.686813925      144.606725
9.25                 0.687154746       144.20014
9.251                 0.68750125      143.794288
9.252                0.687853389      143.389177
9.253                0.688211111      142.984816
9.254                0.688574365      142.581212
9.255                0.688943099      142.178375
9.256                0.689317263      141.776311
9.257                0.689696803      141.375028
9.258                0.690081667      140.974535
9.259                0.690471802      140.574839
9.26                 0.690867156      140.175947
9.261                0.691267673      139.777866
9.262                0.691673302      139.380605
9.263                0.692083987      138.984169
9.264                0.692499674      138.588566
9.265                0.692920309      138.193802
9.266                0.693345837      137.799885
9.267                0.693776203      137.406821
9.268                0.694211351      137.014616
9.269                0.694651226      136.623277
9.27                 0.695095773       136.23281
9.271                0.695544936       135.84322
9.272                0.695998658      135.454515
9.273                0.696456885      135.066699
9.274                0.696919559      134.679779
9.275                0.697386624       134.29376
9.276                0.697858024      133.908647
9.277                0.698333702      133.524446
9.278                0.698813603      133.141163
9.279                0.699297668      132.758802
9.28                 0.699785842      132.377368
9.281                0.700278068      131.996866
9.282                 0.70077429      131.617301
9.283                0.701274449      131.238677
9.284                0.701778491         130.861
9.285                0.702286357      130.484273
9.286                0.702797992      130.108501
9.287                0.703313339      129.733688
9.288                 0.70383234      129.359838
9.289                 0.70435494      128.986955
9.29                 0.704881082      128.615042
9.291                 0.70541071      128.244104
9.292                0.705943767      127.874144
9.293                0.706480197      127.505166
9.294                0.707019944      127.137173
9.295                0.707562952      126.770168
9.296                0.708109166      126.404154
9.297                0.708658529      126.039135
9.298                0.709210985      125.675114
9.299                0.709766481      125.312093
9.3                  0.710324959      124.950074
9.301                0.710886366      124.589062
9.302                0.711450646      124.229058
9.303                0.712017745      123.870064
9.304                0.712587608      123.512084
9.305                0.713160181      123.155118
9.306                0.713735409       122.79917
9.307                 0.71431324      122.444242
9.308                0.714893619      122.090335
9.309                0.715476494      121.737451
9.31                  0.71606181      121.385592
9.311                0.716649516       121.03476
9.312                0.717239558      120.684955
9.313                0.717831885      120.336181
9.314                0.718426443      119.988438
9.315                0.719023183      119.641727
9.316                0.719622051      119.296049
9.317                0.720222997      118.951406
9.318                 0.72082597      118.607799
9.319                0.721430919      118.265229
9.32                 0.722037795      117.923695
9.321                0.722646546      117.583201
9.322                0.723257125      117.243745
9.323                 0.72386948      116.905329
9.324                0.724483564      116.567952
9.325                0.725099327      116.231617
9.326                0.725716722      115.896322
9.327                  0.7263357      115.562069
9.328                0.726956214      115.228857
9.329                0.727578217      114.896687
9.33                 0.728201661      114.565558
9.331                  0.7288265      114.235471
9.332                0.729452688      113.906426
9.333                0.730080179      113.578422
9.334                0.730708928      113.251459
9.335                0.731338889      112.925538
9.336                0.731970018      112.600657
9.337                0.732602271      112.276816
9.338                0.733235603      111.954015
9.339                0.733869971      111.632254
9.34                 0.734505332      111.311531
9.341                0.735141643      110.991846
9.342                0.735778862      110.673198
9.343                0.736416946      110.355587
9.344                0.737055854      110.039011
9.345                0.737695545       109.72347
9.346                0.738335978      109.408963
9.347                0.738977112      109.095488
9.348                0.739618907      108.783045
9.349                0.740261324      108.471633
9.35                 0.740904324       108.16125
9.351                0.741547867      107.851896
9.352                0.742191916      107.543568
9.353                0.742836431      107.236266
9.354                0.743481376      106.929987
9.355                0.744126713      106.624732
9.356                0.744772405      106.320498
9.357                0.745418416      106.017284
9.358                0.746064709      105.715088
9.359                 0.74671125      105.413908
9.36                 0.747358003      105.113743
9.361                0.748004933      104.814592
9.362                0.748652005      104.516452
9.363                0.749299185      104.219322
9.364                0.749946441        103.9232
9.365                0.750593738      103.628083
9.366                0.751241044      103.333971
9.367                0.751888326      103.040862
9.368                0.752535552      102.748752
9.369                0.753182691      102.457641
9.37                 0.753829711      102.167526
9.371                0.754476581      101.878405
9.372                0.755123271      101.590276
9.373                0.755769751      101.303137
9.374                0.756415991      101.016985
9.375                0.757061962       100.73182
9.376                0.757707634      100.447637
9.377                 0.75835298      100.164435
9.378                0.758997971      99.8822126
9.379                0.759642579      99.6009662
9.38                 0.760286777      99.3206938
9.381                0.760930538      99.0413931
9.382                0.761573835      98.7630617
9.383                0.762216642      98.4856971
9.384                0.762858933       98.209297
9.385                0.763500683      97.9338587
9.386                0.764141865      97.6593798
9.387                0.764782457      97.3858579
9.388                0.765422432      97.1132903
9.389                0.766061768      96.8416745
9.39                 0.766700439      96.5710079
9.391                0.767338424      96.3012878
9.392                0.767975699      96.0325118
9.393                0.768612241      95.7646771
9.394                0.769248028       95.497781
9.395                0.769883038      95.2318209
9.396                 0.77051725      94.9667941
