! TOUCHSTONE file generated by CST DESIGN STUDIO
! Date and time: Tue Feb  4 13:54:36 2025
! Project name: C:\Work\MatlabApps\UnitCellOptimizationMatlab\CST\unitcell.cst
! Tree item: Tasks\Sweep1\SPara1\S-Parameters
! Header version: 2024
! Port assignment regex: !\s*Touchstone port\s*([0-9]+)\s*=\s*(CST MWS port|CST DES external port|CST DES block port)\s*(.+)\s* \(\"(.*)\"\)(\s*mode\s*([0-9]+))?.*
! Touchstone port assignment:
! Touchstone port 1 = CST DES external port 1 ("")
# GHz S MA R 50
9                     0.96485246      -46.789668
9.001                0.964785201     -46.8478953
9.002                0.964717742     -46.9062472
9.003                0.964650081      -46.964724
9.004                0.964582218      -47.023326
9.005                0.964514152     -47.0820538
9.006                0.964445881     -47.1409078
9.007                0.964377406     -47.1998882
9.008                0.964308725     -47.2589956
9.009                0.964239837     -47.3182303
9.01                 0.964170742     -47.3775928
9.011                0.964101438     -47.4370835
9.012                0.964031925     -47.4967027
9.013                0.963962202     -47.5564509
9.014                0.963892268     -47.6163286
9.015                0.963822122      -47.676336
9.016                0.963751763     -47.7364738
9.017                 0.96368119     -47.7967422
9.018                0.963610403     -47.8571417
9.019                  0.9635394     -47.9176727
9.02                  0.96346818     -47.9783357
9.021                0.963396743     -48.0391311
9.022                0.963325088     -48.1000593
9.023                0.963253213     -48.1611207
9.024                0.963181118     -48.2223159
9.025                0.963108802     -48.2836451
9.026                0.963036264     -48.3451089
9.027                0.962963503     -48.4067077
9.028                0.962890517     -48.4684419
9.029                0.962817307      -48.530312
9.03                 0.962743871     -48.5923185
9.031                0.962670208     -48.6544617
9.032                0.962596317     -48.7167421
9.033                0.962522196     -48.7791602
9.034                0.962447847     -48.8417164
9.035                0.962373266     -48.9044112
9.036                0.962298453      -48.967245
9.037                0.962223408     -49.0302183
9.038                0.962148128     -49.0933315
9.039                0.962072614     -49.1565851
9.04                 0.961996864     -49.2199796
9.041                0.961920877     -49.2835155
9.042                0.961844652     -49.3471931
9.043                0.961768188      -49.411013
9.044                0.961691484     -49.4749757
9.045                0.961614539     -49.5390815
9.046                0.961537352      -49.603331
9.047                0.961459922     -49.6677247
9.048                0.961382248      -49.732263
9.049                0.961304328     -49.7969465
9.05                 0.961226162     -49.8617755
9.051                0.961147749     -49.9267506
9.052                0.961069087     -49.9918723
9.053                0.960990176      -50.057141
9.054                0.960911014     -50.1225572
9.055                  0.9608316     -50.1881215
9.056                0.960751934     -50.2538343
9.057                0.960672014     -50.3196961
9.058                0.960591838     -50.3857075
9.059                0.960511407     -50.4518688
9.06                 0.960430718     -50.5181807
9.061                0.960349771     -50.5846435
9.062                0.960268564     -50.6512579
9.063                0.960187097     -50.7180244
9.064                0.960105368     -50.7849433
9.065                0.960023376     -50.8520153
9.066                 0.95994112     -50.9192409
9.067                0.959858598     -50.9866205
9.068                0.959775811     -51.0541547
9.069                0.959692755      -51.121844
9.07                 0.959609431      -51.189689
9.071                0.959525837     -51.2576901
9.072                0.959441972     -51.3258479
9.073                0.959357835     -51.3941629
9.074                0.959273424     -51.4626356
9.075                0.959188739     -51.5312666
9.076                0.959103777     -51.6000564
9.077                0.959018539     -51.6690056
9.078                0.958933022     -51.7381146
9.079                0.958847225      -51.807384
9.08                 0.958761148     -51.8768144
9.081                0.958674789     -51.9464062
9.082                0.958588147     -52.0161602
9.083                 0.95850122     -52.0860767
9.084                0.958414007     -52.1561563
9.085                0.958326507     -52.2263997
9.086                0.958238719     -52.2968073
9.087                0.958150642     -52.3673798
9.088                0.958062273     -52.4381176
9.089                0.957973613     -52.5090213
9.09                 0.957884659     -52.5800916
9.091                 0.95779541     -52.6513289
9.092                0.957705866     -52.7227338
9.093                0.957616024      -52.794307
9.094                0.957525883     -52.8660489
9.095                0.957435442     -52.9379602
9.096                0.957344701     -53.0100415
9.097                0.957253656     -53.0822932
9.098                0.957162308      -53.154716
9.099                0.957070654     -53.2273106
9.1                  0.956978694     -53.3000774
9.101                0.956886426      -53.373017
9.102                0.956793848     -53.4461301
9.103                0.956700959     -53.5194173
9.104                0.956607759     -53.5928791
9.105                0.956514245     -53.6665161
9.106                0.956420416      -53.740329
9.107                0.956326271     -53.8143184
9.108                0.956231808     -53.8884848
9.109                0.956137026     -53.9628288
9.11                 0.956041924     -54.0373512
9.111                0.955946499     -54.1120524
9.112                0.955850751     -54.1869332
9.113                0.955754679     -54.2619941
9.114                 0.95565828     -54.3372357
9.115                0.955561554     -54.4126587
9.116                0.955464498     -54.4882637
9.117                0.955367112     -54.5640513
9.118                0.955269394     -54.6400222
9.119                0.955171342      -54.716177
9.12                 0.955072955     -54.7925164
9.121                0.954974232     -54.8690409
9.122                 0.95487517     -54.9457512
9.123                 0.95477577      -55.022648
9.124                0.954676028     -55.0997318
9.125                0.954575943     -55.1770035
9.126                0.954475515     -55.2544635
9.127                0.954374741     -55.3321127
9.128                 0.95427362     -55.4099515
9.129                 0.95417215     -55.4879807
9.13                  0.95407033      -55.566201
9.131                0.953968158      -55.644613
9.132                0.953865633     -55.7232174
9.133                0.953762753     -55.8020148
9.134                0.953659517     -55.8810059
9.135                0.953555923     -55.9601915
9.136                0.953451968     -56.0395721
9.137                0.953347653     -56.1191485
9.138                0.953242975     -56.1989214
9.139                0.953137932     -56.2788913
9.14                 0.953032524     -56.3590591
9.141                0.952926747     -56.4394255
9.142                0.952820601      -56.519991
9.143                0.952714085     -56.6007565
9.144                0.952607195     -56.6817226
9.145                0.952499932       -56.76289
9.146                0.952392292     -56.8442594
9.147                0.952284275     -56.9258316
9.148                0.952175878     -57.0076073
9.149                0.952067101     -57.0895871
9.15                 0.951957941     -57.1717718
9.151                0.951848396     -57.2541621
9.152                0.951738466     -57.3367587
9.153                0.951628147     -57.4195625
9.154                 0.95151744      -57.502574
9.155                0.951406341      -57.585794
9.156                0.951294849     -57.6692233
9.157                0.951182962     -57.7528626
9.158                0.951070679     -57.8367127
9.159                0.950957997     -57.9207742
9.16                 0.950844916      -58.005048
9.161                0.950731433     -58.0895348
9.162                0.950617546     -58.1742354
9.163                0.950503254     -58.2591504
9.164                0.950388555     -58.3442807
9.165                0.950273447     -58.4296271
9.166                0.950157929     -58.5151902
9.167                0.950041997      -58.600971
9.168                0.949925652       -58.68697
9.169                 0.94980889     -58.7731882
9.17                  0.94969171     -58.8596263
9.171                0.949574111      -58.946285
9.172                0.949456089     -59.0331653
9.173                0.949337644     -59.1202678
9.174                0.949218774     -59.2075933
9.175                0.949099476     -59.2951427
9.176                0.948979749     -59.3829167
9.177                0.948859591     -59.4709162
9.178                   0.948739     -59.5591419
9.179                0.948617974     -59.6475947
9.18                 0.948496511     -59.7362754
9.181                0.948374609     -59.8251847
9.182                0.948252267     -59.9143236
9.183                0.948129482     -60.0036928
9.184                0.948006252     -60.0932931
9.185                0.947882576     -60.1831254
9.186                0.947758452     -60.2731905
9.187                0.947633877     -60.3634893
9.188                0.947508849     -60.4540225
9.189                0.947383367     -60.5447911
9.19                 0.947257429     -60.6357959
9.191                0.947131032     -60.7270376
9.192                0.947004175     -60.8185173
9.193                0.946876856     -60.9102357
9.194                0.946749072     -61.0021936
9.195                0.946620821      -61.094392
9.196                0.946492102     -61.1868317
9.197                0.946362913     -61.2795136
9.198                 0.94623325     -61.3724386
9.199                0.946103113     -61.4656075
9.2                    0.9459725     -61.5590212
9.201                0.945841407     -61.6526806
9.202                0.945709834     -61.7465866
9.203                0.945577777       -61.84074
9.204                0.945445236     -61.9351418
9.205                0.945312207     -62.0297929
9.206                0.945178689     -62.1246941
9.207                 0.94504468     -62.2198465
9.208                0.944910176     -62.3152507
9.209                0.944775178     -62.4109079
9.21                 0.944639681     -62.5068189
9.211                0.944503684     -62.6029846
9.212                0.944367185      -62.699406
9.213                0.944230182     -62.7960839
9.214                0.944092672     -62.8930193
9.215                0.943954654     -62.9902132
9.216                0.943816124     -63.0876664
9.217                0.943677082       -63.18538
9.218                0.943537524     -63.2833548
9.219                0.943397448     -63.3815919
9.22                 0.943256853      -63.480092
9.221                0.943115736     -63.5788564
9.222                0.942974095     -63.6778858
9.223                0.942831927     -63.7771812
9.224                 0.94268923     -63.8767436
9.225                0.942546003     -63.9765741
9.226                0.942402242     -64.0766735
9.227                0.942257946     -64.1770428
9.228                0.942113112     -64.2776831
9.229                0.941967738     -64.3785952
9.23                 0.941821821     -64.4797803
9.231                 0.94167536     -64.5812392
9.232                0.941528352     -64.6829731
9.233                0.941380794     -64.7849828
9.234                0.941232685     -64.8872695
9.235                0.941084022      -64.989834
9.236                0.940934803     -65.0926775
9.237                0.940785024     -65.1958009
9.238                0.940634685     -65.2992054
9.239                0.940483783     -65.4028918
9.24                 0.940332314     -65.5068612
9.241                0.940180278     -65.6111147
9.242                0.940027671     -65.7156532
9.243                0.939874491      -65.820478
9.244                0.939720736     -65.9255899
9.245                0.939566403       -66.03099
9.246                 0.93941149     -66.1366795
9.247                0.939255995     -66.2426593
9.248                0.939099914     -66.3489305
9.249                0.938943246     -66.4554942
9.25                 0.938785989     -66.5623515
9.251                0.938628139     -66.6695034
9.252                0.938469694      -66.776951
9.253                0.938310652     -66.8846954
9.254                0.938151011     -66.9927376
9.255                0.937990767     -67.1010789
9.256                0.937829919     -67.2097202
9.257                0.937668464     -67.3186627
9.258                0.937506399     -67.4279075
9.259                0.937343722     -67.5374556
9.26                  0.93718043     -67.6473083
9.261                0.937016522     -67.7574665
9.262                0.936851994     -67.8679315
9.263                0.936686843     -67.9787044
9.264                0.936521069     -68.0897862
9.265                0.936354667     -68.2011782
9.266                0.936187635     -68.3128815
9.267                0.936019971     -68.4248971
9.268                0.935851672     -68.5372263
9.269                0.935682736     -68.6498702
9.27                  0.93551316       -68.76283
9.271                0.935342941     -68.8761068
9.272                0.935172078     -68.9897018
9.273                0.935000566     -69.1036162
9.274                0.934828405     -69.2178511
9.275                0.934655591     -69.3324077
9.276                0.934482121     -69.4472871
9.277                0.934307994     -69.5624907
9.278                0.934133205     -69.6780195
9.279                0.933957754     -69.7938749
9.28                 0.933781637     -69.9100578
9.281                0.933604851     -70.0265697
9.282                0.933427395     -70.1434116
9.283                0.933249264     -70.2605848
9.284                0.933070458     -70.3780905
9.285                0.932890972     -70.4959299
9.286                0.932710805     -70.6141043
9.287                0.932529954     -70.7326149
9.288                0.932348415     -70.8514629
9.289                0.932166188     -70.9706496
9.29                 0.931983268     -71.0901762
9.291                0.931799653     -71.2100439
9.292                0.931615341     -71.3302541
9.293                0.931430329     -71.4508079
9.294                0.931244614     -71.5717067
9.295                0.931058193     -71.6929516
9.296                0.930871065     -71.8145441
9.297                0.930683225     -71.9364852
9.298                0.930494672     -72.0587764
9.299                0.930305403     -72.1814189
9.3                  0.930115415      -72.304414
9.301                0.929924705     -72.4277631
9.302                0.929733272     -72.5514673
9.303                0.929541111      -72.675528
9.304                0.929348221     -72.7999465
9.305                0.929154598     -72.9247241
9.306                 0.92896024     -73.0498622
9.307                0.928765145      -73.175362
9.308                0.928569309     -73.3012249
9.309                 0.92837273     -73.4274522
9.31                 0.928175406     -73.5540453
9.311                0.927977333     -73.6810055
9.312                0.927778508     -73.8083341
9.313                 0.92757893     -73.9360325
9.314                0.927378596      -74.064102
9.315                0.927177502      -74.192544
9.316                0.926975646     -74.3213599
9.317                0.926773025      -74.450551
9.318                0.926569637     -74.5801187
9.319                0.926365479     -74.7100644
9.32                 0.926160548     -74.8403894
9.321                0.925954841     -74.9710952
9.322                0.925748356     -75.1021831
9.323                0.925541091     -75.2336546
9.324                0.925333042      -75.365511
9.325                0.925124207     -75.4977537
9.326                0.924914582     -75.6303841
9.327                0.924704166     -75.7634037
9.328                0.924492956     -75.8968139
9.329                0.924280949     -76.0306161
9.33                 0.924068142     -76.1648117
9.331                0.923854533     -76.2994022
9.332                0.923640118     -76.4343889
9.333                0.923424896     -76.5697734
9.334                0.923208864      -76.705557
9.335                0.922992019     -76.8417413
9.336                0.922774358     -76.9783277
9.337                0.922555878     -77.1153176
9.338                0.922336578     -77.2527125
9.339                0.922116454     -77.3905139
9.34                 0.921895504     -77.5287232
9.341                0.921673725     -77.6673419
9.342                0.921451114     -77.8063716
9.343                0.921227669     -77.9458136
9.344                0.921003388     -78.0856695
9.345                0.920778267     -78.2259408
9.346                0.920552305      -78.366629
9.347                0.920325497     -78.5077355
9.348                0.920097843     -78.6492619
9.349                0.919869339     -78.7912097
9.35                 0.919639983     -78.9335805
9.351                0.919409772     -79.0763756
9.352                0.919178704     -79.2195968
9.353                0.918946775     -79.3632454
9.354                0.918713985      -79.507323
9.355                0.918480329     -79.6518312
9.356                0.918245806     -79.7967715
9.357                0.918010413     -79.9421455
9.358                0.917774148     -80.0879547
9.359                0.917537008     -80.2342006
9.36                  0.91729899     -80.3808848
9.361                0.917060093      -80.528009
9.362                0.916820313     -80.6755745
9.363                0.916579649     -80.8235831
9.364                0.916338097     -80.9720363
9.365                0.916095656     -81.1209357
9.366                0.915852323     -81.2702829
9.367                0.915608096     -81.4200794
9.368                0.915362973     -81.5703269
9.369                 0.91511695     -81.7210269
9.37                 0.914870026      -81.872181
9.371                0.914622198      -82.023791
9.372                0.914373465     -82.1758582
9.373                0.914123823     -82.3283845
9.374                0.913873271     -82.4813713
9.375                0.913621806     -82.6348204
9.376                0.913369427     -82.7887332
9.377                 0.91311613     -82.9431116
9.378                0.912861914      -83.097957
9.379                0.912606776     -83.2532712
9.38                 0.912350715     -83.4090558
9.381                0.912093728     -83.5653123
9.382                0.911835813     -83.7220426
9.383                0.911576968     -83.8792481
9.384                0.911317192     -84.0369306
9.385                0.911056481     -84.1950917
9.386                0.910794834     -84.3537332
9.387                0.910532249     -84.5128565
9.388                0.910268724     -84.6724635
9.389                0.910004257     -84.8325558
9.39                 0.909738846      -84.993135
9.391                0.909472489     -85.1542029
9.392                0.909205184     -85.3157611
9.393                 0.90893693     -85.4778113
9.394                0.908667725     -85.6403552
9.395                0.908397566     -85.8033945
9.396                0.908126452     -85.9669309
