! TOUCHSTONE file generated by CST DESIGN STUDIO
! Date and time: Tue Feb  4 18:01:05 2025
! Project name: C:\Work\MatlabApps\UnitCellOptimizationMatlab\CST\unitcell.cst
! Tree item: Tasks\Sweep1\SPara1\S-Parameters
! Header version: 2024
! Port assignment regex: !\s*Touchstone port\s*([0-9]+)\s*=\s*(CST MWS port|CST DES external port|CST DES block port)\s*(.+)\s* \(\"(.*)\"\)(\s*mode\s*([0-9]+))?.*
! Touchstone port assignment:
! Touchstone port 1 = CST DES external port 1 ("")
# GHz S MA R 50
9                    0.966553456     -41.7537069
9.001                0.966509326     -41.8031998
9.002                0.966465038     -41.8527868
9.003                0.966420591     -41.9024681
9.004                0.966375984      -41.952244
9.005                0.966331216     -42.0021147
9.006                0.966286288     -42.0520805
9.007                0.966241199     -42.1021417
9.008                0.966195947     -42.1522986
9.009                0.966150533     -42.2025514
9.01                 0.966104956     -42.2529004
9.011                0.966059216     -42.3033459
9.012                0.966013312     -42.3538882
9.013                0.965967243     -42.4045275
9.014                0.965921008     -42.4552641
9.015                0.965874609     -42.5060984
9.016                0.965828043     -42.5570305
9.017                 0.96578131     -42.6080608
9.018                 0.96573441     -42.6591895
9.019                0.965687342      -42.710417
9.02                 0.965640106     -42.7617435
9.021                  0.9655927     -42.8131692
9.022                0.965545125     -42.8646946
9.023                0.965497381     -42.9163199
9.024                0.965449465     -42.9680453
9.025                0.965401378     -43.0198711
9.026                0.965353119     -43.0717978
9.027                0.965304688     -43.1238254
9.028                0.965256084     -43.1759544
9.029                0.965207307      -43.228185
9.03                 0.965158355     -43.2805175
9.031                0.965109229     -43.3329523
9.032                0.965059928     -43.3854896
9.033                 0.96501045     -43.4381297
9.034                0.964960797     -43.4908728
9.035                0.964910966     -43.5437195
9.036                0.964860958     -43.5966698
9.037                0.964810771     -43.6497241
9.038                0.964760406     -43.7028828
9.039                0.964709861     -43.7561461
9.04                 0.964659136     -43.8095144
9.041                0.964608231     -43.8629878
9.042                0.964557144     -43.9165669
9.043                0.964505876     -43.9702518
9.044                0.964454425     -44.0240428
9.045                0.964402791     -44.0779404
9.046                0.964350974     -44.1319447
9.047                0.964298972     -44.1860562
9.048                0.964246785     -44.2402751
9.049                0.964194413     -44.2946017
9.05                 0.964141855     -44.3490364
9.051                 0.96408911     -44.4035794
9.052                0.964036177     -44.4582312
9.053                0.963983057      -44.512992
9.054                0.963929747     -44.5678621
9.055                0.963876249     -44.6228419
9.056                0.963822561     -44.6779317
9.057                0.963768682     -44.7331317
9.058                0.963714611     -44.7884425
9.059                0.963660349     -44.8438642
9.06                 0.963605895     -44.8993972
9.061                0.963551247     -44.9550418
9.062                0.963496405     -45.0107984
9.063                0.963441369     -45.0666673
9.064                0.963386138     -45.1226488
9.065                0.963330711     -45.1787433
9.066                0.963275087     -45.2349511
9.067                0.963219266     -45.2912725
9.068                0.963163248     -45.3477079
9.069                0.963107031     -45.4042577
9.07                 0.963050615      -45.460922
9.071                0.962993999     -45.5177014
9.072                0.962937182     -45.5745962
9.073                0.962880164     -45.6316066
9.074                0.962822945     -45.6887331
9.075                0.962765522     -45.7459759
9.076                0.962707897     -45.8033355
9.077                0.962650067     -45.8608122
9.078                0.962592033     -45.9184063
9.079                0.962533793     -45.9761182
9.08                 0.962475348     -46.0339483
9.081                0.962416695     -46.0918969
9.082                0.962357835     -46.1499643
9.083                0.962298767      -46.208151
9.084                 0.96223949     -46.2664572
9.085                0.962180003     -46.3248833
9.086                0.962120306     -46.3834298
9.087                0.962060398     -46.4420969
9.088                0.962000278     -46.5008851
9.089                0.961939946     -46.5597947
9.09                   0.9618794      -46.618826
9.091                 0.96181864     -46.6779794
9.092                0.961757666     -46.7372554
9.093                0.961696476     -46.7966542
9.094                 0.96163507     -46.8561763
9.095                0.961573447      -46.915822
9.096                0.961511606     -46.9755918
9.097                0.961449547     -47.0354859
9.098                0.961387268     -47.0955047
9.099                 0.96132477     -47.1556487
9.1                   0.96126205     -47.2159182
9.101                 0.96119911     -47.2763136
9.102                0.961135947     -47.3368353
9.103                0.961072561     -47.3974837
9.104                0.961008951     -47.4582591
9.105                0.960945117      -47.519162
9.106                0.960881057     -47.5801927
9.107                0.960816771     -47.6413516
9.108                0.960752258     -47.7026392
9.109                0.960687518     -47.7640558
9.11                 0.960622549     -47.8256018
9.111                0.960557351     -47.8872776
9.112                0.960491922     -47.9490837
9.113                0.960426263     -48.0110203
9.114                0.960360372      -48.073088
9.115                0.960294249      -48.135287
9.116                0.960227892     -48.1976179
9.117                0.960161301     -48.2600811
9.118                0.960094475     -48.3226768
9.119                0.960027414     -48.3854057
9.12                 0.959960116     -48.4482679
9.121                 0.95989258     -48.5112641
9.122                0.959824807     -48.5743945
9.123                0.959756794     -48.6376597
9.124                0.959688541     -48.7010599
9.125                0.959620048     -48.7645957
9.126                0.959551313     -48.8282675
9.127                0.959482336     -48.8920756
9.128                0.959413115     -48.9560206
9.129                0.959343651     -49.0201028
9.13                 0.959273941     -49.0843226
9.131                0.959203986     -49.1486805
9.132                0.959133784      -49.213177
9.133                0.959063334     -49.2778124
9.134                0.958992636     -49.3425872
9.135                0.958921689     -49.4075017
9.136                0.958850491     -49.4725566
9.137                0.958779043     -49.5377521
9.138                0.958707343     -49.6030888
9.139                0.958635389     -49.6685671
9.14                 0.958563183     -49.7341873
9.141                0.958490721       -49.79995
9.142                0.958418005     -49.8658557
9.143                0.958345032     -49.9319047
9.144                0.958271801     -49.9980975
9.145                0.958198313     -50.0644345
9.146                0.958124565     -50.1309163
9.147                0.958050558     -50.1975433
9.148                0.957976289     -50.2643158
9.149                0.957901759     -50.3312345
9.15                 0.957826966     -50.3982997
9.151                 0.95775191     -50.4655119
9.152                0.957676589     -50.5328716
9.153                0.957601002     -50.6003792
9.154                0.957525149     -50.6680352
9.155                0.957449029     -50.7358401
9.156                 0.95737264     -50.8037943
9.157                0.957295983     -50.8718983
9.158                0.957219055     -50.9401527
9.159                0.957141855     -51.0085578
9.16                 0.957064384     -51.0771141
9.161                 0.95698664     -51.1458222
9.162                0.956908621     -51.2146825
9.163                0.956830328     -51.2836955
9.164                0.956751759     -51.3528616
9.165                0.956672912     -51.4221814
9.166                0.956593788     -51.4916554
9.167                0.956514385      -51.561284
9.168                0.956434702     -51.6310677
9.169                0.956354739     -51.7010071
9.17                 0.956274493     -51.7711026
9.171                0.956193965     -51.8413547
9.172                0.956113153      -51.911764
9.173                0.956032055     -51.9823309
9.174                0.955950673     -52.0530559
9.175                0.955869003     -52.1239395
9.176                0.955787045     -52.1949823
9.177                0.955704799     -52.2661848
9.178                0.955622262     -52.3375474
9.179                0.955539435     -52.4090707
9.18                 0.955456316     -52.4807552
9.181                0.955372903     -52.5526014
9.182                0.955289197     -52.6246099
9.183                0.955205196     -52.6967811
9.184                0.955120898     -52.7691156
9.185                0.955036304     -52.8416139
9.186                0.954951411     -52.9142765
9.187                0.954866219      -52.987104
9.188                0.954780727     -53.0600969
9.189                0.954694933     -53.1332557
9.19                 0.954608837      -53.206581
9.191                0.954522438     -53.2800733
9.192                0.954435734     -53.3537331
9.193                0.954348724     -53.4275611
9.194                0.954261407     -53.5015576
9.195                0.954173783     -53.5757233
9.196                 0.95408585     -53.6500588
9.197                0.953997607     -53.7245645
9.198                0.953909053      -53.799241
9.199                0.953820186      -53.874089
9.2                  0.953731007     -53.9491088
9.201                0.953641513     -54.0243012
9.202                0.953551703     -54.0996666
9.203                0.953461577     -54.1752056
9.204                0.953371133     -54.2509188
9.205                0.953280371     -54.3268068
9.206                0.953189288     -54.4028701
9.207                0.953097884     -54.4791092
9.208                0.953006158     -54.5555249
9.209                0.952914109     -54.6321176
9.21                 0.952821735     -54.7088879
9.211                0.952729035     -54.7858364
9.212                0.952636009     -54.8629636
9.213                0.952542655     -54.9402703
9.214                0.952448971     -55.0177569
9.215                0.952354958      -55.095424
9.216                0.952260613     -55.1732723
9.217                0.952165935     -55.2513023
9.218                0.952070924     -55.3295147
9.219                0.951975577     -55.4079099
9.22                 0.951879895     -55.4864887
9.221                0.951783875     -55.5652516
9.222                0.951687516     -55.6441992
9.223                0.951590818     -55.7233322
9.224                0.951493779     -55.8026511
9.225                0.951396398     -55.8821566
9.226                0.951298674     -55.9618492
9.227                0.951200605     -56.0417297
9.228                0.951102191     -56.1217985
9.229                0.951003429     -56.2020564
9.23                  0.95090432      -56.282504
9.231                0.950804861     -56.3631418
9.232                0.950705051     -56.4439705
9.233                 0.95060489     -56.5249908
9.234                0.950504375     -56.6062032
9.235                0.950403507     -56.6876085
9.236                0.950302282     -56.7692072
9.237                0.950200701         -56.851
9.238                0.950098762     -56.9329875
9.239                0.949996464     -57.0151704
9.24                 0.949893805     -57.0975493
9.241                0.949790784     -57.1801249
9.242                0.949687401     -57.2628978
9.243                0.949583652     -57.3458687
9.244                0.949479539     -57.4290382
9.245                0.949375058     -57.5124071
9.246                0.949270209     -57.5959759
9.247                0.949164991     -57.6797453
9.248                0.949059402     -57.7637161
9.249                0.948953441     -57.8478888
9.25                 0.948847106     -57.9322641
9.251                0.948740397     -58.0168428
9.252                0.948633312     -58.1016254
9.253                 0.94852585     -58.1866127
9.254                0.948418009     -58.2718054
9.255                0.948309789     -58.3572041
9.256                0.948201187     -58.4428096
9.257                0.948092202     -58.5286225
9.258                0.947982834     -58.6146435
9.259                0.947873081     -58.7008733
9.26                 0.947762941     -58.7873126
9.261                0.947652413     -58.8739621
9.262                0.947541496     -58.9608225
9.263                0.947430188     -59.0478946
9.264                0.947318489      -59.135179
9.265                0.947206396     -59.2226764
9.266                0.947093909     -59.3103876
9.267                0.946981025     -59.3983133
9.268                0.946867745     -59.4864542
9.269                0.946754065     -59.5748109
9.27                 0.946639986     -59.6633844
9.271                0.946525505     -59.7521752
9.272                0.946410621     -59.8411841
9.273                0.946295334     -59.9304118
9.274                 0.94617964     -60.0198591
9.275                0.946063539     -60.1095268
9.276                0.945947031     -60.1994154
9.277                0.945830112     -60.2895259
9.278                0.945712782      -60.379859
9.279                0.945595039     -60.4704153
9.28                 0.945476883     -60.5611957
9.281                0.945358311     -60.6522009
9.282                0.945239322     -60.7434316
9.283                0.945119915     -60.8348887
9.284                0.945000089     -60.9265729
9.285                0.944879841     -61.0184849
9.286                 0.94475917     -61.1106256
9.287                0.944638076     -61.2029956
9.288                0.944516556     -61.2955959
9.289                 0.94439461     -61.3884271
9.29                 0.944272235       -61.48149
9.291                 0.94414943     -61.5747855
9.292                0.944026195     -61.6683143
9.293                0.943902526     -61.7620772
9.294                0.943778424     -61.8560749
9.295                0.943653886     -61.9503084
9.296                0.943528911     -62.0447784
9.297                0.943403497     -62.1394856
9.298                0.943277643      -62.234431
9.299                0.943151349     -62.3296152
9.3                  0.943024611     -62.4250392
9.301                0.942897428     -62.5207037
9.302                  0.9427698     -62.6166096
9.303                0.942641725     -62.7127576
9.304                  0.9425132     -62.8091486
9.305                0.942384226     -62.9057835
9.306                0.942254799      -63.002663
9.307                 0.94212492     -63.0997879
9.308                0.941994585     -63.1971592
9.309                0.941863794     -63.2947777
9.31                 0.941732545     -63.3926441
9.311                0.941600837     -63.4907594
9.312                0.941468668     -63.5891244
9.313                0.941336037     -63.6877399
9.314                0.941202941     -63.7866068
9.315                0.941069381     -63.8857259
9.316                0.940935353     -63.9850982
9.317                0.940800857     -64.0847244
9.318                0.940665891     -64.1846055
9.319                0.940530454     -64.2847423
9.32                 0.940394543     -64.3851356
9.321                0.940258158     -64.4857864
9.322                0.940121297     -64.5866956
9.323                0.939983958      -64.687864
9.324                 0.93984614     -64.7892924
9.325                0.939707841     -64.8909819
9.326                 0.93956906     -64.9929333
9.327                0.939429795     -65.0951474
9.328                0.939290044     -65.1976252
9.329                0.939149807     -65.3003676
9.33                 0.939009081     -65.4033754
9.331                0.938867866     -65.5066497
9.332                0.938726158     -65.6101912
9.333                0.938583958      -65.714001
9.334                0.938441262     -65.8180799
9.335                0.938298071     -65.9224289
9.336                0.938154381     -66.0270488
9.337                0.938010193     -66.1319406
9.338                0.937865503     -66.2371053
9.339                 0.93772031     -66.3425437
9.34                 0.937574614     -66.4482568
9.341                0.937428412     -66.5542456
9.342                0.937281702      -66.660511
9.343                0.937134484     -66.7670539
9.344                0.936986755     -66.8738753
9.345                0.936838515     -66.9809761
9.346                 0.93668976     -67.0883573
9.347                0.936540491     -67.1960199
9.348                0.936390705     -67.3039648
9.349                  0.9362404      -67.412193
9.35                 0.936089576     -67.5207055
9.351                 0.93593823     -67.6295031
9.352                0.935786361      -67.738587
9.353                0.935633967     -67.8479581
9.354                0.935481047     -67.9576173
9.355                  0.9353276     -68.0675657
9.356                0.935173623     -68.1778043
9.357                0.935019114      -68.288334
9.358                0.934864074     -68.3991558
9.359                0.934708499     -68.5102708
9.36                 0.934552388     -68.6216799
9.361                0.934395741     -68.7333841
9.362                0.934238554     -68.8453846
9.363                0.934080827     -68.9576822
9.364                0.933922557      -69.070278
9.365                0.933763744      -69.183173
9.366                0.933604386     -69.2963683
9.367                0.933444481     -69.4098648
9.368                0.933284027     -69.5236636
9.369                0.933123024     -69.6377658
9.37                 0.932961469     -69.7521723
9.371                 0.93279936     -69.8668842
9.372                0.932636697     -69.9819026
9.373                0.932473478     -70.0972285
9.374                0.932309701      -70.212863
9.375                0.932145364     -70.3288071
9.376                0.931980466     -70.4450618
9.377                0.931815006     -70.5616283
9.378                0.931648981     -70.6785076
9.379                0.931482391     -70.7957008
9.38                 0.931315234     -70.9132089
9.381                0.931147507      -71.031033
9.382                 0.93097921     -71.1491743
9.383                0.930810341     -71.2676337
9.384                0.930640899     -71.3864124
9.385                0.930470881     -71.5055114
9.386                0.930300287     -71.6249319
9.387                0.930129115     -71.7446749
9.388                0.929957363     -71.8647416
9.389                0.929785029     -71.9851331
9.39                 0.929612113     -72.1058504
9.391                0.929438612     -72.2268947
9.392                0.929264525      -72.348267
9.393                0.929089851     -72.4699686
9.394                0.928914589     -72.5920005
9.395                0.928738735     -72.7143638
9.396                 0.92856229     -72.8370597
