! TOUCHSTONE file generated by CST DESIGN STUDIO
! Date and time: Tue Feb  4 18:00:57 2025
! Project name: C:\Work\MatlabApps\UnitCellOptimizationMatlab\CST\unitcell.cst
! Tree item: Tasks\Sweep1\SPara1\S-Parameters
! Header version: 2024
! Port assignment regex: !\s*Touchstone port\s*([0-9]+)\s*=\s*(CST MWS port|CST DES external port|CST DES block port)\s*(.+)\s* \(\"(.*)\"\)(\s*mode\s*([0-9]+))?.*
! Touchstone port assignment:
! Touchstone port 1 = CST DES external port 1 ("")
# GHz S MA R 50
9                     0.94885535     -58.1635708
9.001                0.948746468     -58.2430395
9.002                0.948637273     -58.3226969
9.003                0.948527764     -58.4025437
9.004                0.948417939     -58.4825804
9.005                0.948307798     -58.5628078
9.006                0.948197338     -58.6432263
9.007                0.948086558     -58.7238367
9.008                0.947975457     -58.8046396
9.009                0.947864034     -58.8856356
9.01                 0.947752287     -58.9668254
9.011                0.947640215     -59.0482096
9.012                0.947527817     -59.1297888
9.013                0.947415091     -59.2115636
9.014                0.947302035     -59.2935348
9.015                0.947188649      -59.375703
9.016                0.947074931     -59.4580689
9.017                0.946960879      -59.540633
9.018                0.946846493      -59.623396
9.019                 0.94673177     -59.7063586
9.02                  0.94661671     -59.7895216
9.021                 0.94650131     -59.8728854
9.022                 0.94638557     -59.9564508
9.023                0.946269489     -60.0402185
9.024                0.946153064     -60.1241891
9.025                0.946036294     -60.2083633
9.026                0.945919178     -60.2927418
9.027                0.945801715     -60.3773252
9.028                0.945683902     -60.4621143
9.029                0.945565739     -60.5471097
9.03                 0.945447225     -60.6323121
9.031                0.945328357     -60.7177221
9.032                0.945209134     -60.8033406
9.033                0.945089554     -60.8891682
9.034                0.944969617     -60.9752055
9.035                0.944849321     -61.0614533
9.036                0.944728665     -61.1479122
9.037                0.944607646     -61.2345831
9.038                0.944486263     -61.3214665
9.039                0.944364516     -61.4085632
9.04                 0.944242401     -61.4958739
9.041                0.944119919     -61.5833993
9.042                0.943997068     -61.6711402
9.043                0.943873845     -61.7590972
9.044                 0.94375025      -61.847271
9.045                 0.94362628     -61.9356625
9.046                0.943501936     -62.0242722
9.047                0.943377214     -62.1131011
9.048                0.943252113     -62.2021497
9.049                0.943126633     -62.2914188
9.05                 0.943000771     -62.3809092
9.051                0.942874526     -62.4706215
9.052                0.942747896     -62.5605566
9.053                 0.94262088     -62.6507152
9.054                0.942493477      -62.741098
9.055                0.942365684     -62.8317058
9.056                  0.9422375     -62.9225393
9.057                0.942108924     -63.0135993
9.058                0.941979954     -63.1048865
9.059                0.941850589     -63.1964017
9.06                 0.941720827     -63.2881458
9.061                0.941590666     -63.3801193
9.062                0.941460105     -63.4723232
9.063                0.941329143     -63.5647581
9.064                0.941197777     -63.6574249
9.065                0.941066007     -63.7503243
9.066                 0.94093383     -63.8434572
9.067                0.940801245     -63.9368242
9.068                0.940668251     -64.0304262
9.069                0.940534846      -64.124264
9.07                 0.940401028     -64.2183384
9.071                0.940266795     -64.3126501
9.072                0.940132147        -64.4072
9.073                0.939997081     -64.5019888
9.074                0.939861597     -64.5970174
9.075                0.939725691     -64.6922866
9.076                0.939589364     -64.7877971
9.077                0.939452612     -64.8835498
9.078                0.939315435     -64.9795455
9.079                0.939177831     -65.0757851
9.08                 0.939039798     -65.1722693
9.081                0.938901335     -65.2689989
9.082                 0.93876244     -65.3659749
9.083                0.938623111     -65.4631979
9.084                0.938483347     -65.5606689
9.085                0.938343146     -65.6583887
9.086                0.938202507     -65.7563582
9.087                0.938061428     -65.8545781
9.088                0.937919906     -65.9530493
9.089                0.937777942     -66.0517726
9.09                 0.937635532      -66.150749
9.091                0.937492676     -66.2499792
9.092                0.937349371     -66.3494642
9.093                0.937205617     -66.4492047
9.094                0.937061411     -66.5492017
9.095                0.936916751     -66.6494559
9.096                0.936771637     -66.7499684
9.097                0.936626066     -66.8507398
9.098                0.936480036     -66.9517712
9.099                0.936333547     -67.0530634
9.1                  0.936186596     -67.1546173
9.101                0.936039182     -67.2564337
9.102                0.935891303     -67.3585135
9.103                0.935742958     -67.4608577
9.104                0.935594144     -67.5634671
9.105                 0.93544486     -67.6663427
9.106                0.935295104     -67.7694852
9.107                0.935144875     -67.8728957
9.108                0.934994172      -67.976575
9.109                0.934842991      -68.080524
9.11                 0.934691332     -68.1847437
9.111                0.934539194     -68.2892349
9.112                0.934386573     -68.3939986
9.113                0.934233469     -68.4990357
9.114                 0.93407988     -68.6043471
9.115                0.933925804     -68.7099338
9.116                 0.93377124     -68.8157966
9.117                0.933616185     -68.9219365
9.118                0.933460639     -69.0283545
9.119                0.933304599     -69.1350515
9.12                 0.933148063     -69.2420284
9.121                0.932991031     -69.3492861
9.122                  0.9328335     -69.4568257
9.123                0.932675469      -69.564648
9.124                0.932516936     -69.6727541
9.125                0.932357899     -69.7811448
9.126                0.932198356     -69.8898212
9.127                0.932038307     -69.9987842
9.128                0.931877749     -70.1080348
9.129                 0.93171668     -70.2175739
9.13                 0.931555098     -70.3274026
9.131                0.931393003     -70.4375217
9.132                0.931230392     -70.5479323
9.133                0.931067264     -70.6586354
9.134                0.930903617     -70.7696319
9.135                0.930739449     -70.8809229
9.136                0.930574759     -70.9925093
9.137                0.930409545     -71.1043921
9.138                0.930243804     -71.2165724
9.139                0.930077536     -71.3290511
9.14                 0.929910739     -71.4418292
9.141                0.929743411     -71.5549078
9.142                0.929575551     -71.6682879
9.143                0.929407156     -71.7819704
9.144                0.929238225     -71.8959564
9.145                0.929068756     -72.0102469
9.146                0.928898748      -72.124843
9.147                0.928728199     -72.2397457
9.148                0.928557107     -72.3549559
9.149                0.928385471     -72.4704748
9.15                 0.928213288     -72.5863034
9.151                0.928040558     -72.7024427
9.152                0.927867278     -72.8188938
9.153                0.927693448     -72.9356577
9.154                0.927519064     -73.0527354
9.155                0.927344125     -73.1701281
9.156                0.927168631     -73.2878367
9.157                0.926992579     -73.4058625
9.158                0.926815967     -73.5242063
9.159                0.926638794     -73.6428693
9.16                 0.926461058     -73.7618525
9.161                0.926282757      -73.881157
9.162                0.926103891      -74.000784
9.163                0.925924456     -74.1207344
9.164                0.925744453     -74.2410094
9.165                0.925563878     -74.3616101
9.166                 0.92538273     -74.4825375
9.167                0.925201008     -74.6037927
9.168                 0.92501871     -74.7253769
9.169                0.924835834     -74.8472911
9.17                 0.924652379     -74.9695365
9.171                0.924468343     -75.0921141
9.172                0.924283725      -75.215025
9.173                0.924098522     -75.3382704
9.174                0.923912734     -75.4618515
9.175                0.923726359     -75.5857692
9.176                0.923539394     -75.7100247
9.177                 0.92335184     -75.8346192
9.178                0.923163693     -75.9595538
9.179                0.922974952     -76.0848296
9.18                 0.922785616     -76.2104478
9.181                0.922595684     -76.3364095
9.182                0.922405153     -76.4627158
9.183                0.922214022     -76.5893679
9.184                0.922022289     -76.7163669
9.185                0.921829954      -76.843714
9.186                0.921637014     -76.9714103
9.187                0.921443468     -77.0994571
9.188                0.921249315     -77.2278554
9.189                0.921054552     -77.3566064
9.19                 0.920859179     -77.4857113
9.191                0.920663194     -77.6151713
9.192                0.920466595     -77.7449875
9.193                0.920269381     -77.8751611
9.194                 0.92007155     -78.0056933
9.195                0.919873102     -78.1365853
9.196                0.919674034     -78.2678382
9.197                0.919474345     -78.3994533
9.198                0.919274034     -78.5314318
9.199                0.919073099     -78.6637747
9.2                  0.918871539     -78.7964835
9.201                0.918669352     -78.9295591
9.202                0.918466538     -79.0630029
9.203                0.918263093      -79.196816
9.204                0.918059019     -79.3309997
9.205                0.917854312     -79.4655552
9.206                0.917648971     -79.6004837
9.207                0.917442996     -79.7357864
9.208                0.917236384     -79.8714645
9.209                0.917029135     -80.0075192
9.21                 0.916821247     -80.1439519
9.211                 0.91661272     -80.2807636
9.212                 0.91640355     -80.4179558
9.213                0.916193738     -80.5555294
9.214                0.915983282      -80.693486
9.215                0.915772181     -80.8318265
9.216                0.915560434     -80.9705524
9.217                0.915348039     -81.1096649
9.218                0.915134995     -81.2491652
9.219                0.914921301     -81.3890545
9.22                 0.914706956     -81.5293341
9.221                0.914491958     -81.6700053
9.222                0.914276307     -81.8110694
9.223                0.914060001     -81.9525276
9.224                 0.91384304     -82.0943811
9.225                0.913625421     -82.2366313
9.226                0.913407145     -82.3792793
9.227                 0.91318821     -82.5223266
9.228                0.912968614     -82.6657743
9.229                0.912748357     -82.8096238
9.23                 0.912527438     -82.9538762
9.231                0.912305856      -83.098533
9.232                 0.91208361     -83.2435954
9.233                0.911860699     -83.3890646
9.234                0.911637121     -83.5349421
9.235                0.911412877      -83.681229
9.236                0.911187965     -83.8279266
9.237                0.910962383     -83.9750363
9.238                0.910736132     -84.1225594
9.239                0.910509211     -84.2704971
9.24                 0.910281618     -84.4188508
9.241                0.910053353     -84.5676218
9.242                0.909824415     -84.7168114
9.243                0.909594804     -84.8664209
9.244                0.909364517     -85.0164515
9.245                0.909133556     -85.1669047
9.246                0.908901918     -85.3177818
9.247                0.908669604      -85.469084
9.248                0.908436613     -85.6208127
9.249                0.908202944     -85.7729692
9.25                 0.907968596     -85.9255548
9.251                0.907733569     -86.0785709
9.252                0.907497862     -86.2320188
9.253                0.907261475     -86.3858998
9.254                0.907024408     -86.5402153
9.255                0.906786659     -86.6949666
9.256                0.906548228     -86.8501549
9.257                0.906309116     -87.0057818
9.258                 0.90606932     -87.1618484
9.259                0.905828842     -87.3183562
9.26                 0.905587681     -87.4753064
9.261                0.905345836     -87.6327005
9.262                0.905103306     -87.7905398
9.263                0.904860093     -87.9488255
9.264                0.904616195     -88.1075591
9.265                0.904371613      -88.266742
9.266                0.904126346     -88.4263754
9.267                0.903880394     -88.5864607
9.268                0.903633756     -88.7469992
9.269                0.903386434     -88.9079924
9.27                 0.903138426     -89.0694416
9.271                0.902889733      -89.231348
9.272                0.902640355     -89.3937132
9.273                0.902390291     -89.5565384
9.274                0.902139542      -89.719825
9.275                0.901888108     -89.8835743
9.276                0.901635989     -90.0477877
9.277                0.901383186     -90.2124666
9.278                0.901129697     -90.3776124
9.279                0.900875525     -90.5432263
9.28                 0.900620668     -90.7093098
9.281                0.900365128     -90.8758641
9.282                0.900108904     -91.0428908
9.283                0.899851997     -91.2103911
9.284                0.899594408     -91.3783663
9.285                0.899336137      -91.546818
9.286                0.899077184     -91.7157473
9.287                0.898817549     -91.8851557
9.288                0.898557235     -92.0550446
9.289                0.898296241     -92.2254152
9.29                 0.898034567     -92.3962691
9.291                0.897772215     -92.5676074
9.292                0.897509185     -92.7394316
9.293                0.897245478     -92.9117431
9.294                0.896981095     -93.0845431
9.295                0.896716037     -93.2578331
9.296                0.896450305     -93.4316145
9.297                0.896183899     -93.6058885
9.298                0.895916821     -93.7806565
9.299                0.895649072     -93.9559199
9.3                  0.895380652     -94.1316801
9.301                0.895111564     -94.3079384
9.302                0.894841807     -94.4846961
9.303                0.894571384     -94.6619546
9.304                0.894300296     -94.8397152
9.305                0.894028543     -95.0179793
9.306                0.893756128     -95.1967483
9.307                0.893483052     -95.3760234
9.308                0.893209316     -95.5558061
9.309                0.892934922     -95.7360977
9.31                 0.892659872     -95.9168994
9.311                0.892384167     -96.0982127
9.312                0.892107808     -96.2800389
9.313                0.891830798     -96.4623793
9.314                0.891553138     -96.6452353
9.315                 0.89127483     -96.8286081
9.316                0.890995877     -97.0124991
9.317                0.890716279     -97.1969096
9.318                 0.89043604      -97.381841
9.319                0.890155161     -97.5672945
9.32                 0.889873644     -97.7532716
9.321                0.889591491     -97.9397734
9.322                0.889308706     -98.1268013
9.323                0.889025289     -98.3143566
9.324                0.888741244     -98.5024406
9.325                0.888456572     -98.6910546
9.326                0.888171277     -98.8801999
9.327                0.887885361     -99.0698778
9.328                0.887598826     -99.2600896
9.329                0.887311675     -99.4508366
9.33                 0.887023911       -99.64212
9.331                0.886735537     -99.8339411
9.332                0.886446555     -100.026301
9.333                0.886156969     -100.219202
9.334                0.885866781     -100.412644
9.335                0.885575995     -100.606628
9.336                0.885284613     -100.801157
9.337                0.884992639     -100.996231
9.338                0.884700076     -101.191852
9.339                0.884406928      -101.38802
9.34                 0.884113198     -101.584737
9.341                0.883818888     -101.782005
9.342                0.883524004     -101.979824
9.343                0.883228548     -102.178195
9.344                0.882932524     -102.377121
9.345                0.882635936     -102.576602
9.346                0.882338787     -102.776638
9.347                0.882041082     -102.977233
9.348                0.881742825     -103.178386
9.349                0.881444019     -103.380099
9.35                 0.881144669     -103.582373
9.351                0.880844779     -103.785209
9.352                0.880544353     -103.988608
9.353                0.880243395     -104.192572
9.354                0.879941911     -104.397102
9.355                0.879639903     -104.602198
9.356                0.879337378     -104.807862
9.357                 0.87903434     -105.014096
9.358                0.878730793     -105.220899
9.359                0.878426742     -105.428274
9.36                 0.878122192     -105.636221
9.361                0.877817148     -105.844741
9.362                0.877511616     -106.053836
9.363                0.877205599     -106.263507
9.364                0.876899105     -106.473754
9.365                0.876592137     -106.684579
9.366                0.876284701     -106.895983
9.367                0.875976804     -107.107967
9.368                0.875668449     -107.320531
9.369                0.875359644     -107.533677
9.37                 0.875050393     -107.747406
9.371                0.874740702     -107.961719
9.372                0.874430578     -108.176617
9.373                0.874120027     -108.392101
9.374                0.873809054     -108.608171
9.375                0.873497666     -108.824829
9.376                0.873185868     -109.042076
9.377                0.872873668     -109.259912
9.378                0.872561072     -109.478339
9.379                0.872248086     -109.697357
9.38                 0.871934718     -109.916968
9.381                0.871620972     -110.137172
9.382                0.871306858      -110.35797
9.383                 0.87099238     -110.579363
9.384                0.870677547     -110.801352
9.385                0.870362366     -111.023937
9.386                0.870046843      -111.24712
9.387                0.869730987     -111.470901
9.388                0.869414804     -111.695281
9.389                0.869098301     -111.920262
9.39                 0.868781487     -112.145842
9.391                0.868464369     -112.372024
9.392                0.868146955     -112.598809
9.393                0.867829253     -112.826196
9.394                0.867511271     -113.054187
9.395                0.867193016     -113.282782
9.396                0.866874497     -113.511982
