! TOUCHSTONE file generated by CST DESIGN STUDIO
! Date and time: Tue Feb  4 18:00:55 2025
! Project name: C:\Work\MatlabApps\UnitCellOptimizationMatlab\CST\unitcell.cst
! Tree item: Tasks\Sweep1\SPara1\S-Parameters
! Header version: 2024
! Port assignment regex: !\s*Touchstone port\s*([0-9]+)\s*=\s*(CST MWS port|CST DES external port|CST DES block port)\s*(.+)\s* \(\"(.*)\"\)(\s*mode\s*([0-9]+))?.*
! Touchstone port assignment:
! Touchstone port 1 = CST DES external port 1 ("")
# GHz S MA R 50
9                    0.943102919     -63.2110223
9.001                0.942973715     -63.3020178
9.002                0.942844096     -63.3932389
9.003                0.942714058     -63.4846862
9.004                0.942583601     -63.5763605
9.005                0.942452724     -63.6682627
9.006                0.942321425     -63.7603934
9.007                0.942189703     -63.8527534
9.008                0.942057556     -63.9453436
9.009                0.941924983     -64.0381646
9.01                 0.941791983     -64.1312172
9.011                0.941658554     -64.2245022
9.012                0.941524694     -64.3180205
9.013                0.941390403     -64.4117727
9.014                0.941255678     -64.5057597
9.015                0.941120519     -64.5999822
9.016                0.940984924     -64.6944411
9.017                0.940848891     -64.7891371
9.018                 0.94071242      -64.884071
9.019                0.940575508     -64.9792437
9.02                 0.940438155     -65.0746559
9.021                0.940300358     -65.1703084
9.022                0.940162116      -65.266202
9.023                0.940023429     -65.3623377
9.024                0.939884294     -65.4587161
9.025                 0.93974471      -65.555338
9.026                0.939604675     -65.6522044
9.027                0.939464189      -65.749316
9.028                0.939323249     -65.8466737
9.029                0.939181855     -65.9442783
9.03                 0.939040004     -66.0421305
9.031                0.938897695     -66.1402313
9.032                0.938754927     -66.2385815
9.033                0.938611698      -66.337182
9.034                0.938468007     -66.4360334
9.035                0.938323853     -66.5351369
9.036                0.938179233      -66.634493
9.037                0.938034147     -66.7341028
9.038                0.937888592     -66.8339671
9.039                0.937742568     -66.9340867
9.04                 0.937596073     -67.0344625
9.041                0.937449105     -67.1350954
9.042                0.937301663     -67.2359862
9.043                0.937153745     -67.3371358
9.044                0.937005351      -67.438545
9.045                0.936856477     -67.5402149
9.046                0.936707124     -67.6421461
9.047                0.936557289     -67.7443397
9.048                0.936406971     -67.8467964
9.049                0.936256168     -67.9495173
9.05                  0.93610488     -68.0525031
9.051                0.935953103     -68.1557549
9.052                0.935800838     -68.2592734
9.053                0.935648081     -68.3630595
9.054                0.935494833     -68.4671143
9.055                0.935341091     -68.5714386
9.056                0.935186854     -68.6760332
9.057                 0.93503212     -68.7808992
9.058                0.934876888     -68.8860375
9.059                0.934721156     -68.9914488
9.06                 0.934564922     -69.0971343
9.061                0.934408186     -69.2030948
9.062                0.934250946     -69.3093312
9.063                  0.9340932     -69.4158445
9.064                0.933934946     -69.5226356
9.065                0.933776184     -69.6297055
9.066                0.933616911      -69.737055
9.067                0.933457126     -69.8446852
9.068                0.933296828      -69.952597
9.069                0.933136014     -70.0607914
9.07                 0.932974684     -70.1692692
9.071                0.932812836     -70.2780315
9.072                0.932650469     -70.3870792
9.073                 0.93248758     -70.4964133
9.074                0.932324168     -70.6060348
9.075                0.932160233     -70.7159446
9.076                0.931995771     -70.8261437
9.077                0.931830783     -70.9366331
9.078                0.931665265     -71.0474138
9.079                0.931499218     -71.1584867
9.08                 0.931332638     -71.2698529
9.081                0.931165525     -71.3815133
9.082                0.930997877     -71.4934689
9.083                0.930829693     -71.6057208
9.084                0.930660971     -71.7182699
9.085                0.930491709     -71.8311172
9.086                0.930321907     -71.9442638
9.087                0.930151562     -72.0577107
9.088                0.929980672     -72.1714588
9.089                0.929809237     -72.2855092
9.09                 0.929637256     -72.3998629
9.091                0.929464725     -72.5145209
9.092                0.929291644     -72.6294843
9.093                0.929118012     -72.7447541
9.094                0.928943827     -72.8603314
9.095                0.928769086     -72.9762171
9.096                 0.92859379     -73.0924123
9.097                0.928417936     -73.2089181
9.098                0.928241523     -73.3257355
9.099                0.928064549     -73.4428655
9.1                  0.927887013     -73.5603093
9.101                0.927708913     -73.6780678
9.102                0.927530248     -73.7961421
9.103                0.927351017     -73.9145334
9.104                0.927171217     -74.0332426
9.105                0.926990847     -74.1522708
9.106                0.926809907     -74.2716192
9.107                0.926628393     -74.3912887
9.108                0.926446306     -74.5112805
9.109                0.926263643     -74.6315956
9.11                 0.926080403     -74.7522352
9.111                0.925896584     -74.8732003
9.112                0.925712186     -74.9944921
9.113                0.925527205     -75.1161115
9.114                0.925341643     -75.2380598
9.115                0.925155495      -75.360338
9.116                0.924968762     -75.4829473
9.117                0.924781442     -75.6058887
9.118                0.924593533     -75.7291633
9.119                0.924405034     -75.8527724
9.12                 0.924215943     -75.9767169
9.121                0.924026259     -76.1009981
9.122                0.923835981      -76.225617
9.123                0.923645107     -76.3505747
9.124                0.923453636     -76.4758725
9.125                0.923261567     -76.6015115
9.126                0.923068897     -76.7274927
9.127                0.922875626     -76.8538174
9.128                0.922681752     -76.9804866
9.129                0.922487274     -77.1075016
9.13                 0.922292191     -77.2348634
9.131                  0.9220965     -77.3625733
9.132                0.921900202     -77.4906324
9.133                0.921703294     -77.6190419
9.134                0.921505775     -77.7478029
9.135                0.921307643     -77.8769166
9.136                0.921108898     -78.0063841
9.137                0.920909538     -78.1362067
9.138                0.920709562     -78.2663855
9.139                0.920508969     -78.3969217
9.14                 0.920307756     -78.5278165
9.141                0.920105924     -78.6590711
9.142                 0.91990347     -78.7906867
9.143                0.919700394     -78.9226644
9.144                0.919496693     -79.0550055
9.145                0.919292368     -79.1877111
9.146                0.919087416     -79.3207825
9.147                0.918881837     -79.4542209
9.148                0.918675628     -79.5880274
9.149                 0.91846879     -79.7222034
9.15                 0.918261321     -79.8567499
9.151                0.918053219     -79.9916683
9.152                0.917844483     -80.1269597
9.153                0.917635113     -80.2626254
9.154                0.917425106     -80.3986666
9.155                0.917214463     -80.5350845
9.156                0.917003182     -80.6718804
9.157                0.916791261     -80.8090555
9.158                  0.9165787      -80.946611
9.159                0.916365497     -81.0845482
9.16                 0.916151652     -81.2228684
9.161                0.915937163     -81.3615727
9.162                0.915722029     -81.5006624
9.163                 0.91550625     -81.6401388
9.164                0.915289823     -81.7800031
9.165                0.915072749     -81.9202567
9.166                0.914855027     -82.0609007
9.167                0.914636654     -82.2019364
9.168                0.914417631     -82.3433651
9.169                0.914197956      -82.485188
9.17                 0.913977628     -82.6274065
9.171                0.913756647     -82.7700218
9.172                0.913535011     -82.9130352
9.173                 0.91331272     -83.0564479
9.174                0.913089773     -83.2002613
9.175                0.912866168     -83.3444766
9.176                0.912641906     -83.4890951
9.177                0.912416985     -83.6341181
9.178                0.912191405      -83.779547
9.179                0.911965164     -83.9253829
9.18                 0.911738261     -84.0716272
9.181                0.911510697     -84.2182812
9.182                0.911282471     -84.3653463
9.183                0.911053581     -84.5128236
9.184                0.910824027     -84.6607145
9.185                0.910593809     -84.8090204
9.186                0.910362925     -84.9577424
9.187                0.910131375     -85.1068821
9.188                0.909899158     -85.2564406
9.189                0.909666275     -85.4064192
9.19                 0.909432723     -85.5568194
9.191                0.909198504     -85.7076424
9.192                0.908963615     -85.8588895
9.193                0.908728057     -86.0105621
9.194                 0.90849183     -86.1626615
9.195                0.908254932     -86.3151891
9.196                0.908017363     -86.4681461
9.197                0.907779124     -86.6215339
9.198                0.907540212     -86.7753538
9.199                0.907300629     -86.9296072
9.2                  0.907060374     -87.0842954
9.201                0.906819447     -87.2394198
9.202                0.906577846     -87.3949817
9.203                0.906335573     -87.5509824
9.204                0.906092626     -87.7074232
9.205                0.905849006     -87.8643057
9.206                0.905604712      -88.021631
9.207                0.905359744     -88.1794005
9.208                0.905114102     -88.3376156
9.209                0.904867787     -88.4962776
9.21                 0.904620797      -88.655388
9.211                0.904373133     -88.8149479
9.212                0.904124795     -88.9749589
9.213                0.903875783     -89.1354223
9.214                0.903626097     -89.2963393
9.215                0.903375736     -89.4577114
9.216                0.903124702       -89.61954
9.217                0.902872995     -89.7818264
9.218                0.902620613     -89.9445719
9.219                0.902367559      -90.107778
9.22                 0.902113831      -90.271446
9.221                0.901859431     -90.4355772
9.222                0.901604358      -90.600173
9.223                0.901348613     -90.7652348
9.224                0.901092196      -90.930764
9.225                0.900835108     -91.0967619
9.226                0.900577349     -91.2632299
9.227                0.900318919     -91.4301694
9.228                 0.90005982     -91.5975817
9.229                0.899800052     -91.7654681
9.23                 0.899539614     -91.9338302
9.231                0.899278509     -92.1026692
9.232                0.899016736     -92.2719864
9.233                0.898754297     -92.4417834
9.234                0.898491192     -92.6120614
9.235                0.898227421     -92.7828218
9.236                0.897962987     -92.9540659
9.237                0.897697888     -93.1257953
9.238                0.897432128     -93.2980111
9.239                0.897165706     -93.4707148
9.24                 0.896898623     -93.6439077
9.241                0.896630881     -93.8175913
9.242                 0.89636248     -93.9917668
9.243                0.896093423     -94.1664357
9.244                0.895823709     -94.3415993
9.245                 0.89555334     -94.5172589
9.246                0.895282318      -94.693416
9.247                0.895010643     -94.8700718
9.248                0.894738317     -95.0472278
9.249                0.894465342     -95.2248853
9.25                 0.894191719     -95.4030456
9.251                0.893917449     -95.5817102
9.252                0.893642535     -95.7608803
9.253                0.893366976     -95.9405574
9.254                0.893090776     -96.1207427
9.255                0.892813936     -96.3014377
9.256                0.892536458     -96.4826436
9.257                0.892258343     -96.6643618
9.258                0.891979594     -96.8465936
9.259                0.891700212     -97.0293405
9.26                 0.891420199     -97.2126037
9.261                0.891139557     -97.3963845
9.262                0.890858288     -97.5806843
9.263                0.890576395     -97.7655045
9.264                 0.89029388     -97.9508463
9.265                0.890010744     -98.1367111
9.266                0.889726991     -98.3231001
9.267                0.889442622     -98.5100148
9.268                0.889157639     -98.6974565
9.269                0.888872046     -98.8854263
9.27                 0.888585845     -99.0739258
9.271                0.888299039      -99.262956
9.272                0.888011629     -99.4525185
9.273                0.887723619     -99.6426143
9.274                0.887435012      -99.833245
9.275                 0.88714581     -100.024412
9.276                0.886856016     -100.216116
9.277                0.886565634     -100.408358
9.278                0.886274666     -100.601141
9.279                0.885983115     -100.794464
9.28                 0.885690984      -100.98833
9.281                0.885398277      -101.18274
9.282                0.885104997     -101.377695
9.283                0.884811147     -101.573196
9.284                 0.88451673     -101.769244
9.285                0.884221751     -101.965841
9.286                0.883926212     -102.162988
9.287                0.883630118     -102.360687
9.288                0.883333471     -102.558937
9.289                0.883036277     -102.757741
9.29                 0.882738537       -102.9571
9.291                0.882440257     -103.157015
9.292                0.882141441     -103.357488
9.293                0.881842091     -103.558518
9.294                0.881542213     -103.760109
9.295                0.881241811      -103.96226
9.296                0.880940889     -104.164973
9.297                0.880639451     -104.368249
9.298                0.880337501      -104.57209
9.299                0.880035045     -104.776496
9.3                  0.879732086     -104.981469
9.301                0.879428629      -105.18701
9.302                 0.87912468     -105.393119
9.303                0.878820242     -105.599799
9.304                0.878515321     -105.807049
9.305                0.878209921     -106.014872
9.306                0.877904048     -106.223268
9.307                0.877597707     -106.432239
9.308                0.877290902     -106.641785
9.309                 0.87698364     -106.851908
9.31                 0.876675925     -107.062609
9.311                0.876367763     -107.273888
9.312                 0.87605916     -107.485747
9.313                0.875750121     -107.698187
9.314                0.875440651     -107.911209
9.315                0.875130757     -108.124813
9.316                0.874820444     -108.339002
9.317                0.874509718     -108.553775
9.318                0.874198586     -108.769134
9.319                0.873887053      -108.98508
9.32                 0.873575125     -109.201614
9.321                 0.87326281     -109.418737
9.322                0.872950113     -109.636449
9.323                 0.87263704     -109.854752
9.324                0.872323599     -110.073647
9.325                0.872009795     -110.293134
9.326                0.871695637     -110.513214
9.327                0.871381129     -110.733889
9.328                 0.87106628     -110.955158
9.329                0.870751097     -111.177024
9.33                 0.870435586     -111.399487
9.331                0.870119754     -111.622547
9.332                 0.86980361     -111.846206
9.333                0.869487159     -112.070464
9.334                0.869170411     -112.295322
9.335                0.868853372     -112.520781
9.336                 0.86853605     -112.746842
9.337                0.868218452     -112.973505
9.338                0.867900588     -113.200771
9.339                0.867582463     -113.428641
9.34                 0.867264088     -113.657116
9.341                0.866945469     -113.886196
9.342                0.866626615     -114.115881
9.343                0.866307534     -114.346174
9.344                0.865988236     -114.577074
9.345                0.865668727     -114.808581
9.346                0.865349017     -115.040698
9.347                0.865029115     -115.273423
9.348                0.864709029     -115.506758
9.349                0.864388769     -115.740703
9.35                 0.864068343     -115.975259
9.351                0.863747761     -116.210427
9.352                0.863427031     -116.446206
9.353                0.863106163     -116.682598
9.354                0.862785167     -116.919602
9.355                0.862464052      -117.15722
9.356                0.862142827     -117.395452
9.357                0.861821503     -117.634298
9.358                0.861500089     -117.873758
9.359                0.861178595     -118.113833
9.36                 0.860857031     -118.354524
9.361                0.860535407     -118.595831
9.362                0.860213734     -118.837753
9.363                0.859892021     -119.080292
9.364                 0.85957028     -119.323447
9.365                 0.85924852      -119.56722
9.366                0.858926753     -119.811609
9.367                0.858604989     -120.056616
9.368                0.858283239      -120.30224
9.369                0.857961514     -120.548482
9.37                 0.857639825     -120.795342
9.371                0.857318183      -121.04282
9.372                0.856996599     -121.290917
9.373                0.856675086     -121.539631
9.374                0.856353653     -121.788964
9.375                0.856032313     -122.038916
9.376                0.855711077     -122.289485
9.377                0.855389957     -122.540674
9.378                0.855068965      -122.79248
9.379                0.854748114     -123.044905
9.38                 0.854427414     -123.297949
9.381                0.854106878      -123.55161
9.382                0.853786519      -123.80589
9.383                0.853466348     -124.060787
9.384                0.853146378     -124.316303
9.385                0.852826622     -124.572436
9.386                0.852507093     -124.829186
9.387                0.852187802     -125.086554
9.388                0.851868764     -125.344538
9.389                 0.85154999     -125.603139
9.39                 0.851231495     -125.862357
9.391                 0.85091329      -126.12219
9.392                 0.85059539     -126.382639
9.393                0.850277807     -126.643703
9.394                0.849960555     -126.905382
9.395                0.849643648     -127.167675
9.396                0.849327098     -127.430581
