! TOUCHSTONE file generated by CST DESIGN STUDIO
! Date and time: Tue Feb  4 18:01:01 2025
! Project name: C:\Work\MatlabApps\UnitCellOptimizationMatlab\CST\unitcell.cst
! Tree item: Tasks\Sweep1\SPara1\S-Parameters
! Header version: 2024
! Port assignment regex: !\s*Touchstone port\s*([0-9]+)\s*=\s*(CST MWS port|CST DES external port|CST DES block port)\s*(.+)\s* \(\"(.*)\"\)(\s*mode\s*([0-9]+))?.*
! Touchstone port assignment:
! Touchstone port 1 = CST DES external port 1 ("")
# GHz S MA R 50
9                    0.958718501     -49.2469194
9.001                0.958650598     -49.3087326
9.002                 0.95858246     -49.3706776
9.003                0.958514084     -49.4327547
9.004                0.958445471     -49.4949644
9.005                0.958376619     -49.5573071
9.006                0.958307528     -49.6197832
9.007                0.958238196     -49.6823931
9.008                0.958168624     -49.7451371
9.009                0.958098809     -49.8080158
9.01                 0.958028751     -49.8710295
9.011                0.957958449     -49.9341787
9.012                0.957887903     -49.9974637
9.013                0.957817111      -50.060885
9.014                0.957746073      -50.124443
9.015                0.957674787     -50.1881381
9.016                0.957603253     -50.2519708
9.017                 0.95753147     -50.3159414
9.018                0.957459437     -50.3800504
9.019                0.957387153     -50.4442982
9.02                 0.957314617     -50.5086853
9.021                0.957241828     -50.5732121
9.022                0.957168786      -50.637879
9.023                0.957095489     -50.7026865
9.024                0.957021937     -50.7676349
9.025                0.956948128     -50.8327248
9.026                0.956874062     -50.8979565
9.027                0.956799738     -50.9633305
9.028                0.956725154     -51.0288473
9.029                 0.95665031     -51.0945072
9.03                 0.956575206     -51.1603108
9.031                0.956499839     -51.2262585
9.032                0.956424209     -51.2923507
9.033                0.956348315     -51.3585879
9.034                0.956272157     -51.4249705
9.035                0.956195732      -51.491499
9.036                0.956119041     -51.5581739
9.037                0.956042082     -51.6249956
9.038                0.955964855     -51.6919645
9.039                0.955887357     -51.7590811
9.04                 0.955809589      -51.826346
9.041                 0.95573155     -51.8937595
9.042                0.955653237     -51.9613221
9.043                0.955574652     -52.0290343
9.044                0.955495791     -52.0968965
9.045                0.955416655     -52.1649093
9.046                0.955337242     -52.2330731
9.047                0.955257552     -52.3013884
9.048                0.955177583     -52.3698556
9.049                0.955097335     -52.4384752
9.05                 0.955016805     -52.5072478
9.051                0.954935995     -52.5761737
9.052                0.954854901     -52.6452535
9.053                0.954773524     -52.7144877
9.054                0.954691862     -52.7838767
9.055                0.954609915     -52.8534211
9.056                 0.95452768     -52.9231213
9.057                0.954445158     -52.9929779
9.058                0.954362347     -53.0629912
9.059                0.954279246     -53.1331619
9.06                 0.954195854     -53.2034904
9.061                0.954112171     -53.2739772
9.062                0.954028194     -53.3446229
9.063                0.953943922     -53.4154278
9.064                0.953859356     -53.4863926
9.065                0.953774494     -53.5575177
9.066                0.953689334     -53.6288037
9.067                0.953603875     -53.7002511
9.068                0.953518118     -53.7718603
9.069                0.953432059     -53.8436319
9.07                 0.953345699     -53.9155665
9.071                0.953259037     -53.9876644
9.072                 0.95317207     -54.0599263
9.073                0.953084798     -54.1323527
9.074                0.952997221     -54.2049441
9.075                0.952909336      -54.277701
9.076                0.952821143      -54.350624
9.077                 0.95273264     -54.4237136
9.078                0.952643827     -54.4969703
9.079                0.952554703     -54.5703947
9.08                 0.952465265     -54.6439872
9.081                0.952375514     -54.7177486
9.082                0.952285448     -54.7916792
9.083                0.952195065     -54.8657796
9.084                0.952104365     -54.9400504
9.085                0.952013347     -55.0144921
9.086                0.951922009     -55.0891053
9.087                 0.95183035     -55.1638905
9.088                 0.95173837     -55.2388483
9.089                0.951646066     -55.3139792
9.09                 0.951553438     -55.3892838
9.091                0.951460484     -55.4647627
9.092                0.951367204     -55.5404164
9.093                0.951273597     -55.6162454
9.094                 0.95117966     -55.6922505
9.095                0.951085393      -55.768432
9.096                0.950990795     -55.8447906
9.097                0.950895864     -55.9213269
9.098                0.950800599     -55.9980415
9.099                0.950704999     -56.0749348
9.1                  0.950609064     -56.1520076
9.101                0.950512791     -56.2292603
9.102                0.950416179     -56.3066936
9.103                0.950319227      -56.384308
9.104                0.950221935     -56.4621042
9.105                  0.9501243     -56.5400827
9.106                0.950026322     -56.6182442
9.107                0.949927998     -56.6965891
9.108                0.949829329     -56.7751182
9.109                0.949730313      -56.853832
9.11                 0.949630948     -56.9327311
9.111                0.949531234     -57.0118162
9.112                0.949431168     -57.0910877
9.113                0.949330751     -57.1705465
9.114                 0.94922998     -57.2501929
9.115                0.949128854     -57.3300278
9.116                0.949027372     -57.4100516
9.117                0.948925532      -57.490265
9.118                0.948823334     -57.5706686
9.119                0.948720776     -57.6512631
9.12                 0.948617857     -57.7320491
9.121                0.948514576     -57.8130272
9.122                0.948410931     -57.8941979
9.123                 0.94830692     -57.9755621
9.124                0.948202543     -58.0571202
9.125                0.948097799      -58.138873
9.126                0.947992685     -58.2208211
9.127                0.947887202     -58.3029651
9.128                0.947781346     -58.3853056
9.129                0.947675118     -58.4678433
9.13                 0.947568515     -58.5505789
9.131                0.947461537      -58.633513
9.132                0.947354181     -58.7166463
9.133                0.947246447     -58.7999794
9.134                0.947138334      -58.883513
9.135                 0.94702984     -58.9672477
9.136                0.946920963     -59.0511842
9.137                0.946811702     -59.1353232
9.138                0.946702057     -59.2196654
9.139                0.946592025     -59.3042113
9.14                 0.946481605     -59.3889617
9.141                0.946370796     -59.4739173
9.142                0.946259596     -59.5590788
9.143                0.946148004     -59.6444468
9.144                0.946036019      -59.730022
9.145                0.945923639      -59.815805
9.146                0.945810863     -59.9017967
9.147                 0.94569769     -59.9879977
9.148                0.945584117     -60.0744086
9.149                0.945470144     -60.1610302
9.15                  0.94535577     -60.2478631
9.151                0.945240992     -60.3349082
9.152                0.945125809      -60.422166
9.153                0.945010221     -60.5096373
9.154                0.944894225     -60.5973228
9.155                 0.94477782     -60.6852232
9.156                0.944661005     -60.7733393
9.157                0.944543778     -60.8616717
9.158                0.944426138     -60.9502211
9.159                0.944308083     -61.0389884
9.16                 0.944189613     -61.1279741
9.161                0.944070724     -61.2171792
9.162                0.943951417     -61.3066041
9.163                0.943831689     -61.3962498
9.164                0.943711539      -61.486117
9.165                0.943590966     -61.5762063
9.166                0.943469968     -61.6665186
9.167                0.943348543     -61.7570545
9.168                0.943226691     -61.8478149
9.169                 0.94310441     -61.9388005
9.17                 0.942981697      -62.030012
9.171                0.942858552     -62.1214501
9.172                0.942734974     -62.2131158
9.173                 0.94261096     -62.3050096
9.174                 0.94248651     -62.3971324
9.175                0.942361621     -62.4894849
9.176                0.942236292      -62.582068
9.177                0.942110522     -62.6748823
9.178                0.941984309     -62.7679288
9.179                0.941857652      -62.861208
9.18                 0.941730549     -62.9547209
9.181                0.941602999     -63.0484682
9.182                0.941474999     -63.1424507
9.183                 0.94134655     -63.2366692
9.184                0.941217648     -63.3311244
9.185                0.941088292     -63.4258173
9.186                0.940958482     -63.5207485
9.187                0.940828215     -63.6159189
9.188                 0.94069749     -63.7113293
9.189                0.940566305     -63.8069804
9.19                 0.940434658     -63.9028732
9.191                0.940302549     -63.9990084
9.192                0.940169976     -64.0953869
9.193                0.940036936     -64.1920094
9.194                0.939903429     -64.2888767
9.195                0.939769453     -64.3859898
9.196                0.939635006     -64.4833494
9.197                0.939500087     -64.5809564
9.198                0.939364695     -64.6788116
9.199                0.939228826     -64.7769158
9.2                  0.939092481     -64.8752699
9.201                0.938955657     -64.9738748
9.202                0.938818353     -65.0727312
9.203                0.938680567       -65.17184
9.204                0.938542298     -65.2712021
9.205                0.938403544     -65.3708183
9.206                0.938264303     -65.4706896
9.207                0.938124574     -65.5708166
9.208                0.937984355     -65.6712004
9.209                0.937843645     -65.7718418
9.21                 0.937702442     -65.8727417
9.211                0.937560744     -65.9739009
9.212                 0.93741855     -66.0753203
9.213                0.937275858     -66.1770007
9.214                0.937132667     -66.2789432
9.215                0.936988975     -66.3811485
9.216                0.936844779     -66.4836176
9.217                 0.93670008     -66.5863513
9.218                0.936554875     -66.6893506
9.219                0.936409162     -66.7926163
9.22                 0.936262939     -66.8961494
9.221                0.936116206     -66.9999507
9.222                0.935968961     -67.1040212
9.223                0.935821201     -67.2083618
9.224                0.935672925     -67.3129733
9.225                0.935524132     -67.4178568
9.226                 0.93537482     -67.5230131
9.227                0.935224988     -67.6284432
9.228                0.935074633     -67.7341479
9.229                0.934923753     -67.8401283
9.23                 0.934772349     -67.9463852
9.231                0.934620417     -68.0529196
9.232                0.934467956     -68.1597324
9.233                0.934314964     -68.2668247
9.234                0.934161441     -68.3741972
9.235                0.934007383      -68.481851
9.236                 0.93385279     -68.5897871
9.237                0.933697659     -68.6980063
9.238                 0.93354199     -68.8065097
9.239                 0.93338578     -68.9152982
9.24                 0.933229028     -69.0243728
9.241                0.933071732     -69.1337345
9.242                0.932913891     -69.2433842
9.243                0.932755503     -69.3533228
9.244                0.932596566     -69.4635515
9.245                0.932437078     -69.5740712
9.246                0.932277038     -69.6848827
9.247                0.932116445     -69.7959873
9.248                0.931955296     -69.9073858
9.249                 0.93179359     -70.0190792
9.25                 0.931631325     -70.1310686
9.251                  0.9314685     -70.2433549
9.252                0.931305113     -70.3559391
9.253                0.931141162     -70.4688223
9.254                0.930976646     -70.5820055
9.255                0.930811562     -70.6954897
9.256                 0.93064591     -70.8092759
9.257                0.930479688     -70.9233652
9.258                0.930312894     -71.0377585
9.259                0.930145526     -71.1524569
9.26                 0.929977583     -71.2674614
9.261                0.929809063     -71.3827731
9.262                0.929639965      -71.498393
9.263                0.929470286     -71.6143221
9.264                0.929300026     -71.7305616
9.265                0.929129182     -71.8471124
9.266                0.928957753     -71.9639756
9.267                0.928785737     -72.0811523
9.268                0.928613133     -72.1986435
9.269                0.928439938     -72.3164502
9.27                 0.928266153     -72.4345737
9.271                0.928091774     -72.5530148
9.272                  0.9279168     -72.6717748
9.273                0.927741229     -72.7908546
9.274                0.927565061     -72.9102554
9.275                0.927388292     -73.0299782
9.276                0.927210923     -73.1500242
9.277                 0.92703295     -73.2703943
9.278                0.926854373     -73.3910898
9.279                 0.92667519     -73.5121117
9.28                 0.926495399     -73.6334612
9.281                0.926314999     -73.7551392
9.282                0.926133987      -73.877147
9.283                0.925952364     -73.9994856
9.284                0.925770126     -74.1221561
9.285                0.925587273     -74.2451598
9.286                0.925403802     -74.3684976
9.287                0.925219713     -74.4921707
9.288                0.925035003     -74.6161803
9.289                0.924849671     -74.7405274
9.29                 0.924663716     -74.8652133
9.291                0.924477136      -74.990239
9.292                 0.92428993     -75.1156057
9.293                0.924102095     -75.2413146
9.294                0.923913631     -75.3673667
9.295                0.923724536     -75.4937632
9.296                0.923534808     -75.6205054
9.297                0.923344446     -75.7475943
9.298                0.923153448     -75.8750311
9.299                0.922961814     -76.0028169
9.3                   0.92276954      -76.130953
9.301                0.922576627     -76.2594405
9.302                0.922383072     -76.3882806
9.303                0.922188874     -76.5174745
9.304                0.921994032     -76.6470233
9.305                0.921798544     -76.7769282
9.306                0.921602409     -76.9071904
9.307                0.921405624     -77.0378112
9.308                 0.92120819     -77.1687916
9.309                0.921010104      -77.300133
9.31                 0.920811365     -77.4318364
9.311                0.920611972     -77.5639031
9.312                0.920411923     -77.6963343
9.313                0.920211216     -77.8291312
9.314                0.920009852     -77.9622951
9.315                0.919807827     -78.0958271
9.316                0.919605141     -78.2297285
9.317                0.919401793     -78.3640004
9.318                0.919197781     -78.4986441
9.319                0.918993104     -78.6336609
9.32                  0.91878776      -78.769052
9.321                0.918581749     -78.9048185
9.322                0.918375068     -79.0409618
9.323                0.918167718     -79.1774831
9.324                0.917959695     -79.3143836
9.325                   0.917751     -79.4516645
9.326                0.917541631     -79.5893272
9.327                0.917331587     -79.7273728
9.328                0.917120867     -79.8658027
9.329                0.916909469      -80.004618
9.33                 0.916697392     -80.1438201
9.331                0.916484635     -80.2834102
9.332                0.916271197     -80.4233896
9.333                0.916057077     -80.5637595
9.334                0.915842274     -80.7045212
9.335                0.915626786     -80.8456761
9.336                0.915410613     -80.9872253
9.337                0.915193754     -81.1291701
9.338                0.914976206     -81.2715119
9.339                0.914757971     -81.4142519
9.34                 0.914539045     -81.5573915
9.341                0.914319429     -81.7009318
9.342                0.914099122     -81.8448742
9.343                0.913878122       -81.98922
9.344                0.913656428     -82.1339706
9.345                 0.91343404     -82.2791271
9.346                0.913210956     -82.4246909
9.347                0.912987177     -82.5706633
9.348                  0.9127627     -82.7170457
9.349                0.912537525     -82.8638393
9.35                 0.912311652     -83.0110454
9.351                0.912085079     -83.1586654
9.352                0.911857806     -83.3067006
9.353                0.911629831     -83.4551523
9.354                0.911401155     -83.6040218
9.355                0.911171776     -83.7533105
9.356                0.910941693     -83.9030196
9.357                0.910710907     -84.0531506
9.358                0.910479416     -84.2037048
9.359                0.910247219     -84.3546834
9.36                 0.910014317     -84.5060878
9.361                0.909780708     -84.6579195
9.362                0.909546393     -84.8101796
9.363                0.909311369     -84.9628696
9.364                0.909075638     -85.1159907
9.365                0.908839198     -85.2695445
9.366                0.908602048     -85.4235321
9.367                 0.90836419      -85.577955
9.368                0.908125621     -85.7328144
9.369                0.907886342     -85.8881119
9.37                 0.907646353     -86.0438486
9.371                0.907405652      -86.200026
9.372                 0.90716424     -86.3566455
9.373                0.906922117     -86.5137083
9.374                0.906679282     -86.6712159
9.375                0.906435735     -86.8291696
9.376                0.906191475     -86.9875709
9.377                0.905946503     -87.1464209
9.378                0.905700819     -87.3057212
9.379                0.905454422     -87.4654732
9.38                 0.905207313      -87.625678
9.381                 0.90495949     -87.7863373
9.382                0.904710956     -87.9474522
9.383                0.904461708     -88.1090243
9.384                0.904211748     -88.2710548
9.385                0.903961075     -88.4335452
9.386                 0.90370969     -88.5964968
9.387                0.903457593      -88.759911
9.388                0.903204784     -88.9237893
9.389                0.902951264     -89.0881328
9.39                 0.902697032     -89.2529432
9.391                0.902442088     -89.4182217
9.392                0.902186434     -89.5839697
9.393                 0.90193007     -89.7501886
9.394                0.901672995     -89.9168798
9.395                0.901415211     -90.0840447
9.396                0.901156718     -90.2516847
