! TOUCHSTONE file generated by CST DESIGN STUDIO
! Date and time: Wed Feb  5 13:21:55 2025
! Project name: C:\Work\MatlabApps\UnitCellOptimizationMatlab\CST\unitcell.cst
! Tree item: Tasks\Sweep1\SPara1\S-Parameters
! Header version: 2024
! Port assignment regex: !\s*Touchstone port\s*([0-9]+)\s*=\s*(CST MWS port|CST DES external port|CST DES block port)\s*(.+)\s* \(\"(.*)\"\)(\s*mode\s*([0-9]+))?.*
! Touchstone port assignment:
! Touchstone port 1 = CST DES external port 1 ("")
# GHz S MA R 50
9                    0.955144764     -59.4623655
9.001                0.955086472     -59.5446028
9.002                0.955028026     -59.6270473
9.003                0.954969423     -59.7096998
9.004                0.954910662     -59.7925609
9.005                0.954851744     -59.8756312
9.006                0.954792665     -59.9589116
9.007                0.954733426     -60.0424027
9.008                0.954674024     -60.1261051
9.009                0.954614458     -60.2100196
9.01                 0.954554728     -60.2941469
9.011                0.954494832     -60.3784876
9.012                0.954434768     -60.4630426
9.013                0.954374536     -60.5478124
9.014                0.954314135     -60.6327979
9.015                0.954253562     -60.7179997
9.016                0.954192817     -60.8034185
9.017                0.954131898      -60.889055
9.018                0.954070804     -60.9749101
9.019                0.954009534     -61.0609843
9.02                 0.953948087     -61.1472785
9.021                0.953886461     -61.2337933
9.022                0.953824655     -61.3205296
9.023                0.953762668     -61.4074879
9.024                0.953700498     -61.4946691
9.025                0.953638144     -61.5820739
9.026                0.953575605     -61.6697031
9.027                0.953512879     -61.7575573
9.028                0.953449966     -61.8456374
9.029                0.953386864     -61.9339441
9.03                 0.953323571     -62.0224781
9.031                0.953260087     -62.1112402
9.032                0.953196409     -62.2002311
9.033                0.953132537     -62.2894517
9.034                 0.95306847     -62.3789026
9.035                0.953004206     -62.4685847
9.036                0.952939743     -62.5584987
9.037                 0.95287508     -62.6486453
9.038                0.952810217     -62.7390255
9.039                0.952745151     -62.8296399
9.04                 0.952679882     -62.9204892
9.041                0.952614408     -63.0115744
9.042                0.952548727     -63.1028962
9.043                0.952482839     -63.1944554
9.044                0.952416741     -63.2862527
9.045                0.952350434      -63.378289
9.046                0.952283914      -63.470565
9.047                0.952217182     -63.5630816
9.048                0.952150235     -63.6558396
9.049                0.952083072     -63.7488397
9.05                 0.952015692     -63.8420828
9.051                0.951948094     -63.9355696
9.052                0.951880275     -64.0293011
9.053                0.951812236      -64.123278
9.054                0.951743973     -64.2175011
9.055                0.951675487     -64.3119713
9.056                0.951606775     -64.4066894
9.057                0.951537837     -64.5016562
9.058                 0.95146867     -64.5968725
9.059                0.951399274     -64.6923392
9.06                 0.951329647     -64.7880571
9.061                0.951259787     -64.8840271
9.062                0.951189694       -64.98025
9.063                0.951119365     -65.0767266
9.064                  0.9510488     -65.1734578
9.065                0.950977997     -65.2704445
9.066                0.950906955     -65.3676875
9.067                0.950835672     -65.4651876
9.068                0.950764146     -65.5629457
9.069                0.950692377     -65.6609628
9.07                 0.950620363     -65.7592395
9.071                0.950548103     -65.8577769
9.072                0.950475595     -65.9565758
9.073                0.950402837     -66.0556371
9.074                0.950329829     -66.1549616
9.075                0.950256569     -66.2545502
9.076                0.950183055     -66.3544039
9.077                0.950109286     -66.4545235
9.078                0.950035261     -66.5549098
9.079                0.949960978     -66.6555639
9.08                 0.949886435     -66.7564865
9.081                0.949811632     -66.8576786
9.082                0.949736566     -66.9591411
9.083                0.949661237     -67.0608749
9.084                0.949585643     -67.1628809
9.085                0.949509783     -67.2651601
9.086                0.949433654     -67.3677133
9.087                0.949357256     -67.4705414
9.088                0.949280587     -67.5736454
9.089                0.949203645     -67.6770262
9.09                  0.94912643     -67.7806847
9.091                 0.94904894     -67.8846219
9.092                0.948971173     -67.9888387
9.093                0.948893127     -68.0933361
9.094                0.948814802     -68.1981149
9.095                0.948736196     -68.3031761
9.096                0.948657307     -68.4085207
9.097                0.948578134     -68.5141496
9.098                0.948498675     -68.6200638
9.099                 0.94841893     -68.7262642
9.1                  0.948338896     -68.8327518
9.101                0.948258572     -68.9395276
9.102                0.948177956     -69.0465924
9.103                0.948097047     -69.1539474
9.104                0.948015844     -69.2615934
9.105                0.947934345     -69.3695315
9.106                0.947852549     -69.4777625
9.107                0.947770454     -69.5862876
9.108                0.947688058     -69.6951077
9.109                 0.94760536     -69.8042237
9.11                 0.947522359     -69.9136367
9.111                0.947439053     -70.0233476
9.112                0.947355441     -70.1333576
9.113                0.947271521     -70.2436674
9.114                0.947187291     -70.3542783
9.115                0.947102751     -70.4651911
9.116                0.947017898     -70.5764069
9.117                0.946932731     -70.6879267
9.118                0.946847249     -70.7997515
9.119                 0.94676145     -70.9118824
9.12                 0.946675333     -71.0243203
9.121                0.946588896     -71.1370663
9.122                0.946502137     -71.2501214
9.123                0.946415056     -71.3634867
9.124                 0.94632765     -71.4771632
9.125                0.946239918     -71.5911519
9.126                0.946151859     -71.7054539
9.127                 0.94606347     -71.8200703
9.128                0.945974752      -71.935002
9.129                0.945885701     -72.0502501
9.13                 0.945796317     -72.1658158
9.131                0.945706598     -72.2816999
9.132                0.945616543     -72.3979037
9.133                0.945526149     -72.5144282
9.134                0.945435416     -72.6312744
9.135                0.945344342     -72.7484435
9.136                0.945252926     -72.8659364
9.137                0.945161165     -72.9837544
9.138                0.945069059     -73.1018984
9.139                0.944976606     -73.2203695
9.14                 0.944883805     -73.3391689
9.141                0.944790653     -73.4582976
9.142                 0.94469715     -73.5777568
9.143                0.944603294     -73.6975475
9.144                0.944509083     -73.8176708
9.145                0.944414516     -73.9381278
9.146                0.944319591     -74.0589197
9.147                0.944224308     -74.1800476
9.148                0.944128664     -74.3015125
9.149                0.944032658     -74.4233157
9.15                 0.943936288     -74.5454581
9.151                0.943839553      -74.667941
9.152                0.943742452     -74.7907655
9.153                0.943644982     -74.9139326
9.154                0.943547143     -75.0374436
9.155                0.943448933     -75.1612996
9.156                 0.94335035     -75.2855017
9.157                0.943251393     -75.4100511
9.158                0.943152061     -75.5349489
9.159                0.943052352     -75.6601962
9.16                 0.942952264     -75.7857943
9.161                0.942851796     -75.9117442
9.162                0.942750947     -76.0380472
9.163                0.942649715     -76.1647044
9.164                0.942548098     -76.2917169
9.165                0.942446096      -76.419086
9.166                0.942343706     -76.5468128
9.167                0.942240928     -76.6748984
9.168                0.942137759     -76.8033442
9.169                0.942034198     -76.9321511
9.17                 0.941930244     -77.0613206
9.171                0.941825896     -77.1908536
9.172                0.941721151     -77.3207514
9.173                0.941616009     -77.4510153
9.174                0.941510468     -77.5816464
9.175                0.941404527     -77.7126459
9.176                0.941298183     -77.8440149
9.177                0.941191436     -77.9757548
9.178                0.941084285     -78.1078668
9.179                0.940976727      -78.240352
9.18                 0.940868762     -78.3732116
9.181                0.940760388     -78.5064469
9.182                0.940651603     -78.6400591
9.183                0.940542407     -78.7740495
9.184                0.940432798     -78.9084191
9.185                0.940322773     -79.0431694
9.186                0.940212333     -79.1783015
9.187                0.940101476     -79.3138166
9.188                0.939990199      -79.449716
9.189                0.939878503      -79.586001
9.19                 0.939766385     -79.7226727
9.191                0.939653844     -79.8597325
9.192                0.939540879     -79.9971815
9.193                0.939427488     -80.1350211
9.194                0.939313671     -80.2732525
9.195                0.939199425     -80.4118768
9.196                 0.93908475     -80.5508955
9.197                0.938969643     -80.6903098
9.198                0.938854105     -80.8301209
9.199                0.938738133     -80.9703301
9.2                  0.938621726     -81.1109387
9.201                0.938504883      -81.251948
9.202                0.938387602     -81.3933591
9.203                0.938269883     -81.5351735
9.204                0.938151723     -81.6773924
9.205                0.938033123      -81.820017
9.206                 0.93791408     -81.9630487
9.207                0.937794593     -82.1064888
9.208                0.937674661     -82.2503385
9.209                0.937554283     -82.3945991
9.21                 0.937433457      -82.539272
9.211                0.937312183     -82.6843584
9.212                0.937190459     -82.8298596
9.213                0.937068284      -82.975777
9.214                0.936945657     -83.1221118
9.215                0.936822576     -83.2688654
9.216                 0.93669904      -83.416039
9.217                0.936575049     -83.5636341
9.218                0.936450601     -83.7116518
9.219                0.936325695     -83.8600935
9.22                 0.936200329     -84.0089605
9.221                0.936074504     -84.1582542
9.222                0.935948217     -84.3079759
9.223                0.935821468     -84.4581268
9.224                0.935694255     -84.6087084
9.225                0.935566577     -84.7597219
9.226                0.935438434     -84.9111687
9.227                0.935309825     -85.0630501
9.228                0.935180747     -85.2153674
9.229                0.935051201      -85.368122
9.23                 0.934921185     -85.5213153
9.231                0.934790699     -85.6749485
9.232                0.934659741      -85.829023
9.233                 0.93452831     -85.9835401
9.234                0.934396406     -86.1385012
9.235                0.934264027     -86.2939076
9.236                0.934131173     -86.4497608
9.237                0.933997842     -86.6060619
9.238                0.933864034     -86.7628124
9.239                0.933729749     -86.9200136
9.24                 0.933594984     -87.0776669
9.241                0.933459739     -87.2357736
9.242                0.933324014      -87.394335
9.243                0.933187808     -87.5533527
9.244                 0.93305112     -87.7128277
9.245                0.932913948     -87.8727617
9.246                0.932776293     -88.0331558
9.247                0.932638153     -88.1940115
9.248                0.932499529     -88.3553301
9.249                0.932360418      -88.517113
9.25                 0.932220821     -88.6793616
9.251                0.932080737     -88.8420771
9.252                0.931940165      -89.005261
9.253                0.931799105     -89.1689146
9.254                0.931657555     -89.3330394
9.255                0.931515516     -89.4976365
9.256                0.931372987     -89.6627075
9.257                0.931229967     -89.8282537
9.258                0.931086456     -89.9942764
9.259                0.930942453      -90.160777
9.26                 0.930797958     -90.3277569
9.261                 0.93065297     -90.4952174
9.262                 0.93050749     -90.6631599
9.263                0.930361515     -90.8315858
9.264                0.930215047     -91.0004964
9.265                0.930068084     -91.1698932
9.266                0.929920627     -91.3397773
9.267                0.929772675     -91.5101503
9.268                0.929624228     -91.6810135
9.269                0.929475285     -91.8523682
9.27                 0.929325846     -92.0242158
9.271                0.929175912     -92.1965577
9.272                0.929025481     -92.3693952
9.273                0.928874554     -92.5427297
9.274                0.928723131     -92.7165626
9.275                0.928571211     -92.8908951
9.276                0.928418795     -93.0657287
9.277                0.928265881     -93.2410647
9.278                0.928112471     -93.4169045
9.279                0.927958564     -93.5932494
9.28                 0.927804161     -93.7701007
9.281                0.927649261     -93.9474599
9.282                0.927493864     -94.1253282
9.283                0.927337971     -94.3037071
9.284                0.927181581     -94.4825978
9.285                0.927024696     -94.6620017
9.286                0.926867314     -94.8419201
9.287                0.926709437     -95.0223544
9.288                0.926551064     -95.2033059
9.289                0.926392196     -95.3847759
9.29                 0.926232834     -95.5667658
9.291                0.926072977      -95.749277
9.292                0.925912625     -95.9323106
9.293                0.925751781     -96.1158681
9.294                0.925590443     -96.2999507
9.295                0.925428612     -96.4845599
9.296                0.925266289     -96.6696968
9.297                0.925103475     -96.8553629
9.298                 0.92494017     -97.0415594
9.299                0.924776375     -97.2282876
9.3                   0.92461209     -97.4155488
9.301                0.924447316     -97.6033444
9.302                0.924282054     -97.7916756
9.303                0.924116304     -97.9805437
9.304                0.923950068     -98.1699499
9.305                0.923783347     -98.3598957
9.306                 0.92361614     -98.5503822
9.307                 0.92344845     -98.7414108
9.308                0.923280277     -98.9329826
9.309                0.923111622     -99.1250991
9.31                 0.922942487     -99.3177613
9.311                0.922772872     -99.5109706
9.312                0.922602778     -99.7047283
9.313                0.922432207     -99.8990355
9.314                 0.92226116     -100.093894
9.315                0.922089639     -100.289304
9.316                0.921917644     -100.485267
9.317                0.921745177     -100.681785
9.318                0.921572239     -100.878859
9.319                0.921398832     -101.076489
9.32                 0.921224957     -101.274678
9.321                0.921050616     -101.473426
9.322                0.920875811     -101.672735
9.323                0.920700543     -101.872605
9.324                0.920524813     -102.073038
9.325                0.920348624     -102.274036
9.326                0.920171977     -102.475598
9.327                0.919994875     -102.677727
9.328                0.919817318     -102.880424
9.329                 0.91963931     -103.083689
9.33                 0.919460851     -103.287524
9.331                0.919281944      -103.49193
9.332                0.919102591     -103.696909
9.333                0.918922795      -103.90246
9.334                0.918742556     -104.108586
9.335                0.918561879     -104.315287
9.336                0.918380764     -104.522565
9.337                0.918199214     -104.730421
9.338                0.918017232     -104.938855
9.339                 0.91783482     -105.147869
9.34                 0.917651981     -105.357463
9.341                0.917468717      -105.56764
9.342                 0.91728503     -105.778399
9.343                0.917100924     -105.989743
9.344                0.916916401     -106.201671
9.345                0.916731464     -106.414185
9.346                0.916546116     -106.627287
9.347                0.916360359     -106.840976
9.348                0.916174198     -107.055254
9.349                0.915987633     -107.270122
9.35                  0.91580067     -107.485581
9.351                 0.91561331     -107.701631
9.352                0.915425558     -107.918275
9.353                0.915237415     -108.135512
9.354                0.915048887     -108.353343
9.355                0.914859975     -108.571771
9.356                0.914670684     -108.790794
9.357                0.914481017     -109.010415
9.358                0.914290978     -109.230633
9.359                0.914100569     -109.451451
9.36                 0.913909796     -109.672869
9.361                0.913718661     -109.894887
9.362                0.913527168     -110.117506
9.363                0.913335322     -110.340728
9.364                0.913143127     -110.564553
9.365                0.912950585     -110.788981
9.366                0.912757702     -111.014014
9.367                0.912564481     -111.239653
9.368                0.912370927     -111.465897
9.369                0.912177045     -111.692748
9.37                 0.911982837     -111.920207
9.371                 0.91178831     -112.148274
9.372                0.911593466     -112.376949
9.373                0.911398312     -112.606234
9.374                0.911202851     -112.836129
9.375                0.911007088     -113.066635
9.376                0.910811028     -113.297752
9.377                0.910614676     -113.529482
9.378                0.910418037     -113.761823
9.379                0.910221115     -113.994778
9.38                 0.910023916     -114.228346
9.381                0.909826445     -114.462528
9.382                0.909628707     -114.697326
9.383                0.909430707     -114.932738
9.384                0.909232451     -115.168766
9.385                0.909033944     -115.405409
9.386                0.908835191      -115.64267
9.387                0.908636198     -115.880547
9.388                0.908436971     -116.119042
9.389                0.908237516     -116.358154
9.39                 0.908037838     -116.597885
9.391                0.907837942     -116.838233
9.392                0.907637836     -117.079201
9.393                0.907437524     -117.320788
9.394                0.907237014     -117.562994
9.395                0.907036311     -117.805819
9.396                0.906835421     -118.049265
