! TOUCHSTONE file generated by CST DESIGN STUDIO
! Date and time: Wed Feb  5 13:21:53 2025
! Project name: C:\Work\MatlabApps\UnitCellOptimizationMatlab\CST\unitcell.cst
! Tree item: Tasks\Sweep1\SPara1\S-Parameters
! Header version: 2024
! Port assignment regex: !\s*Touchstone port\s*([0-9]+)\s*=\s*(CST MWS port|CST DES external port|CST DES block port)\s*(.+)\s* \(\"(.*)\"\)(\s*mode\s*([0-9]+))?.*
! Touchstone port assignment:
! Touchstone port 1 = CST DES external port 1 ("")
# GHz S MA R 50
9                    0.950435123     -63.4021167
9.001                0.950358221     -63.4924732
9.002                0.950281166     -63.5830641
9.003                0.950203957     -63.6738905
9.004                0.950126594     -63.7649529
9.005                0.950049074     -63.8562522
9.006                0.949971397     -63.9477893
9.007                0.949893561     -64.0395649
9.008                0.949815564     -64.1315799
9.009                0.949737406      -64.223835
9.01                 0.949659085      -64.316331
9.011                0.949580599     -64.4090689
9.012                0.949501948     -64.5020493
9.013                0.949423131     -64.5952732
9.014                0.949344144     -64.6887413
9.015                0.949264989     -64.7824545
9.016                0.949185662     -64.8764136
9.017                0.949106163     -64.9706194
9.018                0.949026491     -65.0650728
9.019                0.948946644     -65.1597747
9.02                  0.94886662     -65.2547258
9.021                0.948786419      -65.349927
9.022                0.948706039     -65.4453791
9.023                0.948625478     -65.5410831
9.024                0.948544736     -65.6370397
9.025                0.948463811     -65.7332499
9.026                0.948382701     -65.8297144
9.027                0.948301406     -65.9264342
9.028                0.948219923     -66.0234101
9.029                0.948138252      -66.120643
9.03                 0.948056391     -66.2181337
9.031                0.947974339     -66.3158832
9.032                0.947892094     -66.4138922
9.033                0.947809656     -66.5121618
9.034                0.947727022     -66.6106927
9.035                0.947644191     -66.7094859
9.036                0.947561162     -66.8085422
9.037                0.947477933     -66.9078625
9.038                0.947394504     -67.0074478
9.039                0.947310873      -67.107299
9.04                 0.947227038     -67.2074169
9.041                0.947142997     -67.3078024
9.042                0.947058751     -67.4084565
9.043                0.946974296       -67.50938
9.044                0.946889633     -67.6105739
9.045                0.946804759     -67.7120392
9.046                0.946719672     -67.8137766
9.047                0.946634373     -67.9157872
9.048                0.946548858     -68.0180718
9.049                0.946463128     -68.1206315
9.05                  0.94637718     -68.2234671
9.051                0.946291012     -68.3265796
9.052                0.946204625     -68.4299698
9.053                0.946118015     -68.5336389
9.054                0.946031182     -68.6375876
9.055                0.945944125     -68.7418169
9.056                0.945856842     -68.8463279
9.057                0.945769331     -68.9511214
9.058                0.945681591     -69.0561985
9.059                0.945593621       -69.16156
9.06                 0.945505419     -69.2672069
9.061                0.945416984     -69.3731403
9.062                0.945328314      -69.479361
9.063                0.945239409     -69.5858701
9.064                0.945150266     -69.6926686
9.065                0.945060884     -69.7997573
9.066                0.944971262     -69.9071373
9.067                0.944881398     -70.0148096
9.068                0.944791291     -70.1227752
9.069                 0.94470094     -70.2310351
9.07                 0.944610342     -70.3395902
9.071                0.944519498     -70.4484416
9.072                0.944428404     -70.5575902
9.073                 0.94433706     -70.6670371
9.074                0.944245465     -70.7767833
9.075                0.944153616     -70.8868298
9.076                0.944061513     -70.9971777
9.077                0.943969153     -71.1078278
9.078                0.943876537     -71.2187813
9.079                0.943783661     -71.3300392
9.08                 0.943690526     -71.4416024
9.081                0.943597128     -71.5534722
9.082                0.943503467     -71.6656494
9.083                0.943409542     -71.7781351
9.084                0.943315351     -71.8909304
9.085                0.943220892     -72.0040362
9.086                0.943126164     -72.1174538
9.087                0.943031166      -72.231184
9.088                0.942935897      -72.345228
9.089                0.942840354     -72.4595868
9.09                 0.942744536     -72.5742615
9.091                0.942648442     -72.6892531
9.092                0.942552071     -72.8045628
9.093                0.942455421     -72.9201915
9.094                 0.94235849     -73.0361404
9.095                0.942261278     -73.1524105
9.096                0.942163782      -73.269003
9.097                0.942066002     -73.3859188
9.098                0.941967936     -73.5031592
9.099                0.941869582     -73.6207251
9.1                  0.941770939     -73.7386177
9.101                0.941672005     -73.8568381
9.102                 0.94157278     -73.9753873
9.103                0.941473262     -74.0942665
9.104                0.941373449     -74.2134768
9.105                0.941273339     -74.3330194
9.106                0.941172932     -74.4528952
9.107                0.941072227     -74.5731054
9.108                0.940971221     -74.6936512
9.109                0.940869913     -74.8145337
9.11                 0.940768301      -74.935754
9.111                0.940666385     -75.0573132
9.112                0.940564164     -75.1792124
9.113                0.940461634     -75.3014529
9.114                0.940358796     -75.4240357
9.115                0.940255647      -75.546962
9.116                0.940152187     -75.6702329
9.117                0.940048414     -75.7938496
9.118                0.939944326     -75.9178132
9.119                0.939839922     -76.0421249
9.12                 0.939735201     -76.1667859
9.121                0.939630161     -76.2917972
9.122                0.939524801     -76.4171601
9.123                0.939419119     -76.5428758
9.124                0.939313115     -76.6689454
9.125                0.939206786     -76.7953701
9.126                0.939100132      -76.922151
9.127                0.938993151     -77.0492894
9.128                0.938885841     -77.1767865
9.129                0.938778202     -77.3046433
9.13                 0.938670231     -77.4328612
9.131                0.938561928     -77.5614412
9.132                0.938453291     -77.6903847
9.133                0.938344319     -77.8196927
9.134                 0.93823501     -77.9493666
9.135                0.938125363     -78.0794075
9.136                0.938015377     -78.2098165
9.137                 0.93790505     -78.3405951
9.138                0.937794381     -78.4717442
9.139                0.937683369     -78.6032653
9.14                 0.937572013     -78.7351594
9.141                 0.93746031     -78.8674278
9.142                 0.93734826     -79.0000717
9.143                0.937235861     -79.1330925
9.144                0.937123113     -79.2664912
9.145                0.937010013     -79.4002691
9.146                0.936896561     -79.5344276
9.147                0.936782755     -79.6689677
9.148                0.936668594     -79.8038908
9.149                0.936554077     -79.9391981
9.15                 0.936439202     -80.0748909
9.151                0.936323967     -80.2109704
9.152                0.936208373     -80.3474378
9.153                0.936092418     -80.4842945
9.154                0.935976099     -80.6215416
9.155                0.935859417     -80.7591805
9.156                0.935742369     -80.8972124
9.157                0.935624955     -81.0356386
9.158                0.935507174     -81.1744604
9.159                0.935389023      -81.313679
9.16                 0.935270502     -81.4532957
9.161                0.935151611     -81.5933118
9.162                0.935032346     -81.7337286
9.163                0.934912708     -81.8745473
9.164                0.934792695     -82.0157693
9.165                0.934672306     -82.1573958
9.166                 0.93455154     -82.2994282
9.167                0.934430396     -82.4418677
9.168                0.934308872     -82.5847156
9.169                0.934186968     -82.7279732
9.17                 0.934064681     -82.8716419
9.171                0.933942012     -83.0157229
9.172                0.933818959     -83.1602175
9.173                0.933695521     -83.3051271
9.174                0.933571696     -83.4504529
9.175                0.933447485     -83.5961964
9.176                0.933322885     -83.7423587
9.177                0.933197896     -83.8889412
9.178                0.933072516     -84.0359453
9.179                0.932946745     -84.1833723
9.18                 0.932820581     -84.3312234
9.181                0.932694024        -84.4795
9.182                0.932567072     -84.6282035
9.183                0.932439725     -84.7773351
9.184                0.932311981     -84.9268962
9.185                0.932183839     -85.0768882
9.186                  0.9320553     -85.2273124
9.187                0.931926361     -85.3781701
9.188                0.931797021     -85.5294626
9.189                0.931667281     -85.6811913
9.19                 0.931537138     -85.8333576
9.191                0.931406592     -85.9859628
9.192                0.931275643     -86.1390082
9.193                0.931144288     -86.2924951
9.194                0.931012528     -86.4464251
9.195                0.930880361     -86.6007993
9.196                0.930747788     -86.7556191
9.197                0.930614806      -86.910886
9.198                0.930481415     -87.0666012
9.199                0.930347614     -87.2227661
9.2                  0.930213403     -87.3793821
9.201                0.930078781     -87.5364505
9.202                0.929943747     -87.6939727
9.203                  0.9298083     -87.8519501
9.204                 0.92967244      -88.010384
9.205                0.929536166     -88.1692758
9.206                0.929399477     -88.3286268
9.207                0.929262373     -88.4884385
9.208                0.929124853     -88.6487121
9.209                0.928986916     -88.8094491
9.21                 0.928848562     -88.9706508
9.211                 0.92870979     -89.1323186
9.212                  0.9285706     -89.2944539
9.213                0.928430991      -89.457058
9.214                0.928290963     -89.6201323
9.215                0.928150514     -89.7836782
9.216                0.928009646      -89.947697
9.217                0.927868356     -90.1121902
9.218                0.927726646     -90.2771591
9.219                0.927584513      -90.442605
9.22                 0.927441958     -90.6085294
9.221                0.927298981     -90.7749336
9.222                0.927155581      -90.941819
9.223                0.927011758      -91.109187
9.224                0.926867512     -91.2770389
9.225                0.926722841     -91.4453761
9.226                0.926577747        -91.6142
9.227                0.926432228      -91.783512
9.228                0.926286285     -91.9533134
9.229                0.926139917     -92.1236056
9.23                 0.925993124       -92.29439
9.231                0.925845905     -92.4656679
9.232                0.925698262     -92.6374408
9.233                0.925550194     -92.8097099
9.234                  0.9254017     -92.9824767
9.235                 0.92525278     -93.1557426
9.236                0.925103436     -93.3295088
9.237                0.924953665     -93.5037767
9.238                 0.92480347     -93.6785478
9.239                0.924652848     -93.8538234
9.24                 0.924501802     -94.0296048
9.241                0.924350331     -94.2058934
9.242                0.924198434     -94.3826906
9.243                0.924046113     -94.5599977
9.244                0.923893366     -94.7378161
9.245                0.923740196     -94.9161471
9.246                0.923586601     -95.0949921
9.247                0.923432582     -95.2743525
9.248                 0.92327814     -95.4542295
9.249                0.923123274     -95.6346245
9.25                 0.922967986     -95.8155389
9.251                0.922812275      -95.996974
9.252                0.922656142     -96.1789312
9.253                0.922499587     -96.3614117
9.254                0.922342611      -96.544417
9.255                0.922185215     -96.7279483
9.256                0.922027399     -96.9120069
9.257                0.921869163     -97.0965943
9.258                0.921710509     -97.2817117
9.259                0.921551437     -97.4673604
9.26                 0.921391947     -97.6535418
9.261                 0.92123204     -97.8402572
9.262                0.921071718     -98.0275078
9.263                0.920910981      -98.215295
9.264                0.920749829     -98.4036201
9.265                0.920588265     -98.5924843
9.266                0.920426287      -98.781889
9.267                0.920263899     -98.9718355
9.268                  0.9201011      -99.162325
9.269                0.919937891     -99.3533588
9.27                 0.919774275     -99.5449382
9.271                0.919610251     -99.7370645
9.272                0.919445821     -99.9297389
9.273                0.919280986     -100.122963
9.274                0.919115747     -100.316737
9.275                0.918950107     -100.511063
9.276                0.918784065     -100.705943
9.277                0.918617623     -100.901377
9.278                0.918450783     -101.097366
9.279                0.918283547     -101.293913
9.28                 0.918115915     -101.491017
9.281                0.917947889     -101.688681
9.282                0.917779471     -101.886905
9.283                0.917610662     -102.085691
9.284                0.917441465     -102.285039
9.285                 0.91727188     -102.484952
9.286                0.917101909      -102.68543
9.287                0.916931555     -102.886475
9.288                0.916760819     -103.088087
9.289                0.916589703     -103.290268
9.29                 0.916418209     -103.493019
9.291                0.916246339     -103.696341
9.292                0.916074095     -103.900235
9.293                0.915901479     -104.104703
9.294                0.915728494     -104.309745
9.295                 0.91555514     -104.515363
9.296                0.915381421     -104.721557
9.297                 0.91520734      -104.92833
9.298                0.915032897     -105.135681
9.299                0.914858096     -105.343612
9.3                  0.914682939     -105.552124
9.301                0.914507428     -105.761219
9.302                0.914331567     -105.970897
9.303                0.914155357     -106.181158
9.304                0.913978802     -106.392006
9.305                0.913801904     -106.603439
9.306                0.913624665      -106.81546
9.307                0.913447089     -107.028069
9.308                0.913269179     -107.241268
9.309                0.913090936     -107.455057
9.31                 0.912912366     -107.669437
9.311                0.912733469      -107.88441
9.312                 0.91255425     -108.099975
9.313                0.912374711     -108.316135
9.314                0.912194857      -108.53289
9.315                0.912014689     -108.750241
9.316                0.911834212     -108.968189
9.317                0.911653429     -109.186735
9.318                0.911472342      -109.40588
9.319                0.911290957     -109.625624
9.32                 0.911109275     -109.845969
9.321                0.910927302     -110.066915
9.322                 0.91074504     -110.288463
9.323                0.910562493     -110.510614
9.324                0.910379665     -110.733369
9.325                 0.91019656     -110.956728
9.326                0.910013182     -111.180693
9.327                0.909829535     -111.405264
9.328                0.909645623     -111.630442
9.329                 0.90946145     -111.856227
9.33                  0.90927702     -112.082621
9.331                0.909092337     -112.309624
9.332                0.908907406     -112.537237
9.333                0.908722231      -112.76546
9.334                0.908536816     -112.994294
9.335                0.908351167      -113.22374
9.336                0.908165287     -113.453798
9.337                0.907979181     -113.684469
9.338                0.907792854     -113.915754
9.339                 0.90760631     -114.147653
9.34                 0.907419555     -114.380167
9.341                0.907232594     -114.613296
9.342                 0.90704543     -114.847041
9.343                0.906858071     -115.081402
9.344                0.906670519     -115.316381
9.345                0.906482781     -115.551976
9.346                0.906294862     -115.788189
9.347                0.906106767     -116.025021
9.348                0.905918501     -116.262471
9.349                 0.90573007     -116.500541
9.35                  0.90554148      -116.73923
9.351                0.905352736     -116.978538
9.352                0.905163843     -117.218467
9.353                0.904974808     -117.459017
9.354                0.904785636     -117.700187
9.355                0.904596333     -117.941978
9.356                0.904406905     -118.184391
9.357                0.904217358     -118.427426
9.358                0.904027697     -118.671082
9.359                 0.90383793     -118.915361
9.36                 0.903648063     -119.160262
9.361                  0.9034581     -119.405785
9.362                 0.90326805     -119.651931
9.363                0.903077919       -119.8987
9.364                0.902887712     -120.146091
9.365                0.902697436     -120.394106
9.366                0.902507099     -120.642743
9.367                0.902316707     -120.892003
9.368                0.902126266     -121.141887
9.369                0.901935783     -121.392393
9.37                 0.901745266     -121.643523
9.371                0.901554721     -121.895275
9.372                0.901364156      -122.14765
9.373                0.901173577     -122.400648
9.374                0.900982992     -122.654268
9.375                0.900792408     -122.908511
9.376                0.900601832     -123.163376
9.377                0.900411272     -123.418863
9.378                0.900220736     -123.674972
9.379                 0.90003023     -123.931703
9.38                 0.899839763     -124.189055
9.381                0.899649342     -124.447028
9.382                0.899458975     -124.705621
9.383                 0.89926867     -124.964835
9.384                0.899078434     -125.224668
9.385                0.898888276     -125.485121
9.386                0.898698205     -125.746193
9.387                0.898508226     -126.007884
9.388                0.898318351     -126.270192
9.389                0.898128585     -126.533119
9.39                 0.897938938     -126.796662
9.391                0.897749418     -127.060821
9.392                0.897560034     -127.325596
9.393                0.897370794     -127.590987
9.394                0.897181706     -127.856991
9.395                 0.89699278      -128.12361
9.396                0.896804024     -128.390842
