! TOUCHSTONE file generated by CST DESIGN STUDIO
! Date and time: Wed Feb  5 13:21:57 2025
! Project name: C:\Work\MatlabApps\UnitCellOptimizationMatlab\CST\unitcell.cst
! Tree item: Tasks\Sweep1\SPara1\S-Parameters
! Header version: 2024
! Port assignment regex: !\s*Touchstone port\s*([0-9]+)\s*=\s*(CST MWS port|CST DES external port|CST DES block port)\s*(.+)\s* \(\"(.*)\"\)(\s*mode\s*([0-9]+))?.*
! Touchstone port assignment:
! Touchstone port 1 = CST DES external port 1 ("")
# GHz S MA R 50
9                    0.959593573     -55.7560394
9.001                0.959552406     -55.8313135
9.002                0.959511052     -55.9067687
9.003                0.959469511     -55.9824056
9.004                0.959427782     -56.0582247
9.005                0.959385864     -56.1342266
9.006                0.959343757      -56.210412
9.007                0.959301459     -56.2867814
9.008                 0.95925897     -56.3633354
9.009                0.959216288     -56.4400746
9.01                 0.959173413     -56.5169996
9.011                0.959130343     -56.5941111
9.012                0.959087079     -56.6714096
9.013                0.959043618     -56.7488957
9.014                0.958999959     -56.8265701
9.015                0.958956103     -56.9044333
9.016                0.958912048      -56.982486
9.017                0.958867792     -57.0607288
9.018                0.958823336     -57.1391623
9.019                0.958778677     -57.2177871
9.02                 0.958733816     -57.2966039
9.021                0.958688751     -57.3756133
9.022                 0.95864348     -57.4548158
9.023                0.958598004     -57.5342123
9.024                0.958552322     -57.6138032
9.025                0.958506431     -57.6935892
9.026                0.958460331      -57.773571
9.027                0.958414022     -57.8537491
9.028                0.958367502     -57.9341243
9.029                 0.95832077     -58.0146972
9.03                 0.958273825     -58.0954684
9.031                0.958226667     -58.1764386
9.032                0.958179293     -58.2576084
9.033                0.958131704     -58.3389785
9.034                0.958083898     -58.4205496
9.035                0.958035874     -58.5023222
9.036                0.957987631     -58.5842972
9.037                0.957939167      -58.666475
9.038                0.957890483     -58.7488565
9.039                0.957841577     -58.8314422
9.04                 0.957792448     -58.9142329
9.041                0.957743095     -58.9972291
9.042                0.957693516     -59.0804317
9.043                0.957643712     -59.1638413
9.044                 0.95759368     -59.2474585
9.045                0.957543419      -59.331284
9.046                 0.95749293     -59.4153186
9.047                0.957442209     -59.4995629
9.048                0.957391257     -59.5840176
9.049                0.957340073     -59.6686834
9.05                 0.957288655     -59.7535611
9.051                0.957237002     -59.8386512
9.052                0.957185113     -59.9239545
9.053                0.957132987     -60.0094718
9.054                0.957080623     -60.0952036
9.055                0.957028019     -60.1811508
9.056                0.956975176     -60.2673141
9.057                0.956922091     -60.3536941
9.058                0.956868764     -60.4402916
9.059                0.956815193     -60.5271073
9.06                 0.956761377     -60.6141419
9.061                0.956707315     -60.7013961
9.062                0.956653007     -60.7888708
9.063                 0.95659845     -60.8765665
9.064                0.956543644     -60.9644841
9.065                0.956488588     -61.0526243
9.066                 0.95643328     -61.1409878
9.067                0.956377719     -61.2295754
9.068                0.956321905     -61.3183878
9.069                0.956265836     -61.4074257
9.07                  0.95620951       -61.49669
9.071                0.956152927     -61.5861813
9.072                0.956096086     -61.6759005
9.073                0.956038985     -61.7658482
9.074                0.955981624     -61.8560253
9.075                   0.955924     -61.9464325
9.076                0.955866113     -62.0370705
9.077                0.955807962     -62.1279402
9.078                0.955749545     -62.2190423
9.079                0.955690862     -62.3103777
9.08                 0.955631911     -62.4019469
9.081                0.955572691      -62.493751
9.082                  0.9555132     -62.5857906
9.083                0.955453438     -62.6780665
9.084                0.955393403     -62.7705795
9.085                0.955333094     -62.8633304
9.086                 0.95527251       -62.95632
9.087                 0.95521165     -63.0495492
9.088                0.955150512     -63.1430186
9.089                0.955089096     -63.2367292
9.09                 0.955027399     -63.3306816
9.091                0.954965421     -63.4248768
9.092                0.954903161     -63.5193156
9.093                0.954840617     -63.6139986
9.094                0.954777787     -63.7089269
9.095                0.954714672     -63.8041012
9.096                0.954651269     -63.8995223
9.097                0.954587577      -63.995191
9.098                0.954523596     -64.0911082
9.099                0.954459323     -64.1872747
9.1                  0.954394757     -64.2836914
9.101                0.954329898     -64.3803591
9.102                0.954264743     -64.4772786
9.103                0.954199293     -64.5744508
9.104                0.954133544     -64.6718765
9.105                0.954067497     -64.7695566
9.106                0.954001149     -64.8674919
9.107                  0.9539345     -64.9656833
9.108                0.953867548     -65.0641317
9.109                0.953800292     -65.1628379
9.11                 0.953732731     -65.2618028
9.111                0.953664863     -65.3610272
9.112                0.953596687      -65.460512
9.113                0.953528201     -65.5602582
9.114                0.953459405     -65.6602665
9.115                0.953390297     -65.7605379
9.116                0.953320876     -65.8610733
9.117                 0.95325114     -65.9618735
9.118                0.953181088     -66.0629394
9.119                0.953110719      -66.164272
9.12                 0.953040031      -66.265872
9.121                0.952969024     -66.3677405
9.122                0.952897695     -66.4698783
9.123                0.952826043     -66.5722864
9.124                0.952754068     -66.6749656
9.125                0.952681767     -66.7779168
9.126                 0.95260914     -66.8811411
9.127                0.952536184     -66.9846392
9.128                0.952462899     -67.0884121
9.129                0.952389284     -67.1924608
9.13                 0.952315336     -67.2967862
9.131                0.952241055     -67.4013891
9.132                0.952166439     -67.5062706
9.133                0.952091487     -67.6114316
9.134                0.952016197      -67.716873
9.135                0.951940568     -67.8225957
9.136                0.951864599     -67.9286008
9.137                0.951788288     -68.0348891
9.138                0.951711634     -68.1414617
9.139                0.951634635     -68.2483194
9.14                  0.95155729     -68.3554633
9.141                0.951479599     -68.4628943
9.142                0.951401558     -68.5706134
9.143                0.951323167     -68.6786215
9.144                0.951244425     -68.7869196
9.145                 0.95116533     -68.8955087
9.146                0.951085881     -69.0043897
9.147                0.951006076     -69.1135638
9.148                0.950925913     -69.2230318
9.149                0.950845393     -69.3327947
9.15                 0.950764512     -69.4428535
9.151                 0.95068327     -69.5532093
9.152                0.950601665      -69.663863
9.153                0.950519695     -69.7748156
9.154                 0.95043736     -69.8860682
9.155                0.950354658     -69.9976217
9.156                0.950271588     -70.1094772
9.157                0.950188147     -70.2216356
9.158                0.950104335     -70.3340981
9.159                0.950020151     -70.4468655
9.16                 0.949935592      -70.559939
9.161                0.949850657     -70.6733196
9.162                0.949765345     -70.7870083
9.163                0.949679655     -70.9010061
9.164                0.949593584     -71.0153141
9.165                0.949507132     -71.1299334
9.166                0.949420298     -71.2448649
9.167                0.949333078     -71.3601097
9.168                0.949245473     -71.4756689
9.169                0.949157481     -71.5915436
9.17                   0.9490691     -71.7077347
9.171                0.948980329     -71.8242434
9.172                0.948891166     -71.9410707
9.173                0.948801611     -72.0582176
9.174                 0.94871166     -72.1756854
9.175                0.948621314      -72.293475
9.176                 0.94853057     -72.4115875
9.177                0.948439427      -72.530024
9.178                0.948347884     -72.6487855
9.179                 0.94825594     -72.7678733
9.18                 0.948163592     -72.8872883
9.181                0.948070839     -73.0070316
9.182                 0.94797768     -73.1271045
9.183                0.947884113     -73.2475078
9.184                0.947790137     -73.3682429
9.185                0.947695751     -73.4893107
9.186                0.947600952     -73.6107124
9.187                0.947505741     -73.7324491
9.188                0.947410114     -73.8545219
9.189                 0.94731407      -73.976932
9.19                 0.947217609     -74.0996804
9.191                0.947120729     -74.2227684
9.192                0.947023428     -74.3461969
9.193                0.946925704     -74.4699672
9.194                0.946827557     -74.5940804
9.195                0.946728985     -74.7185377
9.196                0.946629985     -74.8433401
9.197                0.946530558     -74.9684888
9.198                0.946430702     -75.0939851
9.199                0.946330414     -75.2198299
9.2                  0.946229694     -75.3460246
9.201                 0.94612854     -75.4725702
9.202                0.946026951      -75.599468
9.203                0.945924925      -75.726719
9.204                0.945822461     -75.8543244
9.205                0.945719557     -75.9822855
9.206                0.945616212     -76.1106034
9.207                0.945512424     -76.2392793
9.208                0.945408193     -76.3683143
9.209                0.945303516     -76.4977097
9.21                 0.945198392     -76.6274666
9.211                 0.94509282     -76.7575863
9.212                0.944986798     -76.8880698
9.213                0.944880325     -77.0189185
9.214                0.944773399     -77.1501336
9.215                 0.94466602     -77.2817161
9.216                0.944558185     -77.4136674
9.217                0.944449893     -77.5459886
9.218                0.944341143      -77.678681
9.219                0.944231934     -77.8117457
9.22                 0.944122263     -77.9451841
9.221                 0.94401213     -78.0789972
9.222                0.943901533     -78.2131864
9.223                0.943790471     -78.3477529
9.224                0.943678942     -78.4826979
9.225                0.943566946     -78.6180226
9.226                 0.94345448     -78.7537282
9.227                0.943341543     -78.8898161
9.228                0.943228134     -79.0262874
9.229                0.943114252     -79.1631435
9.23                 0.942999895     -79.3003854
9.231                0.942885062     -79.4380146
9.232                0.942769751     -79.5760322
9.233                0.942653961     -79.7144395
9.234                0.942537691     -79.8532378
9.235                 0.94242094     -79.9924283
9.236                0.942303706     -80.1320123
9.237                0.942185988     -80.2719911
9.238                0.942067784     -80.4123659
9.239                0.941949093      -80.553138
9.24                 0.941829914     -80.6943087
9.241                0.941710246     -80.8358792
9.242                0.941590088     -80.9778509
9.243                0.941469437      -81.120225
9.244                0.941348293     -81.2630028
9.245                0.941226655     -81.4061856
9.246                0.941104521     -81.5497747
9.247                 0.94098189     -81.6937713
9.248                0.940858761     -81.8381769
9.249                0.940735132     -81.9829926
9.25                 0.940611003     -82.1282197
9.251                0.940486372     -82.2738597
9.252                0.940361238     -82.4199137
9.253                0.940235599     -82.5663831
9.254                0.940109455     -82.7132692
9.255                0.939982805     -82.8605734
9.256                0.939855646     -83.0082968
9.257                0.939727979     -83.1564409
9.258                0.939599802     -83.3050069
9.259                0.939471114     -83.4539962
9.26                 0.939341913     -83.6034101
9.261                0.939212199       -83.75325
9.262                 0.93908197      -83.903517
9.263                0.938951225     -84.0542127
9.264                0.938819964     -84.2053383
9.265                0.938688186     -84.3568951
9.266                0.938555888     -84.5088845
9.267                 0.93842307     -84.6613078
9.268                0.938289732     -84.8141663
9.269                0.938155872     -84.9674614
9.27                 0.938021488     -85.1211945
9.271                0.937886581     -85.2753668
9.272                0.937751149     -85.4299797
9.273                0.937615192     -85.5850346
9.274                0.937478707     -85.7405328
9.275                0.937341695     -85.8964757
9.276                0.937204154     -86.0528646
9.277                0.937066084     -86.2097008
9.278                0.936927483     -86.3669857
9.279                0.936788351     -86.5247207
9.28                 0.936648686     -86.6829071
9.281                0.936508489     -86.8415463
9.282                0.936367758     -87.0006397
9.283                0.936226493     -87.1601885
9.284                0.936084692     -87.3201942
9.285                0.935942355      -87.480658
9.286                0.935799481     -87.6415815
9.287                0.935656069     -87.8029659
9.288                0.935512119     -87.9648126
9.289                 0.93536763      -88.127123
9.29                 0.935222601     -88.2898983
9.291                0.935077032     -88.4531401
9.292                0.934930921     -88.6168497
9.293                0.934784269     -88.7810283
9.294                0.934637075     -88.9456775
9.295                0.934489338     -89.1107985
9.296                0.934341057     -89.2763928
9.297                0.934192233     -89.4424616
9.298                0.934042864     -89.6090065
9.299                 0.93389295     -89.7760286
9.3                   0.93374249     -89.9435295
9.301                0.933591485     -90.1115104
9.302                0.933439933     -90.2799727
9.303                0.933287835     -90.4489179
9.304                0.933135189     -90.6183473
9.305                0.932981996     -90.7882622
9.306                0.932828255      -90.958664
9.307                0.932673966      -91.129554
9.308                0.932519129     -91.3009338
9.309                0.932363743     -91.4728045
9.31                 0.932207808     -91.6451676
9.311                0.932051324     -91.8180244
9.312                 0.93189429     -91.9913764
9.313                0.931736707     -92.1652248
9.314                0.931578575     -92.3395711
9.315                0.931419893     -92.5144165
9.316                0.931260661     -92.6897625
9.317                0.931100879     -92.8656104
9.318                0.930940547     -93.0419616
9.319                0.930779666     -93.2188174
9.32                 0.930618234     -93.3961791
9.321                0.930456253     -93.5740482
9.322                0.930293723      -93.752426
9.323                0.930130643     -93.9313138
9.324                0.929967013      -94.110713
9.325                0.929802835      -94.290625
9.326                0.929638107     -94.4710509
9.327                0.929472831     -94.6519924
9.328                0.929307007     -94.8334505
9.329                0.929140634     -95.0154268
9.33                 0.928973714     -95.1979224
9.331                0.928806247     -95.3809389
9.332                0.928638233     -95.5644774
9.333                0.928469672     -95.7485393
9.334                0.928300565      -95.933126
9.335                0.928130913     -96.1182388
9.336                0.927960717     -96.3038789
9.337                0.927789976     -96.4900477
9.338                0.927618691     -96.6767465
9.339                0.927446864     -96.8639767
9.34                 0.927274494     -97.0517394
9.341                0.927101584     -97.2400361
9.342                0.926928132      -97.428868
9.343                0.926754141     -97.6182364
9.344                0.926579611     -97.8081427
9.345                0.926404542      -97.998588
9.346                0.926228937     -98.1895737
9.347                0.926052796     -98.3811011
9.348                 0.92587612     -98.5731714
9.349                0.925698909     -98.7657859
9.35                 0.925521166     -98.9589458
9.351                0.925342892     -99.1526525
9.352                0.925164087     -99.3469072
9.353                0.924984753     -99.5417111
9.354                 0.92480489     -99.7370654
9.355                0.924624502     -99.9329715
9.356                0.924443588     -100.129431
9.357                 0.92426215     -100.326444
9.358                0.924080191     -100.524012
9.359                 0.92389771     -100.722138
9.36                  0.92371471     -100.920821
9.361                0.923531193     -101.120063
9.362                 0.92334716     -101.319865
9.363                0.923162613     -101.520229
9.364                0.922977554     -101.721155
9.365                0.922791983     -101.922645
9.366                0.922605905       -102.1247
9.367                0.922419319     -102.327322
9.368                0.922232229      -102.53051
9.369                0.922044636     -102.734267
9.37                 0.921856542     -102.938594
9.371                 0.92166795     -103.143491
9.372                0.921478861      -103.34896
9.373                0.921289278     -103.555002
9.374                0.921099203     -103.761618
9.375                0.920908639      -103.96881
9.376                0.920717587     -104.176577
9.377                0.920526051     -104.384922
9.378                0.920334033     -104.593846
9.379                0.920141535     -104.803349
9.38                  0.91994856     -105.013432
9.381                0.919755111     -105.224097
9.382                0.919561191     -105.435345
9.383                0.919366801     -105.647177
9.384                0.919171946     -105.859593
9.385                0.918976627     -106.072595
9.386                0.918780849     -106.286184
9.387                0.918584614      -106.50036
9.388                0.918387925     -106.715126
9.389                0.918190785     -106.930481
9.39                 0.917993198     -107.146426
9.391                0.917795166     -107.362963
9.392                0.917596694     -107.580093
9.393                0.917397784     -107.797816
9.394                0.917198441     -108.016134
9.395                0.916998667     -108.235047
9.396                0.916798466     -108.454556
