! TOUCHSTONE file generated by CST DESIGN STUDIO
! Date and time: Wed Feb  5 13:30:11 2025
! Project name: C:\Work\MatlabApps\UnitCellOptimizationMatlab\CST\unitcell.cst
! Tree item: Tasks\Sweep1\SPara1\S-Parameters
! Header version: 2024
! Port assignment regex: !\s*Touchstone port\s*([0-9]+)\s*=\s*(CST MWS port|CST DES external port|CST DES block port)\s*(.+)\s* \(\"(.*)\"\)(\s*mode\s*([0-9]+))?.*
! Touchstone port assignment:
! Touchstone port 1 = CST DES external port 1 ("")
# GHz S MA R 50
9                    0.971871638     -69.4352492
9.001                0.971804542      -69.537918
9.002                0.971737247     -69.6408401
9.003                0.971669755     -69.7440163
9.004                0.971602063     -69.8474473
9.005                0.971534173     -69.9511341
9.006                0.971466082     -70.0550773
9.007                0.971397791     -70.1592778
9.008                0.971329298     -70.2637365
9.009                0.971260604     -70.3684541
9.01                 0.971191708     -70.4734314
9.011                0.971122608     -70.5786693
9.012                0.971053306     -70.6841686
9.013                0.970983799     -70.7899302
9.014                0.970914087     -70.8959548
9.015                0.970844171     -71.0022432
9.016                0.970774048     -71.1087964
9.017                0.970703719     -71.2156151
9.018                0.970633184     -71.3227003
9.019                 0.97056244     -71.4300526
9.02                 0.970491489     -71.5376731
9.021                0.970420329     -71.6455624
9.022                0.970348959     -71.7537215
9.023                 0.97027738     -71.8621513
9.024                0.970205591     -71.9708525
9.025                 0.97013359     -72.0798261
9.026                0.970061378     -72.1890728
9.027                0.969988953     -72.2985936
9.028                0.969916316     -72.4083893
9.029                0.969843466     -72.5184607
9.03                 0.969770401     -72.6288088
9.031                0.969697122     -72.7394345
9.032                0.969623629     -72.8503385
9.033                0.969549919     -72.9615217
9.034                0.969475993     -73.0729852
9.035                0.969401851     -73.1847296
9.036                0.969327491      -73.296756
9.037                0.969252914     -73.4090651
9.038                0.969178118     -73.5216579
9.039                0.969103103     -73.6345353
9.04                 0.969027868     -73.7476981
9.041                0.968952413     -73.8611473
9.042                0.968876738     -73.9748838
9.043                0.968800841     -74.0889084
9.044                0.968724722     -74.2032221
9.045                0.968648381     -74.3178257
9.046                0.968571817     -74.4327202
9.047                0.968495029     -74.5479065
9.048                0.968418018     -74.6633854
9.049                0.968340781      -74.779158
9.05                  0.96826332     -74.8952251
9.051                0.968185633     -75.0115876
9.052                0.968107719     -75.1282465
9.053                0.968029579     -75.2452027
9.054                0.967951211     -75.3624572
9.055                0.967872615     -75.4800107
9.056                0.967793791     -75.5978644
9.057                0.967714738      -75.716019
9.058                0.967635456     -75.8344756
9.059                0.967555943     -75.9532351
9.06                 0.967476199     -76.0722984
9.061                0.967396225     -76.1916665
9.062                0.967316019     -76.3113404
9.063                 0.96723558     -76.4313208
9.064                0.967154909     -76.5516089
9.065                0.967074005     -76.6722056
9.066                0.966992866     -76.7931118
9.067                0.966911494     -76.9143285
9.068                0.966829887     -77.0358566
9.069                0.966748044     -77.1576971
9.07                 0.966665965     -77.2798511
9.071                0.966583651     -77.4023193
9.072                0.966501099     -77.5251029
9.073                 0.96641831     -77.6482027
9.074                0.966335283     -77.7716198
9.075                0.966252017     -77.8953551
9.076                0.966168513     -78.0194096
9.077                 0.96608477     -78.1437843
9.078                0.966000786     -78.2684802
9.079                0.965916563     -78.3934983
9.08                 0.965832098     -78.5188395
9.081                0.965747392     -78.6445048
9.082                0.965662445     -78.7704952
9.083                0.965577255     -78.8968118
9.084                0.965491823     -79.0234555
9.085                0.965406147     -79.1504273
9.086                0.965320228     -79.2777282
9.087                0.965234064     -79.4053593
9.088                0.965147657     -79.5333214
9.089                0.965061004     -79.6616157
9.09                 0.964974106     -79.7902432
9.091                0.964886961     -79.9192047
9.092                0.964799571     -80.0485015
9.093                0.964711934     -80.1781344
9.094                0.964624049     -80.3081045
9.095                0.964535917     -80.4384128
9.096                0.964447538     -80.5690604
9.097                0.964358909     -80.7000482
9.098                0.964270032     -80.8313773
9.099                0.964180906     -80.9630488
9.1                  0.964091529     -81.0950635
9.101                0.964001903     -81.2274226
9.102                0.963912027     -81.3601272
9.103                0.963821899     -81.4931781
9.104                0.963731521     -81.6265766
9.105                0.963640891     -81.7603236
9.106                0.963550009     -81.8944201
9.107                0.963458874     -82.0288672
9.108                0.963367487      -82.163666
9.109                0.963275847     -82.2988174
9.11                 0.963183954     -82.4343226
9.111                0.963091807     -82.5701825
9.112                0.962999406     -82.7063983
9.113                 0.96290675      -82.842971
9.114                 0.96281384     -82.9799017
9.115                0.962720675     -83.1171913
9.116                0.962627254      -83.254841
9.117                0.962533578     -83.3928518
9.118                0.962439646     -83.5312248
9.119                0.962345458      -83.669961
9.12                 0.962251013     -83.8090615
9.121                0.962156311     -83.9485274
9.122                0.962061353     -84.0883597
9.123                0.961966137     -84.2285596
9.124                0.961870663      -84.369128
9.125                0.961774932     -84.5100661
9.126                0.961678942     -84.6513748
9.127                0.961582695     -84.7930554
9.128                0.961486189     -84.9351089
9.129                0.961389424     -85.0775363
9.13                   0.9612924     -85.2203387
9.131                0.961195117     -85.3635172
9.132                0.961097574     -85.5070729
9.133                0.960999772     -85.6510069
9.134                0.960901711     -85.7953202
9.135                0.960803389     -85.9400139
9.136                0.960704808     -86.0850892
9.137                0.960605966     -86.2305471
9.138                0.960506864     -86.3763887
9.139                0.960407501      -86.522615
9.14                 0.960307878     -86.6692272
9.141                0.960207994     -86.8162264
9.142                0.960107849     -86.9636137
9.143                0.960007444       -87.11139
9.144                0.959906777     -87.2595567
9.145                0.959805849     -87.4081146
9.146                 0.95970466      -87.557065
9.147                 0.95960321     -87.7064089
9.148                0.959501499     -87.8561474
9.149                0.959399526     -88.0062816
9.15                 0.959297292     -88.1568126
9.151                0.959194796     -88.3077415
9.152                0.959092039     -88.4590695
9.153                0.958989021     -88.6107975
9.154                0.958885742     -88.7629268
9.155                0.958782201     -88.9154583
9.156                0.958678399     -89.0683932
9.157                0.958574336     -89.2217327
9.158                0.958470011     -89.3754777
9.159                0.958365426     -89.5296295
9.16                 0.958260579     -89.6841891
9.161                0.958155472     -89.8391575
9.162                0.958050103      -89.994536
9.163                0.957944474     -90.1503256
9.164                0.957838585     -90.3065273
9.165                0.957732435     -90.4631424
9.166                0.957626025     -90.6201719
9.167                0.957519354      -90.777617
9.168                0.957412424     -90.9354786
9.169                0.957305234     -91.0937579
9.17                 0.957197785     -91.2524561
9.171                0.957090076     -91.4115742
9.172                0.956982109     -91.5711133
9.173                0.956873882     -91.7310744
9.174                0.956765398     -91.8914589
9.175                0.956656654     -92.0522676
9.176                0.956547653     -92.2135017
9.177                0.956438395     -92.3751623
9.178                0.956328879     -92.5372505
9.179                0.956219106     -92.6997674
9.18                 0.956109076     -92.8627142
9.181                0.955998791     -93.0260917
9.182                0.955888249     -93.1899013
9.183                0.955777452     -93.3541439
9.184                  0.9556664     -93.5188207
9.185                0.955555093     -93.6839327
9.186                0.955443533     -93.8494811
9.187                0.955331718     -94.0154669
9.188                 0.95521965     -94.1818912
9.189                 0.95510733      -94.348755
9.19                 0.954994757     -94.5160596
9.191                0.954881933     -94.6838059
9.192                0.954768858      -94.851995
9.193                0.954655532     -95.0206281
9.194                0.954541956     -95.1897061
9.195                0.954428131     -95.3592302
9.196                0.954314057     -95.5292015
9.197                0.954199735     -95.6996209
9.198                0.954085165     -95.8704896
9.199                0.953970349     -96.0418087
9.2                  0.953855286     -96.2135791
9.201                0.953739979     -96.3858021
9.202                0.953624426     -96.5584785
9.203                 0.95350863     -96.7316096
9.204                0.953392591     -96.9051962
9.205                0.953276309     -97.0792396
9.206                0.953159786     -97.2537407
9.207                0.953043022     -97.4287007
9.208                0.952926018     -97.6041204
9.209                0.952808775      -97.780001
9.21                 0.952691294     -97.9563436
9.211                0.952573576      -98.133149
9.212                0.952455622     -98.3104185
9.213                0.952337433      -98.488153
9.214                0.952219009     -98.6663535
9.215                0.952100352     -98.8450211
9.216                0.951981462     -99.0241568
9.217                0.951862342     -99.2037615
9.218                0.951742991     -99.3838364
9.219                0.951623411     -99.5643824
9.22                 0.951503603     -99.7454005
9.221                0.951383568     -99.9268918
9.222                0.951263308     -100.108857
9.223                0.951142822     -100.291298
9.224                0.951022114     -100.474214
9.225                0.950901184     -100.657608
9.226                0.950780032      -100.84148
9.227                0.950658661      -101.02583
9.228                0.950537072     -101.210661
9.229                0.950415266     -101.395973
9.23                 0.950293244     -101.581767
9.231                0.950171008     -101.768043
9.232                0.950048559     -101.954804
9.233                0.949925899     -102.142049
9.234                0.949803028      -102.32978
9.235                 0.94967995     -102.517998
9.236                0.949556664     -102.706703
9.237                0.949433172     -102.895897
9.238                0.949309477      -103.08558
9.239                0.949185579     -103.275754
9.24                 0.949061481     -103.466419
9.241                0.948937183     -103.657576
9.242                0.948812688     -103.849226
9.243                0.948687997      -104.04137
9.244                0.948563112     -104.234009
9.245                0.948438035     -104.427144
9.246                0.948312767     -104.620776
9.247                0.948187311     -104.814905
9.248                0.948061667     -105.009532
9.249                0.947935839     -105.204658
9.25                 0.947809827     -105.400284
9.251                0.947683634     -105.596412
9.252                0.947557261     -105.793041
9.253                0.947430711     -105.990172
9.254                0.947303986     -106.187807
9.255                0.947177087     -106.385946
9.256                0.947050017      -106.58459
9.257                0.946922778      -106.78374
9.258                0.946795372     -106.983396
9.259                0.946667801     -107.183559
9.26                 0.946540067     -107.384231
9.261                0.946412172     -107.585411
9.262                 0.94628412     -107.787101
9.263                0.946155911     -107.989301
9.264                0.946027548     -108.192013
9.265                0.945899034     -108.395236
9.266                0.945770371     -108.598972
9.267                0.945641562     -108.803221
9.268                0.945512608     -109.007983
9.269                0.945383512     -109.213261
9.27                 0.945254278     -109.419054
9.271                0.945124906     -109.625362
9.272                0.944995401     -109.832188
9.273                0.944865764      -110.03953
9.274                0.944735997     -110.247391
9.275                0.944606105      -110.45577
9.276                0.944476089     -110.664668
9.277                0.944345953     -110.874086
9.278                0.944215698     -111.084024
9.279                0.944085328     -111.294484
9.28                 0.943954846     -111.505465
9.281                0.943824254     -111.716968
9.282                0.943693555     -111.928993
9.283                0.943562753     -112.141542
9.284                 0.94343185     -112.354615
9.285                0.943300849     -112.568212
9.286                0.943169753     -112.782334
9.287                0.943038566     -112.996981
9.288                 0.94290729     -113.212154
9.289                0.942775929     -113.427853
9.29                 0.942644485     -113.644078
9.291                0.942512963     -113.860831
9.292                0.942381365     -114.078112
9.293                0.942249694      -114.29592
9.294                0.942117955     -114.514258
9.295                0.941986149     -114.733123
9.296                0.941854281     -114.952518
9.297                0.941722354     -115.172443
9.298                0.941590372     -115.392898
9.299                0.941458338     -115.613883
9.3                  0.941326255     -115.835398
9.301                0.941194127     -116.057445
9.302                0.941061958     -116.280023
9.303                0.940929752     -116.503132
9.304                0.940797512     -116.726773
9.305                0.940665241     -116.950946
9.306                0.940532944     -117.175652
9.307                0.940400624      -117.40089
9.308                0.940268286     -117.626661
9.309                0.940135932     -117.852965
9.31                 0.940003568     -118.079801
9.311                0.939871196     -118.307172
9.312                0.939738822     -118.535076
9.313                0.939606448     -118.763513
9.314                0.939474079     -118.992484
9.315                 0.93934172     -119.221989
9.316                0.939209373     -119.452028
9.317                0.939077044     -119.682601
9.318                0.938944736     -119.913708
9.319                0.938812455     -120.145349
9.32                 0.938680203     -120.377524
9.321                0.938547986     -120.610233
9.322                0.938415807     -120.843476
9.323                0.938283672     -121.077254
9.324                0.938151584     -121.311565
9.325                0.938019548     -121.546411
9.326                0.937887569      -121.78179
9.327                0.937755651     -122.017703
9.328                0.937623798      -122.25415
9.329                0.937492016      -122.49113
9.33                 0.937360308     -122.728643
9.331                 0.93722868      -122.96669
9.332                0.937097137      -123.20527
9.333                0.936965682     -123.444382
9.334                0.936834321     -123.684028
9.335                0.936703059     -123.924205
9.336                0.936571901     -124.164914
9.337                0.936440851     -124.406155
9.338                0.936309914     -124.647928
9.339                0.936179095     -124.890231
9.34                   0.9360484     -125.133066
9.341                0.935917833      -125.37643
9.342                  0.9357874     -125.620325
9.343                0.935657105     -125.864749
9.344                0.935526954     -126.109702
9.345                0.935396952     -126.355184
9.346                0.935267103     -126.601194
9.347                0.935137414     -126.847732
9.348                 0.93500789     -127.094797
9.349                0.934878535     -127.342389
9.35                 0.934749356     -127.590506
9.351                0.934620358     -127.839149
9.352                0.934491545     -128.088317
9.353                0.934362924     -128.338009
9.354                  0.9342345     -128.588225
9.355                0.934106278     -128.838964
9.356                0.933978264     -129.090225
9.357                0.933850464     -129.342007
9.358                0.933722883      -129.59431
9.359                0.933595527     -129.847133
9.36                 0.933468401     -130.100475
9.361                0.933341511     -130.354336
9.362                0.933214863     -130.608714
9.363                0.933088463     -130.863609
9.364                0.932962316      -131.11902
9.365                0.932836428     -131.374945
9.366                0.932710806     -131.631385
9.367                0.932585454     -131.888338
9.368                0.932460379     -132.145802
9.369                0.932335586     -132.403778
9.37                 0.932211082     -132.662263
9.371                0.932086873     -132.921258
9.372                0.931962965      -133.18076
9.373                0.931839363      -133.44077
9.374                0.931716073     -133.701284
9.375                0.931593102     -133.962304
9.376                0.931470456     -134.223826
9.377                0.931348141     -134.485851
9.378                0.931226163     -134.748377
9.379                0.931104529     -135.011402
9.38                 0.930983243     -135.274925
9.381                0.930862313     -135.538946
9.382                0.930741745     -135.803462
9.383                0.930621545     -136.068473
9.384                 0.93050172     -136.333977
9.385                0.930382274     -136.599972
9.386                0.930263216     -136.866457
9.387                0.930144551     -137.133431
9.388                0.930026285     -137.400892
9.389                0.929908426     -137.668839
9.39                 0.929790978      -137.93727
9.391                0.929673949     -138.206183
9.392                0.929557345     -138.475577
9.393                0.929441173     -138.745451
9.394                0.929325438     -139.015802
9.395                0.929210148     -139.286629
9.396                0.929095308     -139.557931
