! TOUCHSTONE file generated by CST DESIGN STUDIO
! Date and time: Tue Feb  4 15:38:49 2025
! Project name: C:\Work\MatlabApps\UnitCellOptimizationMatlab\CST\unitcell.cst
! Tree item: Tasks\Sweep1\SPara1\S-Parameters
! Header version: 2024
! Port assignment regex: !\s*Touchstone port\s*([0-9]+)\s*=\s*(CST MWS port|CST DES external port|CST DES block port)\s*(.+)\s* \(\"(.*)\"\)(\s*mode\s*([0-9]+))?.*
! Touchstone port assignment:
! Touchstone port 1 = CST DES external port 1 ("")
# GHz S MA R 50
9                    0.915477443     -76.6861521
9.001                0.915131275      -76.818926
9.002                0.914784015     -76.9520663
9.003                0.914435659     -77.0855742
9.004                0.914086207      -77.219451
9.005                0.913735657     -77.3536983
9.006                0.913384008     -77.4883173
9.007                0.913031257     -77.6233095
9.008                0.912677404     -77.7586761
9.009                0.912322447     -77.8944187
9.01                 0.911966385     -78.0305385
9.011                0.911609215     -78.1670371
9.012                0.911250938     -78.3039157
9.013                0.910891551     -78.4411758
9.014                0.910531052     -78.5788189
9.015                0.910169442     -78.7168463
9.016                0.909806717     -78.8552594
9.017                0.909442878     -78.9940598
9.018                0.909077922     -79.1332488
9.019                0.908711848     -79.2728278
9.02                 0.908344655     -79.4127983
9.021                0.907976342     -79.5531618
9.022                0.907606907     -79.6939197
9.023                 0.90723635     -79.8350735
9.024                0.906864669     -79.9766246
9.025                0.906491862     -80.1185745
9.026                 0.90611793     -80.2609247
9.027                 0.90574287     -80.4036767
9.028                0.905366681     -80.5468318
9.029                0.904989363     -80.6903918
9.03                 0.904610914     -80.8343579
9.031                0.904231334     -80.9787317
9.032                 0.90385062     -81.1235148
9.033                0.903468773     -81.2687086
9.034                0.903085792     -81.4143147
9.035                0.902701674     -81.5603345
9.036                 0.90231642     -81.7067696
9.037                0.901930029     -81.8536216
9.038                0.901542499     -82.0008919
9.039                 0.90115383      -82.148582
9.04                 0.900764022     -82.2966937
9.041                0.900373072     -82.4452283
9.042                0.899980981     -82.5941874
9.043                0.899587747     -82.7435726
9.044                0.899193371     -82.8933855
9.045                0.898797851     -83.0436277
9.046                0.898401187     -83.1943006
9.047                0.898003378     -83.3454059
9.048                0.897604423     -83.4969451
9.049                0.897204323     -83.6489199
9.05                 0.896803076     -83.8013318
9.051                0.896400682     -83.9541825
9.052                 0.89599714     -84.1074735
9.053                0.895592451     -84.2612064
9.054                0.895186613     -84.4153829
9.055                0.894779627     -84.5700046
9.056                0.894371492      -84.725073
9.057                0.893962208     -84.8805899
9.058                0.893551775     -85.0365568
9.059                0.893140192     -85.1929753
9.06                 0.892727459     -85.3498472
9.061                0.892313576     -85.5071741
9.062                0.891898544     -85.6649575
9.063                0.891482361     -85.8231992
9.064                0.891065029     -85.9819008
9.065                0.890646546     -86.1410639
9.066                0.890226914     -86.3006903
9.067                0.889806132     -86.4607816
9.068                  0.8893842     -86.6213395
9.069                0.888961119     -86.7823656
9.07                 0.888536889     -86.9438617
9.071                 0.88811151     -87.1058294
9.072                0.887684983     -87.2682704
9.073                0.887257308     -87.4311865
9.074                0.886828484     -87.5945792
9.075                0.886398514     -87.7584503
9.076                0.885967397     -87.9228016
9.077                0.885535135     -88.0876347
9.078                0.885101726     -88.2529513
9.079                0.884667173     -88.4187532
9.08                 0.884231476     -88.5850421
9.081                0.883794636     -88.7518197
9.082                0.883356653     -88.9190877
9.083                0.882917529      -89.086848
9.084                0.882477265     -89.2551021
9.085                 0.88203586     -89.4238519
9.086                0.881593318     -89.5930991
9.087                0.881149638     -89.7628455
9.088                0.880704821     -89.9330927
9.089                 0.88025887     -90.1038426
9.09                 0.879811785      -90.275097
9.091                0.879363567     -90.4468575
9.092                0.878914219      -90.619126
9.093                0.878463741     -90.7919042
9.094                0.878012135     -90.9651939
9.095                0.877559403     -91.1389968
9.096                0.877105546     -91.3133148
9.097                0.876650566     -91.4881496
9.098                0.876194464     -91.6635031
9.099                0.875737243     -91.8393769
9.1                  0.875278905      -92.015773
9.101                0.874819451      -92.192693
9.102                0.874358883     -92.3701388
9.103                0.873897205     -92.5481121
9.104                0.873434417     -92.7266149
9.105                0.872970522     -92.9056488
9.106                0.872505522     -93.0852158
9.107                 0.87203942     -93.2653175
9.108                0.871572219     -93.4459558
9.109                 0.87110392     -93.6271326
9.11                 0.870634527     -93.8088496
9.111                0.870164042     -93.9911087
9.112                0.869692468     -94.1739116
9.113                0.869219807     -94.3572602
9.114                0.868746064     -94.5411564
9.115                 0.86827124     -94.7256018
9.116                0.867795338     -94.9105985
9.117                0.867318363     -95.0961481
9.118                0.866840317     -95.2822526
9.119                0.866361204     -95.4689138
9.12                 0.865881027     -95.6561334
9.121                0.865399789     -95.8439133
9.122                0.864917495     -96.0322554
9.123                0.864434147     -96.2211615
9.124                 0.86394975     -96.4106335
9.125                0.863464307      -96.600673
9.126                0.862977823     -96.7912821
9.127                0.862490302     -96.9824625
9.128                0.862001747     -97.1742161
9.129                0.861512163     -97.3665448
9.13                 0.861021554     -97.5594502
9.131                0.860529925     -97.7529344
9.132                 0.86003728     -97.9469991
9.133                0.859543624     -98.1416462
9.134                0.859048962     -98.3368774
9.135                0.858553298     -98.5326948
9.136                0.858056637        -98.7291
9.137                0.857558985     -98.9260949
9.138                0.857060346     -99.1236814
9.139                0.856560726     -99.3218613
9.14                 0.856060129     -99.5206364
9.141                0.855558563     -99.7200086
9.142                0.855056031     -99.9199797
9.143                 0.85455254     -100.120552
9.144                0.854048096     -100.321726
9.145                0.853542704     -100.523505
9.146                0.853036371      -100.72589
9.147                0.852529102     -100.928883
9.148                0.852020904     -101.132485
9.149                0.851511783       -101.3367
9.15                 0.851001745     -101.541528
9.151                0.850490798     -101.746971
9.152                0.849978947     -101.953032
9.153                0.849466201     -102.159711
9.154                0.848952564     -102.367011
9.155                0.848438046     -102.574934
9.156                0.847922652     -102.783481
9.157                 0.84740639     -102.992654
9.158                0.846889269     -103.202455
9.159                0.846371294     -103.412885
9.16                 0.845852474     -103.623948
9.161                0.845332816     -103.835643
9.162                 0.84481233     -104.047974
9.163                0.844291022     -104.260941
9.164                0.843768901     -104.474547
9.165                0.843245975     -104.688793
9.166                0.842722253     -104.903682
9.167                0.842197743     -105.119214
9.168                0.841672454     -105.335391
9.169                0.841146395     -105.552217
9.17                 0.840619576     -105.769691
9.171                0.840092004     -105.987816
9.172                 0.83956369     -106.206593
9.173                0.839034643     -106.426025
9.174                0.838504873     -106.646113
9.175                0.837974389     -106.866858
9.176                0.837443201     -107.088262
9.177                0.836911319     -107.310328
9.178                0.836378753     -107.533056
9.179                0.835845515     -107.756449
9.18                 0.835311613     -107.980507
9.181                 0.83477706     -108.205234
9.182                0.834241865     -108.430629
9.183                0.833706039     -108.656696
9.184                0.833169595     -108.883435
9.185                0.832632542     -109.110848
9.186                0.832094892     -109.338937
9.187                0.831556658     -109.567704
9.188                 0.83101785     -109.797149
9.189                 0.83047848     -110.027275
9.19                 0.829938561     -110.258083
9.191                0.829398105     -110.489575
9.192                0.828857123     -110.721752
9.193                 0.82831563     -110.954615
9.194                0.827773636     -111.188167
9.195                0.827231156     -111.422409
9.196                0.826688202     -111.657342
9.197                0.826144787     -111.892967
9.198                0.825600925     -112.129287
9.199                0.825056629     -112.366303
9.2                  0.824511913     -112.604016
9.201                0.823966791     -112.842427
9.202                0.823421276     -113.081538
9.203                0.822875384     -113.321351
9.204                0.822329128     -113.561866
9.205                0.821782523     -113.803085
9.206                0.821235584      -114.04501
9.207                0.820688325     -114.287642
9.208                0.820140762     -114.530982
9.209                 0.81959291     -114.775031
9.21                 0.819044784     -115.019791
9.211                  0.8184964     -115.265263
9.212                0.817947774     -115.511449
9.213                0.817398922     -115.758348
9.214                0.816849859     -116.005964
9.215                0.816300603     -116.254297
9.216                 0.81575117     -116.503347
9.217                0.815201576     -116.753117
9.218                0.814651838     -117.003608
9.219                0.814101974      -117.25482
9.22                    0.813552     -117.506754
9.221                0.813001934     -117.759413
9.222                0.812451794     -118.012796
9.223                0.811901597     -118.266905
9.224                0.811351362     -118.521741
9.225                0.810801106     -118.777305
9.226                0.810250849     -119.033598
9.227                0.809700607     -119.290621
9.228                0.809150401     -119.548374
9.229                0.808600249     -119.806859
9.23                 0.808050171     -120.066077
9.231                0.807500184     -120.326028
9.232                 0.80695031     -120.586714
9.233                0.806400567     -120.848135
9.234                0.805850976     -121.110291
9.235                0.805301556     -121.373184
9.236                0.804752328     -121.636815
9.237                0.804203312     -121.901184
9.238                0.803654528     -122.166291
9.239                0.803105999     -122.432138
9.24                 0.802557743     -122.698725
9.241                0.802009783     -122.966053
9.242                 0.80146214     -123.234122
9.243                0.800914836     -123.502933
9.244                0.800367891     -123.772486
9.245                0.799821329     -124.042782
9.246                0.799275171     -124.313822
9.247                0.798729439     -124.585605
9.248                0.798184155     -124.858132
9.249                0.797639344     -125.131403
9.25                 0.797095026      -125.40542
9.251                0.796551226     -125.680181
9.252                0.796007966     -125.955688
9.253                 0.79546527     -126.231941
9.254                0.794923162     -126.508939
9.255                0.794381664     -126.786683
9.256                0.793840801     -127.065174
9.257                0.793300597      -127.34441
9.258                0.792761077     -127.624393
9.259                0.792222264     -127.905122
9.26                 0.791684183     -128.186598
9.261                0.791146859      -128.46882
9.262                0.790610318     -128.751787
9.263                0.790074583     -129.035501
9.264                 0.78953968     -129.319961
9.265                0.789005636     -129.605167
9.266                0.788472474     -129.891118
9.267                0.787940222     -130.177814
9.268                0.787408905     -130.465255
9.269                0.786878549      -130.75344
9.27                  0.78634918      -131.04237
9.271                0.785820826     -131.332043
9.272                0.785293511      -131.62246
9.273                0.784767264     -131.913619
9.274                0.784242112     -132.205521
9.275                 0.78371808     -132.498164
9.276                0.783195196     -132.791547
9.277                0.782673488     -133.085672
9.278                0.782152983     -133.380535
9.279                0.781633709     -133.676137
9.28                 0.781115694     -133.972478
9.281                0.780598964     -134.269555
9.282                 0.78008355     -134.567368
9.283                0.779569477     -134.865916
9.284                0.779056776     -135.165199
9.285                0.778545474     -135.465214
9.286                  0.7780356     -135.765962
9.287                0.777527183      -136.06744
9.288                0.777020251     -136.369648
9.289                0.776514833     -136.672585
9.29                 0.776010958     -136.976248
9.291                0.775508656     -137.280638
9.292                0.775007956     -137.585751
9.293                0.774508887     -137.891588
9.294                0.774011478     -138.198146
9.295                 0.77351576     -138.505424
9.296                0.773021762      -138.81342
9.297                0.772529512     -139.122133
9.298                0.772039043     -139.431561
9.299                0.771550383     -139.741702
9.3                  0.771063562     -140.052554
9.301                 0.77057861     -140.364116
9.302                0.770095559     -140.676385
9.303                0.769614437      -140.98936
9.304                0.769135275     -141.303039
9.305                0.768658104     -141.617419
9.306                0.768182954     -141.932499
9.307                0.767709855     -142.248276
9.308                0.767238839     -142.564748
9.309                0.766769935     -142.881913
9.31                 0.766303174     -143.199768
9.311                0.765838588      -143.51831
9.312                0.765376206     -143.837539
9.313                 0.76491606      -144.15745
9.314                 0.76445818     -144.478042
9.315                0.764002597     -144.799311
9.316                0.763549342     -145.121256
9.317                0.763098445     -145.443873
9.318                0.762649939     -145.767159
9.319                0.762203852     -146.091112
9.32                 0.761760217     -146.415728
9.321                0.761319064     -146.741006
9.322                0.760880424      -147.06694
9.323                0.760444328      -147.39353
9.324                0.760010806     -147.720771
9.325                 0.75957989     -148.048659
9.326                 0.75915161     -148.377193
9.327                0.758725996     -148.706368
9.328                 0.75830308     -149.036182
9.329                0.757882893      -149.36663
9.33                 0.757465464     -149.697709
9.331                0.757050824     -150.029415
9.332                0.756639004     -150.361746
9.333                0.756230035     -150.694696
9.334                0.755823946     -151.028263
9.335                0.755420767     -151.362443
9.336                 0.75502053     -151.697231
9.337                0.754623263     -152.032624
9.338                0.754228998     -152.368618
9.339                0.753837763     -152.705208
9.34                 0.753449589     -153.042391
9.341                0.753064506     -153.380162
9.342                0.752682542     -153.718517
9.343                0.752303728     -154.057452
9.344                0.751928093     -154.396962
9.345                0.751555665     -154.737043
9.346                0.751186475      -155.07769
9.347                 0.75082055       -155.4189
9.348                0.750457921     -155.760666
9.349                0.750098614     -156.102985
9.35                 0.749742659     -156.445852
9.351                0.749390084     -156.789262
9.352                0.749040918      -157.13321
9.353                0.748695187     -157.477691
9.354                 0.74835292       -157.8227
9.355                0.748014145     -158.168233
9.356                0.747678888     -158.514284
9.357                0.747347177     -158.860847
9.358                0.747019038     -159.207918
9.359                  0.7466945     -159.555492
9.36                 0.746373587     -159.903563
9.361                0.746056327     -160.252126
9.362                0.745742745     -160.601174
9.363                0.745432867     -160.950704
9.364                0.745126719     -161.300709
9.365                0.744824327     -161.651183
9.366                0.744525714     -162.002122
9.367                0.744230907     -162.353518
9.368                0.743939929     -162.705367
9.369                0.743652805     -163.057662
9.37                 0.743369559     -163.410398
9.371                0.743090215     -163.763569
9.372                0.742814796     -164.117169
9.373                0.742543325     -164.471191
9.374                0.742275825      -164.82563
9.375                0.742012318     -165.180479
9.376                0.741752828     -165.535732
9.377                0.741497375     -165.891384
9.378                0.741245981     -166.247427
9.379                0.740998669     -166.603855
9.38                 0.740755457     -166.960662
9.381                0.740516368     -167.317842
9.382                0.740281422     -167.675387
9.383                0.740050637     -168.033292
9.384                0.739824035      -168.39155
9.385                0.739601634     -168.750153
9.386                0.739383452     -169.109097
9.387                 0.73916951     -169.468373
9.388                0.738959823     -169.827974
9.389                0.738754411     -170.187895
9.39                 0.738553291     -170.548129
9.391                 0.73835648     -170.908667
9.392                0.738163993     -171.269505
9.393                0.737975849     -171.630633
9.394                0.737792061     -171.992046
9.395                0.737612646     -172.353737
9.396                0.737437619     -172.715697
