! TOUCHSTONE file generated by CST DESIGN STUDIO
! Date and time: Tue Feb  4 15:38:47 2025
! Project name: C:\Work\MatlabApps\UnitCellOptimizationMatlab\CST\unitcell.cst
! Tree item: Tasks\Sweep1\SPara1\S-Parameters
! Header version: 2024
! Port assignment regex: !\s*Touchstone port\s*([0-9]+)\s*=\s*(CST MWS port|CST DES external port|CST DES block port)\s*(.+)\s* \(\"(.*)\"\)(\s*mode\s*([0-9]+))?.*
! Touchstone port assignment:
! Touchstone port 1 = CST DES external port 1 ("")
# GHz S MA R 50
9                     0.90087029     -85.8444384
9.001                0.900444191     -86.0068917
9.002                 0.90001665     -86.1698197
9.003                0.899587667      -86.333224
9.004                0.899157241     -86.4971062
9.005                0.898725373      -86.661468
9.006                0.898292061     -86.8263111
9.007                0.897857306     -86.9916372
9.008                0.897421107     -87.1574478
9.009                0.896983466     -87.3237447
9.01                  0.89654438     -87.4905295
9.011                0.896103851     -87.6578039
9.012                 0.89566188     -87.8255697
9.013                0.895218464     -87.9938284
9.014                0.894773606     -88.1625819
9.015                0.894327306     -88.3318317
9.016                0.893879563     -88.5015796
9.017                0.893430379     -88.6718273
9.018                0.892979753     -88.8425764
9.019                0.892527687     -89.0138288
9.02                  0.89207418     -89.1855861
9.021                0.891619234       -89.35785
9.022                0.891162849     -89.5306223
9.023                0.890705027     -89.7039047
9.024                0.890245767     -89.8776989
9.025                0.889785072     -90.0520066
9.026                0.889322941     -90.2268297
9.027                0.888859377     -90.4021697
9.028                 0.88839438     -90.5780285
9.029                0.887927952     -90.7544078
9.03                 0.887460094     -90.9313094
9.031                0.886990807      -91.108735
9.032                0.886520093     -91.2866863
9.033                0.886047953     -91.4651652
9.034                0.885574389     -91.6441734
9.035                0.885099403     -91.8237126
9.036                0.884622997     -92.0037847
9.037                0.884145172     -92.1843913
9.038                 0.88366593     -92.3655343
9.039                0.883185274     -92.5472154
9.04                 0.882703205     -92.7294365
9.041                0.882219726     -92.9121992
9.042                0.881734839     -93.0955055
9.043                0.881248547      -93.279357
9.044                0.880760851     -93.4637555
9.045                0.880271755     -93.6487029
9.046                0.879781262      -93.834201
9.047                0.879289373     -94.0202514
9.048                0.878796092     -94.2068561
9.049                0.878301421     -94.3940169
9.05                 0.877805364     -94.5817354
9.051                0.877307924     -94.7700136
9.052                0.876809105     -94.9588532
9.053                0.876308908      -95.148256
9.054                0.875807339     -95.3382239
9.055                0.875304399     -95.5287587
9.056                0.874800094     -95.7198621
9.057                0.874294426     -95.9115359
9.058                  0.8737874     -96.1037821
9.059                0.873279019     -96.2966023
9.06                 0.872769287     -96.4899985
9.061                0.872258209     -96.6839724
9.062                0.871745789     -96.8785258
9.063                0.871232031     -97.0736606
9.064                 0.87071694     -97.2693785
9.065                 0.87020052     -97.4656814
9.066                0.869682776     -97.6625712
9.067                0.869163712     -97.8600495
9.068                0.868643335     -98.0581183
9.069                0.868121648     -98.2567794
9.07                 0.867598656     -98.4560345
9.071                0.867074366     -98.6558855
9.072                0.866548782     -98.8563343
9.073                 0.86602191     -99.0573825
9.074                0.865493756     -99.2590321
9.075                0.864964325     -99.4612848
9.076                0.864433623     -99.6641425
9.077                0.863901657      -99.867607
9.078                0.863368432      -100.07168
9.079                0.862833954     -100.276363
9.08                 0.862298231     -100.481659
9.081                0.861761268     -100.687569
9.082                0.861223072     -100.894094
9.083                 0.86068365     -101.101237
9.084                0.860143008        -101.309
9.085                0.859601155     -101.517384
9.086                0.859058097      -101.72639
9.087                0.858513841     -101.936022
9.088                0.857968395      -102.14628
9.089                0.857421766     -102.357166
9.09                 0.856873962     -102.568683
9.091                0.856324991     -102.780832
9.092                0.855774862     -102.993614
9.093                0.855223581     -103.207032
9.094                0.854671158     -103.421087
9.095                0.854117601     -103.635781
9.096                0.853562919     -103.851116
9.097                 0.85300712     -104.067094
9.098                0.852450213     -104.283716
9.099                0.851892207     -104.500984
9.1                  0.851333112       -104.7189
9.101                0.850772937     -104.937465
9.102                0.850211691     -105.156681
9.103                0.849649384     -105.376551
9.104                0.849086026     -105.597075
9.105                0.848521627     -105.818256
9.106                0.847956197     -106.040095
9.107                0.847389747     -106.262594
9.108                0.846822286     -106.485755
9.109                0.846253825     -106.709578
9.11                 0.845684376     -106.934067
9.111                0.845113949     -107.159222
9.112                0.844542556     -107.385046
9.113                0.843970207     -107.611539
9.114                0.843396914     -107.838705
9.115                0.842822689     -108.066543
9.116                0.842247544     -108.295057
9.117                 0.84167149     -108.524247
9.118                 0.84109454     -108.754115
9.119                0.840516707     -108.984663
9.12                 0.839938002     -109.215892
9.121                0.839358438     -109.447804
9.122                0.838778029     -109.680401
9.123                0.838196787     -109.913684
9.124                0.837614725     -110.147655
9.125                0.837031858     -110.382314
9.126                0.836448198     -110.617665
9.127                0.835863759     -110.853708
9.128                0.835278556     -111.090445
9.129                0.834692602     -111.327878
9.13                 0.834105912     -111.566007
9.131                  0.8335185     -111.804834
9.132                0.832930381     -112.044362
9.133                0.832341571      -112.28459
9.134                0.831752084     -112.525522
9.135                0.831161934     -112.767157
9.136                0.830571139     -113.009498
9.137                0.829979714     -113.252547
9.138                0.829387674     -113.496303
9.139                0.828795035      -113.74077
9.14                 0.828201814     -113.985947
9.141                0.827608028     -114.231837
9.142                0.827013692     -114.478441
9.143                0.826418825      -114.72576
9.144                0.825823442     -114.973795
9.145                0.825227561     -115.222548
9.146                  0.8246312      -115.47202
9.147                0.824034376     -115.722212
9.148                0.823437107     -115.973126
9.149                0.822839412     -116.224762
9.15                 0.822241308     -116.477123
9.151                0.821642814     -116.730208
9.152                0.821043948      -116.98402
9.153                 0.82044473     -117.238558
9.154                0.819845179     -117.493826
9.155                0.819245314     -117.749823
9.156                0.818645154      -118.00655
9.157                0.818044719      -118.26401
9.158                 0.81744403     -118.522202
9.159                0.816843105     -118.781128
9.16                 0.816241966     -119.040788
9.161                0.815640634     -119.301185
9.162                0.815039128     -119.562318
9.163                 0.81443747     -119.824189
9.164                0.813835681     -120.086798
9.165                0.813233782     -120.350147
9.166                0.812631796     -120.614236
9.167                0.812029743     -120.879066
9.168                0.811427646     -121.144637
9.169                0.810825527     -121.410952
9.17                 0.810223408      -121.67801
9.171                0.809621313     -121.945812
9.172                0.809019264     -122.214359
9.173                0.808417283     -122.483652
9.174                0.807815395     -122.753691
9.175                0.807213623     -123.024477
9.176                 0.80661199      -123.29601
9.177                0.806010521     -123.568291
9.178                0.805409239      -123.84132
9.179                0.804808168     -124.115099
9.18                 0.804207335     -124.389627
9.181                0.803606762     -124.664905
9.182                0.803006475     -124.940934
9.183                0.802406499     -125.217713
9.184                 0.80180686     -125.495243
9.185                0.801207582     -125.773525
9.186                0.800608692     -126.052558
9.187                0.800010216     -126.332343
9.188                 0.79941218     -126.612881
9.189                 0.79881461      -126.89417
9.19                 0.798217533     -127.176213
9.191                0.797620975     -127.459008
9.192                0.797024964     -127.742555
9.193                0.796429526     -128.026856
9.194                 0.79583469     -128.311909
9.195                0.795240481     -128.597715
9.196                0.794646929     -128.884273
9.197                0.794054061     -129.171585
9.198                0.793461906     -129.459648
9.199                0.792870491     -129.748464
9.2                  0.792279844     -130.038032
9.201                0.791689996     -130.328351
9.202                0.791100974     -130.619423
9.203                0.790512807     -130.911245
9.204                0.789925526     -131.203818
9.205                0.789339158     -131.497141
9.206                0.788753735     -131.791214
9.207                0.788169284     -132.086037
9.208                0.787585838     -132.381609
9.209                0.787003424     -132.677928
9.21                 0.786422075     -132.974996
9.211                0.785841819      -133.27281
9.212                0.785262689      -133.57137
9.213                0.784684714     -133.870676
9.214                0.784107925     -134.170727
9.215                0.783532354     -134.471521
9.216                0.782958031     -134.773059
9.217                0.782384989     -135.075338
9.218                0.781813258     -135.378358
9.219                 0.78124287     -135.682118
9.22                 0.780673858     -135.986617
9.221                0.780106252     -136.291853
9.222                0.779540085     -136.597826
9.223                 0.77897539     -136.904534
9.224                0.778412198     -137.211976
9.225                0.777850543     -137.520151
9.226                0.777290456     -137.829056
9.227                 0.77673197     -138.138692
9.228                0.776175119     -138.449056
9.229                0.775619934     -138.760146
9.23                  0.77506645     -139.071962
9.231                  0.7745147     -139.384501
9.232                0.773964716     -139.697762
9.233                0.773416532     -140.011742
9.234                0.772870181     -140.326441
9.235                0.772325697     -140.641857
9.236                0.771783115     -140.957986
9.237                0.771242466     -141.274828
9.238                0.770703786     -141.592381
9.239                0.770167107     -141.910641
9.24                 0.769632465     -142.229608
9.241                0.769099893     -142.549279
9.242                0.768569424     -142.869651
9.243                0.768041094     -143.190723
9.244                0.767514937     -143.512492
9.245                0.766990986     -143.834955
9.246                0.766469276     -144.158111
9.247                0.765949841     -144.481956
9.248                0.765432715     -144.806488
9.249                0.764917934     -145.131704
9.25                 0.764405531     -145.457601
9.251                 0.76389554     -145.784177
9.252                0.763387997      -146.11143
9.253                0.762882936     -146.439355
9.254                0.762380391      -146.76795
9.255                0.761880396     -147.097212
9.256                0.761382986     -147.427138
9.257                0.760888196     -147.757725
9.258                0.760396059     -148.088969
9.259                0.759906611     -148.420868
9.26                 0.759419885     -148.753417
9.261                0.758935916     -149.086614
9.262                0.758454739     -149.420455
9.263                0.757976387     -149.754936
9.264                0.757500894     -150.090055
9.265                0.757028295     -150.425807
9.266                0.756558624     -150.762188
9.267                0.756091915     -151.099195
9.268                0.755628202     -151.436824
9.269                0.755167518     -151.775071
9.27                 0.754709898     -152.113933
9.271                0.754255375     -152.453404
9.272                0.753803982     -152.793482
9.273                0.753355754     -153.134161
9.274                0.752910723     -153.475438
9.275                0.752468922     -153.817308
9.276                0.752030386     -154.159767
9.277                0.751595146     -154.502811
9.278                0.751163236     -154.846435
9.279                0.750734688     -155.190635
9.28                 0.750309536     -155.535405
9.281                 0.74988781     -155.880742
9.282                0.749469544     -156.226641
9.283                 0.74905477     -156.573096
9.284                 0.74864352     -156.920104
9.285                0.748235824     -157.267658
9.286                0.747831716     -157.615755
9.287                0.747431226     -157.964389
9.288                0.747034385     -158.313555
9.289                0.746641224     -158.663247
9.29                 0.746251774     -159.013462
9.291                0.745866066     -159.364192
9.292                 0.74548413     -159.715434
9.293                0.745105995     -160.067181
9.294                0.744731693     -160.419428
9.295                0.744361251      -160.77217
9.296                  0.7439947     -161.125402
9.297                0.743632069     -161.479116
9.298                0.743273386     -161.833308
9.299                 0.74291868     -162.187972
9.3                  0.742567979     -162.543102
9.301                0.742221311     -162.898693
9.302                0.741878705     -163.254738
9.303                0.741540186     -163.611231
9.304                0.741205783     -163.968166
9.305                0.740875522     -164.325538
9.306                 0.74054943     -164.683339
9.307                0.740227532     -165.041565
9.308                0.739909855     -165.400208
9.309                0.739596424     -165.759262
9.31                 0.739287264     -166.118721
9.311                  0.7389824     -166.478579
9.312                0.738681857     -166.838828
9.313                0.738385658     -167.199463
9.314                0.738093828     -167.560476
9.315                0.737806389     -167.921862
9.316                0.737523365     -168.283614
9.317                0.737244779     -168.645724
9.318                0.736970651     -169.008186
9.319                0.736701006     -169.370993
9.32                 0.736435863     -169.734139
9.321                0.736175244     -170.097616
9.322                 0.73591917     -170.461417
9.323                 0.73566766     -170.825536
9.324                0.735420736     -171.189965
9.325                0.735178415     -171.554698
9.326                0.734940718     -171.919726
9.327                0.734707662     -172.285044
9.328                0.734479266     -172.650643
9.329                0.734255547     -173.016517
9.33                 0.734036523     -173.382658
9.331                 0.73382221     -173.749058
9.332                0.733612626     -174.115711
9.333                0.733407785     -174.482609
9.334                0.733207703     -174.849745
9.335                0.733012395     -175.217111
9.336                0.732821876     -175.584699
9.337                 0.73263616     -175.952503
9.338                 0.73245526     -176.320514
9.339                0.732279189     -176.688724
9.34                  0.73210796     -177.057128
9.341                0.731941585     -177.425715
9.342                0.731780075      -177.79448
9.343                0.731623442     -178.163413
9.344                0.731471697     -178.532508
9.345                0.731324849     -178.901757
9.346                0.731182908     -179.271152
9.347                0.731045883     -179.640684
9.348                0.730913783      179.989653
9.349                0.730786616      179.619868
9.35                  0.73066439      179.249968
9.351                0.730547111      178.879961
9.352                0.730434787      178.509856
9.353                0.730327423       178.13966
9.354                0.730225025      177.769382
9.355                0.730127598      177.399028
9.356                0.730035146      177.028607
9.357                0.729947674      176.658128
9.358                0.729865184      176.287597
9.359                0.729787681      175.917024
9.36                 0.729715166      175.546415
9.361                0.729647641      175.175779
9.362                0.729585108      174.805125
9.363                0.729527567      174.434459
9.364                0.729475019       174.06379
9.365                0.729427464      173.693127
9.366                  0.7293849      173.322476
9.367                0.729347328      172.951846
9.368                0.729314744      172.581246
9.369                0.729287147      172.210682
9.37                 0.729264533      171.840164
9.371                0.729246901      171.469699
9.372                0.729234244      171.099294
9.373                 0.72922656      170.728959
9.374                0.729223844      170.358701
9.375                0.729226089      169.988528
9.376                0.729233291      169.618447
9.377                0.729245442      169.248468
9.378                0.729262536      168.878597
9.379                0.729284565      168.508844
9.38                 0.729311521      168.139214
9.381                0.729343396      167.769718
9.382                0.729380181      167.400361
9.383                0.729421866      167.031153
9.384                0.729468442      166.662101
9.385                0.729519897      166.293213
9.386                0.729576222      165.924496
9.387                0.729637403      165.555959
9.388                 0.72970343      165.187609
9.389                0.729774291      164.819454
9.39                 0.729849971      164.451501
9.391                0.729930458      164.083758
9.392                0.730015738      163.716233
9.393                0.730105797      163.348934
9.394                0.730200619      162.981867
9.395                 0.73030019      162.615042
9.396                0.730404494      162.248464
