! TOUCHSTONE file generated by CST DESIGN STUDIO
! Date and time: Tue Feb  4 15:38:56 2025
! Project name: C:\Work\MatlabApps\UnitCellOptimizationMatlab\CST\unitcell.cst
! Tree item: Tasks\Sweep1\SPara1\S-Parameters
! Header version: 2024
! Port assignment regex: !\s*Touchstone port\s*([0-9]+)\s*=\s*(CST MWS port|CST DES external port|CST DES block port)\s*(.+)\s* \(\"(.*)\"\)(\s*mode\s*([0-9]+))?.*
! Touchstone port assignment:
! Touchstone port 1 = CST DES external port 1 ("")
# GHz S MA R 50
9                    0.959088451     -47.3803993
9.001                0.958981224     -47.4371948
9.002                0.958873979     -47.4941107
9.003                0.958766712     -47.5511475
9.004                0.958659424     -47.6083055
9.005                0.958552112      -47.665585
9.006                0.958444774     -47.7229865
9.007                0.958337409     -47.7805102
9.008                0.958230015     -47.8381566
9.009                 0.95812259      -47.895926
9.01                 0.958015132     -47.9538188
9.011                 0.95790764     -48.0118354
9.012                0.957800111      -48.069976
9.013                0.957692545     -48.1282412
9.014                0.957584939     -48.1866313
9.015                0.957477292     -48.2451467
9.016                0.957369602     -48.3037877
9.017                0.957261867     -48.3625548
9.018                0.957154086     -48.4214482
9.019                0.957046257     -48.4804685
9.02                 0.956938378      -48.539616
9.021                0.956830448     -48.5988911
9.022                0.956722464     -48.6582942
9.023                0.956614426     -48.7178256
9.024                0.956506331     -48.7774858
9.025                0.956398177     -48.8372752
9.026                0.956289964     -48.8971942
9.027                 0.95618169     -48.9572432
9.028                0.956073352     -49.0174225
9.029                 0.95596495     -49.0777327
9.03                 0.955856481     -49.1381741
9.031                0.955747944      -49.198747
9.032                0.955639338      -49.259452
9.033                 0.95553066     -49.3202895
9.034                0.955421909     -49.3812598
9.035                0.955313083     -49.4423633
9.036                0.955204181     -49.5036006
9.037                0.955095202      -49.564972
9.038                0.954986142     -49.6264779
9.039                0.954877002     -49.6881189
9.04                 0.954767779     -49.7498952
9.041                0.954658472     -49.8118073
9.042                0.954549079     -49.8738557
9.043                0.954439598     -49.9360408
9.044                0.954330028      -49.998363
9.045                0.954220367     -50.0608228
9.046                0.954110614     -50.1234206
9.047                0.954000768     -50.1861569
9.048                0.953890825      -50.249032
9.049                0.953780786     -50.3120465
9.05                 0.953670648     -50.3752008
9.051                0.953560409     -50.4384953
9.052                0.953450069     -50.5019306
9.053                0.953339625     -50.5655069
9.054                0.953229077     -50.6292249
9.055                0.953118421     -50.6930849
9.056                0.953007658     -50.7570874
9.057                0.952896785      -50.821233
9.058                0.952785801     -50.8855219
9.059                0.952674703     -50.9499548
9.06                 0.952563492     -51.0145321
9.061                0.952452164     -51.0792542
9.062                0.952340719     -51.1441216
9.063                0.952229155     -51.2091348
9.064                 0.95211747     -51.2742943
9.065                0.952005663     -51.3396006
9.066                0.951893732     -51.4050541
9.067                0.951781675     -51.4706553
9.068                0.951669492     -51.5364046
9.069                 0.95155718     -51.6023027
9.07                 0.951444739       -51.66835
9.071                0.951332165     -51.7345469
9.072                0.951219459     -51.8008939
9.073                0.951106618     -51.8673917
9.074                0.950993641     -51.9340405
9.075                0.950880526      -52.000841
9.076                0.950767272     -52.0677937
9.077                0.950653877      -52.134899
9.078                0.950540339     -52.2021575
9.079                0.950426658     -52.2695696
9.08                 0.950312831      -52.337136
9.081                0.950198856      -52.404857
9.082                0.950084734     -52.4727332
9.083                0.949970461     -52.5407651
9.084                0.949856037     -52.6089533
9.085                0.949741459     -52.6772982
9.086                0.949626726     -52.7458004
9.087                0.949511837     -52.8144604
9.088                0.949396791     -52.8832787
9.089                0.949281585     -52.9522559
9.09                 0.949166217     -53.0213925
9.091                0.949050688     -53.0906891
9.092                0.948934994     -53.1601461
9.093                0.948819135     -53.2297641
9.094                0.948703108     -53.2995436
9.095                0.948586913     -53.3694852
9.096                0.948470548     -53.4395895
9.097                 0.94835401     -53.5098569
9.098                  0.9482373     -53.5802881
9.099                0.948120414     -53.6508836
9.1                  0.948003352     -53.7216439
9.101                0.947886112     -53.7925695
9.102                0.947768692     -53.8636612
9.103                0.947651091     -53.9349193
9.104                0.947533308     -54.0063446
9.105                 0.94741534     -54.0779374
9.106                0.947297186     -54.1496985
9.107                0.947178845     -54.2216284
9.108                0.947060315     -54.2937276
9.109                0.946941595     -54.3659967
9.11                 0.946822682     -54.4384364
9.111                0.946703576     -54.5110471
9.112                0.946584275     -54.5838296
9.113                0.946464777     -54.6567842
9.114                 0.94634508     -54.7299117
9.115                0.946225184     -54.8032127
9.116                0.946105086     -54.8766877
9.117                0.945984785     -54.9503373
9.118                 0.94586428     -55.0241621
9.119                0.945743568     -55.0981627
9.12                 0.945622648     -55.1723397
9.121                 0.94550152     -55.2466938
9.122                 0.94538018     -55.3212255
9.123                0.945258627     -55.3959354
9.124                0.945136861     -55.4708242
9.125                0.945014879     -55.5458925
9.126                0.944892679     -55.6211408
9.127                0.944770261     -55.6965698
9.128                0.944647622     -55.7721802
9.129                0.944524761     -55.8479725
9.13                 0.944401676     -55.9239473
9.131                0.944278366     -56.0001054
9.132                0.944154829     -56.0764473
9.133                0.944031064     -56.1529737
9.134                0.943907068     -56.2296852
9.135                0.943782841     -56.3065825
9.136                0.943658381     -56.3836661
9.137                0.943533685     -56.4609368
9.138                0.943408753     -56.5383951
9.139                0.943283583     -56.6160418
9.14                 0.943158173     -56.6938775
9.141                0.943032521     -56.7719028
9.142                0.942906627     -56.8501184
9.143                0.942780487      -56.928525
9.144                0.942654102     -57.0071232
9.145                0.942527468     -57.0859137
9.146                0.942400585     -57.1648972
9.147                 0.94227345     -57.2440743
9.148                0.942146063     -57.3234457
9.149                0.942018421     -57.4030121
9.15                 0.941890523     -57.4827741
9.151                0.941762367     -57.5627325
9.152                0.941633951     -57.6428879
9.153                0.941505275     -57.7232411
9.154                0.941376335     -57.8037927
9.155                0.941247131     -57.8845433
9.156                0.941117661     -57.9654938
9.157                0.940987923     -58.0466448
9.158                0.940857915     -58.1279969
9.159                0.940727637      -58.209551
9.16                 0.940597085     -58.2913077
9.161                0.940466259     -58.3732678
9.162                0.940335156     -58.4554318
9.163                0.940203776     -58.5378007
9.164                0.940072116      -58.620375
9.165                0.939940175     -58.7031555
9.166                 0.93980795     -58.7861429
9.167                0.939675441      -58.869338
9.168                0.939542645     -58.9527414
9.169                0.939409562      -59.036354
9.17                 0.939276188     -59.1201764
9.171                0.939142523     -59.2042095
9.172                0.939008564     -59.2884538
9.173                 0.93887431     -59.3729103
9.174                 0.93873976     -59.4575796
9.175                0.938604911     -59.5424624
9.176                0.938469762     -59.6275596
9.177                0.938334311     -59.7128719
9.178                0.938198556     -59.7984001
9.179                0.938062495     -59.8841448
9.18                 0.937926128      -59.970107
9.181                0.937789451     -60.0562873
9.182                0.937652464     -60.1426866
9.183                0.937515164     -60.2293055
9.184                0.937377549      -60.316145
9.185                0.937239619     -60.4032057
9.186                0.937101371     -60.4904884
9.187                0.936962803      -60.577994
9.188                0.936823914     -60.6657232
9.189                0.936684702     -60.7536769
9.19                 0.936545165     -60.8418558
9.191                0.936405301     -60.9302607
9.192                0.936265108     -61.0188924
9.193                0.936124585     -61.1077518
9.194                 0.93598373     -61.1968397
9.195                0.935842541     -61.2861568
9.196                0.935701017     -61.3757039
9.197                0.935559154      -61.465482
9.198                0.935416952     -61.5554918
9.199                0.935274409     -61.6457342
9.2                  0.935131523     -61.7362099
9.201                0.934988292     -61.8269199
9.202                0.934844714     -61.9178649
9.203                0.934700788     -62.0090457
9.204                0.934556511     -62.1004634
9.205                0.934411882     -62.1921186
9.206                0.934266899     -62.2840122
9.207                0.934121559     -62.3761452
9.208                0.933975862     -62.4685182
9.209                0.933829805     -62.5611323
9.21                 0.933683387     -62.6539882
9.211                0.933536605     -62.7470869
9.212                0.933389458     -62.8404292
9.213                0.933241943     -62.9340159
9.214                 0.93309406      -63.027848
9.215                0.932945805     -63.1219263
9.216                0.932797178     -63.2162518
9.217                0.932648176     -63.3108252
9.218                0.932498797     -63.4056476
9.219                0.932349039     -63.5007197
9.22                 0.932198901     -63.5960426
9.221                0.932048381      -63.691617
9.222                0.931897476     -63.7874439
9.223                0.931746185     -63.8835242
9.224                0.931594506     -63.9798588
9.225                0.931442436     -64.0764487
9.226                0.931289975     -64.1732947
9.227                0.931137119     -64.2703977
9.228                0.930983868     -64.3677588
9.229                0.930830219     -64.4653788
9.23                  0.93067617     -64.5632587
9.231                0.930521719     -64.6613993
9.232                0.930366864     -64.7598017
9.233                0.930211604     -64.8584668
9.234                0.930055936     -64.9573955
9.235                0.929899859     -65.0565887
9.236                 0.92974337     -65.1560475
9.237                0.929586467     -65.2557728
9.238                0.929429149     -65.3557656
9.239                0.929271413     -65.4560268
9.24                 0.929113258     -65.5565573
9.241                0.928954681     -65.6573583
9.242                 0.92879568     -65.7584306
9.243                0.928636255     -65.8597752
9.244                0.928476401     -65.9613931
9.245                0.928316118     -66.0632853
9.246                0.928155404     -66.1654528
9.247                0.927994256     -66.2678965
9.248                0.927832672     -66.3706176
9.249                0.927670651     -66.4736169
9.25                  0.92750819     -66.5768956
9.251                0.927345288     -66.6804545
9.252                0.927181942     -66.7842948
9.253                 0.92701815     -66.8884174
9.254                 0.92685391     -66.9928233
9.255                0.926689221     -67.0975137
9.256                 0.92652408     -67.2024895
9.257                0.926358485     -67.3077517
9.258                0.926192434     -67.4133014
9.259                0.926025925     -67.5191396
9.26                 0.925858956     -67.6252675
9.261                0.925691525     -67.7316859
9.262                 0.92552363      -67.838396
9.263                0.925355269     -67.9453989
9.264                0.925186439     -68.0526956
9.265                0.925017139     -68.1602871
9.266                0.924847366     -68.2681745
9.267                0.924677119      -68.376359
9.268                0.924506396     -68.4848416
9.269                0.924335194     -68.5936233
9.27                 0.924163511     -68.7027052
9.271                0.923991345     -68.8120885
9.272                0.923818694     -68.9217743
9.273                0.923645556     -69.0317635
9.274                0.923471929     -69.1420574
9.275                0.923297811     -69.2526571
9.276                  0.9231232     -69.3635636
9.277                0.922948093      -69.474778
9.278                0.922772488     -69.5863015
9.279                0.922596384     -69.6981352
9.28                 0.922419779     -69.8102802
9.281                0.922242669     -69.9227377
9.282                0.922065054     -70.0355088
9.283                 0.92188693     -70.1485945
9.284                0.921708296     -70.2619962
9.285                 0.92152915     -70.3757148
9.286                 0.92134949     -70.4897516
9.287                0.921169313     -70.6041078
9.288                0.920988617     -70.7187844
9.289                0.920807401     -70.8337826
9.29                 0.920625662     -70.9491036
9.291                0.920443397     -71.0647486
9.292                0.920260606     -71.1807187
9.293                0.920077285     -71.2970152
9.294                0.919893433     -71.4136391
9.295                0.919709048     -71.5305918
9.296                0.919524126     -71.6478743
9.297                0.919338668     -71.7654879
9.298                0.919152669     -71.8834338
9.299                0.918966128     -72.0017131
9.3                  0.918779043     -72.1203272
9.301                0.918591412     -72.2392771
9.302                0.918403232     -72.3585641
9.303                0.918214502     -72.4781895
9.304                0.918025219     -72.5981544
9.305                0.917835382     -72.7184602
9.306                0.917644987     -72.8391079
9.307                0.917454034     -72.9600989
9.308                0.917262519     -73.0814344
9.309                0.917070441     -73.2031156
9.31                 0.916877798     -73.3251438
9.311                0.916684587     -73.4475203
9.312                0.916490807     -73.5702463
9.313                0.916296455      -73.693323
9.314                0.916101529     -73.8167517
9.315                0.915906027     -73.9405338
9.316                0.915709947     -74.0646704
9.317                0.915513287     -74.1891629
9.318                0.915316044     -74.3140125
9.319                0.915118217     -74.4392205
9.32                 0.914919804     -74.5647882
9.321                0.914720802     -74.6907169
9.322                0.914521209      -74.817008
9.323                0.914321024     -74.9436626
9.324                0.914120243     -75.0706822
9.325                0.913918866      -75.198068
9.326                0.913716889     -75.3258213
9.327                0.913514312     -75.4539435
9.328                0.913311131     -75.5824359
9.329                0.913107345     -75.7112999
9.33                 0.912902952     -75.8405366
9.331                0.912697949     -75.9701476
9.332                0.912492334      -76.100134
9.333                0.912286107     -76.2304974
9.334                0.912079263      -76.361239
9.335                0.911871802     -76.4923601
9.336                0.911663722     -76.6238622
9.337                0.911455019     -76.7557466
9.338                0.911245693     -76.8880146
9.339                0.911035741     -77.0206677
9.34                 0.910825162     -77.1537071
9.341                0.910613952     -77.2871344
9.342                0.910402111     -77.4209508
9.343                0.910189636     -77.5551578
9.344                0.909976526     -77.6897567
9.345                0.909762778     -77.8247489
9.346                 0.90954839     -77.9601359
9.347                 0.90933336      -78.095919
9.348                0.909117687     -78.2320997
9.349                0.908901368     -78.3686793
9.35                 0.908684401     -78.5056593
9.351                0.908466786      -78.643041
9.352                0.908248519      -78.780826
9.353                0.908029598     -78.9190156
9.354                0.907810023     -79.0576113
9.355                 0.90758979     -79.1966145
9.356                0.907368898     -79.3360266
9.357                0.907147346      -79.475849
9.358                0.906925131     -79.6160834
9.359                0.906702251     -79.7567309
9.36                 0.906478705     -79.8977932
9.361                0.906254491     -80.0392717
9.362                0.906029607     -80.1811679
9.363                0.905804051     -80.3234831
9.364                0.905577821      -80.466219
9.365                0.905350916     -80.6093769
9.366                0.905123333     -80.7529583
9.367                0.904895072     -80.8969647
9.368                 0.90466613     -81.0413976
9.369                0.904436506     -81.1862585
9.37                 0.904206198     -81.3315489
9.371                0.903975204     -81.4772702
9.372                0.903743522      -81.623424
9.373                0.903511151     -81.7700118
9.374                0.903278089      -81.917035
9.375                0.903044335     -82.0644953
9.376                0.902809887      -82.212394
9.377                0.902574743     -82.3607327
9.378                0.902338902     -82.5095129
9.379                0.902102362     -82.6587362
9.38                 0.901865122     -82.8084041
9.381                 0.90162718     -82.9585181
9.382                0.901388534     -83.1090797
9.383                0.901149184     -83.2600905
9.384                0.900909127      -83.411552
9.385                0.900668362     -83.5634658
9.386                0.900426887     -83.7158334
9.387                0.900184703     -83.8686563
9.388                0.899941806     -84.0219361
9.389                0.899698195     -84.1756744
9.39                  0.89945387     -84.3298727
9.391                0.899208828     -84.4845326
9.392                0.898963069     -84.6396557
9.393                0.898716591     -84.7952434
9.394                0.898469393     -84.9512974
9.395                0.898221474     -85.1078193
9.396                0.897972832     -85.2648106
