! TOUCHSTONE file generated by CST DESIGN STUDIO
! Date and time: Tue Feb  4 15:38:58 2025
! Project name: C:\Work\MatlabApps\UnitCellOptimizationMatlab\CST\unitcell.cst
! Tree item: Tasks\Sweep1\SPara1\S-Parameters
! Header version: 2024
! Port assignment regex: !\s*Touchstone port\s*([0-9]+)\s*=\s*(CST MWS port|CST DES external port|CST DES block port)\s*(.+)\s* \(\"(.*)\"\)(\s*mode\s*([0-9]+))?.*
! Touchstone port assignment:
! Touchstone port 1 = CST DES external port 1 ("")
# GHz S MA R 50
9                    0.963752603     -43.7335181
9.001                0.963670743     -43.7838868
9.002                0.963588856     -43.8343516
9.003                0.963506942      -43.884913
9.004                   0.963425     -43.9355712
9.005                0.963343029     -43.9863266
9.006                 0.96326103     -44.0371795
9.007                0.963179001     -44.0881304
9.008                0.963096943     -44.1391795
9.009                0.963014854     -44.1903272
9.01                 0.962932734     -44.2415738
9.011                0.962850583     -44.2929197
9.012                  0.9627684     -44.3443653
9.013                0.962686184     -44.3959109
9.014                0.962603936     -44.4475569
9.015                0.962521654     -44.4993036
9.016                0.962439338     -44.5511513
9.017                0.962356988     -44.6031005
9.018                0.962274603     -44.6551515
9.019                0.962192182     -44.7073047
9.02                 0.962109725     -44.7595604
9.021                0.962027231      -44.811919
9.022                0.961944699     -44.8643808
9.023                 0.96186213     -44.9169463
9.024                0.961779522     -44.9696158
9.025                0.961696875     -45.0223896
9.026                0.961614189     -45.0752681
9.027                0.961531462     -45.1282517
9.028                0.961448694     -45.1813408
9.029                0.961365885     -45.2345358
9.03                 0.961283033     -45.2878369
9.031                0.961200139     -45.3412447
9.032                0.961117201     -45.3947594
9.033                0.961034219     -45.4483815
9.034                0.960951193     -45.5021113
9.035                0.960868121     -45.5559491
9.036                0.960785004     -45.6098955
9.037                0.960701839     -45.6639508
9.038                0.960618628     -45.7181153
9.039                0.960535368     -45.7723894
9.04                  0.96045206     -45.8267735
9.041                0.960368702     -45.8812681
9.042                0.960285294     -45.9358734
9.043                0.960201836       -45.99059
9.044                0.960118326     -46.0454181
9.045                0.960034764     -46.1003582
9.046                 0.95995115     -46.1554106
9.047                0.959867481     -46.2105759
9.048                0.959783759     -46.2658542
9.049                0.959699981     -46.3212461
9.05                 0.959616148      -46.376752
9.051                0.959532258     -46.4323722
9.052                0.959448311     -46.4881072
9.053                0.959364306     -46.5439573
9.054                0.959280243     -46.5999229
9.055                 0.95919612     -46.6560046
9.056                0.959111936     -46.7122025
9.057                0.959027692     -46.7685173
9.058                0.958943386     -46.8249492
9.059                0.958859017     -46.8814988
9.06                 0.958774585     -46.9381663
9.061                0.958690089     -46.9949523
9.062                0.958605528      -47.051857
9.063                0.958520901     -47.1088811
9.064                0.958436207     -47.1660247
9.065                0.958351447     -47.2232885
9.066                0.958266618     -47.2806727
9.067                 0.95818172     -47.3381779
9.068                0.958096752     -47.3958044
9.069                0.958011713     -47.4535527
9.07                 0.957926603     -47.5114232
9.071                 0.95784142     -47.5694162
9.072                0.957756165     -47.6275323
9.073                0.957670835     -47.6857719
9.074                 0.95758543     -47.7441354
9.075                0.957499949     -47.8026232
9.076                0.957414392     -47.8612358
9.077                0.957328757     -47.9199736
9.078                0.957243044      -47.978837
9.079                0.957157251     -48.0378265
9.08                 0.957071378     -48.0969425
9.081                0.956985424     -48.1561854
9.082                0.956899388     -48.2155558
9.083                0.956813269     -48.2750539
9.084                0.956727066     -48.3346804
9.085                0.956640778     -48.3944356
9.086                0.956554404     -48.4543199
9.087                0.956467944     -48.5143339
9.088                0.956381396      -48.574478
9.089                 0.95629476     -48.6347525
9.09                 0.956208034     -48.6951581
9.091                0.956121217     -48.7556951
9.092                0.956034309      -48.816364
9.093                0.955947309     -48.8771652
9.094                0.955860215     -48.9380992
9.095                0.955773027     -48.9991665
9.096                0.955685744     -49.0603676
9.097                0.955598364     -49.1217028
9.098                0.955510887     -49.1831727
9.099                0.955423312     -49.2447777
9.1                  0.955335637     -49.3065183
9.101                0.955247862      -49.368395
9.102                0.955159986     -49.4304082
9.103                0.955072007     -49.4925585
9.104                0.954983925     -49.5548462
9.105                0.954895739     -49.6172719
9.106                0.954807447      -49.679836
9.107                0.954719048     -49.7425391
9.108                0.954630542     -49.8053815
9.109                0.954541928     -49.8683639
9.11                 0.954453204     -49.9314866
9.111                0.954364369     -49.9947502
9.112                0.954275422     -50.0581552
9.113                0.954186362      -50.121702
9.114                0.954097189     -50.1853911
9.115                  0.9540079      -50.249223
9.116                0.953918495     -50.3131983
9.117                0.953828973     -50.3773173
9.118                0.953739333     -50.4415807
9.119                0.953649573     -50.5059889
9.12                 0.953559693     -50.5705424
9.121                0.953469691     -50.6352418
9.122                0.953379566     -50.7000875
9.123                0.953289318       -50.76508
9.124                0.953198944     -50.8302198
9.125                0.953108444     -50.8955075
9.126                0.953017817     -50.9609435
9.127                0.952927062     -51.0265285
9.128                0.952836176     -51.0922628
9.129                 0.95274516     -51.1581471
9.13                 0.952654012     -51.2241817
9.131                0.952562731     -51.2903674
9.132                0.952471316     -51.3567045
9.133                0.952379765     -51.4231936
9.134                0.952288077     -51.4898352
9.135                0.952196252     -51.5566299
9.136                0.952104287     -51.6235782
9.137                0.952012183     -51.6906806
9.138                0.951919936     -51.7579376
9.139                0.951827547     -51.8253499
9.14                 0.951735015     -51.8929179
9.141                0.951642337     -51.9606421
9.142                0.951549512     -52.0285232
9.143                 0.95145654     -52.0965616
9.144                 0.95136342     -52.1647579
9.145                0.951270149     -52.2331126
9.146                0.951176726     -52.3016264
9.147                0.951083152     -52.3702997
9.148                0.950989423     -52.4391331
9.149                0.950895539     -52.5081271
9.15                 0.950801499     -52.5772824
9.151                0.950707301     -52.6465995
9.152                0.950612944     -52.7160788
9.153                0.950518427     -52.7857211
9.154                0.950423748     -52.8555269
9.155                0.950328907     -52.9254966
9.156                0.950233901      -52.995631
9.157                 0.95013873     -53.0659306
9.158                0.950043392     -53.1363958
9.159                0.949947885     -53.2070275
9.16                  0.94985221      -53.277826
9.161                0.949756363      -53.348792
9.162                0.949660345      -53.419926
9.163                0.949564153     -53.4912287
9.164                0.949467786     -53.5627006
9.165                0.949371243     -53.6343424
9.166                0.949274523     -53.7061545
9.167                0.949177623     -53.7781376
9.168                0.949080544     -53.8502924
9.169                0.948983282     -53.9226193
9.17                 0.948885838      -53.995119
9.171                0.948788209     -54.0677921
9.172                0.948690395     -54.1406392
9.173                0.948592393     -54.2136609
9.174                0.948494202     -54.2868579
9.175                0.948395822     -54.3602306
9.176                 0.94829725     -54.4337797
9.177                0.948198485     -54.5075059
9.178                0.948099526     -54.5814098
9.179                0.948000371     -54.6554919
9.18                 0.947901019     -54.7297529
9.181                0.947801468     -54.8041934
9.182                0.947701717     -54.8788141
9.183                0.947601765     -54.9536156
9.184                 0.94750161     -55.0285985
9.185                 0.94740125     -55.1037633
9.186                0.947300684     -55.1791109
9.187                0.947199911     -55.2546418
9.188                0.947098929     -55.3303566
9.189                0.946997737      -55.406256
9.19                 0.946896333     -55.4823406
9.191                0.946794715     -55.5586111
9.192                0.946692882     -55.6350682
9.193                0.946590834     -55.7117124
9.194                0.946488567     -55.7885444
9.195                0.946386081     -55.8655649
9.196                0.946283373     -55.9427746
9.197                0.946180444     -56.0201741
9.198                 0.94607729      -56.097764
9.199                0.945973911     -56.1755451
9.2                  0.945870304     -56.2535179
9.201                0.945766469     -56.3316833
9.202                0.945662404     -56.4100417
9.203                0.945558107      -56.488594
9.204                0.945453576     -56.5673408
9.205                 0.94534881     -56.6462828
9.206                0.945243808     -56.7254206
9.207                0.945138568      -56.804755
9.208                0.945033088     -56.8842866
9.209                0.944927367     -56.9640161
9.21                 0.944821403     -57.0439442
9.211                0.944715194     -57.1240717
9.212                0.944608739     -57.2043991
9.213                0.944502036     -57.2849273
9.214                0.944395084     -57.3656569
9.215                0.944287881     -57.4465886
9.216                0.944180425     -57.5277231
9.217                0.944072714     -57.6090611
9.218                0.943964748     -57.6906034
9.219                0.943856524     -57.7723507
9.22                 0.943748041     -57.8543037
9.221                0.943639297     -57.9364631
9.222                 0.94353029     -58.0188296
9.223                0.943421018     -58.1014039
9.224                0.943311481     -58.1841869
9.225                0.943201676     -58.2671792
9.226                0.943091601     -58.3503815
9.227                0.942981256     -58.4337946
9.228                0.942870637     -58.5174193
9.229                0.942759744     -58.6012562
9.23                 0.942648575     -58.6853062
9.231                0.942537128     -58.7695699
9.232                0.942425401     -58.8540482
9.233                0.942313392     -58.9387418
9.234                0.942201101     -59.0236514
9.235                0.942088524     -59.1087777
9.236                0.941975661     -59.1941217
9.237                0.941862509      -59.279684
9.238                0.941749067     -59.3654654
9.239                0.941635333     -59.4514666
9.24                 0.941521305     -59.5376885
9.241                0.941406982     -59.6241318
9.242                0.941292361     -59.7107973
9.243                0.941177442     -59.7976858
9.244                0.941062221      -59.884798
9.245                0.940946697     -59.9721349
9.246                0.940830869      -60.059697
9.247                0.940714735     -60.1474854
9.248                0.940598293     -60.2355006
9.249                 0.94048154     -60.3237436
9.25                 0.940364476     -60.4122152
9.251                0.940247098     -60.5009161
9.252                0.940129404     -60.5898472
9.253                0.940011393     -60.6790092
9.254                0.939893063      -60.768403
9.255                0.939774411     -60.8580295
9.256                0.939655437     -60.9478894
9.257                0.939536138     -61.0379836
9.258                0.939416512     -61.1283128
9.259                0.939296558      -61.218878
9.26                 0.939176273     -61.3096799
9.261                0.939055656     -61.4007194
9.262                0.938934705     -61.4919973
9.263                0.938813417     -61.5835145
9.264                0.938691792     -61.6752719
9.265                0.938569826     -61.7672702
9.266                0.938447519     -61.8595103
9.267                0.938324867     -61.9519931
9.268                 0.93820187     -62.0447195
9.269                0.938078525     -62.1376903
9.27                 0.937954831     -62.2309063
9.271                0.937830785     -62.3243685
9.272                0.937706386     -62.4180777
9.273                0.937581631     -62.5120348
9.274                0.937456518     -62.6062406
9.275                0.937331046     -62.7006961
9.276                0.937205213     -62.7954021
9.277                0.937079016     -62.8903596
9.278                0.936952454     -62.9855693
9.279                0.936825525     -63.0810323
9.28                 0.936698227     -63.1767494
9.281                0.936570557     -63.2727215
9.282                0.936442513     -63.3689495
9.283                0.936314095     -63.4654343
9.284                0.936185299     -63.5621769
9.285                0.936056123     -63.6591781
9.286                0.935926567     -63.7564389
9.287                0.935796626     -63.8539602
9.288                0.935666301     -63.9517429
9.289                0.935535588      -64.049788
9.29                 0.935404485     -64.1480963
9.291                0.935272991     -64.2466688
9.292                0.935141103     -64.3455066
9.293                0.935008819     -64.4446104
9.294                0.934876138     -64.5439812
9.295                0.934743056       -64.64362
9.296                0.934609573     -64.7435278
9.297                0.934475686     -64.8437055
9.298                0.934341393     -64.9441541
9.299                0.934206691     -65.0448744
9.3                   0.93407158     -65.1458676
9.301                0.933936056     -65.2471345
9.302                0.933800117     -65.3486762
9.303                0.933663762     -65.4504936
9.304                0.933526989     -65.5525877
9.305                0.933389794     -65.6549594
9.306                0.933252177     -65.7576099
9.307                0.933114135       -65.86054
9.308                0.932975665     -65.9637508
9.309                0.932836767     -66.0672432
9.31                 0.932697437     -66.1710182
9.311                0.932557673      -66.275077
9.312                0.932417474     -66.3794204
9.313                0.932276837     -66.4840495
9.314                0.932135759     -66.5889654
9.315                 0.93199424     -66.6941689
9.316                0.931852277     -66.7996612
9.317                0.931709866     -66.9054433
9.318                0.931567008     -67.0115162
9.319                0.931423698      -67.117881
9.32                 0.931279936     -67.2245386
9.321                0.931135718     -67.3314902
9.322                0.930991043     -67.4387368
9.323                0.930845909     -67.5462793
9.324                0.930700312      -67.654119
9.325                0.930554252     -67.7622568
9.326                0.930407726     -67.8706939
9.327                0.930260732     -67.9794312
9.328                0.930113266     -68.0884698
9.329                0.929965329     -68.1978109
9.33                 0.929816916     -68.3074554
9.331                0.929668026     -68.4174045
9.332                0.929518657     -68.5276593
9.333                0.929368806     -68.6382208
9.334                0.929218472     -68.7490902
9.335                0.929067651     -68.8602685
9.336                0.928916343     -68.9717568
9.337                0.928764543     -69.0835563
9.338                0.928612251      -69.195668
9.339                0.928459465      -69.308093
9.34                 0.928306181     -69.4208326
9.341                0.928152397     -69.5338877
9.342                0.927998112     -69.6472596
9.343                0.927843323     -69.7609492
9.344                0.927688028     -69.8749579
9.345                0.927532224     -69.9892867
9.346                 0.92737591     -70.1039367
9.347                0.927219083     -70.2189091
9.348                0.927061741      -70.334205
9.349                0.926903882     -70.4498256
9.35                 0.926745503     -70.5657721
9.351                0.926586602     -70.6820455
9.352                0.926427176     -70.7986471
9.353                0.926267225      -70.915578
9.354                0.926106744     -71.0328395
9.355                0.925945733     -71.1504326
9.356                0.925784189     -71.2683585
9.357                0.925622109     -71.3866185
9.358                0.925459491     -71.5052137
9.359                0.925296334     -71.6241452
9.36                 0.925132634     -71.7434144
9.361                0.924968389     -71.8630224
9.362                0.924803598     -71.9829703
9.363                0.924638258     -72.1032595
9.364                0.924472366     -72.2238911
9.365                0.924305921     -72.3448663
9.366                 0.92413892     -72.4661863
9.367                0.923971361     -72.5878524
9.368                0.923803241     -72.7098658
9.369                0.923634559     -72.8322277
9.37                 0.923465312     -72.9549394
9.371                0.923295498      -73.078002
9.372                0.923125114     -73.2014168
9.373                0.922954159     -73.3251852
9.374                0.922782629     -73.4493082
9.375                0.922610524     -73.5737872
9.376                 0.92243784     -73.6986235
9.377                0.922264575     -73.8238182
9.378                0.922090727     -73.9493727
9.379                0.921916294     -74.0752883
9.38                 0.921741274     -74.2015661
9.381                0.921565664     -74.3282075
9.382                0.921389462     -74.4552137
9.383                0.921212666     -74.5825861
9.384                0.921035273     -74.7103259
9.385                0.920857282     -74.8384344
9.386                0.920678689     -74.9669129
9.387                0.920499494     -75.0957628
9.388                0.920319693     -75.2249853
9.389                0.920139285     -75.3545817
9.39                 0.919958267     -75.4845533
9.391                0.919776637     -75.6149015
9.392                0.919594392     -75.7456276
9.393                0.919411532     -75.8767328
9.394                0.919228052     -76.0082186
9.395                0.919043952     -76.1400863
9.396                0.918859229     -76.2723371
