! TOUCHSTONE file generated by CST DESIGN STUDIO
! Date and time: Tue Feb  4 15:38:43 2025
! Project name: C:\Work\MatlabApps\UnitCellOptimizationMatlab\CST\unitcell.cst
! Tree item: Tasks\Sweep1\SPara1\S-Parameters
! Header version: 2024
! Port assignment regex: !\s*Touchstone port\s*([0-9]+)\s*=\s*(CST MWS port|CST DES external port|CST DES block port)\s*(.+)\s* \(\"(.*)\"\)(\s*mode\s*([0-9]+))?.*
! Touchstone port assignment:
! Touchstone port 1 = CST DES external port 1 ("")
# GHz S MA R 50
9                    0.849130854     -121.495401
9.001                0.848471511     -121.782367
9.002                0.847811188     -122.070149
9.003                 0.84714991     -122.358748
9.004                0.846487702     -122.648166
9.005                 0.84582459     -122.938401
9.006                0.845160601     -123.229454
9.007                0.844495761     -123.521326
9.008                0.843830097     -123.814017
9.009                0.843163636     -124.107527
9.01                 0.842496405     -124.401856
9.011                0.841828433     -124.697005
9.012                0.841159748     -124.992973
9.013                0.840490377      -125.28976
9.014                0.839820351     -125.587367
9.015                0.839149698     -125.885794
9.016                0.838478447      -126.18504
9.017                0.837806629     -126.485105
9.018                0.837134273      -126.78599
9.019                 0.83646141     -127.087693
9.02                 0.835788071     -127.390216
9.021                0.835114286     -127.693557
9.022                0.834440088     -127.997716
9.023                0.833765507     -128.302693
9.024                0.833090576     -128.608488
9.025                0.832415328     -128.915099
9.026                0.831739795     -129.222528
9.027                0.831064009     -129.530772
9.028                0.830388005     -129.839832
9.029                0.829711816     -130.149706
9.03                 0.829035475     -130.460395
9.031                0.828359017     -130.771897
9.032                0.827682477     -131.084212
9.033                0.827005889     -131.397339
9.034                0.826329288     -131.711277
9.035                 0.82565271     -132.026025
9.036                0.824976191     -132.341581
9.037                0.824299766     -132.657946
9.038                0.823623472     -132.975118
9.039                0.822947346     -133.293096
9.04                 0.822271424     -133.611879
9.041                0.821595743     -133.931465
9.042                0.820920342     -134.251853
9.043                0.820245257     -134.573043
9.044                0.819570527     -134.895031
9.045                0.818896189     -135.217818
9.046                0.818222284     -135.541401
9.047                0.817548848      -135.86578
9.048                0.816875922     -136.190952
9.049                0.816203544     -136.516915
9.05                 0.815531754     -136.843668
9.051                0.814860593      -137.17121
9.052                0.814190099     -137.499538
9.053                0.813520314     -137.828651
9.054                0.812851278     -138.158546
9.055                0.812183031     -138.489221
9.056                0.811515616     -138.820675
9.057                0.810849072     -139.152905
9.058                0.810183441      -139.48591
9.059                0.809518765     -139.819686
9.06                 0.808855086     -140.154231
9.061                0.808192446     -140.489544
9.062                0.807530887     -140.825622
9.063                0.806870452     -141.162461
9.064                0.806211183      -141.50006
9.065                0.805553123     -141.838416
9.066                0.804896316     -142.177526
9.067                0.804240803     -142.517388
9.068                 0.80358663     -142.857998
9.069                0.802933838     -143.199355
9.07                 0.802282473     -143.541453
9.071                0.801632576     -143.884292
9.072                0.800984194     -144.227867
9.073                0.800337369     -144.572175
9.074                0.799692146     -144.917214
9.075                 0.79904857      -145.26298
9.076                0.798406684     -145.609469
9.077                0.797766534     -145.956679
9.078                0.797128163     -146.304605
9.079                0.796491617     -146.653243
9.08                 0.795856941     -147.002592
9.081                0.795224179     -147.352646
9.082                0.794593377     -147.703402
9.083                 0.79396458     -148.054856
9.084                0.793337832     -148.407004
9.085                 0.79271318     -148.759842
9.086                0.792090667     -149.113366
9.087                0.791470341     -149.467572
9.088                0.790852245     -149.822456
9.089                0.790236425     -150.178013
9.09                 0.789622927      -150.53424
9.091                0.789011796     -150.891131
9.092                0.788403077     -151.248682
9.093                0.787796816     -151.606888
9.094                0.787193057     -151.965746
9.095                0.786591847      -152.32525
9.096                0.785993231     -152.685396
9.097                0.785397253     -153.046178
9.098                0.784803959     -153.407592
9.099                0.784213395     -153.769632
9.1                  0.783625604     -154.132294
9.101                0.783040633     -154.495573
9.102                0.782458526     -154.859463
9.103                0.781879327     -155.223959
9.104                0.781303083     -155.589056
9.105                0.780729836     -155.954748
9.106                0.780159632      -156.32103
9.107                0.779592514     -156.687896
9.108                0.779028528     -157.055341
9.109                0.778467717     -157.423359
9.11                 0.777910126     -157.791943
9.111                0.777355797     -158.161089
9.112                0.776804774      -158.53079
9.113                0.776257101     -158.901041
9.114                0.775712822     -159.271835
9.115                0.775171978     -159.643166
9.116                0.774634613     -160.015028
9.117                0.774100769     -160.387414
9.118                0.773570489     -160.760319
9.119                0.773043814     -161.133736
9.12                 0.772520788     -161.507659
9.121                 0.77200145      -161.88208
9.122                0.771485843     -162.256994
9.123                0.770974008     -162.632393
9.124                0.770465984     -163.008272
9.125                0.769961814     -163.384622
9.126                0.769461537     -163.761438
9.127                0.768965193     -164.138713
9.128                0.768472821     -164.516438
9.129                 0.76798446     -164.894608
9.13                 0.767500151     -165.273215
9.131                 0.76701993     -165.652252
9.132                0.766543837     -166.031712
9.133                0.766071909     -166.411587
9.134                0.765604184     -166.791871
9.135                0.765140699     -167.172555
9.136                 0.76468149     -167.553632
9.137                0.764226593     -167.935095
9.138                0.763776046     -168.316936
9.139                0.763329882     -168.699148
9.14                 0.762888138     -169.081722
9.141                0.762450847     -169.464651
9.142                0.762018045     -169.847927
9.143                0.761589765     -170.231542
9.144                0.761166039     -170.615489
9.145                0.760746902     -170.999759
9.146                0.760332384     -171.384344
9.147                 0.75992252     -171.769237
9.148                0.759517338     -172.154429
9.149                0.759116872     -172.539912
9.15                  0.75872115     -172.925677
9.151                0.758330203     -173.311717
9.152                0.757944061     -173.698023
9.153                0.757562752     -174.084587
9.154                0.757186305     -174.471401
9.155                0.756814747     -174.858455
9.156                0.756448106     -175.245742
9.157                0.756086408     -175.633253
9.158                 0.75572968      -176.02098
9.159                0.755377948     -176.408913
9.16                 0.755031236     -176.797045
9.161                0.754689569     -177.185366
9.162                0.754352971     -177.573868
9.163                0.754021466     -177.962543
9.164                0.753695075     -178.351381
9.165                0.753373822     -178.740373
9.166                0.753057728     -179.129512
9.167                0.752746814     -179.518788
9.168                  0.7524411     -179.908191
9.169                0.752140606      179.702286
9.17                 0.751845352      179.312652
9.171                0.751555355      178.922918
9.172                0.751270634       178.53309
9.173                0.750991207      178.143179
9.174                0.750717089      177.753194
9.175                0.750448298      177.363143
9.176                0.750184847      176.973035
9.177                0.749926753       176.58288
9.178                0.749674029      176.192687
9.179                0.749426689      175.802464
9.18                 0.749184746       175.41222
9.181                0.748948212      175.021966
9.182                0.748717098      174.631709
9.183                0.748491415      174.241459
9.184                0.748271175      173.851226
9.185                0.748056386      173.461017
9.186                0.747847057      173.070842
9.187                0.747643197      172.680711
9.188                0.747444813      172.290632
9.189                0.747251912      171.900614
9.19                 0.747064501      171.510667
9.191                0.746882586        171.1208
9.192                 0.74670617      170.731021
9.193                 0.74653526       170.34134
9.194                0.746369858      169.951766
9.195                0.746209968      169.562308
9.196                0.746055591      169.172974
9.197                0.745906731      168.783774
9.198                0.745763387      168.394717
9.199                 0.74562556      168.005812
9.2                   0.74549325      167.617068
9.201                0.745366457      167.228494
9.202                0.745245178      166.840098
9.203                0.745129412      166.451889
9.204                0.745019155      166.063877
9.205                0.744914405      165.676071
9.206                0.744815157      165.288478
9.207                0.744721407      164.901108
9.208                0.744633149       164.51397
9.209                0.744550377      164.127073
9.21                 0.744473085      163.740424
9.211                0.744401265      163.354033
9.212                 0.74433491      162.967909
9.213                0.744274011      162.582059
9.214                0.744218559      162.196493
9.215                0.744168544      161.811219
9.216                0.744123957      161.426246
9.217                0.744084786      161.041581
9.218                0.744051019      160.657234
9.219                0.744022646      160.273213
9.22                 0.743999653      159.889525
9.221                0.743982026       159.50618
9.222                0.743969753      159.123186
9.223                0.743962818       158.74055
9.224                0.743961208      158.358281
9.225                0.743964905      157.976387
9.226                0.743973895      157.594876
9.227                0.743988161      157.213756
9.228                0.744007686      156.833035
9.229                0.744032451       156.45272
9.23                  0.74406244       156.07282
9.231                0.744097632      155.693342
9.232                 0.74413801      155.314294
9.233                0.744183552      154.935683
9.234                 0.74423424      154.557518
9.235                0.744290052      154.179806
9.236                0.744350966      153.802554
9.237                0.744416963      153.425769
9.238                0.744488018      153.049459
9.239                 0.74456411      152.673631
9.24                 0.744645215      152.298293
9.241                 0.74473131      151.923451
9.242                0.744822372      151.549113
9.243                0.744918374      151.175286
9.244                0.745019294      150.801976
9.245                0.745125104      150.429191
9.246                 0.74523578      150.056937
9.247                0.745351296      149.685221
9.248                0.745471625       149.31405
9.249                 0.74559674       148.94343
9.25                 0.745726614      148.573368
9.251                0.745861219      148.203871
9.252                0.746000527      147.834944
9.253                0.746144509      147.466595
9.254                0.746293138      147.098828
9.255                0.746446384      146.731652
9.256                0.746604217      146.365071
9.257                0.746766608      145.999091
9.258                0.746933526      145.633719
9.259                0.747104942      145.268961
9.26                 0.747280824      144.904822
9.261                0.747461141      144.541309
9.262                0.747645863      144.178426
9.263                0.747834958      143.816179
9.264                0.748028393      143.454574
9.265                0.748226137      143.093617
9.266                0.748428157      142.733312
9.267                0.748634421      142.373666
9.268                0.748844896      142.014682
9.269                0.749059549      141.656367
9.27                 0.749278346      141.298725
9.271                0.749501254      140.941761
9.272                0.749728239      140.585481
9.273                0.749959268      140.229889
9.274                0.750194305       139.87499
9.275                0.750433318      139.520788
9.276                 0.75067627      139.167288
9.277                0.750923129      138.814495
9.278                0.751173858      138.462413
9.279                0.751428422      138.111047
9.28                 0.751686788        137.7604
9.281                0.751948918      137.410477
9.282                0.752214779      137.061282
9.283                0.752484334       136.71282
9.284                0.752757548      136.365093
9.285                0.753034385      136.018107
9.286                0.753314809      135.671865
9.287                0.753598785       135.32637
9.288                0.753886275      134.981626
9.289                0.754177245      134.637638
9.29                 0.754471657      134.294408
9.291                0.754769476       133.95194
9.292                0.755070665      133.610237
9.293                0.755375188      133.269303
9.294                0.755683008       132.92914
9.295                 0.75599409      132.589753
9.296                0.756308395      132.251144
9.297                0.756625889      131.913315
9.298                0.756946534      131.576271
9.299                0.757270294      131.240014
9.3                  0.757597132      130.904547
9.301                0.757927012      130.569872
9.302                0.758259897      130.235992
9.303                 0.75859575       129.90291
9.304                0.758934536      129.570628
9.305                0.759276217      129.239148
9.306                0.759620757      128.908474
9.307                0.759968119      128.578607
9.308                0.760318268       128.24955
9.309                0.760671166      127.921304
9.31                 0.761026778      127.593872
9.311                0.761385067      127.267256
9.312                0.761745997      126.941458
9.313                0.762109532       126.61648
9.314                0.762475636      126.292323
9.315                0.762844272      125.968989
9.316                0.763215406      125.646481
9.317                0.763589001      125.324799
9.318                0.763965021      125.003945
9.319                 0.76434343      124.683921
9.32                 0.764724194      124.364729
9.321                0.765107277      124.046369
9.322                0.765492643      123.728843
9.323                0.765880258      123.412152
9.324                0.766270086      123.096298
9.325                0.766662092      122.781281
9.326                0.767056241      122.467102
9.327                0.767452499      122.153764
9.328                0.767850832      121.841266
9.329                0.768251204      121.529609
9.33                 0.768653581      121.218795
9.331                 0.76905793      120.908824
9.332                0.769464216      120.599697
9.333                0.769872406      120.291415
9.334                0.770282465      119.983978
9.335                0.770694361      119.677387
9.336                0.771108059      119.371642
9.337                0.771523527      119.066744
9.338                0.771940732      118.762693
9.339                0.772359641       118.45949
9.34                  0.77278022      118.157135
9.341                0.773202438      117.855628
9.342                0.773626262      117.554969
9.343                0.774051661      117.255159
9.344                0.774478601      116.956198
9.345                0.774907052      116.658086
9.346                0.775336981      116.360822
9.347                0.775768358      116.064407
9.348                 0.77620115      115.768841
9.349                0.776635328      115.474123
9.35                  0.77707086      115.180254
9.351                0.777507715      114.887233
9.352                0.777945864       114.59506
9.353                0.778385275      114.303735
9.354                 0.77882592      114.013257
9.355                0.779267767      113.723626
9.356                0.779710788      113.434842
9.357                0.780154953      113.146903
9.358                0.780600233      112.859811
9.359                0.781046599      112.573563
9.36                 0.781494022       112.28816
9.361                0.781942473      112.003601
9.362                0.782391925      111.719885
9.363                0.782842349      111.437011
9.364                0.783293718      111.154979
9.365                0.783746002      110.873789
9.366                0.784199176      110.593438
9.367                0.784653212      110.313927
9.368                0.785108083      110.035255
9.369                0.785563761       109.75742
9.37                 0.786020221      109.480421
9.371                0.786477436      109.204259
9.372                 0.78693538      108.928931
9.373                0.787394027      108.654437
9.374                0.787853352      108.380775
9.375                0.788313328      108.107945
9.376                0.788773931      107.835945
9.377                0.789235136      107.564775
9.378                0.789696917      107.294433
9.379                0.790159251      107.024917
9.38                 0.790622113      106.756227
9.381                0.791085478      106.488361
9.382                0.791549324      106.221318
9.383                0.792013626      105.955097
9.384                 0.79247836      105.689697
9.385                0.792943505      105.425115
9.386                0.793409036      105.161351
9.387                0.793874931      104.898403
9.388                0.794341167      104.636269
9.389                0.794807723      104.374949
9.39                 0.795274575      104.114441
9.391                0.795741703      103.854743
9.392                0.796209084      103.595853
9.393                0.796676697      103.337771
9.394                0.797144522      103.080493
9.395                0.797612536       102.82402
9.396                0.798080719       102.56835
