! TOUCHSTONE file generated by CST DESIGN STUDIO
! Date and time: Tue Feb  4 16:13:23 2025
! Project name: C:\Work\MatlabApps\UnitCellOptimizationMatlab\CST\unitcell.cst
! Tree item: Tasks\Sweep1\SPara1\S-Parameters
! Header version: 2024
! Port assignment regex: !\s*Touchstone port\s*([0-9]+)\s*=\s*(CST MWS port|CST DES external port|CST DES block port)\s*(.+)\s* \(\"(.*)\"\)(\s*mode\s*([0-9]+))?.*
! Touchstone port assignment:
! Touchstone port 1 = CST DES external port 1 ("")
# GHz S MA R 50
9                    0.968019163     -47.2412327
9.001                0.967943876     -47.3009898
9.002                0.967868333     -47.3608653
9.003                0.967792533     -47.4208596
9.004                0.967716476      -47.480973
9.005                0.967640161     -47.5412058
9.006                0.967563587     -47.6015586
9.007                0.967486755     -47.6620315
9.008                0.967409663     -47.7226251
9.009                 0.96733231     -47.7833396
9.01                 0.967254697     -47.8441755
9.011                0.967176823     -47.9051331
9.012                0.967098687     -47.9662128
9.013                0.967020288      -48.027415
9.014                0.966941626       -48.08874
9.015                0.966862701     -48.1501883
9.016                0.966783511     -48.2117602
9.017                0.966704057     -48.2734562
9.018                0.966624337     -48.3352766
9.019                0.966544351     -48.3972217
9.02                 0.966464098      -48.459292
9.021                0.966383578     -48.5214879
9.022                 0.96630279     -48.5838098
9.023                0.966221734     -48.6462581
9.024                0.966140408     -48.7088331
9.025                0.966058813     -48.7715352
9.026                0.965976948      -48.834365
9.027                0.965894811     -48.8973226
9.028                0.965812403     -48.9604087
9.029                0.965729723     -49.0236235
9.03                 0.965646769     -49.0869674
9.031                0.965563542      -49.150441
9.032                0.965480041     -49.2140445
9.033                0.965396265     -49.2777785
9.034                0.965312214     -49.3416432
9.035                0.965227886     -49.4056392
9.036                0.965143282     -49.4697667
9.037                  0.9650584     -49.5340264
9.038                 0.96497324     -49.5984185
9.039                0.964887801     -49.6629435
9.04                 0.964802082     -49.7276018
9.041                0.964716083     -49.7923939
9.042                0.964629804     -49.8573201
9.043                0.964543243     -49.9223809
9.044                0.964456399     -49.9875767
9.045                0.964369273      -50.052908
9.046                0.964281863     -50.1183751
9.047                0.964194168     -50.1839786
9.048                0.964106189     -50.2497188
9.049                0.964017924     -50.3155961
9.05                 0.963929372     -50.3816111
9.051                0.963840533     -50.4477641
9.052                0.963751406     -50.5140557
9.053                 0.96366199     -50.5804862
9.054                0.963572285      -50.647056
9.055                 0.96348229     -50.7137657
9.056                0.963392005     -50.7806157
9.057                0.963301427     -50.8476064
9.058                0.963210557     -50.9147383
9.059                0.963119394     -50.9820118
9.06                 0.963027938     -51.0494274
9.061                0.962936186     -51.1169855
9.062                 0.96284414     -51.1846867
9.063                0.962751797     -51.2525313
9.064                0.962659157     -51.3205199
9.065                 0.96256622     -51.3886528
9.066                0.962472984     -51.4569306
9.067                0.962379449     -51.5253538
9.068                0.962285614     -51.5939227
9.069                0.962191479     -51.6626379
9.07                 0.962097042     -51.7314998
9.071                0.962002302     -51.8005089
9.072                0.961907259     -51.8696658
9.073                0.961811913     -51.9389708
9.074                0.961716261     -52.0084244
9.075                0.961620304     -52.0780272
9.076                0.961524041     -52.1477796
9.077                 0.96142747     -52.2176821
9.078                0.961330592     -52.2877352
9.079                0.961233404     -52.3579393
9.08                 0.961135907     -52.4282951
9.081                  0.9610381     -52.4988028
9.082                0.960939981     -52.5694632
9.083                 0.96084155     -52.6402766
9.084                0.960742806     -52.7112436
9.085                0.960643748     -52.7823646
9.086                0.960544375     -52.8536402
9.087                0.960444686     -52.9250708
9.088                0.960344682      -52.996657
9.089                 0.96024436     -53.0683993
9.09                 0.960143719     -53.1402982
9.091                 0.96004276     -53.2123542
9.092                0.959941481     -53.2845678
9.093                 0.95983988     -53.3569395
9.094                0.959737959     -53.4294699
9.095                0.959635714     -53.5021595
9.096                0.959533146     -53.5750087
9.097                0.959430254     -53.6480182
9.098                0.959327036     -53.7211884
9.099                0.959223492     -53.7945199
9.1                  0.959119621     -53.8680132
9.101                0.959015422     -53.9416689
9.102                0.958910894     -54.0154874
9.103                0.958806036     -54.0894694
9.104                0.958700848     -54.1636153
9.105                0.958595327     -54.2379256
9.106                0.958489474     -54.3124011
9.107                0.958383288     -54.3870421
9.108                0.958276766     -54.4618492
9.109                0.958169909      -54.536823
9.11                 0.958062716      -54.611964
9.111                0.957955186     -54.6872729
9.112                0.957847317       -54.76275
9.113                0.957739108     -54.8383961
9.114                0.957630559     -54.9142116
9.115                0.957521669     -54.9901971
9.116                0.957412437     -55.0663533
9.117                0.957302862     -55.1426805
9.118                0.957192942     -55.2191795
9.119                0.957082677     -55.2958508
9.12                 0.956972065     -55.3726949
9.121                0.956861107     -55.4497125
9.122                  0.9567498     -55.5269041
9.123                0.956638144     -55.6042703
9.124                0.956526138     -55.6818117
9.125                 0.95641378     -55.7595288
9.126                 0.95630107     -55.8374223
9.127                0.956188007     -55.9154927
9.128                 0.95607459     -55.9937407
9.129                0.955960817     -56.0721668
9.13                 0.955846687     -56.1507716
9.131                  0.9557322     -56.2295557
9.132                0.955617355     -56.3085197
9.133                 0.95550215     -56.3876643
9.134                0.955386584     -56.4669899
9.135                0.955270657     -56.5464973
9.136                0.955154367     -56.6261871
9.137                0.955037713     -56.7060598
9.138                0.954920694      -56.786116
9.139                 0.95480331     -56.8663565
9.14                 0.954685558     -56.9467817
9.141                0.954567438     -57.0273924
9.142                0.954448949     -57.1081891
9.143                0.954330089     -57.1891725
9.144                0.954210858     -57.2703432
9.145                0.954091254     -57.3517018
9.146                0.953971277      -57.433249
9.147                0.953850925     -57.5149854
9.148                0.953730197     -57.5969116
9.149                0.953609093     -57.6790283
9.15                  0.95348761     -57.7613362
9.151                0.953365747     -57.8438357
9.152                0.953243505     -57.9265278
9.153                0.953120881     -58.0094128
9.154                0.952997874     -58.0924916
9.155                0.952874483     -58.1757648
9.156                0.952750708      -58.259233
9.157                0.952626546     -58.3428969
9.158                0.952501997     -58.4267571
9.159                0.952377059     -58.5108144
9.16                 0.952251732     -58.5950694
9.161                0.952126014     -58.6795227
9.162                0.951999905      -58.764175
9.163                0.951873402     -58.8490271
9.164                0.951746504     -58.9340795
9.165                0.951619212      -59.019333
9.166                0.951491522     -59.1047883
9.167                0.951363435      -59.190446
9.168                0.951234948     -59.2763068
9.169                0.951106061     -59.3623714
9.17                 0.950976773     -59.4486405
9.171                0.950847081     -59.5351149
9.172                0.950716986     -59.6217951
9.173                0.950586486      -59.708682
9.174                0.950455579     -59.7957761
9.175                0.950324265     -59.8830783
9.176                0.950192541     -59.9705892
9.177                0.950060408     -60.0583096
9.178                0.949927863     -60.1462401
9.179                0.949794906     -60.2343815
9.18                 0.949661535     -60.3227344
9.181                0.949527748     -60.4112997
9.182                0.949393545      -60.500078
9.183                0.949258925     -60.5890701
9.184                0.949123886     -60.6782767
9.185                0.948988426     -60.7676986
9.186                0.948852545     -60.8573364
9.187                0.948716242     -60.9471909
9.188                0.948579514     -61.0372629
9.189                0.948442361      -61.127553
9.19                 0.948304781     -61.2180622
9.191                0.948166773      -61.308791
9.192                0.948028337     -61.3997403
9.193                0.947889469     -61.4909108
9.194                 0.94775017     -61.5823032
9.195                0.947610438     -61.6739184
9.196                0.947470271     -61.7657571
9.197                0.947329669     -61.8578201
9.198                0.947188629     -61.9501081
9.199                0.947047152     -62.0426219
9.2                  0.946905234     -62.1353622
9.201                0.946762875       -62.22833
9.202                0.946620074     -62.3215259
9.203                0.946476829     -62.4149507
9.204                0.946333139     -62.5086053
9.205                0.946189003     -62.6024904
9.206                0.946044418     -62.6966067
9.207                0.945899385     -62.7909552
9.208                0.945753901     -62.8855366
9.209                0.945607966     -62.9803517
9.21                 0.945461577     -63.0754013
9.211                0.945314733     -63.1706862
9.212                0.945167433     -63.2662073
9.213                0.945019676     -63.3619653
9.214                0.944871461     -63.4579611
9.215                0.944722785     -63.5541955
9.216                0.944573648     -63.6506693
9.217                0.944424048     -63.7473833
9.218                0.944273983     -63.8443384
9.219                0.944123453     -63.9415354
9.22                 0.943972456     -64.0389751
9.221                 0.94382099     -64.1366584
9.222                0.943669054     -64.2345862
9.223                0.943516648     -64.3327592
9.224                0.943363768     -64.4311783
9.225                0.943210414     -64.5298444
9.226                0.943056585     -64.6287583
9.227                0.942902279     -64.7279209
9.228                0.942747494     -64.8273331
9.229                 0.94259223     -64.9269956
9.23                 0.942436484     -65.0269094
9.231                0.942280256     -65.1270754
9.232                0.942123544     -65.2274943
9.233                0.941966346     -65.3281672
9.234                0.941808661     -65.4290949
9.235                0.941650488     -65.5302782
9.236                0.941491825      -65.631718
9.237                 0.94133267     -65.7334153
9.238                0.941173023     -65.8353709
9.239                0.941012882     -65.9375857
9.24                 0.940852245     -66.0400607
9.241                 0.94069111     -66.1427966
9.242                0.940529478     -66.2457946
9.243                0.940367345     -66.3490553
9.244                0.940204711     -66.4525798
9.245                0.940041574      -66.556369
9.246                0.939877932     -66.6604237
9.247                0.939713785      -66.764745
9.248                 0.93954913     -66.8693336
9.249                0.939383966     -66.9741907
9.25                 0.939218292      -67.079317
9.251                0.939052107     -67.1847136
9.252                0.938885408     -67.2903813
9.253                0.938718194     -67.3963212
9.254                0.938550464     -67.5025341
9.255                0.938382217      -67.609021
9.256                 0.93821345     -67.7157829
9.257                0.938044163     -67.8228206
9.258                0.937874353     -67.9301353
9.259                 0.93770402     -68.0377277
9.26                 0.937533162      -68.145599
9.261                0.937361777       -68.25375
9.262                0.937189864     -68.3621818
9.263                0.937017422     -68.4708953
9.264                0.936844448     -68.5798914
9.265                0.936670942     -68.6891712
9.266                0.936496902     -68.7987357
9.267                0.936322327     -68.9085859
9.268                0.936147214     -69.0187227
9.269                0.935971563     -69.1291471
9.27                 0.935795372     -69.2398601
9.271                 0.93561864     -69.3508628
9.272                0.935441364     -69.4621561
9.273                0.935263544     -69.5737411
9.274                0.935085178     -69.6856187
9.275                0.934906265     -69.7977901
9.276                0.934726802     -69.9102561
9.277                 0.93454679     -70.0230178
9.278                0.934366225     -70.1360763
9.279                0.934185107     -70.2494326
9.28                 0.934003434     -70.3630877
9.281                0.933821204     -70.4770426
9.282                0.933638417     -70.5912985
9.283                 0.93345507     -70.7058562
9.284                0.933271163      -70.820717
9.285                0.933086693     -70.9358818
9.286                0.932901659     -71.0513516
9.287                 0.93271606     -71.1671276
9.288                0.932529894     -71.2832109
9.289                 0.93234316     -71.3996024
9.29                 0.932155856     -71.5163032
9.291                0.931967982     -71.6333145
9.292                0.931779534     -71.7506372
9.293                0.931590512     -71.8682725
9.294                0.931400915     -71.9862214
9.295                 0.93121074     -72.1044851
9.296                0.931019987     -72.2230646
9.297                0.930828654     -72.3419611
9.298                0.930636739     -72.4611755
9.299                0.930444242     -72.5807091
9.3                   0.93025116     -72.7005628
9.301                0.930057493     -72.8207379
9.302                0.929863238     -72.9412355
9.303                0.929668394     -73.0620565
9.304                 0.92947296     -73.1832023
9.305                0.929276935     -73.3046738
9.306                0.929080317     -73.4264722
9.307                0.928883104     -73.5485987
9.308                0.928685295     -73.6710543
9.309                0.928486889     -73.7938403
9.31                 0.928287885     -73.9169576
9.311                 0.92808828     -74.0404076
9.312                0.927888074     -74.1641913
9.313                0.927687265     -74.2883099
9.314                0.927485851     -74.4127645
9.315                0.927283832     -74.5375563
9.316                0.927081206     -74.6626864
9.317                0.926877971     -74.7881561
9.318                0.926674127     -74.9139664
9.319                0.926469671     -75.0401185
9.32                 0.926264603     -75.1666137
9.321                0.926058921     -75.2934531
9.322                0.925852624     -75.4206378
9.323                 0.92564571     -75.5481691
9.324                0.925438178     -75.6760482
9.325                0.925230027     -75.8042762
9.326                0.925021255     -75.9328543
9.327                0.924811862     -76.0617837
9.328                0.924601845     -76.1910657
9.329                0.924391204     -76.3207014
9.33                 0.924179937     -76.4506921
9.331                0.923968043     -76.5810388
9.332                 0.92375552      -76.711743
9.333                0.923542368     -76.8428057
9.334                0.923328586     -76.9742283
9.335                0.923114171     -77.1060118
9.336                0.922899122     -77.2381577
9.337                0.922683439      -77.370667
9.338                0.922467121      -77.503541
9.339                0.922250165      -77.636781
9.34                 0.922032571     -77.7703882
9.341                0.921814338     -77.9043638
9.342                0.921595464     -78.0387092
9.343                0.921375949     -78.1734255
9.344                 0.92115579     -78.3085139
9.345                0.920934988     -78.4439759
9.346                 0.92071354     -78.5798125
9.347                0.920491447     -78.7160252
9.348                0.920268705     -78.8526151
9.349                0.920045316     -78.9895835
9.35                 0.919821276     -79.1269317
9.351                0.919596586      -79.264661
9.352                0.919371244     -79.4027726
9.353                 0.91914525     -79.5412679
9.354                0.918918602      -79.680148
9.355                0.918691299     -79.8194144
9.356                 0.91846334     -79.9590683
9.357                0.918234724     -80.0991111
9.358                 0.91800545     -80.2395439
9.359                0.917775518     -80.3803681
9.36                 0.917544926      -80.521585
9.361                0.917313673     -80.6631959
9.362                0.917081759     -80.8052022
9.363                0.916849182     -80.9476051
9.364                0.916615942     -81.0904059
9.365                0.916382038      -81.233606
9.366                0.916147469     -81.3772068
9.367                0.915912233     -81.5212094
9.368                0.915676332     -81.6656153
9.369                0.915439762     -81.8104258
9.37                 0.915202524     -81.9556423
9.371                0.914964617     -82.1012659
9.372                0.914726041     -82.2472982
9.373                0.914486794     -82.3937404
9.374                0.914246875     -82.5405939
9.375                0.914006285       -82.68786
9.376                0.913765022     -82.8355402
9.377                0.913523086     -82.9836356
9.378                0.913280475     -83.1321478
9.379                0.913037191      -83.281078
9.38                 0.912793231     -83.4304276
9.381                0.912548596      -83.580198
9.382                0.912303284     -83.7303905
9.383                0.912057296     -83.8810065
9.384                0.911810631     -84.0320475
9.385                0.911563288     -84.1835146
9.386                0.911315267     -84.3354095
9.387                0.911066567     -84.4877333
9.388                0.910817189     -84.6404875
9.389                0.910567131     -84.7936735
9.39                 0.910316393     -84.9472926
9.391                0.910064975     -85.1013463
9.392                0.909812877      -85.255836
9.393                0.909560099     -85.4107629
9.394                 0.90930664     -85.5661286
9.395                0.909052499     -85.7219344
9.396                0.908797678     -85.8781817
