! TOUCHSTONE file generated by CST DESIGN STUDIO
! Date and time: Tue Feb  4 16:13:20 2025
! Project name: C:\Work\MatlabApps\UnitCellOptimizationMatlab\CST\unitcell.cst
! Tree item: Tasks\Sweep1\SPara1\S-Parameters
! Header version: 2024
! Port assignment regex: !\s*Touchstone port\s*([0-9]+)\s*=\s*(CST MWS port|CST DES external port|CST DES block port)\s*(.+)\s* \(\"(.*)\"\)(\s*mode\s*([0-9]+))?.*
! Touchstone port assignment:
! Touchstone port 1 = CST DES external port 1 ("")
# GHz S MA R 50
9                    0.958826761      -55.435927
9.001                0.958730804     -55.5121113
9.002                 0.95863446     -55.5884696
9.003                0.958537729     -55.6650027
9.004                0.958440608     -55.7417111
9.005                0.958343098     -55.8185952
9.006                0.958245195     -55.8956558
9.007                  0.9581469     -55.9728933
9.008                 0.95804821     -56.0503084
9.009                0.957949125     -56.1279015
9.01                 0.957849643     -56.2056734
9.011                0.957749763     -56.2836244
9.012                0.957649484     -56.3617553
9.013                0.957548804     -56.4400666
9.014                0.957447722     -56.5185589
9.015                0.957346236     -56.5972327
9.016                0.957244346     -56.6760887
9.017                 0.95714205     -56.7551274
9.018                0.957039347     -56.8343494
9.019                0.956936235     -56.9137554
9.02                 0.956832714     -56.9933459
9.021                0.956728781     -57.0731215
9.022                0.956624435     -57.1530828
9.023                0.956519676     -57.2332304
9.024                0.956414501     -57.3135649
9.025                 0.95630891     -57.3940869
9.026                  0.9562029     -57.4747971
9.027                0.956096472      -57.555696
9.028                0.955989622     -57.6367843
9.029                0.955882351     -57.7180625
9.03                 0.955774655     -57.7995313
9.031                0.955666536     -57.8811913
9.032                0.955557989     -57.9630432
9.033                0.955449016     -58.0450875
9.034                0.955339613     -58.1273249
9.035                 0.95522978      -58.209756
9.036                0.955119514     -58.2923814
9.037                0.955008816     -58.3752018
9.038                0.954897683     -58.4582178
9.039                0.954786114     -58.5414301
9.04                 0.954674108     -58.6248393
9.041                0.954561663      -58.708446
9.042                0.954448777     -58.7922508
9.043                 0.95433545     -58.8762546
9.044                 0.95422168     -58.9604577
9.045                0.954107465     -59.0448611
9.046                0.953992804     -59.1294652
9.047                0.953877695     -59.2142708
9.048                0.953762137     -59.2992784
9.049                 0.95364613     -59.3844889
9.05                  0.95352967     -59.4699028
9.051                0.953412757     -59.5555208
9.052                0.953295389     -59.6413436
9.053                0.953177565     -59.7273719
9.054                0.953059283     -59.8136063
9.055                0.952940542     -59.9000474
9.056                0.952821341     -59.9866961
9.057                0.952701677      -60.073553
9.058                0.952581549     -60.1606187
9.059                0.952460957      -60.247894
9.06                 0.952339897     -60.3353795
9.061                 0.95221837      -60.423076
9.062                0.952096373     -60.5109841
9.063                0.951973905     -60.5991045
9.064                0.951850964      -60.687438
9.065                0.951727548     -60.7759852
9.066                0.951603657     -60.8647469
9.067                0.951479289     -60.9537237
9.068                0.951354442     -61.0429164
9.069                0.951229115     -61.1323257
9.07                 0.951103306     -61.2219523
9.071                0.950977013     -61.3117969
9.072                0.950850236     -61.4018603
9.073                0.950722972     -61.4921431
9.074                 0.95059522     -61.5826462
9.075                0.950466978     -61.6733702
9.076                0.950338245     -61.7643158
9.077                0.950209019     -61.8554839
9.078                0.950079299     -61.9468751
9.079                0.949949084     -62.0384903
9.08                  0.94981837       -62.13033
9.081                0.949687158     -62.2223952
9.082                0.949555445     -62.3146865
9.083                 0.94942323     -62.4072046
9.084                0.949290511     -62.4999505
9.085                0.949157286     -62.5929247
9.086                0.949023555     -62.6861281
9.087                0.948889315     -62.7795615
9.088                0.948754564     -62.8732255
9.089                0.948619302      -62.967121
9.09                 0.948483527     -63.0612488
9.091                0.948347236     -63.1556096
9.092                0.948210429     -63.2502042
9.093                0.948073103     -63.3450334
9.094                0.947935258      -63.440098
9.095                0.947796891     -63.5353987
9.096                0.947658001     -63.6309364
9.097                0.947518585     -63.7267118
9.098                0.947378644     -63.8227257
9.099                0.947238174     -63.9189791
9.1                  0.947097175     -64.0154725
9.101                0.946955644     -64.1122069
9.102                 0.94681358      -64.209183
9.103                0.946670981     -64.3064018
9.104                0.946527846     -64.4038639
9.105                0.946384173     -64.5015702
9.106                0.946239961     -64.5995215
9.107                0.946095206     -64.6977187
9.108                0.945949909     -64.7961626
9.109                0.945804067     -64.8948539
9.11                 0.945657679     -64.9937936
9.111                0.945510743     -65.0929825
9.112                0.945363257     -65.1924213
9.113                0.945215219      -65.292111
9.114                0.945066628     -65.3920525
9.115                0.944917483     -65.4922464
9.116                0.944767781     -65.5926938
9.117                 0.94461752     -65.6933953
9.118                  0.9444667      -65.794352
9.119                0.944315318     -65.8955647
9.12                 0.944163373     -65.9970342
9.121                0.944010863     -66.0987614
9.122                0.943857786     -66.2007471
9.123                0.943704141     -66.3029923
9.124                0.943549926     -66.4054977
9.125                0.943395138     -66.5082644
9.126                0.943239778     -66.6112932
9.127                0.943083841     -66.7145848
9.128                0.942927328     -66.8181404
9.129                0.942770237     -66.9219606
9.13                 0.942612564     -67.0260465
9.131                 0.94245431      -67.130399
9.132                0.942295471     -67.2350188
9.133                0.942136047      -67.339907
9.134                0.941976036     -67.4450644
9.135                0.941815436     -67.5504919
9.136                0.941654244     -67.6561905
9.137                0.941492461     -67.7621611
9.138                0.941330083     -67.8684046
9.139                0.941167108     -67.9749219
9.14                 0.941003537      -68.081714
9.141                0.940839365     -68.1887817
9.142                0.940674593      -68.296126
9.143                0.940509217     -68.4037479
9.144                0.940343237     -68.5116483
9.145                 0.94017665     -68.6198281
9.146                0.940009455     -68.7282882
9.147                 0.93984165     -68.8370297
9.148                0.939673234     -68.9460534
9.149                0.939504204     -69.0553604
9.15                 0.939334559     -69.1649515
9.151                0.939164297     -69.2748278
9.152                0.938993417     -69.3849902
9.153                0.938821916     -69.4954397
9.154                0.938649792     -69.6061773
9.155                0.938477046     -69.7172039
9.156                0.938303673     -69.8285204
9.157                0.938129673      -69.940128
9.158                0.937955044     -70.0520275
9.159                0.937779784       -70.16422
9.16                 0.937603892     -70.2767065
9.161                0.937427365     -70.3894879
9.162                0.937250202     -70.5025653
9.163                0.937072402     -70.6159396
9.164                0.936893962     -70.7296118
9.165                0.936714881      -70.843583
9.166                0.936535156     -70.9578542
9.167                0.936354788     -71.0724264
9.168                0.936173772     -71.1873006
9.169                0.935992109     -71.3024778
9.17                 0.935809795      -71.417959
9.171                 0.93562683     -71.5337454
9.172                0.935443212     -71.6498378
9.173                0.935258938     -71.7662374
9.174                0.935074008     -71.8829452
9.175                 0.93488842     -71.9999623
9.176                0.934702171     -72.1172896
9.177                 0.93451526     -72.2349282
9.178                0.934327686     -72.3528792
9.179                0.934139446     -72.4711436
9.18                  0.93395054     -72.5897225
9.181                0.933760964      -72.708617
9.182                0.933570718     -72.8278281
9.183                0.933379801     -72.9473569
9.184                0.933188209     -73.0672044
9.185                0.932995942     -73.1873718
9.186                0.932802998       -73.30786
9.187                0.932609375     -73.4286703
9.188                0.932415072     -73.5498037
9.189                0.932220087     -73.6712612
9.19                 0.932024417      -73.793044
9.191                0.931828063     -73.9151531
9.192                0.931631021     -74.0375897
9.193                0.931433291     -74.1603549
9.194                 0.93123487     -74.2834497
9.195                0.931035757     -74.4068753
9.196                0.930835951     -74.5306328
9.197                 0.93063545     -74.6547233
9.198                0.930434251     -74.7791479
9.199                0.930232355     -74.9039078
9.2                  0.930029758     -75.0290041
9.201                0.929826459     -75.1544378
9.202                0.929622458     -75.2802102
9.203                0.929417751     -75.4063223
9.204                0.929212339     -75.5327754
9.205                0.929006218     -75.6595705
9.206                0.928799388     -75.7867088
9.207                0.928591846     -75.9141915
9.208                0.928383593     -76.0420197
9.209                0.928174625     -76.1701945
9.21                 0.927964941     -76.2987171
9.211                0.927754541     -76.4275888
9.212                0.927543421     -76.5568106
9.213                0.927331582     -76.6863837
9.214                0.927119021     -76.8163092
9.215                0.926905737     -76.9465885
9.216                0.926691728     -77.0772226
9.217                0.926476993     -77.2082127
9.218                0.926261531     -77.3395601
9.219                 0.92604534     -77.4712658
9.22                 0.925828418     -77.6033312
9.221                0.925610765     -77.7357573
9.222                0.925392379     -77.8685454
9.223                0.925173258     -78.0016968
9.224                0.924953402     -78.1352125
9.225                0.924732808     -78.2690938
9.226                0.924511475      -78.403342
9.227                0.924289402     -78.5379581
9.228                0.924066588     -78.6729436
9.229                0.923843032     -78.8082995
9.23                 0.923618732     -78.9440271
9.231                0.923393686     -79.0801276
9.232                0.923167894     -79.2166023
9.233                0.922941354     -79.3534524
9.234                0.922714065     -79.4906791
9.235                0.922486026     -79.6282837
9.236                0.922257236     -79.7662674
9.237                0.922027693     -79.9046314
9.238                0.921797396     -80.0433771
9.239                0.921566344     -80.1825056
9.24                 0.921334536     -80.3220182
9.241                0.921101971     -80.4619162
9.242                0.920868648     -80.6022009
9.243                0.920634565     -80.7428734
9.244                0.920399721     -80.8839351
9.245                0.920164116     -81.0253873
9.246                0.919927748     -81.1672311
9.247                0.919690616      -81.309468
9.248                 0.91945272     -81.4520991
9.249                0.919214058     -81.5951257
9.25                  0.91897463     -81.7385492
9.251                0.918734433     -81.8823709
9.252                0.918493469     -82.0265919
9.253                0.918251734     -82.1712136
9.254                 0.91800923     -82.3162374
9.255                0.917765954     -82.4616644
9.256                0.917521906     -82.6074961
9.257                0.917277085     -82.7537336
9.258                0.917031491     -82.9003784
9.259                0.916785122     -83.0474317
9.26                 0.916537978     -83.1948948
9.261                0.916290058     -83.3427691
9.262                0.916041361     -83.4910559
9.263                0.915791887     -83.6397564
9.264                0.915541634     -83.7888721
9.265                0.915290603     -83.9384042
9.266                0.915038793     -84.0883541
9.267                0.914786203     -84.2387231
9.268                0.914532833     -84.3895125
9.269                0.914278681     -84.5407237
9.27                 0.914023749     -84.6923579
9.271                0.913768034     -84.8444167
9.272                0.913511537     -84.9969012
9.273                0.913254257     -85.1498128
9.274                0.912996193      -85.303153
9.275                0.912737346     -85.4569229
9.276                0.912477716      -85.611124
9.277                0.912217301     -85.7657577
9.278                0.911956101     -85.9208253
9.279                0.911694117     -86.0763281
9.28                 0.911431347     -86.2322675
9.281                0.911167793     -86.3886449
9.282                0.910903453     -86.5454616
9.283                0.910638328     -86.7027191
9.284                0.910372417     -86.8604186
9.285                 0.91010572     -87.0185615
9.286                0.909838238     -87.1771493
9.287                 0.90956997     -87.3361832
9.288                0.909300917     -87.4956647
9.289                0.909031078     -87.6555951
9.29                 0.908760454     -87.8159759
9.291                0.908489044     -87.9768084
9.292                 0.90821685     -88.1380939
9.293                 0.90794387     -88.2998339
9.294                0.907670106     -88.4620297
9.295                0.907395558     -88.6246828
9.296                0.907120225     -88.7877945
9.297                0.906844109     -88.9513663
9.298                 0.90656721     -89.1153994
9.299                0.906289528     -89.2798953
9.3                  0.906011064     -89.4448555
9.301                0.905731818     -89.6102812
9.302                0.905451791     -89.7761739
9.303                0.905170983     -89.9425349
9.304                0.904889395     -90.1093658
9.305                0.904607028     -90.2766678
9.306                0.904323883     -90.4444424
9.307                0.904039959      -90.612691
9.308                0.903755259     -90.7814149
9.309                0.903469783     -90.9506157
9.31                 0.903183532     -91.1202946
9.311                0.902896506     -91.2904531
9.312                0.902608707     -91.4610926
9.313                0.902320136     -91.6322145
9.314                0.902030794     -91.8038203
9.315                0.901740682     -91.9759112
9.316                0.901449802     -92.1484887
9.317                0.901158153     -92.3215543
9.318                0.900865739     -92.4951093
9.319                0.900572559     -92.6691551
9.32                 0.900278616     -92.8436931
9.321                0.899983911     -93.0187249
9.322                0.899688445     -93.1942516
9.323                 0.89939222     -93.3702749
9.324                0.899095237      -93.546796
9.325                0.898797498     -93.7238163
9.326                0.898499005     -93.9013374
9.327                 0.89819976     -94.0793605
9.328                0.897899763     -94.2578872
9.329                0.897599018     -94.4369187
9.33                 0.897297526     -94.6164565
9.331                0.896995288      -94.796502
9.332                0.896692308     -94.9770567
9.333                0.896388586     -95.1581218
9.334                0.896084125     -95.3396989
9.335                0.895778928     -95.5217892
9.336                0.895472996     -95.7043942
9.337                0.895166332     -95.8875154
9.338                0.894858938      -96.071154
9.339                0.894550816     -96.2553115
9.34                 0.894241969     -96.4399893
9.341                0.893932399     -96.6251888
9.342                 0.89362211     -96.8109113
9.343                0.893311103     -96.9971582
9.344                0.892999381      -97.183931
9.345                0.892686947      -97.371231
9.346                0.892373804     -97.5590596
9.347                0.892059955     -97.7474182
9.348                0.891745403     -97.9363081
9.349                 0.89143015     -98.1257307
9.35                   0.8911142     -98.3156874
9.351                0.890797555     -98.5061795
9.352                 0.89048022     -98.6972085
9.353                0.890162197     -98.8887757
9.354                 0.88984349     -99.0808824
9.355                0.889524102       -99.27353
9.356                0.889204036     -99.4667199
9.357                0.888883296     -99.6604533
9.358                0.888561886     -99.8547317
9.359                0.888239808     -100.049556
9.36                 0.887917068     -100.244929
9.361                0.887593669      -100.44085
9.362                0.887269614     -100.637322
9.363                0.886944908     -100.834345
9.364                0.886619554     -101.031921
9.365                0.886293557     -101.230051
9.366                 0.88596692     -101.428737
9.367                0.885639649      -101.62798
9.368                0.885311747     -101.827781
9.369                0.884983218     -102.028142
9.37                 0.884654067     -102.229063
9.371                0.884324299     -102.430546
9.372                0.883993918     -102.632593
9.373                0.883662929     -102.835204
9.374                0.883331337     -103.038382
9.375                0.882999145     -103.242126
9.376                 0.88266636     -103.446439
9.377                0.882332986     -103.651321
9.378                0.881999028     -103.856775
9.379                0.881664491       -104.0628
9.38                 0.881329381     -104.269399
9.381                0.880993703     -104.476573
9.382                0.880657462     -104.684322
9.383                0.880320663     -104.892649
9.384                0.879983312     -105.101553
9.385                0.879645415     -105.311038
9.386                0.879306977     -105.521102
9.387                0.878968004     -105.731749
9.388                0.878628502     -105.942979
9.389                0.878288476     -106.154792
9.39                 0.877947933     -106.367192
9.391                0.877606879     -106.580177
9.392                 0.87726532      -106.79375
9.393                0.876923263     -107.007912
9.394                0.876580712     -107.222664
9.395                0.876237676     -107.438007
9.396                 0.87589416     -107.653942
