! TOUCHSTONE file generated by CST DESIGN STUDIO
! Date and time: Tue Feb  4 16:13:09 2025
! Project name: C:\Work\MatlabApps\UnitCellOptimizationMatlab\CST\unitcell.cst
! Tree item: Tasks\Sweep1\SPara1\S-Parameters
! Header version: 2024
! Port assignment regex: !\s*Touchstone port\s*([0-9]+)\s*=\s*(CST MWS port|CST DES external port|CST DES block port)\s*(.+)\s* \(\"(.*)\"\)(\s*mode\s*([0-9]+))?.*
! Touchstone port assignment:
! Touchstone port 1 = CST DES external port 1 ("")
# GHz S MA R 50
9                    0.898120809     -97.7970651
9.001                0.897880379     -97.9896798
9.002                0.897639288     -98.1828848
9.003                0.897397539     -98.3766816
9.004                 0.89715513     -98.5710718
9.005                0.896912065     -98.7660571
9.006                0.896668343     -98.9616391
9.007                0.896423965     -99.1578193
9.008                0.896178934     -99.3545995
9.009                 0.89593325      -99.551981
9.01                 0.895686915     -99.7499657
9.011                0.895439929      -99.948555
9.012                0.895192295     -100.147751
9.013                0.894944014     -100.347554
9.014                0.894695087     -100.547967
9.015                0.894445516      -100.74899
9.016                0.894195303     -100.950627
9.017                0.893944449     -101.152877
9.018                0.893692957     -101.355743
9.019                0.893440827     -101.559226
9.02                 0.893188063     -101.763328
9.021                0.892934666      -101.96805
9.022                0.892680639     -102.173394
9.023                0.892425983     -102.379361
9.024                  0.8921707     -102.585953
9.025                0.891914793     -102.793172
9.026                0.891658265     -103.001018
9.027                0.891401117     -103.209494
9.028                0.891143353       -103.4186
9.029                0.890884974     -103.628339
9.03                 0.890625984     -103.838712
9.031                0.890366386     -104.049719
9.032                0.890106181     -104.261364
9.033                0.889845373     -104.473647
9.034                0.889583965     -104.686569
9.035                0.889321961     -104.900133
9.036                0.889059362     -105.114339
9.037                0.888796173     -105.329189
9.038                0.888532396     -105.544684
9.039                0.888268035     -105.760826
9.04                 0.888003094     -105.977616
9.041                0.887737576     -106.195055
9.042                0.887471485     -106.413146
9.043                0.887204823     -106.631888
9.044                0.886937596     -106.851285
9.045                0.886669807     -107.071336
9.046                 0.88640146     -107.292043
9.047                0.886132559     -107.513408
9.048                0.885863108     -107.735432
9.049                0.885593111     -107.958115
9.05                 0.885322574     -108.181461
9.051                0.885051499     -108.405469
9.052                0.884779892     -108.630141
9.053                0.884507757     -108.855478
9.054                0.884235099     -109.081482
9.055                0.883961923     -109.308153
9.056                0.883688234     -109.535493
9.057                0.883414036     -109.763503
9.058                0.883139335     -109.992185
9.059                0.882864135     -110.221539
9.06                 0.882588443     -110.451566
9.061                0.882312263     -110.682268
9.062                0.882035601     -110.913646
9.063                0.881758463     -111.145701
9.064                0.881480854     -111.378434
9.065                 0.88120278     -111.611846
9.066                0.880924246     -111.845939
9.067                 0.88064526     -112.080712
9.068                0.880365826     -112.316168
9.069                0.880085951     -112.552307
9.07                 0.879805642      -112.78913
9.071                0.879524904     -113.026638
9.072                0.879243744     -113.264833
9.073                 0.87896217     -113.503715
9.074                0.878680186     -113.743285
9.075                0.878397802     -113.983544
9.076                0.878115022     -114.224492
9.077                0.877831855     -114.466132
9.078                0.877548307     -114.708463
9.079                0.877264386     -114.951486
9.08                 0.876980099     -115.195203
9.081                0.876695453     -115.439614
9.082                0.876410457     -115.684719
9.083                0.876125118      -115.93052
9.084                0.875839443     -116.177017
9.085                 0.87555344     -116.424212
9.086                0.875267119     -116.672104
9.087                0.874980486     -116.920694
9.088                 0.87469355     -117.169983
9.089                 0.87440632     -117.419972
9.09                 0.874118804     -117.670662
9.091                 0.87383101     -117.922052
9.092                0.873542948     -118.174143
9.093                0.873254626     -118.426936
9.094                0.872966053     -118.680432
9.095                0.872677238      -118.93463
9.096                0.872388191     -119.189532
9.097                 0.87209892     -119.445137
9.098                0.871809436     -119.701447
9.099                0.871519748     -119.958461
9.1                  0.871229865     -120.216181
9.101                0.870939797     -120.474605
9.102                0.870649555     -120.733735
9.103                0.870359148     -120.993571
9.104                0.870068586     -121.254113
9.105                0.869777881     -121.515361
9.106                0.869487041     -121.777315
9.107                0.869196078     -122.039977
9.108                0.868905002     -122.303345
9.109                0.868613825      -122.56742
9.11                 0.868322556     -122.832202
9.111                0.868031208     -123.097691
9.112                 0.86773979     -123.363887
9.113                0.867448315      -123.63079
9.114                0.867156794       -123.8984
9.115                0.866865238     -124.166717
9.116                0.866573659     -124.435741
9.117                0.866282069     -124.705471
9.118                0.865990479     -124.975908
9.119                0.865698902     -125.247052
9.12                  0.86540735     -125.518902
9.121                0.865115834     -125.791457
9.122                0.864824368     -126.064718
9.123                0.864532963     -126.338685
9.124                0.864241632     -126.613356
9.125                0.863950388     -126.888731
9.126                0.863659245     -127.164811
9.127                0.863368213     -127.441595
9.128                0.863077308     -127.719081
9.129                0.862786542      -127.99727
9.13                 0.862495928     -128.276161
9.131                0.862205479     -128.555754
9.132                 0.86191521     -128.836047
9.133                0.861625134      -129.11704
9.134                0.861335264     -129.398733
9.135                0.861045615     -129.681124
9.136                  0.8607562     -129.964214
9.137                0.860467034        -130.248
9.138                 0.86017813     -130.532482
9.139                0.859889504      -130.81766
9.14                 0.859601169     -131.103531
9.141                0.859313141     -131.390097
9.142                0.859025433     -131.677354
9.143                 0.85873806     -131.965303
9.144                0.858451038     -132.253942
9.145                0.858164382     -132.543269
9.146                0.857878105     -132.833285
9.147                0.857592225     -133.123987
9.148                0.857306755     -133.415375
9.149                0.857021712     -133.707447
9.15                  0.85673711     -134.000201
9.151                0.856452966     -134.293637
9.152                0.856169295     -134.587752
9.153                0.855886112     -134.882546
9.154                0.855603435     -135.178017
9.155                0.855321278     -135.474163
9.156                0.855039658     -135.770983
9.157                 0.85475859     -136.068475
9.158                0.854478092     -136.366637
9.159                 0.85419818     -136.665468
9.16                 0.853918869     -136.964966
9.161                0.853640177     -137.265129
9.162                 0.85336212     -137.565956
9.163                0.853084715     -137.867443
9.164                0.852807978      -138.16959
9.165                0.852531926     -138.472394
9.166                0.852256577     -138.775854
9.167                0.851981946     -139.079967
9.168                0.851708052     -139.384731
9.169                0.851434912     -139.690143
9.17                 0.851162542     -139.996203
9.171                0.850890959     -140.302906
9.172                0.850620182     -140.610252
9.173                0.850350228     -140.918238
9.174                0.850081113     -141.226861
9.175                0.849812856     -141.536118
9.176                0.849545474     -141.846008
9.177                0.849278985     -142.156528
9.178                0.849013406     -142.467674
9.179                0.848748756     -142.779446
9.18                 0.848485051     -143.091838
9.181                 0.84822231      -143.40485
9.182                 0.84796055     -143.718479
9.183                 0.84769979      -144.03272
9.184                0.847440047     -144.347572
9.185                 0.84718134     -144.663032
9.186                0.846923686     -144.979096
9.187                0.846667103     -145.295761
9.188                 0.84641161     -145.613025
9.189                0.846157225     -145.930884
9.19                 0.845903965     -146.249335
9.191                0.845651849     -146.568375
9.192                0.845400895     -146.888001
9.193                0.845151121     -147.208209
9.194                0.844902545     -147.528995
9.195                0.844655186     -147.850357
9.196                0.844409061     -148.172291
9.197                 0.84416419     -148.494793
9.198                0.843920589      -148.81786
9.199                0.843678278     -149.141488
9.2                  0.843437274     -149.465673
9.201                0.843197595     -149.790412
9.202                 0.84295926     -150.115701
9.203                0.842722287     -150.441537
9.204                0.842486694     -150.767914
9.205                  0.8422525      -151.09483
9.206                0.842019721      -151.42228
9.207                0.841788376      -151.75026
9.208                0.841558484     -152.078767
9.209                0.841330062     -152.407796
9.21                 0.841103128     -152.737343
9.211                  0.8408777     -153.067403
9.212                0.840653796     -153.397973
9.213                0.840431434     -153.729048
9.214                0.840210631     -154.060624
9.215                0.839991405     -154.392696
9.216                0.839773774     -154.725261
9.217                0.839557756     -155.058312
9.218                0.839343368     -155.391847
9.219                0.839130627      -155.72586
9.22                  0.83891955     -156.060346
9.221                0.838710156     -156.395301
9.222                0.838502461     -156.730721
9.223                0.838296483       -157.0666
9.224                0.838092238     -157.402934
9.225                0.837889744     -157.739717
9.226                0.837689017     -158.076945
9.227                0.837490074     -158.414613
9.228                0.837292933     -158.752716
9.229                0.837097608     -159.091249
9.23                 0.836904118     -159.430206
9.231                0.836712478     -159.769583
9.232                0.836522705     -160.109375
9.233                0.836334815     -160.449575
9.234                0.836148823      -160.79018
9.235                0.835964746     -161.131183
9.236                  0.8357826     -161.472579
9.237                  0.8356024     -161.814363
9.238                0.835424161     -162.156529
9.239                  0.8352479     -162.499073
9.24                 0.835073631     -162.841988
9.241                 0.83490137     -163.185269
9.242                0.834731131      -163.52891
9.243                0.834562929     -163.872905
9.244                0.834396779      -164.21725
9.245                0.834232696     -164.561938
9.246                0.834070694     -164.906964
9.247                0.833910786     -165.252321
9.248                0.833752988     -165.598004
9.249                0.833597312     -165.944008
9.25                 0.833443773     -166.290326
9.251                0.833292384     -166.636952
9.252                0.833143159      -166.98388
9.253                 0.83299611     -167.331105
9.254                0.832851251      -167.67862
9.255                0.832708594     -168.026419
9.256                0.832568152     -168.374496
9.257                0.832429937     -168.722846
9.258                0.832293962     -169.071462
9.259                0.832160239     -169.420337
9.26                 0.832028779     -169.769466
9.261                0.831899594     -170.118842
9.262                0.831772696      -170.46846
9.263                0.831648095     -170.818312
9.264                0.831525803     -171.168393
9.265                 0.83140583     -171.518696
9.266                0.831288188     -171.869214
9.267                0.831172885     -172.219942
9.268                0.831059933     -172.570873
9.269                0.830949342     -172.922001
9.27                 0.830841121     -173.273318
9.271                0.830735279     -173.624819
9.272                0.830631826     -173.976498
9.273                 0.83053077     -174.328346
9.274                0.830432121     -174.680359
9.275                0.830335887      -175.03253
9.276                0.830242076     -175.384851
9.277                0.830150697     -175.737316
9.278                0.830061757     -176.089919
9.279                0.829975263     -176.442653
9.28                 0.829891223     -176.795512
9.281                0.829809645     -177.148488
9.282                0.829730534     -177.501576
9.283                0.829653898     -177.854767
9.284                0.829579742     -178.208057
9.285                0.829508074     -178.561437
9.286                0.829438898     -178.914901
9.287                 0.82937222     -179.268443
9.288                0.829308046     -179.622056
9.289                 0.82924638     -179.975733
9.29                 0.829187227      179.670533
9.291                0.829130593      179.316748
9.292                 0.82907648       178.96292
9.293                0.829024894      178.609055
9.294                0.828975837       178.25516
9.295                0.828929314      177.901241
9.296                0.828885327      177.547305
9.297                 0.82884388       177.19336
9.298                0.828804975      176.839412
9.299                0.828768615      176.485468
9.3                  0.828734801      176.131534
9.301                0.828703536      175.777617
9.302                0.828674821      175.423725
9.303                0.828648658      175.069863
9.304                0.828625048       174.71604
9.305                0.828603991       174.36226
9.306                0.828585488      174.008532
9.307                0.828569539      173.654862
9.308                0.828556145      173.301257
9.309                0.828545305      172.947723
9.31                 0.828537018      172.594267
9.311                0.828531285      172.240896
9.312                0.828528103      171.887617
9.313                0.828527472      171.534437
9.314                0.828529389      171.181361
9.315                0.828533854      170.828397
9.316                0.828540864      170.475552
9.317                0.828550416      170.122832
9.318                0.828562509      169.770243
9.319                0.828577138      169.417793
9.32                 0.828594302      169.065488
9.321                0.828613996      168.713335
9.322                0.828636218      168.361339
9.323                0.828660962      168.009509
9.324                0.828688226      167.657849
9.325                0.828718003      167.306368
9.326                0.828750291       166.95507
9.327                0.828785084      166.603964
9.328                0.828822376      166.253054
9.329                0.828862163      165.902348
9.33                 0.828904439      165.551853
9.331                0.828949197      165.201573
9.332                0.828996432      164.851517
9.333                0.829046138       164.50169
9.334                0.829098307      164.152098
9.335                0.829152933      163.802747
9.336                0.829210009      163.453645
9.337                0.829269527      163.104797
9.338                 0.82933148      162.756209
9.339                0.829395861      162.407888
9.34                  0.82946266       162.05984
9.341                 0.82953187       161.71207
9.342                0.829603483      161.364585
9.343                 0.82967749      161.017391
9.344                0.829753881      160.670494
9.345                0.829832648        160.3239
9.346                0.829913782      159.977615
9.347                0.829997273      159.631645
9.348                0.830083111      159.285995
9.349                0.830171286      158.940672
9.35                 0.830261789       158.59568
9.351                0.830354608      158.251027
9.352                0.830449734      157.906718
9.353                0.830547155      157.562758
9.354                0.830646861      157.219153
9.355                0.830748841      156.875909
9.356                0.830853083      156.533032
9.357                0.830959575      156.190526
9.358                0.831068307      155.848397
9.359                0.831179267      155.506651
9.36                 0.831292441      155.165294
9.361                0.831407819       154.82433
9.362                0.831525388      154.483765
9.363                0.831645135      154.143604
9.364                0.831767048      153.803853
9.365                0.831891114      153.464516
9.366                 0.83201732      153.125599
9.367                0.832145653      152.787107
9.368                0.832276099      152.449045
9.369                0.832408645      152.111418
9.37                 0.832543277      151.774231
9.371                0.832679983       151.43749
9.372                0.832818747      151.101198
9.373                0.832959557       150.76536
9.374                0.833102397      150.429983
9.375                0.833247254      150.095069
9.376                0.833394113      149.760625
9.377                 0.83354296      149.426654
9.378                 0.83369378      149.093162
9.379                0.833846559      148.760152
9.38                 0.834001281       148.42763
9.381                0.834157932        148.0956
9.382                0.834316497      147.764066
9.383                 0.83447696      147.433033
9.384                0.834639306      147.102505
9.385                0.834803521      146.772486
9.386                0.834969588      146.442981
9.387                0.835137492      146.113994
9.388                0.835307217      145.785528
9.389                0.835478748      145.457588
9.39                 0.835652069      145.130179
9.391                0.835827165      144.803303
9.392                0.836004018      144.476966
9.393                0.836182614       144.15117
9.394                0.836362935       143.82592
9.395                0.836544967       143.50122
9.396                0.836728693      143.177073
