! TOUCHSTONE file generated by CST DESIGN STUDIO
! Date and time: Tue Feb  4 16:13:11 2025
! Project name: C:\Work\MatlabApps\UnitCellOptimizationMatlab\CST\unitcell.cst
! Tree item: Tasks\Sweep1\SPara1\S-Parameters
! Header version: 2024
! Port assignment regex: !\s*Touchstone port\s*([0-9]+)\s*=\s*(CST MWS port|CST DES external port|CST DES block port)\s*(.+)\s* \(\"(.*)\"\)(\s*mode\s*([0-9]+))?.*
! Touchstone port assignment:
! Touchstone port 1 = CST DES external port 1 ("")
# GHz S MA R 50
9                    0.908918261     -90.7292896
9.001                0.908699517      -90.900447
9.002                 0.90848003     -91.0721217
9.003                0.908259799     -91.2443154
9.004                0.908038822     -91.4170296
9.005                  0.9078171      -91.590266
9.006                0.907594632      -91.764026
9.007                0.907371417     -91.9383115
9.008                0.907147455     -92.1131238
9.009                0.906922744     -92.2884647
9.01                 0.906697285     -92.4643357
9.011                0.906471076     -92.6407385
9.012                0.906244118     -92.8176746
9.013                 0.90601641     -92.9951457
9.014                0.905787952     -93.1731533
9.015                0.905558743      -93.351699
9.016                0.905328782     -93.5307845
9.017                0.905098071     -93.7104113
9.018                0.904866608     -93.8905811
9.019                0.904634393     -94.0712954
9.02                 0.904401426     -94.2525558
9.021                0.904167707      -94.434364
9.022                0.903933237     -94.6167215
9.023                0.903698014       -94.79963
9.024                0.903462039     -94.9830909
9.025                0.903225312      -95.167106
9.026                0.902987833     -95.3516768
9.027                0.902749603     -95.5368049
9.028                0.902510621     -95.7224918
9.029                0.902270888     -95.9087392
9.03                 0.902030404     -96.0955487
9.031                0.901789169     -96.2829219
9.032                0.901547185     -96.4708602
9.033                 0.90130445     -96.6593653
9.034                0.901060967     -96.8484389
9.035                0.900816734     -97.0380823
9.036                0.900571754     -97.2282973
9.037                0.900326026     -97.4190854
9.038                0.900079552     -97.6104481
9.039                0.899832332     -97.8023871
9.04                 0.899584366     -97.9949038
9.041                0.899335657     -98.1879999
9.042                0.899086204     -98.3816769
9.043                0.898836009     -98.5759363
9.044                0.898585073     -98.7707797
9.045                0.898333396     -98.9662087
9.046                0.898080981     -99.1622247
9.047                0.897827828     -99.3588293
9.048                0.897573938     -99.5560241
9.049                0.897319314     -99.7538105
9.05                 0.897063956     -99.9521902
9.051                0.896807865     -100.151165
9.052                0.896551044     -100.350735
9.053                0.896293494     -100.550903
9.054                0.896035217     -100.751671
9.055                0.895776213     -100.953039
9.056                0.895516486      -101.15501
9.057                0.895256037     -101.357584
9.058                0.894994868     -101.560764
9.059                0.894732981      -101.76455
9.06                 0.894470378     -101.968944
9.061                0.894207061     -102.173948
9.062                0.893943033     -102.379563
9.063                0.893678295      -102.58579
9.064                 0.89341285     -102.792632
9.065                0.893146701     -103.000089
9.066                0.892879849     -103.208162
9.067                0.892612299     -103.416855
9.068                0.892344051     -103.626166
9.069                0.892075109     -103.836099
9.07                 0.891805476     -104.046654
9.071                0.891535155     -104.257834
9.072                0.891264149     -104.469638
9.073                 0.89099246     -104.682069
9.074                0.890720092     -104.895128
9.075                0.890447048     -105.108817
9.076                0.890173331     -105.323136
9.077                0.889898945     -105.538088
9.078                0.889623893     -105.753672
9.079                0.889348179     -105.969892
9.08                 0.889071806     -106.186747
9.081                0.888794778      -106.40424
9.082                  0.8885171     -106.622372
9.083                0.888238774     -106.841144
9.084                0.887959804     -107.060556
9.085                0.887680196     -107.280612
9.086                0.887399952     -107.501311
9.087                0.887119078     -107.722655
9.088                0.886837577     -107.944645
9.089                0.886555455     -108.167283
9.09                 0.886272715     -108.390569
9.091                0.885989362     -108.614505
9.092                0.885705401     -108.839092
9.093                0.885420836     -109.064331
9.094                0.885135674     -109.290224
9.095                0.884849918     -109.516771
9.096                0.884563573     -109.743974
9.097                0.884276646     -109.971833
9.098                0.883989141      -110.20035
9.099                0.883701064     -110.429527
9.1                  0.883412419     -110.659363
9.101                0.883123214      -110.88986
9.102                0.882833453     -111.121019
9.103                0.882543143     -111.352842
9.104                0.882252288     -111.585329
9.105                0.881960896     -111.818481
9.106                0.881668972     -112.052299
9.107                0.881376523     -112.286784
9.108                0.881083555     -112.521937
9.109                0.880790075     -112.757759
9.11                 0.880496088     -112.994252
9.111                0.880201602     -113.231415
9.112                0.879906623     -113.469249
9.113                0.879611159     -113.707757
9.114                0.879315216     -113.946938
9.115                0.879018801     -114.186793
9.116                0.878721922     -114.427323
9.117                0.878424586     -114.668529
9.118                  0.8781268     -114.910412
9.119                0.877828572     -115.152972
9.12                  0.87752991     -115.396211
9.121                0.877230822     -115.640128
9.122                0.876931314     -115.884725
9.123                0.876631396     -116.130003
9.124                0.876331076     -116.375961
9.125                0.876030361     -116.622601
9.126                0.875729261     -116.869923
9.127                0.875427783     -117.117928
9.128                0.875125936     -117.366616
9.129                0.874823729     -117.615988
9.13                 0.874521171     -117.866045
9.131                0.874218271     -118.116786
9.132                0.873915037     -118.368214
9.133                 0.87361148     -118.620327
9.134                0.873307608     -118.873126
9.135                0.873003431     -119.126612
9.136                0.872698958     -119.380786
9.137                0.872394199     -119.635646
9.138                0.872089165     -119.891195
9.139                0.871783864     -120.147432
9.14                 0.871478307     -120.404358
9.141                0.871172504     -120.661972
9.142                0.870866465     -120.920275
9.143                0.870560202     -121.179268
9.144                0.870253724      -121.43895
9.145                0.869947042     -121.699321
9.146                0.869640166     -121.960382
9.147                0.869333109     -122.222133
9.148                0.869025881     -122.484574
9.149                0.868718492     -122.747705
9.15                 0.868410955     -123.011526
9.151                0.868103281     -123.276037
9.152                0.867795481     -123.541237
9.153                0.867487567     -123.807128
9.154                0.867179551     -124.073709
9.155                0.866871445     -124.340979
9.156                 0.86656326     -124.608938
9.157                 0.86625501     -124.877587
9.158                0.865946706     -125.146925
9.159                 0.86563836     -125.416952
9.16                 0.865329986     -125.687668
9.161                0.865021596     -125.959071
9.162                0.864713202     -126.231163
9.163                0.864404818     -126.503942
9.164                0.864096457     -126.777409
9.165                0.863788132     -127.051562
9.166                0.863479856     -127.326402
9.167                0.863171642     -127.601927
9.168                0.862863505     -127.878137
9.169                0.862555457     -128.155032
9.17                 0.862247513     -128.432612
9.171                0.861939686     -128.710874
9.172                 0.86163199      -128.98982
9.173                 0.86132444     -129.269447
9.174                 0.86101705     -129.549755
9.175                0.860709834     -129.830745
9.176                0.860402807     -130.112413
9.177                0.860095983     -130.394761
9.178                0.859789377     -130.677786
9.179                0.859483003     -130.961489
9.18                 0.859176878     -131.245867
9.181                0.858871015     -131.530921
9.182                 0.85856543     -131.816648
9.183                0.858260138     -132.103049
9.184                0.857955155     -132.390121
9.185                0.857650496     -132.677864
9.186                0.857346177     -132.966276
9.187                0.857042213     -133.255356
9.188                 0.85673862     -133.545104
9.189                0.856435415     -133.835517
9.19                 0.856132612     -134.126594
9.191                0.855830229     -134.418334
9.192                0.855528282     -134.710735
9.193                0.855226786     -135.003796
9.194                0.854925759     -135.297516
9.195                0.854625216     -135.591892
9.196                0.854325175     -135.886924
9.197                0.854025652      -136.18261
9.198                0.853726664     -136.478947
9.199                0.853428228     -136.775934
9.2                   0.85313036      -137.07357
9.201                0.852833079     -137.371853
9.202                  0.8525364      -137.67078
9.203                0.852240342      -137.97035
9.204                0.851944922     -138.270561
9.205                0.851650157      -138.57141
9.206                0.851356064     -138.872897
9.207                0.851062661     -139.175019
9.208                0.850769966     -139.477773
9.209                0.850477997     -139.781157
9.21                  0.85018677      -140.08517
9.211                0.849896305     -140.389809
9.212                0.849606619     -140.695072
9.213                 0.84931773     -141.000956
9.214                0.849029656     -141.307459
9.215                0.848742415     -141.614579
9.216                0.848456026     -141.922313
9.217                0.848170506     -142.230658
9.218                0.847885874     -142.539613
9.219                0.847602148     -142.849174
9.22                 0.847319347     -143.159338
9.221                0.847037489     -143.470104
9.222                0.846756592     -143.781468
9.223                0.846476675     -144.093427
9.224                0.846197757     -144.405979
9.225                0.845919857      -144.71912
9.226                0.845642992     -145.032849
9.227                0.845367181     -145.347161
9.228                0.845092444     -145.662054
9.229                0.844818799     -145.977525
9.23                 0.844546264      -146.29357
9.231                0.844274859     -146.610186
9.232                0.844004603     -146.927371
9.233                0.843735513      -147.24512
9.234                0.843467609     -147.563431
9.235                 0.84320091       -147.8823
9.236                0.842935434     -148.201724
9.237                0.842671201       -148.5217
9.238                0.842408229     -148.842223
9.239                0.842146537      -149.16329
9.24                 0.841886144     -149.484898
9.241                0.841627069     -149.807043
9.242                0.841369331     -150.129722
9.243                0.841112948      -150.45293
9.244                0.840857939     -150.776663
9.245                0.840604323     -151.100919
9.246                0.840352119     -151.425693
9.247                0.840101345     -151.750981
9.248                0.839852021     -152.076779
9.249                0.839604164     -152.403083
9.25                 0.839357794      -152.72989
9.251                0.839112929     -153.057194
9.252                0.838869587     -153.384992
9.253                0.838627788      -153.71328
9.254                0.838387549     -154.042053
9.255                0.838148889     -154.371307
9.256                0.837911826     -154.701038
9.257                0.837676379     -155.031242
9.258                0.837442566     -155.361913
9.259                0.837210405     -155.693048
9.26                 0.836979914     -156.024641
9.261                0.836751111     -156.356689
9.262                0.836524014     -156.689187
9.263                0.836298641      -157.02213
9.264                 0.83607501     -157.355513
9.265                0.835853138     -157.689332
9.266                0.835633043     -158.023582
9.267                0.835414743     -158.358258
9.268                0.835198255     -158.693355
9.269                0.834983596     -159.028869
9.27                 0.834770784     -159.364794
9.271                0.834559835     -159.701125
9.272                0.834350767     -160.037857
9.273                0.834143596     -160.374986
9.274                 0.83393834     -160.712506
9.275                0.833735015     -161.050412
9.276                0.833533637     -161.388698
9.277                0.833334223     -161.727361
9.278                 0.83313679     -162.066393
9.279                0.832941352     -162.405791
9.28                 0.832747927     -162.745548
9.281                0.832556531     -163.085659
9.282                0.832367178     -163.426119
9.283                0.832179885     -163.766923
9.284                0.831994666     -164.108064
9.285                0.831811538     -164.449538
9.286                0.831630516     -164.791338
9.287                0.831451613      -165.13346
9.288                0.831274846     -165.475897
9.289                0.831100228     -165.818644
9.29                 0.830927775     -166.161695
9.291                  0.8307575     -166.505045
9.292                0.830589417     -166.848687
9.293                0.830423541     -167.192616
9.294                0.830259886     -167.536826
9.295                0.830098464     -167.881311
9.296                 0.82993929     -168.226066
9.297                0.829782376     -168.571084
9.298                0.829627735     -168.916359
9.299                0.829475381     -169.261885
9.3                  0.829325325     -169.607657
9.301                0.829177581     -169.953668
9.302                 0.82903216     -170.299913
9.303                0.828889075     -170.646384
9.304                0.828748337     -170.993077
9.305                0.828609958     -171.339984
9.306                0.828473948     -171.687101
9.307                0.828340321      -172.03442
9.308                0.828209085     -172.381935
9.309                0.828080252      -172.72964
9.31                 0.827953833      -173.07753
9.311                0.827829838     -173.425596
9.312                0.827708276     -173.773834
9.313                0.827589158     -174.122238
9.314                0.827472492     -174.470799
9.315                0.827358289     -174.819513
9.316                0.827246558     -175.168373
9.317                0.827137307     -175.517373
9.318                0.827030545     -175.866505
9.319                 0.82692628     -176.215764
9.32                  0.82682452     -176.565144
9.321                0.826725274     -176.914637
9.322                0.826628548     -177.264238
9.323                0.826534351     -177.613939
9.324                0.826442689     -177.963735
9.325                 0.82635357     -178.313619
9.326                0.826266999     -178.663584
9.327                0.826182984     -179.013624
9.328                 0.82610153     -179.363733
9.329                0.826022643     -179.713903
9.33                 0.825946329      179.935872
9.331                0.825872593      179.585597
9.332                 0.82580144      179.235281
9.333                0.825732875      178.884929
9.334                0.825666903      178.534548
9.335                0.825603527      178.184145
9.336                0.825542753      177.833725
9.337                0.825484582      177.483297
9.338                 0.82542902      177.132865
9.339                0.825376069      176.782438
9.34                 0.825325732      176.432021
9.341                0.825278013      176.081621
9.342                0.825232912      175.731244
9.343                0.825190433      175.380897
9.344                0.825150577      175.030587
9.345                0.825113346      174.680321
9.346                0.825078741      174.330104
9.347                0.825046764      173.979944
9.348                0.825017414      173.629846
9.349                0.824990693      173.279818
9.35                 0.824966602      172.929866
9.351                0.824945138      172.579996
9.352                0.824926304      172.230215
9.353                0.824910098       171.88053
9.354                0.824896519      171.530947
9.355                0.824885566      171.181472
9.356                0.824877238      170.832112
9.357                0.824871533      170.482873
9.358                0.824868449      170.133763
9.359                0.824867985      169.784786
9.36                 0.824870137      169.435951
9.361                0.824874904      169.087262
9.362                0.824882282      168.738727
9.363                0.824892268      168.390351
9.364                0.824904859      168.042142
9.365                 0.82492005      167.694105
9.366                0.824937839      167.346247
9.367                 0.82495822      166.998574
9.368                 0.82498119      166.651092
9.369                0.825006744      166.303808
9.37                 0.825034876      165.956727
9.371                0.825065581      165.609857
9.372                0.825098854      165.263202
9.373                 0.82513469       164.91677
9.374                0.825173082      164.570567
9.375                0.825214024      164.224597
9.376                 0.82525751      163.878869
9.377                0.825303533      163.533387
9.378                0.825352087      163.188157
9.379                0.825403163      162.843187
9.38                 0.825456755      162.498481
9.381                0.825512854      162.154045
9.382                0.825571455      161.809886
9.383                0.825632547      161.466009
9.384                0.825696123       161.12242
9.385                0.825762174      160.779126
9.386                0.825830693      160.436131
9.387                0.825901668      160.093441
9.388                0.825975093      159.751063
9.389                0.826050957      159.409001
9.39                  0.82612925      159.067262
9.391                0.826209963      158.725851
9.392                0.826293086      158.384774
9.393                0.826378609      158.044036
9.394                0.826466521      157.703643
9.395                0.826556812        157.3636
9.396                0.826649471      157.023912
