! TOUCHSTONE file generated by CST DESIGN STUDIO
! Date and time: Tue Feb  4 16:29:44 2025
! Project name: C:\Work\MatlabApps\UnitCellOptimizationMatlab\CST\unitcell.cst
! Tree item: Tasks\Sweep1\SPara1\S-Parameters
! Header version: 2024
! Port assignment regex: !\s*Touchstone port\s*([0-9]+)\s*=\s*(CST MWS port|CST DES external port|CST DES block port)\s*(.+)\s* \(\"(.*)\"\)(\s*mode\s*([0-9]+))?.*
! Touchstone port assignment:
! Touchstone port 1 = CST DES external port 1 ("")
# GHz S MA R 50
9                    0.948225598     -64.1794153
9.001                0.948161152     -64.2740189
9.002                0.948096506      -64.368881
9.003                0.948031656     -64.4640025
9.004                0.947966602     -64.5593844
9.005                0.947901342     -64.6550276
9.006                0.947835873     -64.7509329
9.007                0.947770193     -64.8471012
9.008                0.947704301     -64.9435334
9.009                0.947638195     -65.0402305
9.01                 0.947571872     -65.1371934
9.011                0.947505331     -65.2344229
9.012                0.947438569     -65.3319201
9.013                0.947371586     -65.4296857
9.014                0.947304378     -65.5277207
9.015                0.947236943     -65.6260261
9.016                0.947169281     -65.7246028
9.017                0.947101388     -65.8234517
9.018                0.947033263     -65.9225737
9.019                0.946964904     -66.0219698
9.02                 0.946896308     -66.1216409
9.021                0.946827474      -66.221588
9.022                  0.9467584     -66.3218121
9.023                0.946689084     -66.4223139
9.024                0.946619523     -66.5230947
9.025                0.946549716     -66.6241552
9.026                 0.94647966     -66.7254964
9.027                0.946409354     -66.8271193
9.028                0.946338795     -66.9290249
9.029                0.946267982     -67.0312142
9.03                 0.946196913     -67.1336881
9.031                0.946125584     -67.2364475
9.032                0.946053995     -67.3394936
9.033                0.945982143     -67.4428271
9.034                0.945910027     -67.5464493
9.035                0.945837643      -67.650361
9.036                0.945764991     -67.7545632
9.037                0.945692067     -67.8590569
9.038                 0.94561887     -67.9638432
9.039                0.945545398      -68.068923
9.04                 0.945471649     -68.1742973
9.041                 0.94539762     -68.2799672
9.042                 0.94532331     -68.3859337
9.043                0.945248716     -68.4921977
9.044                0.945173836     -68.5987603
9.045                0.945098669     -68.7056226
9.046                0.945023211     -68.8127855
9.047                0.944947462     -68.9202502
9.048                0.944871418     -69.0280175
9.049                0.944795078     -69.1360886
9.05                 0.944718439     -69.2444645
9.051                  0.9446415     -69.3531462
9.052                0.944564258     -69.4621349
9.053                0.944486712     -69.5714315
9.054                0.944408858      -69.681037
9.055                0.944330695     -69.7909527
9.056                0.944252221     -69.9011795
9.057                0.944173433     -70.0117184
9.058                 0.94409433     -70.1225706
9.059                0.944014909     -70.2337372
9.06                 0.943935168     -70.3452192
9.061                0.943855104     -70.4570176
9.062                0.943774717     -70.5691336
9.063                0.943694003     -70.6815683
9.064                0.943612961     -70.7943227
9.065                0.943531588      -70.907398
9.066                0.943449881     -71.0207952
9.067                 0.94336784     -71.1345154
9.068                0.943285461     -71.2485598
9.069                0.943202743     -71.3629294
9.07                 0.943119683     -71.4776254
9.071                0.943036279     -71.5926489
9.072                0.942952529     -71.7080009
9.073                 0.94286843     -71.8236827
9.074                0.942783981     -71.9396953
9.075                 0.94269918     -72.0560399
9.076                0.942614023     -72.1727176
9.077                 0.94252851     -72.2897296
9.078                0.942442636     -72.4070769
9.079                0.942356402     -72.5247607
9.08                 0.942269803     -72.6427822
9.081                0.942182839     -72.7611425
9.082                0.942095506     -72.8798428
9.083                0.942007803     -72.9988842
9.084                0.941919727      -73.118268
9.085                0.941831277     -73.2379951
9.086                0.941742449     -73.3580669
9.087                0.941653242     -73.4784845
9.088                0.941563653      -73.599249
9.089                0.941473681     -73.7203617
9.09                 0.941383322     -73.8418237
9.091                0.941292575     -73.9636363
9.092                0.941201438     -74.0858005
9.093                0.941109908     -74.2083176
9.094                0.941017983     -74.3311888
9.095                0.940925661     -74.4544153
9.096                0.940832939     -74.5779983
9.097                0.940739816      -74.701939
9.098                0.940646289     -74.8262386
9.099                0.940552355     -74.9508984
9.1                  0.940458013     -75.0759194
9.101                0.940363261     -75.2013031
9.102                0.940268095     -75.3270505
9.103                0.940172515     -75.4531629
9.104                0.940076517     -75.5796415
9.105                0.939980099     -75.7064877
9.106                 0.93988326     -75.8337025
9.107                0.939785996     -75.9612873
9.108                0.939688306     -76.0892433
9.109                0.939590188     -76.2175718
9.11                 0.939491639     -76.3462739
9.111                0.939392656      -76.475351
9.112                0.939293239     -76.6048043
9.113                0.939193384     -76.7346351
9.114                0.939093089     -76.8648446
9.115                0.938992352     -76.9954341
9.116                0.938891171     -77.1264049
9.117                0.938789543     -77.2577583
9.118                0.938687466     -77.3894954
9.119                0.938584939     -77.5216177
9.12                 0.938481959     -77.6541264
9.121                0.938378523     -77.7870228
9.122                0.938274629     -77.9203082
9.123                0.938170276     -78.0539838
9.124                0.938065461      -78.188051
9.125                0.937960181     -78.3225111
9.126                0.937854435     -78.4573654
9.127                 0.93774822     -78.5926151
9.128                0.937641534     -78.7282617
9.129                0.937534375     -78.8643063
9.13                 0.937426741     -79.0007504
9.131                 0.93731863     -79.1375952
9.132                0.937210038     -79.2748421
9.133                0.937100965     -79.4124924
9.134                0.936991408     -79.5505475
9.135                0.936881364     -79.6890086
9.136                0.936770832     -79.8278771
9.137                0.936659809     -79.9671544
9.138                0.936548294     -80.1068417
9.139                0.936436283     -80.2469404
9.14                 0.936323776      -80.387452
9.141                0.936210769     -80.5283777
9.142                0.936097261     -80.6697188
9.143                0.935983249     -80.8114768
9.144                0.935868732      -80.953653
9.145                0.935753706     -81.0962487
9.146                0.935638171     -81.2392654
9.147                0.935522124     -81.3827044
9.148                0.935405562      -81.526567
9.149                0.935288484     -81.6708547
9.15                 0.935170888     -81.8155689
9.151                0.935052771     -81.9607108
9.152                0.934934131     -82.1062819
9.153                0.934814967     -82.2522835
9.154                0.934695276     -82.3987172
9.155                0.934575057     -82.5455841
9.156                0.934454306     -82.6928858
9.157                0.934333023     -82.8406237
9.158                0.934211204     -82.9887991
9.159                0.934088849     -83.1374134
9.16                 0.933965954      -83.286468
9.161                0.933842519     -83.4359644
9.162                0.933718541      -83.585904
9.163                0.933594017     -83.7362881
9.164                0.933468947     -83.8871182
9.165                0.933343327     -84.0383956
9.166                0.933217157     -84.1901219
9.167                0.933090434     -84.3422984
9.168                0.932963156     -84.4949265
9.169                0.932835321     -84.6480077
9.17                 0.932706927     -84.8015434
9.171                0.932577973      -84.955535
9.172                0.932448457      -85.109984
9.173                0.932318376     -85.2648918
9.174                0.932187729     -85.4202597
9.175                0.932056513     -85.5760893
9.176                0.931924728      -85.732382
9.177                0.931792371     -85.8891393
9.178                0.931659441     -86.0463625
9.179                0.931525935     -86.2040531
9.18                 0.931391852     -86.3622125
9.181                 0.93125719     -86.5208423
9.182                0.931121947     -86.6799438
9.183                0.930986122     -86.8395185
9.184                0.930849713     -86.9995678
9.185                0.930712718     -87.1600933
9.186                0.930575136     -87.3210963
9.187                0.930436964     -87.4825783
9.188                0.930298201     -87.6445407
9.189                0.930158846     -87.8069851
9.19                 0.930018896     -87.9699128
9.191                0.929878351     -88.1333253
9.192                0.929737208     -88.2972242
9.193                0.929595467     -88.4616108
9.194                0.929453125     -88.6264865
9.195                0.929310181      -88.791853
9.196                0.929166633     -88.9577116
9.197                 0.92902248     -89.1240638
9.198                0.928877721      -89.290911
9.199                0.928732354     -89.4582548
9.2                  0.928586377     -89.6260966
9.201                 0.92843979     -89.7944378
9.202                0.928292591     -89.9632799
9.203                0.928144778     -90.1326245
9.204                 0.92799635     -90.3024728
9.205                0.927847305     -90.4728265
9.206                0.927697644      -90.643687
9.207                0.927547363     -90.8150557
9.208                0.927396463     -90.9869341
9.209                0.927244941     -91.1593238
9.21                 0.927092797      -91.332226
9.211                0.926940029     -91.5056424
9.212                0.926786636     -91.6795743
9.213                0.926632618     -91.8540233
9.214                0.926477972     -92.0289908
9.215                0.926322699     -92.2044782
9.216                0.926166796     -92.3804871
9.217                0.926010263     -92.5570189
9.218                  0.9258531      -92.734075
9.219                0.925695304     -92.9116569
9.22                 0.925536875     -93.0897661
9.221                0.925377812      -93.268404
9.222                0.925218115     -93.4475721
9.223                0.925057782     -93.6272718
9.224                0.924896813     -93.8075046
9.225                0.924735206      -93.988272
9.226                0.924572962     -94.1695753
9.227                0.924410079     -94.3514161
9.228                0.924246557     -94.5337957
9.229                0.924082395     -94.7167156
9.23                 0.923917593     -94.9001774
9.231                0.923752149     -95.0841823
9.232                0.923586064     -95.2687318
9.233                0.923419337     -95.4538275
9.234                0.923251968     -95.6394706
9.235                0.923083955     -95.8256627
9.236                0.922915299     -96.0124051
9.237                   0.922746     -96.1996993
9.238                0.922576056     -96.3875468
9.239                0.922405469     -96.5759488
9.24                 0.922234236     -96.7649069
9.241                 0.92206236     -96.9544224
9.242                0.921889838     -97.1444968
9.243                0.921716671     -97.3351314
9.244                0.921542859     -97.5263277
9.245                0.921368403     -97.7180871
9.246                0.921193301     -97.9104109
9.247                0.921017554     -98.1033006
9.248                0.920841162     -98.2967574
9.249                0.920664126     -98.4907829
9.25                 0.920486445     -98.6853783
9.251                 0.92030812     -98.8805451
9.252                0.920129151     -99.0762846
9.253                0.919949538     -99.2725982
9.254                0.919769282     -99.4694872
9.255                0.919588383      -99.666953
9.256                0.919406842     -99.8649969
9.257                0.919224659      -100.06362
9.258                0.919041835     -100.262824
9.259                 0.91885837     -100.462611
9.26                 0.918674265      -100.66298
9.261                 0.91848952     -100.863935
9.262                0.918304138     -101.065476
9.263                0.918118117     -101.267604
9.264                 0.91793146      -101.47032
9.265                0.917744167     -101.673627
9.266                0.917556239     -101.877525
9.267                0.917367678     -102.082015
9.268                0.917178484     -102.287099
9.269                0.916988658     -102.492779
9.27                 0.916798202     -102.699054
9.271                0.916607117     -102.905927
9.272                0.916415404     -103.113399
9.273                0.916223065     -103.321471
9.274                0.916030101     -103.530145
9.275                0.915836514      -103.73942
9.276                0.915642305       -103.9493
9.277                0.915447476     -104.159784
9.278                0.915252028     -104.370875
9.279                0.915055964     -104.582572
9.28                 0.914859285     -104.794878
9.281                0.914661993     -105.007794
9.282                 0.91446409      -105.22132
9.283                0.914265578     -105.435459
9.284                0.914066459      -105.65021
9.285                0.913866736     -105.865576
9.286                0.913666409     -106.081556
9.287                0.913465483     -106.298153
9.288                0.913263958     -106.515368
9.289                0.913061839     -106.733201
9.29                 0.912859126     -106.951653
9.291                0.912655822     -107.170727
9.292                0.912451931     -107.390422
9.293                0.912247455     -107.610739
9.294                0.912042396     -107.831681
9.295                0.911836758     -108.053247
9.296                0.911630544     -108.275439
9.297                0.911423755     -108.498257
9.298                0.911216397     -108.721704
9.299                0.911008471     -108.945779
9.3                   0.91079998     -109.170484
9.301                0.910590929     -109.395819
9.302                0.910381321     -109.621786
9.303                0.910171159     -109.848385
9.304                0.909960446     -110.075617
9.305                0.909749186     -110.303484
9.306                0.909537383     -110.531985
9.307                 0.90932504     -110.761123
9.308                0.909112163     -110.990897
9.309                0.908898753     -111.221308
9.31                 0.908684816     -111.452358
9.311                0.908470355     -111.684047
9.312                0.908255376     -111.916376
9.313                0.908039881     -112.149346
9.314                0.907823875     -112.382957
9.315                0.907607363      -112.61721
9.316                0.907390349     -112.852105
9.317                0.907172839     -113.087645
9.318                0.906954835     -113.323828
9.319                0.906736345     -113.560656
9.32                 0.906517371      -113.79813
9.321                0.906297919      -114.03625
9.322                0.906077995     -114.275016
9.323                0.905857603      -114.51443
9.324                0.905636749     -114.754492
9.325                0.905415437     -114.995201
9.326                0.905193674      -115.23656
9.327                0.904971464     -115.478568
9.328                0.904748814     -115.721226
9.329                0.904525729     -115.964535
9.33                 0.904302215     -116.208494
9.331                0.904078277     -116.453104
9.332                0.903853922     -116.698366
9.333                0.903629156      -116.94428
9.334                0.903403985     -117.190846
9.335                0.903178415     -117.438065
9.336                0.902952452     -117.685937
9.337                0.902726103     -117.934463
9.338                0.902499374     -118.183641
9.339                0.902272272     -118.433474
9.34                 0.902044804     -118.683961
9.341                0.901816977     -118.935102
9.342                0.901588797     -119.186898
9.343                0.901360272     -119.439348
9.344                0.901131408     -119.692453
9.345                0.900902213     -119.946212
9.346                0.900672694     -120.200627
9.347                0.900442858     -120.455697
9.348                0.900212714     -120.711422
9.349                0.899982268     -120.967801
9.35                 0.899751528     -121.224836
9.351                0.899520503     -121.482526
9.352                0.899289199     -121.740871
9.353                0.899057626     -121.999871
9.354                0.898825791     -122.259525
9.355                0.898593702     -122.519834
9.356                0.898361367     -122.780797
9.357                0.898128796     -123.042415
9.358                0.897895996     -123.304687
9.359                0.897662976     -123.567612
9.36                 0.897429745     -123.831191
9.361                0.897196312     -124.095423
9.362                0.896962686     -124.360308
9.363                0.896728874     -124.625845
9.364                0.896494888     -124.892034
9.365                0.896260735     -125.158875
9.366                0.896026426     -125.426367
9.367                0.895791969      -125.69451
9.368                0.895557374     -125.963303
9.369                0.895322651     -126.232745
9.37                 0.895087809     -126.502837
9.371                0.894852858     -126.773577
9.372                0.894617809     -127.044964
9.373                 0.89438267     -127.316999
9.374                0.894147453     -127.589681
9.375                0.893912167     -127.863008
9.376                0.893676823      -128.13698
9.377                 0.89344143     -128.411596
9.378                0.893206001     -128.686855
9.379                0.892970544     -128.962757
9.38                 0.892735072       -129.2393
9.381                0.892499594     -129.516484
9.382                0.892264121     -129.794307
9.383                0.892028665     -130.072769
9.384                0.891793237     -130.351869
9.385                0.891557847     -130.631605
9.386                0.891322507     -130.911977
9.387                0.891087229     -131.192983
9.388                0.890852023     -131.474622
9.389                0.890616901     -131.756893
9.39                 0.890381876     -132.039795
9.391                0.890146958     -132.323326
9.392                 0.88991216     -132.607485
9.393                0.889677492     -132.892271
9.394                0.889442969     -133.177683
9.395                  0.8892086     -133.463718
9.396                0.888974399     -133.750376
