! TOUCHSTONE file generated by CST DESIGN STUDIO
! Date and time: Tue Feb  4 16:29:38 2025
! Project name: C:\Work\MatlabApps\UnitCellOptimizationMatlab\CST\unitcell.cst
! Tree item: Tasks\Sweep1\SPara1\S-Parameters
! Header version: 2024
! Port assignment regex: !\s*Touchstone port\s*([0-9]+)\s*=\s*(CST MWS port|CST DES external port|CST DES block port)\s*(.+)\s* \(\"(.*)\"\)(\s*mode\s*([0-9]+))?.*
! Touchstone port assignment:
! Touchstone port 1 = CST DES external port 1 ("")
# GHz S MA R 50
9                     0.91458164     -84.5158564
9.001                0.914405261     -84.6606309
9.002                  0.9142288     -84.8058407
9.003                0.914052259     -84.9514874
9.004                0.913875635     -85.0975726
9.005                0.913698929     -85.2440978
9.006                0.913522139     -85.3910647
9.007                0.913345266     -85.5384749
9.008                0.913168308     -85.6863298
9.009                0.912991266     -85.8346312
9.01                 0.912814137     -85.9833806
9.011                0.912636923     -86.1325796
9.012                0.912459621     -86.2822297
9.013                0.912282233     -86.4323327
9.014                0.912104756     -86.5828901
9.015                0.911927191     -86.7339035
9.016                0.911749537     -86.8853745
9.017                0.911571794     -87.0373047
9.018                0.911393961     -87.1896958
9.019                0.911216037     -87.3425493
9.02                 0.911038023     -87.4958669
9.021                0.910859917     -87.6496503
9.022                 0.91068172     -87.8039009
9.023                 0.91050343     -87.9586205
9.024                0.910325048     -88.1138107
9.025                0.910146573     -88.2694731
9.026                0.909968004     -88.4256094
9.027                0.909789341     -88.5822211
9.028                0.909610584     -88.7393099
9.029                0.909431733     -88.8968775
9.03                 0.909252787     -89.0549255
9.031                0.909073746     -89.2134556
9.032                0.908894609     -89.3724693
9.033                0.908715377     -89.5319683
9.034                0.908536048     -89.6919543
9.035                0.908356623      -89.852429
9.036                0.908177102     -90.0133939
9.037                0.907997484     -90.1748507
9.038                0.907817769     -90.3368011
9.039                0.907637957     -90.4992468
9.04                 0.907458047     -90.6621893
9.041                 0.90727804     -90.8256305
9.042                0.907097936     -90.9895718
9.043                0.906917734      -91.154015
9.044                0.906737434     -91.3189617
9.045                0.906557036     -91.4844136
9.046                0.906376541     -91.6503724
9.047                0.906195947     -91.8168397
9.048                0.906015256     -91.9838172
9.049                0.905834467     -92.1513065
9.05                  0.90565358     -92.3193094
9.051                0.905472595     -92.4878274
9.052                0.905291512     -92.6568623
9.053                0.905110332     -92.8264157
9.054                0.904929054     -92.9964893
9.055                0.904747679     -93.1670848
9.056                0.904566206     -93.3382038
9.057                0.904384637     -93.5098479
9.058                0.904202971      -93.682019
9.059                0.904021209     -93.8547186
9.06                  0.90383935     -94.0279484
9.061                0.903657395       -94.20171
9.062                0.903475345     -94.3760052
9.063                0.903293199     -94.5508356
9.064                0.903110959     -94.7262028
9.065                0.902928624     -94.9021086
9.066                0.902746195     -95.0785546
9.067                0.902563672     -95.2555425
9.068                0.902381057     -95.4330739
9.069                0.902198348     -95.6111504
9.07                 0.902015548     -95.7897739
9.071                0.901832656     -95.9689458
9.072                0.901649673      -96.148668
9.073                  0.9014666     -96.3289419
9.074                0.901283438     -96.5097694
9.075                0.901100187     -96.6911519
9.076                0.900916847     -96.8730913
9.077                 0.90073342     -97.0555891
9.078                0.900549906     -97.2386471
9.079                0.900366307     -97.4222667
9.08                 0.900182623     -97.6064498
9.081                0.899998855     -97.7911978
9.082                0.899815003     -97.9765126
9.083                 0.89963107     -98.1623956
9.084                0.899447055     -98.3488486
9.085                 0.89926296     -98.5358731
9.086                0.899078786     -98.7234709
9.087                0.898894534     -98.9116435
9.088                0.898710205     -99.1003925
9.089                0.898525801     -99.2897196
9.09                 0.898341322     -99.4796263
9.091                 0.89815677     -99.6701144
9.092                0.897972146     -99.8611853
9.093                0.897787451     -100.052841
9.094                0.897602687     -100.245082
9.095                0.897417855     -100.437912
9.096                0.897232957      -100.63133
9.097                0.897047993      -100.82534
9.098                0.896862967     -101.019942
9.099                0.896677878     -101.215138
9.1                  0.896492729     -101.410929
9.101                0.896307522     -101.607318
9.102                0.896122258     -101.804305
9.103                0.895936938     -102.001893
9.104                0.895751565     -102.200083
9.105                 0.89556614     -102.398876
9.106                0.895380666     -102.598274
9.107                0.895195144     -102.798278
9.108                0.895009575     -102.998891
9.109                0.894823963     -103.200113
9.11                 0.894638309     -103.401946
9.111                0.894452615     -103.604391
9.112                0.894266884     -103.807451
9.113                0.894081117     -104.011126
9.114                0.893895316     -104.215418
9.115                0.893709485     -104.420329
9.116                0.893523625      -104.62586
9.117                0.893337739     -104.832012
9.118                0.893151828     -105.038787
9.119                0.892965896     -105.246187
9.12                 0.892779946     -105.454212
9.121                0.892593979     -105.662864
9.122                0.892407998     -105.872145
9.123                0.892222006     -106.082057
9.124                0.892036006     -106.292599
9.125                    0.89185     -106.503775
9.126                0.891663991     -106.715585
9.127                0.891477983      -106.92803
9.128                0.891291977     -107.141112
9.129                0.891105977     -107.354833
9.13                 0.890919987     -107.569194
9.131                0.890734009     -107.784195
9.132                0.890548046     -107.999839
9.133                0.890362101     -108.216127
9.134                0.890176178     -108.433059
9.135                 0.88999028     -108.650638
9.136                0.889804411     -108.868864
9.137                0.889618573     -109.087739
9.138                0.889432771     -109.307265
9.139                0.889247008     -109.527441
9.14                 0.889061287      -109.74827
9.141                0.888875612     -109.969753
9.142                0.888689987     -110.191891
9.143                0.888504415     -110.414685
9.144                0.888318901     -110.638136
9.145                0.888133448     -110.862246
9.146                0.887948061     -111.087016
9.147                0.887762743     -111.312446
9.148                0.887577498     -111.538538
9.149                 0.88739233     -111.765293
9.15                 0.887207244     -111.992713
9.151                0.887022245     -112.220797
9.152                0.886837335     -112.449548
9.153                 0.88665252     -112.678966
9.154                0.886467804     -112.909053
9.155                0.886283191     -113.139808
9.156                0.886098687     -113.371235
9.157                0.885914295     -113.603332
9.158                0.885730021     -113.836102
9.159                0.885545869     -114.069545
9.16                 0.885361844     -114.303662
9.161                 0.88517795     -114.538454
9.162                0.884994194     -114.773922
9.163                0.884810579     -115.010068
9.164                0.884627112      -115.24689
9.165                0.884443796     -115.484392
9.166                0.884260638     -115.722572
9.167                0.884077642     -115.961433
9.168                0.883894814     -116.200975
9.169                 0.88371216     -116.441199
9.17                 0.883529684     -116.682104
9.171                0.883347393     -116.923694
9.172                0.883165291     -117.165967
9.173                0.882983385     -117.408924
9.174                 0.88280168     -117.652567
9.175                0.882620183     -117.896895
9.176                0.882438898      -118.14191
9.177                0.882257833     -118.387612
9.178                0.882076992     -118.634002
9.179                0.881896382      -118.88108
9.18                  0.88171601     -119.128846
9.181                 0.88153588     -119.377301
9.182                0.881356001     -119.626447
9.183                0.881176377     -119.876282
9.184                0.880997016     -120.126808
9.185                0.880817924     -120.378024
9.186                0.880639107     -120.629932
9.187                0.880460572     -120.882532
9.188                0.880282326     -121.135823
9.189                0.880104376     -121.389807
9.19                 0.879926727     -121.644483
9.191                0.879749388     -121.899852
9.192                0.879572365     -122.155914
9.193                0.879395665      -122.41267
9.194                0.879219295     -122.670118
9.195                0.879043263      -122.92826
9.196                0.878867575     -123.187096
9.197                0.878692239     -123.446625
9.198                0.878517262     -123.706849
9.199                0.878342651     -123.967765
9.2                  0.878168415     -124.229376
9.201                0.877994561      -124.49168
9.202                0.877821095     -124.754678
9.203                0.877648027      -125.01837
9.204                0.877475363     -125.282755
9.205                0.877303112     -125.547833
9.206                0.877131281     -125.813604
9.207                0.876959878     -126.080069
9.208                0.876788912     -126.347225
9.209                 0.87661839     -126.615075
9.21                  0.87644832     -126.883616
9.211                0.876278711     -127.152849
9.212                 0.87610957     -127.422773
9.213                0.875940907     -127.693388
9.214                 0.87577273     -127.964693
9.215                0.875605046     -128.236689
9.216                0.875437865     -128.509373
9.217                0.875271195     -128.782747
9.218                0.875105044     -129.056809
9.219                0.874939422     -129.331559
9.22                 0.874774337     -129.606996
9.221                0.874609797     -129.883119
9.222                0.874445812     -130.159928
9.223                0.874282391     -130.437421
9.224                0.874119542     -130.715599
9.225                0.873957274      -130.99446
9.226                0.873795597     -131.274003
9.227                0.873634519     -131.554227
9.228                 0.87347405     -131.835132
9.229                0.873314199     -132.116717
9.23                 0.873154975      -132.39898
9.231                0.872996388     -132.681921
9.232                0.872838446     -132.965538
9.233                 0.87268116      -133.24983
9.234                0.872524539     -133.534796
9.235                0.872368591     -133.820434
9.236                0.872213328     -134.106745
9.237                0.872058757     -134.393725
9.238                 0.87190489     -134.681375
9.239                0.871751735     -134.969692
9.24                 0.871599303     -135.258675
9.241                0.871447602     -135.548323
9.242                0.871296644     -135.838633
9.243                0.871146437     -136.129606
9.244                0.870996992     -136.421238
9.245                0.870848318     -136.713529
9.246                0.870700425     -137.006477
9.247                0.870553324     -137.300079
9.248                0.870407024     -137.594335
9.249                0.870261536     -137.889242
9.25                 0.870116869     -138.184799
9.251                0.869973033     -138.481004
9.252                0.869830039     -138.777854
9.253                0.869687897     -139.075348
9.254                0.869546617     -139.373484
9.255                0.869406209      -139.67226
9.256                0.869266683     -139.971674
9.257                 0.86912805     -140.271723
9.258                0.868990319     -140.572405
9.259                0.868853502     -140.873718
9.26                 0.868717608     -141.175661
9.261                0.868582647     -141.478229
9.262                 0.86844863     -141.781422
9.263                0.868315568     -142.085237
9.264                 0.86818347     -142.389671
9.265                0.868052347     -142.694721
9.266                0.867922209     -143.000386
9.267                0.867793067     -143.306662
9.268                 0.86766493     -143.613547
9.269                 0.86753781     -143.921039
9.27                 0.867411716     -144.229134
9.271                0.867286659      -144.53783
9.272                 0.86716265     -144.847123
9.273                0.867039698     -145.157012
9.274                0.866917813     -145.467493
9.275                0.866797008     -145.778563
9.276                 0.86667729     -146.090219
9.277                0.866558672     -146.402458
9.278                0.866441162     -146.715278
9.279                0.866324772     -147.028674
9.28                 0.866209511     -147.342643
9.281                 0.86609539     -147.657184
9.282                0.865982419     -147.972291
9.283                0.865870608     -148.287962
9.284                0.865759968     -148.604193
9.285                0.865650508     -148.920981
9.286                0.865542238     -149.238323
9.287                0.865435169     -149.556215
9.288                0.865329311     -149.874653
9.289                0.865224673     -150.193633
9.29                 0.865121265     -150.513153
9.291                0.865019098     -150.833208
9.292                0.864918182     -151.153795
9.293                0.864818525      -151.47491
9.294                0.864720138     -151.796548
9.295                0.864623031     -152.118707
9.296                0.864527214     -152.441382
9.297                0.864432695     -152.764569
9.298                0.864339484     -153.088264
9.299                0.864247592     -153.412463
9.3                  0.864157027     -153.737162
9.301                0.864067799     -154.062357
9.302                0.863979917     -154.388043
9.303                 0.86389339     -154.714217
9.304                0.863808228     -155.040873
9.305                 0.86372444     -155.368008
9.306                0.863642035     -155.695618
9.307                0.863561021     -156.023697
9.308                0.863481409     -156.352242
9.309                0.863403206     -156.681247
9.31                 0.863326421     -157.010708
9.311                0.863251063     -157.340622
9.312                0.863177141     -157.670982
9.313                0.863104663     -158.001784
9.314                0.863033638     -158.333024
9.315                0.862964073     -158.664697
9.316                0.862895977     -158.996798
9.317                0.862829359     -159.329322
9.318                0.862764226     -159.662264
9.319                0.862700587     -159.995619
9.32                 0.862638448     -160.329382
9.321                0.862577819     -160.663549
9.322                0.862518706     -160.998114
9.323                0.862461117     -161.333072
9.324                0.862405059     -161.668418
9.325                 0.86235054     -162.004147
9.326                0.862297568     -162.340253
9.327                0.862246148     -162.676732
9.328                0.862196289     -163.013577
9.329                0.862147997     -163.350784
9.33                 0.862101278     -163.688348
9.331                 0.86205614     -164.026262
9.332                0.862012589     -164.364522
9.333                0.861970631     -164.703122
9.334                0.861930272     -165.042056
9.335                0.861891519     -165.381319
9.336                0.861854378     -165.720906
9.337                0.861818855      -166.06081
9.338                0.861784954     -166.401026
9.339                0.861752683     -166.741549
9.34                 0.861722046     -167.082373
9.341                0.861693048     -167.423491
9.342                0.861665696     -167.764899
9.343                0.861639993      -168.10659
9.344                0.861615946     -168.448559
9.345                0.861593557     -168.790799
9.346                0.861572833     -169.133305
9.347                0.861553778     -169.476072
9.348                0.861536396     -169.819092
9.349                 0.86152069      -170.16236
9.35                 0.861506666      -170.50587
9.351                0.861494327     -170.849617
9.352                0.861483677     -171.193593
9.353                0.861474719     -171.537793
9.354                0.861467457     -171.882211
9.355                0.861461894      -172.22684
9.356                0.861458033     -172.571676
9.357                0.861455877      -172.91671
9.358                0.861455429     -173.261938
9.359                0.861456691     -173.607353
9.36                 0.861459666     -173.952948
9.361                0.861464356     -174.298718
9.362                0.861470764     -174.644656
9.363                 0.86147889     -174.990757
9.364                0.861488738     -175.337013
9.365                0.861500308     -175.683418
9.366                0.861513602     -176.029967
9.367                0.861528622     -176.376652
9.368                0.861545368     -176.723468
9.369                0.861563842     -177.070407
9.37                 0.861584044     -177.417465
9.371                0.861605975     -177.764633
9.372                0.861629635     -178.111906
9.373                0.861655025     -178.459278
9.374                0.861682144     -178.806741
9.375                0.861710993     -179.154291
9.376                0.861741572     -179.501919
9.377                0.861773879      -179.84962
9.378                0.861807915      179.802614
9.379                0.861843679      179.454787
9.38                 0.861881169      179.106907
9.381                0.861920385       178.75898
9.382                0.861961325      178.411014
9.383                0.862003988      178.063013
9.384                0.862048373      177.714985
9.385                0.862094477      177.366937
9.386                0.862142298      177.018874
9.387                0.862191835      176.670803
9.388                0.862243085      176.322732
9.389                0.862296046      175.974665
9.39                 0.862350715       175.62661
9.391                0.862407089      175.278573
9.392                0.862465166      174.930561
9.393                0.862524941      174.582581
9.394                0.862586412      174.234638
9.395                0.862649576      173.886739
9.396                0.862714428       173.53889
