! TOUCHSTONE file generated by CST DESIGN STUDIO
! Date and time: Tue Feb  4 16:29:46 2025
! Project name: C:\Work\MatlabApps\UnitCellOptimizationMatlab\CST\unitcell.cst
! Tree item: Tasks\Sweep1\SPara1\S-Parameters
! Header version: 2024
! Port assignment regex: !\s*Touchstone port\s*([0-9]+)\s*=\s*(CST MWS port|CST DES external port|CST DES block port)\s*(.+)\s* \(\"(.*)\"\)(\s*mode\s*([0-9]+))?.*
! Touchstone port assignment:
! Touchstone port 1 = CST DES external port 1 ("")
# GHz S MA R 50
9                    0.954815213     -59.9655008
9.001                0.954766802     -60.0510674
9.002                0.954718188      -60.136858
9.003                0.954669371     -60.2228734
9.004                0.954620347     -60.3091143
9.005                0.954571115     -60.3955817
9.006                0.954521675     -60.4822761
9.007                0.954472023     -60.5691984
9.008                0.954422158     -60.6563493
9.009                0.954372079     -60.7437296
9.01                 0.954321783       -60.83134
9.011                0.954271269     -60.9191815
9.012                0.954220535     -61.0072546
9.013                0.954169579     -61.0955603
9.014                  0.9541184     -61.1840992
9.015                0.954066995     -61.2728723
9.016                0.954015363     -61.3618802
9.017                0.953963503     -61.4511237
9.018                0.953911411     -61.5406038
9.019                0.953859087      -61.630321
9.02                 0.953806528     -61.7202764
9.021                0.953753734     -61.8104706
9.022                0.953700701     -61.9009044
9.023                0.953647428     -61.9915788
9.024                0.953593913     -62.0824944
9.025                0.953540155     -62.1736521
9.026                0.953486151     -62.2650528
9.027                  0.9534319     -62.3566972
9.028                0.953377399     -62.4485861
9.029                0.953322648     -62.5407205
9.03                 0.953267643      -62.633101
9.031                0.953212384     -62.7257286
9.032                0.953156867     -62.8186041
9.033                0.953101092     -62.9117284
9.034                0.953045057     -63.0051022
9.035                0.952988759     -63.0987264
9.036                0.952932196     -63.1926018
9.037                0.952875367     -63.2867294
9.038                 0.95281827       -63.38111
9.039                0.952760902     -63.4757443
9.04                 0.952703263     -63.5706334
9.041                0.952645349     -63.6657779
9.042                0.952587159     -63.7611789
9.043                0.952528692     -63.8568371
9.044                0.952469944     -63.9527535
9.045                0.952410914     -64.0489289
9.046                0.952351601     -64.1453642
9.047                0.952292001     -64.2420603
9.048                0.952232114      -64.339018
9.049                0.952171937     -64.4362383
9.05                 0.952111468      -64.533722
9.051                0.952050705       -64.63147
9.052                0.951989646     -64.7294832
9.053                 0.95192829     -64.8277626
9.054                0.951866633      -64.926309
9.055                0.951804675     -65.0251232
9.056                0.951742412     -65.1242064
9.057                0.951679844     -65.2235592
9.058                0.951616968     -65.3231828
9.059                0.951553782     -65.4230779
9.06                 0.951490283     -65.5232455
9.061                0.951426471     -65.6236865
9.062                0.951362342     -65.7244018
9.063                0.951297895     -65.8253924
9.064                0.951233128     -65.9266593
9.065                0.951168038     -66.0282033
9.066                0.951102624     -66.1300253
9.067                0.951036883     -66.2321264
9.068                0.950970814     -66.3345074
9.069                0.950904414     -66.4371694
9.07                 0.950837681     -66.5401132
9.071                0.950770613     -66.6433399
9.072                0.950703208     -66.7468504
9.073                0.950635464     -66.8506456
9.074                0.950567379     -66.9547265
9.075                0.950498951     -67.0590941
9.076                0.950430177     -67.1637493
9.077                0.950361055     -67.2686932
9.078                0.950291583     -67.3739267
9.079                 0.95022176     -67.4794507
9.08                 0.950151583     -67.5852664
9.081                0.950081049     -67.6913746
9.082                0.950010157     -67.7977763
9.083                0.949938905     -67.9044726
9.084                 0.94986729     -68.0114645
9.085                 0.94979531     -68.1187528
9.086                0.949722963     -68.2263388
9.087                0.949650247     -68.3342233
9.088                0.949577159     -68.4424073
9.089                0.949503698      -68.550892
9.09                 0.949429862     -68.6596782
9.091                0.949355647     -68.7687671
9.092                0.949281052     -68.8781596
9.093                0.949206075     -68.9878568
9.094                0.949130714     -69.0978597
9.095                0.949054966     -69.2081693
9.096                0.948978829     -69.3187867
9.097                  0.9489023      -69.429713
9.098                0.948825379     -69.5409491
9.099                0.948748062     -69.6524961
9.1                  0.948670347     -69.7643551
9.101                0.948592232     -69.8765271
9.102                0.948513714     -69.9890131
9.103                0.948434793     -70.1018144
9.104                0.948355464     -70.2149318
9.105                0.948275727     -70.3283665
9.106                0.948195578     -70.4421195
9.107                0.948115016      -70.556192
9.108                0.948034038      -70.670585
9.109                0.947952642     -70.7852995
9.11                 0.947870826     -70.9003367
9.111                0.947788588     -71.0156977
9.112                0.947705924     -71.1313835
9.113                0.947622834     -71.2473953
9.114                0.947539315     -71.3637341
9.115                0.947455363      -71.480401
9.116                0.947370978     -71.5973972
9.117                0.947286157     -71.7147238
9.118                0.947200898     -71.8323819
9.119                0.947115197     -71.9503725
9.12                 0.947029054     -72.0686968
9.121                0.946942466      -72.187356
9.122                 0.94685543     -72.3063512
9.123                0.946767944     -72.4256834
9.124                0.946680006     -72.5453538
9.125                0.946591614     -72.6653637
9.126                0.946502765      -72.785714
9.127                0.946413457     -72.9064059
9.128                0.946323687     -73.0274407
9.129                0.946233454     -73.1488194
9.13                 0.946142755     -73.2705432
9.131                0.946051588     -73.3926132
9.132                 0.94595995     -73.5150307
9.133                 0.94586784     -73.6377967
9.134                0.945775254     -73.7609125
9.135                0.945682191     -73.8843792
9.136                0.945588648      -74.008198
9.137                0.945494623     -74.1323701
9.138                0.945400113     -74.2568966
9.139                0.945305117     -74.3817787
9.14                 0.945209632     -74.5070177
9.141                0.945113656     -74.6326147
9.142                0.945017186     -74.7585708
9.143                 0.94492022     -74.8848874
9.144                0.944822755     -75.0115656
9.145                 0.94472479     -75.1386066
9.146                0.944626323     -75.2660117
9.147                 0.94452735     -75.3937819
9.148                0.944427869     -75.5219186
9.149                0.944327879      -75.650423
9.15                 0.944227376     -75.7792963
9.151                0.944126359     -75.9085396
9.152                0.944024826     -76.0381543
9.153                0.943922773     -76.1681416
9.154                0.943820199     -76.2985027
9.155                0.943717101     -76.4292388
9.156                0.943613477     -76.5603512
9.157                0.943509325     -76.6918411
9.158                0.943404642     -76.8237098
9.159                0.943299427     -76.9559585
9.16                 0.943193676     -77.0885885
9.161                0.943087388      -77.221601
9.162                 0.94298056     -77.3549973
9.163                 0.94287319     -77.4887787
9.164                0.942765276     -77.6229464
9.165                0.942656815     -77.7575017
9.166                0.942547805     -77.8924458
9.167                0.942438244     -78.0277801
9.168                0.942328129     -78.1635059
9.169                0.942217459     -78.2996243
9.17                 0.942106231     -78.4361367
9.171                0.941994442     -78.5730444
9.172                0.941882091     -78.7103487
9.173                0.941769175     -78.8480508
9.174                0.941655692     -78.9861521
9.175                 0.94154164     -79.1246538
9.176                0.941427017     -79.2635573
9.177                 0.94131182     -79.4028639
9.178                0.941196046     -79.5425749
9.179                0.941079695     -79.6826915
9.18                 0.940962763     -79.8232152
9.181                0.940845248     -79.9641472
9.182                0.940727149     -80.1054888
9.183                0.940608462     -80.2472414
9.184                0.940489187     -80.3894063
9.185                 0.94036932     -80.5319848
9.186                0.940248859     -80.6749783
9.187                0.940127803     -80.8183881
9.188                0.940006148     -80.9622155
9.189                0.939883894     -81.1064618
9.19                 0.939761037     -81.2511285
9.191                0.939637575     -81.3962169
9.192                0.939513508     -81.5417282
9.193                0.939388831     -81.6876639
9.194                0.939263544     -81.8340253
9.195                0.939137644     -81.9808138
9.196                0.939011129     -82.1280307
9.197                0.938883996     -82.2756773
9.198                0.938756245     -82.4237552
9.199                0.938627872     -82.5722655
9.2                  0.938498876     -82.7212097
9.201                0.938369254     -82.8705892
9.202                0.938239006     -83.0204053
9.203                0.938108127     -83.1706594
9.204                0.937976617     -83.3213528
9.205                0.937844474      -83.472487
9.206                0.937711695     -83.6240634
9.207                0.937578279     -83.7760832
9.208                0.937444223      -83.928548
9.209                0.937309526     -84.0814591
9.21                 0.937174185     -84.2348178
9.211                  0.9370382     -84.3886256
9.212                0.936901567     -84.5428839
9.213                0.936764284      -84.697594
9.214                0.936626351     -84.8527574
9.215                0.936487765     -85.0083755
9.216                0.936348524     -85.1644496
9.217                0.936208627     -85.3209812
9.218                0.936068071     -85.4779716
9.219                0.935926855     -85.6354223
9.22                 0.935784977     -85.7933347
9.221                0.935642434     -85.9517102
9.222                0.935499227     -86.1105502
9.223                0.935355351     -86.2698561
9.224                0.935210807     -86.4296293
9.225                0.935065592     -86.5898713
9.226                0.934919704     -86.7505834
9.227                0.934773142     -86.9117671
9.228                0.934625904     -87.0734238
9.229                0.934477989     -87.2355549
9.23                 0.934329394     -87.3981618
9.231                0.934180119      -87.561246
9.232                0.934030161     -87.7248088
9.233                0.933879519     -87.8888518
9.234                0.933728192     -88.0533762
9.235                0.933576178     -88.2183837
9.236                0.933423475     -88.3838755
9.237                0.933270082     -88.5498531
9.238                0.933115998     -88.7163179
9.239                 0.93296122     -88.8832714
9.24                 0.932805749      -89.050715
9.241                0.932649582     -89.2186501
9.242                0.932492717     -89.3870781
9.243                0.932335154     -89.5560005
9.244                0.932176892     -89.7254187
9.245                0.932017928     -89.8953341
9.246                0.931858262     -90.0657482
9.247                0.931697893     -90.2366624
9.248                0.931536819     -90.4080781
9.249                0.931375039     -90.5799968
9.25                 0.931212552     -90.7524198
9.251                0.931049356     -90.9253487
9.252                0.930885451     -91.0987848
9.253                0.930720836     -91.2727295
9.254                0.930555509     -91.4471844
9.255                 0.93038947     -91.6221507
9.256                0.930222717       -91.79763
9.257                 0.93005525     -91.9736237
9.258                0.929887068     -92.1501332
9.259                0.929718169     -92.3271599
9.26                 0.929548553     -92.5047052
9.261                0.929378219     -92.6827706
9.262                0.929207166     -92.8613575
9.263                0.929035394     -93.0404673
9.264                0.928862902     -93.2201014
9.265                0.928689689     -93.4002613
9.266                0.928515754     -93.5809483
9.267                0.928341097     -93.7621639
9.268                0.928165717     -93.9439094
9.269                0.927989613     -94.1261863
9.27                 0.927812786     -94.3089961
9.271                0.927635234       -94.49234
9.272                0.927456958     -94.6762195
9.273                0.927277956      -94.860636
9.274                0.927098229     -95.0455909
9.275                0.926917776     -95.2310857
9.276                0.926736597     -95.4171216
9.277                0.926554691        -95.6037
9.278                0.926372059     -95.7908225
9.279                  0.9261887     -95.9784903
9.28                 0.926004614     -96.1667048
9.281                0.925819801     -96.3554675
9.282                0.925634261     -96.5447797
9.283                0.925447994     -96.7346427
9.284                   0.925261     -96.9250579
9.285                0.925073279     -97.1160267
9.286                0.924884832     -97.3075505
9.287                0.924695658     -97.4996306
9.288                0.924505758     -97.6922684
9.289                0.924315132     -97.8854652
9.29                  0.92412378     -98.0792223
9.291                0.923931703     -98.2735412
9.292                0.923738902      -98.468423
9.293                0.923545376     -98.6638693
9.294                0.923351126     -98.8598813
9.295                0.923156153     -99.0564602
9.296                0.922960458     -99.2536076
9.297                 0.92276404     -99.4513245
9.298                0.922566902     -99.6496124
9.299                0.922369043     -99.8484726
9.3                  0.922170465     -100.047906
9.301                0.921971168     -100.247915
9.302                0.921771154       -100.4485
9.303                0.921570423     -100.649662
9.304                0.921368977     -100.851403
9.305                0.921166817     -101.053723
9.306                0.920963943     -101.256625
9.307                0.920760357      -101.46011
9.308                0.920556061     -101.664178
9.309                0.920351056     -101.868831
9.31                 0.920145343      -102.07407
9.311                0.919938923     -102.279896
9.312                0.919731799     -102.486312
9.313                0.919523972     -102.693317
9.314                0.919315443     -102.900913
9.315                0.919106215     -103.109101
9.316                0.918896289     -103.317883
9.317                0.918685667     -103.527259
9.318                0.918474351     -103.737231
9.319                0.918262342       -103.9478
9.32                 0.918049644     -104.158967
9.321                0.917836258     -104.370733
9.322                0.917622187       -104.5831
9.323                0.917407432     -104.796068
9.324                0.917191996     -105.009638
9.325                0.916975881     -105.223812
9.326                0.916759091     -105.438592
9.327                0.916541627     -105.653976
9.328                0.916323492     -105.869968
9.329                0.916104689     -106.086568
9.33                 0.915885221     -106.303777
9.331                 0.91566509     -106.521596
9.332                  0.9154443     -106.740027
9.333                0.915222853     -106.959069
9.334                0.915000753     -107.178725
9.335                0.914778002     -107.398994
9.336                0.914554605     -107.619879
9.337                0.914330563     -107.841381
9.338                0.914105882     -108.063499
9.339                0.913880563     -108.286235
9.34                 0.913654611      -108.50959
9.341                 0.91342803     -108.733566
9.342                0.913200822     -108.958162
9.343                0.912972993      -109.18338
9.344                0.912744545      -109.40922
9.345                0.912515483     -109.635684
9.346                0.912285811     -109.862772
9.347                0.912055533     -110.090486
9.348                0.911824653     -110.318825
9.349                0.911593175     -110.547792
9.35                 0.911361104     -110.777386
9.351                0.911128445     -111.007609
9.352                0.910895202      -111.23846
9.353                0.910661379     -111.469942
9.354                0.910426982     -111.702055
9.355                0.910192015     -111.934799
9.356                0.909956482     -112.168175
9.357                0.909720391     -112.402184
9.358                0.909483744     -112.636826
9.359                0.909246548     -112.872103
9.36                 0.909008808     -113.108015
9.361                0.908770528     -113.344562
9.362                0.908531716     -113.581745
9.363                0.908292376     -113.819564
9.364                0.908052513     -114.058021
9.365                0.907812135     -114.297116
9.366                0.907571246      -114.53685
9.367                0.907329852     -114.777222
9.368                 0.90708796     -115.018233
9.369                0.906845576     -115.259884
9.37                 0.906602705     -115.502176
9.371                0.906359355     -115.745108
9.372                0.906115532     -115.988682
9.373                0.905871242     -116.232897
9.374                0.905626492     -116.477754
9.375                0.905381289     -116.723253
9.376                0.905135639     -116.969395
9.377                 0.90488955      -117.21618
9.378                0.904643029     -117.463609
9.379                0.904396082     -117.711681
9.38                 0.904148717     -117.960396
9.381                0.903900941     -118.209756
9.382                0.903652762      -118.45976
9.383                0.903404188     -118.710409
9.384                0.903155225     -118.961702
9.385                0.902905882      -119.21364
9.386                0.902656167     -119.466223
9.387                0.902406088     -119.719451
9.388                0.902155652     -119.973324
9.389                0.901904868     -120.227842
9.39                 0.901653744     -120.483005
9.391                0.901402288     -120.738814
9.392                 0.90115051     -120.995267
9.393                0.900898417     -121.252366
9.394                0.900646018     -121.510109
9.395                0.900393323     -121.768498
9.396                0.900140339     -122.027531
