! TOUCHSTONE file generated by CST DESIGN STUDIO
! Date and time: Tue Feb  4 16:29:40 2025
! Project name: C:\Work\MatlabApps\UnitCellOptimizationMatlab\CST\unitcell.cst
! Tree item: Tasks\Sweep1\SPara1\S-Parameters
! Header version: 2024
! Port assignment regex: !\s*Touchstone port\s*([0-9]+)\s*=\s*(CST MWS port|CST DES external port|CST DES block port)\s*(.+)\s* \(\"(.*)\"\)(\s*mode\s*([0-9]+))?.*
! Touchstone port assignment:
! Touchstone port 1 = CST DES external port 1 ("")
# GHz S MA R 50
9                    0.924006059     -78.9170933
9.001                0.923866497     -79.0471477
9.002                0.923726758     -79.1775892
9.003                0.923586841     -79.3084193
9.004                0.923446744     -79.4396393
9.005                0.923306466     -79.5712507
9.006                0.923166006     -79.7032548
9.007                0.923025363     -79.8356531
9.008                0.922884534     -79.9684468
9.009                 0.92274352     -80.1016375
9.01                 0.922602319     -80.2352265
9.011                0.922460929     -80.3692153
9.012                0.922319349     -80.5036051
9.013                0.922177579     -80.6383976
9.014                0.922035616      -80.773594
9.015                0.921893461     -80.9091959
9.016                 0.92175111     -81.0452046
9.017                0.921608564     -81.1816215
9.018                0.921465821     -81.3184481
9.019                 0.92132288     -81.4556859
9.02                  0.92117974     -81.5933362
9.021                0.921036399     -81.7314006
9.022                0.920892857     -81.8698804
9.023                0.920749112     -82.0087772
9.024                0.920605163     -82.1480923
9.025                0.920461009     -82.2878272
9.026                0.920316648     -82.4279835
9.027                 0.92017208     -82.5685625
9.028                0.920027304     -82.7095657
9.029                0.919882318     -82.8509946
9.03                 0.919737122     -82.9928507
9.031                0.919591713     -83.1351355
9.032                0.919446092     -83.2778503
9.033                0.919300256     -83.4209968
9.034                0.919154206     -83.5645765
9.035                0.919007939     -83.7085907
9.036                0.918861455      -83.853041
9.037                0.918714753     -83.9979289
9.038                0.918567831     -84.1432559
9.039                0.918420689     -84.2890235
9.04                 0.918273326     -84.4352331
9.041                 0.91812574     -84.5818864
9.042                0.917977931     -84.7289849
9.043                0.917829897       -84.87653
9.044                0.917681638     -85.0245232
9.045                0.917533153     -85.1729661
9.046                 0.91738444     -85.3218603
9.047                0.917235499     -85.4712071
9.048                0.917086328     -85.6210083
9.049                0.916936928     -85.7712652
9.05                 0.916787296     -85.9219795
9.051                0.916637432     -86.0731526
9.052                0.916487336     -86.2247862
9.053                0.916337005     -86.3768817
9.054                 0.91618644     -86.5294407
9.055                 0.91603564     -86.6824648
9.056                0.915884603     -86.8359555
9.057                0.915733328     -86.9899144
9.058                0.915581816     -87.1443429
9.059                0.915430065     -87.2992428
9.06                 0.915278075     -87.4546154
9.061                0.915125844     -87.6104625
9.062                0.914973371     -87.7667855
9.063                0.914820657     -87.9235861
9.064                0.914667701     -88.0808657
9.065                  0.9145145     -88.2386261
9.066                0.914361056     -88.3968686
9.067                0.914207367      -88.555595
9.068                0.914053433     -88.7148068
9.069                0.913899253     -88.8745056
9.07                 0.913744825     -89.0346929
9.071                0.913590151     -89.1953703
9.072                0.913435229     -89.3565395
9.073                0.913280058      -89.518202
9.074                0.913124638     -89.6803593
9.075                0.912968968     -89.8430132
9.076                0.912813048     -90.0061651
9.077                0.912656878     -90.1698167
9.078                0.912500456     -90.3339695
9.079                0.912343783     -90.4986252
9.08                 0.912186857     -90.6637853
9.081                0.912029679     -90.8294515
9.082                0.911872248     -90.9956253
9.083                0.911714564     -91.1623084
9.084                0.911556625     -91.3295022
9.085                0.911398433     -91.4972085
9.086                0.911239986     -91.6654289
9.087                0.911081285     -91.8341648
9.088                0.910922328      -92.003418
9.089                0.910763117     -92.1731901
9.09                 0.910603649     -92.3434826
9.091                0.910443926     -92.5142971
9.092                0.910283947     -92.6856352
9.093                0.910123711     -92.8574986
9.094                 0.90996322     -93.0298889
9.095                0.909802472     -93.2028076
9.096                0.909641467     -93.3762564
9.097                0.909480206     -93.5502368
9.098                0.909318688     -93.7247505
9.099                0.909156913      -93.899799
9.1                  0.908994881      -94.075384
9.101                0.908832593     -94.2515071
9.102                0.908670048     -94.4281698
9.103                0.908507247     -94.6053738
9.104                0.908344189     -94.7831207
9.105                0.908180875      -94.961412
9.106                0.908017305     -95.1402494
9.107                0.907853478     -95.3196344
9.108                0.907689396     -95.4995687
9.109                0.907525058     -95.6800538
9.11                 0.907360466     -95.8610914
9.111                0.907195618     -96.0426829
9.112                0.907030515     -96.2248301
9.113                0.906865158     -96.4075345
9.114                0.906699548     -96.5907977
9.115                0.906533684     -96.7746212
9.116                0.906367567     -96.9590066
9.117                0.906201197     -97.1439556
9.118                0.906034576     -97.3294697
9.119                0.905867703     -97.5155505
9.12                  0.90570058     -97.7021995
9.121                0.905533206     -97.8894183
9.122                0.905365583     -98.0772084
9.123                0.905197711     -98.2655715
9.124                0.905029591     -98.4545091
9.125                0.904861224     -98.6440228
9.126                 0.90469261      -98.834114
9.127                 0.90452375     -99.0247845
9.128                0.904354646     -99.2160356
9.129                0.904185298     -99.4078689
9.13                 0.904015707      -99.600286
9.131                0.903845874     -99.7932884
9.132                  0.9036758     -99.9868777
9.133                0.903505486     -100.181055
9.134                0.903334933     -100.375823
9.135                0.903164143     -100.571182
9.136                0.902993117     -100.767134
9.137                0.902821855      -100.96368
9.138                0.902650359     -101.160822
9.139                0.902478631     -101.358561
9.14                 0.902306672       -101.5569
9.141                0.902134482     -101.755839
9.142                0.901962065     -101.955379
9.143                 0.90178942     -102.155523
9.144                 0.90161655     -102.356272
9.145                0.901443456     -102.557627
9.146                 0.90127014      -102.75959
9.147                0.901096603     -102.962162
9.148                0.900922847     -103.165345
9.149                0.900748875     -103.369139
9.15                 0.900574686     -103.573547
9.151                0.900400285      -103.77857
9.152                0.900225672      -103.98421
9.153                0.900050849     -104.190467
9.154                0.899875818     -104.397343
9.155                0.899700582     -104.604839
9.156                0.899525142     -104.812958
9.157                0.899349501     -105.021699
9.158                0.899173661     -105.231066
9.159                0.898997623     -105.441058
9.16                 0.898821391     -105.651677
9.161                0.898644966     -105.862926
9.162                0.898468352     -106.074804
9.163                 0.89829155     -106.287313
9.164                0.898114563     -106.500455
9.165                0.897937393     -106.714231
9.166                0.897760044     -106.928642
9.167                0.897582517      -107.14369
9.168                0.897404815     -107.359375
9.169                0.897226942       -107.5757
9.17                   0.8970489     -107.792664
9.171                0.896870692      -108.01027
9.172                 0.89669232     -108.228519
9.173                0.896513789     -108.447412
9.174                  0.8963351     -108.666949
9.175                0.896156258     -108.887133
9.176                0.895977264     -109.107965
9.177                0.895798123     -109.329445
9.178                0.895618837     -109.551575
9.179                0.895439411     -109.774356
9.18                 0.895259847     -109.997788
9.181                0.895080149     -110.221874
9.182                 0.89490032     -110.446615
9.183                0.894720364      -110.67201
9.184                0.894540284     -110.898062
9.185                0.894360085     -111.124772
9.186                 0.89417977      -111.35214
9.187                0.893999343     -111.580167
9.188                0.893818808     -111.808855
9.189                0.893638168     -112.038204
9.19                 0.893457428     -112.268216
9.191                0.893276592     -112.498892
9.192                0.893095664     -112.730232
9.193                0.892914648     -112.962237
9.194                0.892733549     -113.194908
9.195                 0.89255237     -113.428247
9.196                0.892371117     -113.662254
9.197                0.892189793     -113.896929
9.198                0.892008404     -114.132274
9.199                0.891826953      -114.36829
9.2                  0.891645446     -114.604977
9.201                0.891463887     -114.842337
9.202                0.891282281     -115.080369
9.203                0.891100634     -115.319075
9.204                0.890918949     -115.558455
9.205                0.890737232     -115.798511
9.206                0.890555488     -116.039242
9.207                0.890373722      -116.28065
9.208                 0.89019194     -116.522735
9.209                0.890010146     -116.765498
9.21                 0.889828346     -117.008939
9.211                0.889646546     -117.253059
9.212                0.889464751     -117.497859
9.213                0.889282966     -117.743339
9.214                0.889101198     -117.989499
9.215                0.888919451     -118.236341
9.216                0.888737732     -118.483864
9.217                0.888556047     -118.732069
9.218                0.888374402     -118.980957
9.219                0.888192801     -119.230528
9.22                 0.888011253     -119.480781
9.221                0.887829762     -119.731719
9.222                0.887648335     -119.983341
9.223                0.887466978     -120.235647
9.224                0.887285698     -120.488637
9.225                0.887104501     -120.742312
9.226                0.886923394     -120.996673
9.227                0.886742382     -121.251719
9.228                0.886561474      -121.50745
9.229                0.886380675     -121.763867
9.23                 0.886199992     -122.020969
9.231                0.886019432     -122.278758
9.232                0.885839003     -122.537232
9.233                0.885658711     -122.796393
9.234                0.885478562     -123.056239
9.235                0.885298566     -123.316772
9.236                0.885118728      -123.57799
9.237                0.884939056     -123.839895
9.238                0.884759557     -124.102485
9.239                0.884580239     -124.365761
9.24                 0.884401109     -124.629723
9.241                0.884222175      -124.89437
9.242                0.884043445     -125.159702
9.243                0.883864926     -125.425719
9.244                0.883686626     -125.692421
9.245                0.883508553     -125.959807
9.246                0.883330715     -126.227877
9.247                0.883153119      -126.49663
9.248                0.882975775     -126.766067
9.249                 0.88279869     -127.036187
9.25                 0.882621873     -127.306989
9.251                0.882445331     -127.578473
9.252                0.882269073     -127.850638
9.253                0.882093108     -128.123484
9.254                0.881917444      -128.39701
9.255                0.881742089     -128.671215
9.256                0.881567052       -128.9461
9.257                0.881392343     -129.221662
9.258                0.881217969     -129.497902
9.259                 0.88104394     -129.774818
9.26                 0.880870264     -130.052411
9.261                 0.88069695     -130.330678
9.262                0.880524008     -130.609619
9.263                0.880351447     -130.889233
9.264                0.880179275      -131.16952
9.265                0.880007502     -131.450478
9.266                0.879836137     -131.732106
9.267                 0.87966519     -132.014403
9.268                0.879494669     -132.297368
9.269                0.879324585        -132.581
9.27                 0.879154947     -132.865298
9.271                0.878985765      -133.15026
9.272                0.878817047     -133.435886
9.273                0.878648805     -133.722173
9.274                0.878481046     -134.009121
9.275                0.878313783     -134.296728
9.276                0.878147023     -134.584993
9.277                0.877980777     -134.873914
9.278                0.877815056     -135.163491
9.279                0.877649869      -135.45372
9.28                 0.877485226     -135.744601
9.281                0.877321137     -136.036132
9.282                0.877157612     -136.328312
9.283                0.876994662     -136.621139
9.284                0.876832297      -136.91461
9.285                0.876670527     -137.208725
9.286                0.876509363     -137.503481
9.287                0.876348815     -137.798877
9.288                0.876188893      -138.09491
9.289                0.876029607     -138.391579
9.29                 0.875870969     -138.688882
9.291                0.875712989     -138.986816
9.292                0.875555677      -139.28538
9.293                0.875399045     -139.584571
9.294                0.875243102     -139.884388
9.295                0.875087859     -140.184828
9.296                0.874933327     -140.485888
9.297                0.874779518     -140.787567
9.298                 0.87462644     -141.089863
9.299                0.874474107     -141.392772
9.3                  0.874322527     -141.696292
9.301                0.874171713     -142.000421
9.302                0.874021674     -142.305157
9.303                0.873872422     -142.610497
9.304                0.873723968     -142.916437
9.305                0.873576323     -143.222976
9.306                0.873429497     -143.530111
9.307                0.873283502      -143.83784
9.308                0.873138348     -144.146158
9.309                0.872994047     -144.455064
9.31                 0.872850609     -144.764555
9.311                0.872708046     -145.074627
9.312                0.872566369     -145.385278
9.313                0.872425588     -145.696504
9.314                0.872285715     -146.008304
9.315                 0.87214676     -146.320673
9.316                0.872008735     -146.633608
9.317                0.871871651     -146.947106
9.318                0.871735518     -147.261165
9.319                0.871600348      -147.57578
9.32                 0.871466152     -147.890948
9.321                 0.87133294     -148.206666
9.322                0.871200724     -148.522931
9.323                0.871069515     -148.839739
9.324                0.870939323     -149.157087
9.325                 0.87081016      -149.47497
9.326                0.870682036     -149.793386
9.327                0.870554963     -150.112331
9.328                0.870428951       -150.4318
9.329                0.870304011     -150.751791
9.33                 0.870180154       -151.0723
9.331                 0.87005739     -151.393322
9.332                0.869935731     -151.714854
9.333                0.869815187     -152.036892
9.334                0.869695769     -152.359432
9.335                0.869577488     -152.682469
9.336                0.869460354     -153.006001
9.337                0.869344378     -153.330022
9.338                0.869229569      -153.65453
9.339                 0.86911594     -153.979518
9.34                   0.8690035     -154.304984
9.341                 0.86889226     -154.630923
9.342                0.868782229      -154.95733
9.343                0.868673419     -155.284202
9.344                0.868565839     -155.611533
9.345                  0.8684595      -155.93932
9.346                0.868354412     -156.267558
9.347                0.868250584     -156.596243
9.348                0.868148027     -156.925369
9.349                0.868046752     -157.254933
9.35                 0.867946766     -157.584929
9.351                0.867848081     -157.915353
9.352                0.867750707       -158.2462
9.353                0.867654652     -158.577466
9.354                0.867559926     -158.909146
9.355                0.867466539     -159.241234
9.356                  0.8673745     -159.573726
9.357                0.867283819     -159.906617
9.358                0.867194504     -160.239902
9.359                0.867106566     -160.573575
9.36                 0.867020012     -160.907633
9.361                0.866934853      -161.24207
9.362                0.866851096      -161.57688
9.363                 0.86676875     -161.912059
9.364                0.866687825     -162.247601
9.365                0.866608329     -162.583501
9.366                 0.86653027     -162.919754
9.367                0.866453657     -163.256354
9.368                0.866378497     -163.593297
9.369                  0.8663048     -163.930577
9.37                 0.866232573     -164.268188
9.371                0.866161824     -164.606125
9.372                0.866092561     -164.944382
9.373                0.866024792     -165.282955
9.374                0.865958524     -165.621836
9.375                0.865893764     -165.961022
9.376                0.865830521     -166.300506
9.377                0.865768801     -166.640283
9.378                0.865708612     -166.980347
9.379                 0.86564996     -167.320691
9.38                 0.865592852     -167.661312
9.381                0.865537296     -168.002202
9.382                0.865483296     -168.343357
9.383                0.865430862     -168.684769
9.384                0.865379997     -169.026434
9.385                0.865330709     -169.368346
9.386                0.865283004     -169.710498
9.387                0.865236887     -170.052885
9.388                0.865192365       -170.3955
9.389                0.865149443     -170.738339
9.39                 0.865108126     -171.081394
9.391                 0.86506842      -171.42466
9.392                0.865030331     -171.768131
9.393                0.864993862     -172.111801
9.394                0.864959019     -172.455664
9.395                0.864925808     -172.799713
9.396                0.864894231     -173.143942
