! TOUCHSTONE file generated by CST DESIGN STUDIO
! Date and time: Tue Feb  4 13:27:58 2025
! Project name: C:\Work\MatlabApps\UnitCellOptimizationMatlab\CST\unitcell.cst
! Tree item: Tasks\Sweep1\SPara1\S-Parameters
! Header version: 2024
! Port assignment regex: !\s*Touchstone port\s*([0-9]+)\s*=\s*(CST MWS port|CST DES external port|CST DES block port)\s*(.+)\s* \(\"(.*)\"\)(\s*mode\s*([0-9]+))?.*
! Touchstone port assignment:
! Touchstone port 1 = CST DES external port 1 ("")
# GHz S MA R 50
9                    0.975551576     -69.0620304
9.001                0.975492941     -69.1639435
9.002                0.975434131     -69.2661065
9.003                0.975375145     -69.3685203
9.004                0.975315983     -69.4711857
9.005                0.975256645     -69.5741035
9.006                 0.97519713     -69.6772744
9.007                0.975137438     -69.7806994
9.008                0.975077568     -69.8843791
9.009                0.975017519     -69.9883143
9.01                 0.974957292      -70.092506
9.011                0.974896885     -70.1969549
9.012                0.974836298     -70.3016618
9.013                0.974775531     -70.4066276
9.014                0.974714583      -70.511853
9.015                0.974653454     -70.6173388
9.016                0.974592143      -70.723086
9.017                 0.97453065     -70.8290953
9.018                0.974468974     -70.9353675
9.019                0.974407115     -71.0419035
9.02                 0.974345072     -71.1487041
9.021                0.974282845     -71.2557702
9.022                0.974220433     -71.3631026
9.023                0.974157837     -71.4707021
9.024                0.974095054     -71.5785695
9.025                0.974032085     -71.6867058
9.026                 0.97396893     -71.7951118
9.027                0.973905587     -71.9037882
9.028                0.973842057      -72.012736
9.029                0.973778339     -72.1219561
9.03                 0.973714432     -72.2314492
9.031                0.973650336     -72.3412163
9.032                0.973586051     -72.4512582
9.033                0.973521575     -72.5615757
9.034                0.973456909     -72.6721698
9.035                0.973392052     -72.7830413
9.036                0.973327004      -72.894191
9.037                0.973261763       -73.00562
9.038                0.973196331     -73.1173289
9.039                0.973130705     -73.2293188
9.04                 0.973064886     -73.3415904
9.041                0.972998873     -73.4541448
9.042                0.972932666     -73.5669827
9.043                0.972866264     -73.6801051
9.044                0.972799666     -73.7935128
9.045                0.972732873     -73.9072067
9.046                0.972665884     -74.0211878
9.047                0.972598698     -74.1354569
9.048                0.972531315      -74.250015
9.049                0.972463735     -74.3648629
9.05                 0.972395956     -74.4800016
9.051                0.972327978     -74.5954319
9.052                0.972259802     -74.7111548
9.053                0.972191426     -74.8271712
9.054                0.972122851      -74.943482
9.055                0.972054074     -75.0600881
9.056                0.971985098     -75.1769905
9.057                0.971915919       -75.29419
9.058                0.971846539     -75.4116877
9.059                0.971776957     -75.5294843
9.06                 0.971707172     -75.6475809
9.061                0.971637184     -75.7659784
9.062                0.971566992     -75.8846777
9.063                0.971496597     -76.0036798
9.064                0.971425997     -76.1229855
9.065                0.971355192      -76.242596
9.066                0.971284181      -76.362512
9.067                0.971212965     -76.4827345
9.068                0.971141543     -76.6032645
9.069                0.971069914      -76.724103
9.07                 0.970998078     -76.8452508
9.071                0.970926035      -76.966709
9.072                0.970853783     -77.0884786
9.073                0.970781323     -77.2105603
9.074                0.970708655     -77.3329553
9.075                0.970635777     -77.4556645
9.076                 0.97056269     -77.5786889
9.077                0.970489392     -77.7020294
9.078                0.970415884     -77.8256871
9.079                0.970342165     -77.9496628
9.08                 0.970268235     -78.0739575
9.081                0.970194094     -78.1985723
9.082                 0.97011974     -78.3235082
9.083                0.970045173      -78.448766
9.084                0.969970394     -78.5743468
9.085                0.969895402     -78.7002517
9.086                0.969820196     -78.8264814
9.087                0.969744775     -78.9530372
9.088                0.969669141     -79.0799199
9.089                0.969593291     -79.2071306
9.09                 0.969517227     -79.3346702
9.091                0.969440947     -79.4625397
9.092                0.969364451     -79.5907403
9.093                0.969287738     -79.7192727
9.094                0.969210809     -79.8481382
9.095                0.969133663     -79.9773377
9.096                  0.9690563     -80.1068721
9.097                0.968978718     -80.2367425
9.098                0.968900919       -80.36695
9.099                0.968822901     -80.4974955
9.1                  0.968744665       -80.62838
9.101                0.968666209     -80.7596047
9.102                0.968587534     -80.8911704
9.103                0.968508639     -81.0230782
9.104                0.968429525     -81.1553293
9.105                0.968350189     -81.2879245
9.106                0.968270633     -81.4208649
9.107                0.968190856     -81.5541515
9.108                0.968110858     -81.6877855
9.109                0.968030638     -81.8217677
9.11                 0.967950196     -81.9560994
9.111                0.967869532     -82.0907814
9.112                0.967788645     -82.2258148
9.113                0.967707535     -82.3612008
9.114                0.967626203     -82.4969402
9.115                0.967544647     -82.6330343
9.116                0.967462867     -82.7694839
9.117                0.967380864     -82.9062903
9.118                0.967298636     -83.0434543
9.119                0.967216184     -83.1809772
9.12                 0.967133508     -83.3188599
9.121                0.967050607     -83.4571034
9.122                 0.96696748      -83.595709
9.123                0.966884128     -83.7346775
9.124                0.966800551     -83.8740101
9.125                0.966716748     -84.0137079
9.126                0.966632719     -84.1537718
9.127                0.966548464      -84.294203
9.128                0.966463982     -84.4350026
9.129                0.966379274     -84.5761715
9.13                 0.966294339      -84.717711
9.131                0.966209178     -84.8596219
9.132                0.966123789     -85.0019055
9.133                0.966038173     -85.1445628
9.134                 0.96595233     -85.2875948
9.135                0.965866259     -85.4310027
9.136                 0.96577996     -85.5747875
9.137                0.965693434     -85.7189503
9.138                0.965606679     -85.8634922
9.139                0.965519697     -86.0084142
9.14                 0.965432487     -86.1537175
9.141                0.965345048     -86.2994031
9.142                0.965257381     -86.4454722
9.143                0.965169485     -86.5919257
9.144                0.965081361     -86.7387648
9.145                0.964993009     -86.8859905
9.146                0.964904427      -87.033604
9.147                0.964815617     -87.1816064
9.148                0.964726578     -87.3299987
9.149                0.964637311      -87.478782
9.15                 0.964547814     -87.6279574
9.151                0.964458089      -87.777526
9.152                0.964368135     -87.9274889
9.153                0.964277952     -88.0778473
9.154                0.964187541     -88.2286021
9.155                  0.9640969     -88.3797544
9.156                0.964006031     -88.5313055
9.157                0.963914933     -88.6832563
9.158                0.963823606      -88.835608
9.159                 0.96373205     -88.9883616
9.16                 0.963640266     -89.1415183
9.161                0.963548254     -89.2950791
9.162                0.963456013     -89.4490452
9.163                0.963363544     -89.6034176
9.164                0.963270846     -89.7581974
9.165                0.963177921     -89.9133858
9.166                0.963084767     -90.0689838
9.167                0.962991386     -90.2249926
9.168                0.962897777     -90.3814131
9.169                 0.96280394     -90.5382466
9.17                 0.962709876     -90.6954941
9.171                0.962615585     -90.8531568
9.172                0.962521067     -91.0112356
9.173                0.962426322     -91.1697317
9.174                0.962331351     -91.3286463
9.175                0.962236154     -91.4879803
9.176                 0.96214073      -91.647735
9.177                0.962045081     -91.8079113
9.178                0.961949206     -91.9685104
9.179                0.961853106     -92.1295333
9.18                 0.961756781     -92.2909813
9.181                0.961660231     -92.4528553
9.182                0.961563457     -92.6151564
9.183                0.961466459     -92.7778858
9.184                0.961369237     -92.9410445
9.185                0.961271792     -93.1046336
9.186                0.961174125     -93.2686542
9.187                0.961076234     -93.4331074
9.188                0.960978122     -93.5979943
9.189                0.960879788      -93.763316
9.19                 0.960781233     -93.9290734
9.191                0.960682457     -94.0952678
9.192                 0.96058346     -94.2619002
9.193                0.960484244     -94.4289717
9.194                0.960384808     -94.5964834
9.195                0.960285154     -94.7644362
9.196                0.960185281     -94.9328314
9.197                 0.96008519     -95.1016699
9.198                0.959984882     -95.2709529
9.199                0.959884358     -95.4406814
9.2                  0.959783617     -95.6108565
9.201                 0.95968266     -95.7814793
9.202                0.959581489     -95.9525507
9.203                0.959480104     -96.1240719
9.204                0.959378505      -96.296044
9.205                0.959276693     -96.4684679
9.206                0.959174668     -96.6413448
9.207                0.959072433     -96.8146756
9.208                0.958969986     -96.9884615
9.209                0.958867329     -97.1627035
9.21                 0.958764463     -97.3374026
9.211                0.958661388     -97.5125598
9.212                0.958558105     -97.6881763
9.213                0.958454616      -97.864253
9.214                 0.95835092     -98.0407909
9.215                0.958247019     -98.2177912
9.216                0.958142913     -98.3952548
9.217                0.958038604     -98.5731827
9.218                0.957934092      -98.751576
9.219                0.957829378     -98.9304357
9.22                 0.957724464     -99.1097628
9.221                0.957619349     -99.2895582
9.222                0.957514036     -99.4698231
9.223                0.957408524     -99.6505584
9.224                0.957302816     -99.8317651
9.225                0.957196912     -100.013444
9.226                0.957090813     -100.195597
9.227                 0.95698452     -100.378223
9.228                0.956878035     -100.561326
9.229                0.956771358     -100.744904
9.23                 0.956664491      -100.92896
9.231                0.956557435     -101.113494
9.232                 0.95645019     -101.298507
9.233                0.956342759     -101.484001
9.234                0.956235142     -101.669976
9.235                0.956127341     -101.856432
9.236                0.956019357     -102.043372
9.237                 0.95591119     -102.230796
9.238                0.955802844     -102.418705
9.239                0.955694318     -102.607099
9.24                 0.955585615      -102.79598
9.241                0.955476735     -102.985349
9.242                 0.95536768     -103.175207
9.243                0.955258451     -103.365554
9.244                0.955149051     -103.556391
9.245                0.955039479      -103.74772
9.246                0.954929739     -103.939541
9.247                0.954819831     -104.131855
9.248                0.954709757     -104.324663
9.249                0.954599519     -104.517966
9.25                 0.954489117     -104.711764
9.251                0.954378555     -104.906059
9.252                0.954267832     -105.100851
9.253                0.954156952     -105.296142
9.254                0.954045916     -105.491931
9.255                0.953934725      -105.68822
9.256                0.953823381     -105.885011
9.257                0.953711887     -106.082302
9.258                0.953600243     -106.280096
9.259                0.953488452     -106.478393
9.26                 0.953376515     -106.677194
9.261                0.953264435       -106.8765
9.262                0.953152213     -107.076311
9.263                0.953039851     -107.276628
9.264                0.952927352     -107.477452
9.265                0.952814717     -107.678785
9.266                0.952701948     -107.880625
9.267                0.952589047     -108.082975
9.268                0.952476016     -108.285835
9.269                0.952362858     -108.489205
9.27                 0.952249575     -108.693087
9.271                0.952136168     -108.897481
9.272                 0.95202264     -109.102387
9.273                0.951908993     -109.307807
9.274                 0.95179523     -109.513741
9.275                0.951681352      -109.72019
9.276                0.951567362     -109.927155
9.277                0.951453263     -110.134635
9.278                0.951339056     -110.342632
9.279                0.951224744     -110.551146
9.28                 0.951110329     -110.760179
9.281                0.950995814      -110.96973
9.282                0.950881202     -111.179799
9.283                0.950766494     -111.390389
9.284                0.950651694     -111.601499
9.285                0.950536804      -111.81313
9.286                0.950421826     -112.025282
9.287                0.950306764     -112.237956
9.288                0.950191619     -112.451152
9.289                0.950076395     -112.664871
9.29                 0.949961094     -112.879114
9.291                0.949845719      -113.09388
9.292                0.949730273     -113.309171
9.293                0.949614758     -113.524987
9.294                0.949499178     -113.741328
9.295                0.949383535     -113.958195
9.296                0.949267832     -114.175588
9.297                0.949152073     -114.393508
9.298                0.949036259     -114.611955
9.299                0.948920395     -114.830929
9.3                  0.948804482      -115.05043
9.301                0.948688525      -115.27046
9.302                0.948572526     -115.491018
9.303                0.948456489     -115.712105
9.304                0.948340416     -115.933722
9.305                0.948224311     -116.155867
9.306                0.948108177     -116.378542
9.307                0.947992017     -116.601748
9.308                0.947875835     -116.825483
9.309                0.947759633     -117.049749
9.31                 0.947643416     -117.274546
9.311                0.947527186     -117.499873
9.312                0.947410947     -117.725732
9.313                0.947294703     -117.952122
9.314                0.947178457     -118.179043
9.315                0.947062212     -118.406496
9.316                0.946945972     -118.634481
9.317                 0.94682974     -118.862998
9.318                0.946713521     -119.092047
9.319                0.946597318     -119.321628
9.32                 0.946481134     -119.551741
9.321                0.946364973     -119.782387
9.322                0.946248839     -120.013564
9.323                0.946132736     -120.245274
9.324                0.946016667     -120.477517
9.325                0.945900637     -120.710291
9.326                0.945784649     -120.943598
9.327                0.945668707     -121.177438
9.328                0.945552815     -121.411809
9.329                0.945436977     -121.646713
9.33                 0.945321198     -121.882148
9.331                 0.94520548     -122.118115
9.332                0.945089828     -122.354615
9.333                0.944974247     -122.591645
9.334                 0.94485874     -122.829208
9.335                0.944743311     -123.067301
9.336                0.944627965     -123.305926
9.337                0.944512706     -123.545081
9.338                0.944397538     -123.784767
9.339                0.944282465     -124.024983
9.34                 0.944167493     -124.265729
9.341                0.944052624     -124.507005
9.342                0.943937864     -124.748811
9.343                0.943823217     -124.991145
9.344                0.943708687     -125.234008
9.345                0.943594279       -125.4774
9.346                0.943479997     -125.721319
9.347                0.943365846     -125.965766
9.348                 0.94325183     -126.210739
9.349                0.943137954      -126.45624
9.35                 0.943024223     -126.702266
9.351                0.942910641     -126.948818
9.352                0.942797213     -127.195895
9.353                0.942683943     -127.443496
9.354                0.942570837     -127.691621
9.355                0.942457899      -127.94027
9.356                0.942345134     -128.189441
9.357                0.942232547     -128.439134
9.358                0.942120142     -128.689349
9.359                0.942007925     -128.940084
9.36                   0.9418959     -129.191339
9.361                0.941784072     -129.443114
9.362                0.941672446     -129.695407
9.363                0.941561028     -129.948217
9.364                0.941449822     -130.201545
9.365                0.941338833     -130.455388
9.366                0.941228066     -130.709747
9.367                0.941117527      -130.96462
9.368                 0.94100722     -131.220007
9.369                0.940897151     -131.475906
9.37                 0.940787325     -131.732317
9.371                0.940677746     -131.989238
9.372                0.940568421     -132.246669
9.373                0.940459354     -132.504609
9.374                0.940350551     -132.763056
9.375                0.940242017      -133.02201
9.376                0.940133757      -133.28147
9.377                0.940025776     -133.541433
9.378                 0.93991808       -133.8019
9.379                0.939810675     -134.062869
9.38                 0.939703565     -134.324338
9.381                0.939596756     -134.586308
9.382                0.939490254     -134.848775
9.383                0.939384063      -135.11174
9.384                 0.93927819     -135.375201
9.385                0.939172639     -135.639156
9.386                0.939067417     -135.903604
9.387                0.938962528     -136.168544
9.388                0.938857979     -136.433975
9.389                0.938753774     -136.699894
9.39                  0.93864992     -136.966301
9.391                0.938546422     -137.233194
9.392                0.938443285     -137.500572
9.393                0.938340516     -137.768433
9.394                0.938238119     -138.036775
9.395                  0.9381361     -138.305597
9.396                0.938034466     -138.574897
