! TOUCHSTONE file generated by CST DESIGN STUDIO
! Date and time: Tue Feb  4 13:27:48 2025
! Project name: C:\Work\MatlabApps\UnitCellOptimizationMatlab\CST\unitcell.cst
! Tree item: Tasks\Sweep1\SPara1\S-Parameters
! Header version: 2024
! Port assignment regex: !\s*Touchstone port\s*([0-9]+)\s*=\s*(CST MWS port|CST DES external port|CST DES block port)\s*(.+)\s* \(\"(.*)\"\)(\s*mode\s*([0-9]+))?.*
! Touchstone port assignment:
! Touchstone port 1 = CST DES external port 1 ("")
# GHz S MA R 50
9                    0.971721847     -84.8979808
9.001                0.971642194      -85.038668
9.002                0.971562316     -85.1797221
9.003                0.971482212     -85.3211441
9.004                0.971401883     -85.4629352
9.005                0.971321328     -85.6050962
9.006                0.971240546     -85.7476283
9.007                0.971159538     -85.8905326
9.008                0.971078304       -86.03381
9.009                0.970996842     -86.1774617
9.01                 0.970915154     -86.3214887
9.011                0.970833238     -86.4658921
9.012                0.970751095     -86.6106729
9.013                0.970668724     -86.7558322
9.014                0.970586125      -86.901371
9.015                0.970503298     -87.0472905
9.016                0.970420242     -87.1935916
9.017                0.970336959     -87.3402755
9.018                0.970253446     -87.4873431
9.019                0.970169705     -87.6347957
9.02                 0.970085735     -87.7826342
9.021                0.970001537     -87.9308597
9.022                0.969917108     -88.0794733
9.023                0.969832451      -88.228476
9.024                0.969747564     -88.3778689
9.025                0.969662448     -88.5276532
9.026                0.969577102     -88.6778297
9.027                0.969491527     -88.8283997
9.028                0.969405722     -88.9793642
9.029                0.969319686     -89.1307243
9.03                 0.969233421      -89.282481
9.031                0.969146926     -89.4346354
9.032                0.969060201     -89.5871886
9.033                0.968973246     -89.7401417
9.034                0.968886061     -89.8934957
9.035                0.968798646     -90.0472517
9.036                   0.968711     -90.2014107
9.037                0.968623125      -90.355974
9.038                0.968535019     -90.5109424
9.039                0.968446683     -90.6663172
9.04                 0.968358117     -90.8220993
9.041                0.968269321     -90.9782898
9.042                0.968180295     -91.1348899
9.043                0.968091039     -91.2919006
9.044                0.968001554     -91.4493229
9.045                0.967911838     -91.6071579
9.046                0.967821893     -91.7654068
9.047                0.967731718     -91.9240705
9.048                0.967641314     -92.0831502
9.049                 0.96755068     -92.2426469
9.05                 0.967459817     -92.4025617
9.051                0.967368725     -92.5628956
9.052                0.967277404     -92.7236498
9.053                0.967185854     -92.8848253
9.054                0.967094075     -93.0464231
9.055                0.967002068     -93.2084443
9.056                0.966909833       -93.37089
9.057                 0.96681737     -93.5337613
9.058                0.966724679     -93.6970592
9.059                 0.96663176     -93.8607847
9.06                 0.966538615      -94.024939
9.061                0.966445242     -94.1895231
9.062                0.966351642     -94.3545381
9.063                0.966257816     -94.5199849
9.064                0.966163764     -94.6858648
9.065                0.966069485     -94.8521786
9.066                0.965974982     -95.0189275
9.067                0.965880253     -95.1861125
9.068                0.965785299     -95.3537348
9.069                0.965690121     -95.5217952
9.07                 0.965594718     -95.6902949
9.071                0.965499092     -95.8592349
9.072                0.965403243     -96.0286162
9.073                0.965307171       -96.19844
9.074                0.965210876     -96.3687071
9.075                 0.96511436     -96.5394188
9.076                0.965017622     -96.7105759
9.077                0.964920663     -96.8821796
9.078                0.964823483     -97.0542308
9.079                0.964726083     -97.2267306
9.08                 0.964628464       -97.39968
9.081                0.964530626       -97.57308
9.082                 0.96443257     -97.7469317
9.083                0.964334296      -97.921236
9.084                0.964235804     -98.0959941
9.085                0.964137097     -98.2712068
9.086                0.964038173     -98.4468752
9.087                0.963939034     -98.6230003
9.088                 0.96383968     -98.7995831
9.089                0.963740112     -98.9766246
9.09                 0.963640331     -99.1541258
9.091                0.963540338     -99.3320876
9.092                0.963440132     -99.5105112
9.093                0.963339716     -99.6893974
9.094                0.963239089     -99.8687472
9.095                0.963138253     -100.048562
9.096                0.963037208     -100.228842
9.097                0.962935955     -100.409588
9.098                0.962834495     -100.590802
9.099                0.962732828     -100.772485
9.1                  0.962630957     -100.954637
9.101                0.962528881     -101.137259
9.102                0.962426601     -101.320353
9.103                0.962324119     -101.503919
9.104                0.962221435     -101.687958
9.105                0.962118551     -101.872472
9.106                0.962015467      -102.05746
9.107                0.961912184     -102.242925
9.108                0.961808704     -102.428866
9.109                0.961705027     -102.615286
9.11                 0.961601155     -102.802184
9.111                0.961497088     -102.989561
9.112                0.961392828      -103.17742
9.113                0.961288375     -103.365759
9.114                0.961183732     -103.554581
9.115                0.961078899     -103.743887
9.116                0.960973878     -103.933676
9.117                0.960868669     -104.123951
9.118                0.960763274     -104.314711
9.119                0.960657694     -104.505958
9.12                  0.96055193     -104.697692
9.121                0.960445984     -104.889915
9.122                0.960339858     -105.082627
9.123                0.960233551      -105.27583
9.124                0.960127067     -105.469523
9.125                0.960020406     -105.663708
9.126                0.959913569     -105.858385
9.127                0.959806559     -106.053556
9.128                0.959699376     -106.249221
9.129                0.959592022      -106.44538
9.13                 0.959484499     -106.642036
9.131                0.959376808     -106.839188
9.132                0.959268951     -107.036837
9.133                0.959160929     -107.234985
9.134                0.959052744     -107.433631
9.135                0.958944397     -107.632777
9.136                0.958835891     -107.832423
9.137                0.958727227      -108.03257
9.138                0.958618406     -108.233219
9.139                0.958509431      -108.43437
9.14                 0.958400303     -108.636024
9.141                0.958291024     -108.838182
9.142                0.958181596     -109.040845
9.143                0.958072021     -109.244013
9.144                  0.9579623     -109.447687
9.145                0.957852436     -109.651867
9.146                 0.95774243     -109.856555
9.147                0.957632284     -110.061751
9.148                0.957522001     -110.267455
9.149                0.957411582     -110.473668
9.15                 0.957301029     -110.680391
9.151                0.957190345     -110.887624
9.152                0.957079532     -111.095368
9.153                0.956968591     -111.303623
9.154                0.956857525     -111.512391
9.155                0.956746336     -111.721671
9.156                0.956635026     -111.931465
9.157                0.956523597     -112.141772
9.158                0.956412053     -112.352593
9.159                0.956300394      -112.56393
9.16                 0.956188623     -112.775781
9.161                0.956076744     -112.988149
9.162                0.955964757     -113.201032
9.163                0.955852666     -113.414433
9.164                0.955740472      -113.62835
9.165                0.955628179     -113.842786
9.166                0.955515789     -114.057739
9.167                0.955403304     -114.273211
9.168                0.955290727     -114.489202
9.169                 0.95517806     -114.705712
9.17                 0.955065307     -114.922742
9.171                0.954952469     -115.140292
9.172                 0.95483955     -115.358362
9.173                0.954726552     -115.576954
9.174                0.954613477     -115.796066
9.175                 0.95450033       -116.0157
9.176                0.954387111     -116.235856
9.177                0.954273825     -116.456534
9.178                0.954160474     -116.677734
9.179                0.954047061     -116.899457
9.18                 0.953933589     -117.121703
9.181                 0.95382006     -117.344472
9.182                0.953706479     -117.567764
9.183                0.953592847      -117.79158
9.184                0.953479168      -118.01592
9.185                0.953365445     -118.240783
9.186                0.953251681     -118.466171
9.187                0.953137879     -118.692083
9.188                0.953024042      -118.91852
9.189                0.952910174     -119.145481
9.19                 0.952796277     -119.372966
9.191                0.952682355     -119.600977
9.192                0.952568412     -119.829512
9.193                 0.95245445     -120.058572
9.194                0.952340473     -120.288157
9.195                0.952226485     -120.518267
9.196                0.952112488     -120.748902
9.197                0.951998486     -120.980061
9.198                0.951884483     -121.211746
9.199                0.951770482     -121.443956
9.2                  0.951656486      -121.67669
9.201                  0.9515425     -121.909949
9.202                0.951428527     -122.143733
9.203                 0.95131457     -122.378041
9.204                0.951200633     -122.612873
9.205                 0.95108672      -122.84823
9.206                0.950972834     -123.084111
9.207                 0.95085898     -123.320516
9.208                 0.95074516     -123.557445
9.209                 0.95063138     -123.794897
9.21                 0.950517642     -124.032872
9.211                0.950403951      -124.27137
9.212                 0.95029031     -124.510391
9.213                0.950176723     -124.749935
9.214                0.950063195         -124.99
9.215                 0.94994973     -125.230587
9.216                 0.94983633     -125.471696
9.217                0.949723001     -125.713326
9.218                0.949609747     -125.955476
9.219                0.949496571     -126.198147
9.22                 0.949383478     -126.441337
9.221                0.949270472     -126.685047
9.222                0.949157558     -126.929275
9.223                0.949044738     -127.174022
9.224                0.948932018     -127.419287
9.225                0.948819402     -127.665069
9.226                0.948706895     -127.911368
9.227                  0.9485945     -128.158183
9.228                0.948482222     -128.405513
9.229                0.948370065     -128.653359
9.23                 0.948258035     -128.901719
9.231                0.948146134     -129.150592
9.232                0.948034368     -129.399979
9.233                0.947922742     -129.649877
9.234                0.947811259     -129.900287
9.235                0.947699925     -130.151208
9.236                0.947588744     -130.402639
9.237                 0.94747772     -130.654579
9.238                0.947366859     -130.907028
9.239                0.947256165     -131.159984
9.24                 0.947145642     -131.413447
9.241                0.947035295     -131.667415
9.242                 0.94692513     -131.921888
9.243                 0.94681515     -132.176865
9.244                0.946705362     -132.432346
9.245                0.946595768     -132.688328
9.246                0.946486375     -132.944811
9.247                0.946377188     -133.201794
9.248                 0.94626821     -133.459275
9.249                0.946159447     -133.717255
9.25                 0.946050905     -133.975731
9.251                0.945942587     -134.234703
9.252                0.945834499      -134.49417
9.253                0.945726646     -134.754129
9.254                0.945619033     -135.014581
9.255                0.945511665     -135.275523
9.256                0.945404547     -135.536955
9.257                0.945297684     -135.798875
9.258                0.945191081     -136.061282
9.259                0.945084743     -136.324175
9.26                 0.944978676     -136.587552
9.261                0.944872885     -136.851412
9.262                0.944767374     -137.115753
9.263                 0.94466215     -137.380575
9.264                0.944557216     -137.645875
9.265                0.944452579     -137.911652
9.266                0.944348244     -138.177905
9.267                0.944244215     -138.444632
9.268                0.944140499     -138.711832
9.269                  0.9440371     -138.979503
9.27                 0.943934024     -139.247643
9.271                0.943831276     -139.516251
9.272                0.943728862     -139.785325
9.273                0.943626786     -140.054863
9.274                0.943525054     -140.324864
9.275                0.943423672     -140.595326
9.276                0.943322644     -140.866247
9.277                0.943221977     -141.137626
9.278                0.943121675      -141.40946
9.279                0.943021744     -141.681748
9.28                  0.94292219     -141.954487
9.281                0.942823017     -142.227677
9.282                0.942724232     -142.501315
9.283                0.942625839     -142.775398
9.284                0.942527844     -143.049926
9.285                0.942430253     -143.324896
9.286                 0.94233307     -143.600306
9.287                0.942236302     -143.876155
9.288                0.942139954     -144.152439
9.289                0.942044031     -144.429157
9.29                 0.941948538     -144.706306
9.291                0.941853482     -144.983885
9.292                0.941758868     -145.261892
9.293                  0.9416647     -145.540323
9.294                0.941570985     -145.819178
9.295                0.941477728     -146.098453
9.296                0.941384935     -146.378146
9.297                 0.94129261     -146.658256
9.298                 0.94120076     -146.938779
9.299                0.941109389     -147.219713
9.3                  0.941018503     -147.501056
9.301                0.940928108     -147.782805
9.302                0.940838209     -148.064959
9.303                0.940748812     -148.347514
9.304                0.940659921     -148.630468
9.305                0.940571543     -148.913818
9.306                0.940483682     -149.197562
9.307                0.940396344     -149.481698
9.308                0.940309534     -149.766222
9.309                0.940223258     -150.051132
9.31                 0.940137521     -150.336426
9.311                0.940052329       -150.6221
9.312                0.939967686     -150.908152
9.313                0.939883598     -151.194579
9.314                0.939800071     -151.481379
9.315                0.939717109     -151.768549
9.316                0.939634717     -152.056085
9.317                0.939552902     -152.343985
9.318                0.939471668     -152.632246
9.319                 0.93939102     -152.920865
9.32                 0.939310964      -153.20984
9.321                0.939231505     -153.499167
9.322                0.939152647     -153.788843
9.323                0.939074397     -154.078865
9.324                0.938996758     -154.369231
9.325                0.938919737     -154.659937
9.326                0.938843338      -154.95098
9.327                0.938767566     -155.242357
9.328                0.938692426     -155.534066
9.329                0.938617923     -155.826101
9.33                 0.938544062     -156.118462
9.331                0.938470848     -156.411144
9.332                0.938398286     -156.704144
9.333                 0.93832638     -156.997459
9.334                0.938255136     -157.291086
9.335                0.938184559     -157.585021
9.336                0.938114652     -157.879261
9.337                 0.93804542     -158.173803
9.338                0.937976869     -158.468644
9.339                0.937909003     -158.763779
9.34                 0.937841827     -159.059206
9.341                0.937775345     -159.354921
9.342                0.937709561     -159.650921
9.343                 0.93764448     -159.947202
9.344                0.937580108     -160.243761
9.345                0.937516447     -160.540594
9.346                0.937453502     -160.837698
9.347                0.937391278     -161.135069
9.348                0.937329779     -161.432704
9.349                 0.93726901     -161.730598
9.35                 0.937208973     -162.028749
9.351                0.937149675     -162.327153
9.352                0.937091118     -162.625805
9.353                0.937033306     -162.924703
9.354                0.936976245     -163.223843
9.355                0.936919937     -163.523221
9.356                0.936864387     -163.822833
9.357                0.936809598     -164.122675
9.358                0.936755575     -164.422745
9.359                 0.93670232     -164.723037
9.36                 0.936649839     -165.023548
9.361                0.936598134     -165.324274
9.362                0.936547209     -165.625212
9.363                0.936497068     -165.926358
9.364                0.936447714     -166.227707
9.365                0.936399151     -166.529256
9.366                0.936351381     -166.831001
9.367                0.936304409     -167.132938
9.368                0.936258238     -167.435063
9.369                 0.93621287     -167.737372
9.37                  0.93616831     -168.039862
9.371                 0.93612456     -168.342527
9.372                0.936081623     -168.645364
9.373                0.936039502      -168.94837
9.374                0.935998201      -169.25154
9.375                0.935957721      -169.55487
9.376                0.935918067     -169.858355
9.377                 0.93587924     -170.161993
9.378                0.935841243     -170.465778
9.379                0.935804079     -170.769708
9.38                 0.935767751     -171.073777
9.381                0.935732261     -171.377981
9.382                0.935697611     -171.682317
9.383                0.935663804      -171.98678
9.384                0.935630843     -172.291366
9.385                0.935598728     -172.596071
9.386                0.935567464     -172.900891
9.387                0.935537051     -173.205821
9.388                0.935507491     -173.510858
9.389                0.935478788     -173.815997
9.39                 0.935450942     -174.121235
9.391                0.935423956     -174.426565
9.392                 0.93539783     -174.731986
9.393                0.935372568     -175.037492
9.394                0.935348171     -175.343079
9.395                 0.93532464     -175.648742
9.396                0.935301976     -175.954479
