! TOUCHSTONE file generated by CST DESIGN STUDIO
! Date and time: Tue Feb  4 13:27:51 2025
! Project name: C:\Work\MatlabApps\UnitCellOptimizationMatlab\CST\unitcell.cst
! Tree item: Tasks\Sweep1\SPara1\S-Parameters
! Header version: 2024
! Port assignment regex: !\s*Touchstone port\s*([0-9]+)\s*=\s*(CST MWS port|CST DES external port|CST DES block port)\s*(.+)\s* \(\"(.*)\"\)(\s*mode\s*([0-9]+))?.*
! Touchstone port assignment:
! Touchstone port 1 = CST DES external port 1 ("")
# GHz S MA R 50
9                    0.972693968     -80.6925674
9.001                0.972619524     -80.8223349
9.002                0.972544865     -80.9524371
9.003                 0.97246999     -81.0828753
9.004                0.972394899     -81.2136503
9.005                0.972319592     -81.3447631
9.006                0.972244069     -81.4762148
9.007                0.972168328     -81.6080064
9.008                 0.97209237     -81.7401388
9.009                0.972016195     -81.8726131
9.01                 0.971939801     -82.0054303
9.011                0.971863189     -82.1385915
9.012                0.971786359     -82.2720975
9.013                0.971709309     -82.4059495
9.014                 0.97163204     -82.5401485
9.015                0.971554551     -82.6746955
9.016                0.971476842     -82.8095914
9.017                0.971398912     -82.9448374
9.018                0.971320762     -83.0804345
9.019                0.971242391     -83.2163836
9.02                 0.971163798     -83.3526859
9.021                0.971084984     -83.4893423
9.022                0.971005947     -83.6263538
9.023                0.970926689     -83.7637216
9.024                0.970847208     -83.9014467
9.025                0.970767504       -84.03953
9.026                0.970687576     -84.1779726
9.027                0.970607426     -84.3167756
9.028                0.970527052       -84.45594
9.029                0.970446454     -84.5954669
9.03                 0.970365631     -84.7353572
9.031                0.970284585     -84.8756121
9.032                0.970203313     -85.0162325
9.033                0.970121817     -85.1572196
9.034                0.970040095     -85.2985743
9.035                0.969958148     -85.4402978
9.036                0.969875975      -85.582391
9.037                0.969793577     -85.7248551
9.038                0.969710953     -85.8676911
9.039                0.969628102        -86.0109
9.04                 0.969545025     -86.1544829
9.041                0.969461721     -86.2984408
9.042                 0.96937819     -86.4427749
9.043                0.969294432     -86.5874861
9.044                0.969210447     -86.7325756
9.045                0.969126235     -86.8780443
9.046                0.969041796     -87.0238934
9.047                0.968957128     -87.1701239
9.048                0.968872233     -87.3167369
9.049                 0.96878711     -87.4637334
9.05                 0.968701759     -87.6111145
9.051                 0.96861618     -87.7588813
9.052                0.968530372     -87.9070348
9.053                0.968444336     -88.0555761
9.054                0.968358072     -88.2045063
9.055                0.968271579     -88.3538265
9.056                0.968184857     -88.5035376
9.057                0.968097907     -88.6536408
9.058                0.968010728     -88.8041372
9.059                 0.96792332     -88.9550278
9.06                 0.967835684     -89.1063136
9.061                0.967747818     -89.2579959
9.062                0.967659724     -89.4100755
9.063                  0.9675714     -89.5625537
9.064                0.967482848     -89.7154314
9.065                0.967394066     -89.8687098
9.066                0.967305056     -90.0223898
9.067                0.967215817     -90.1764727
9.068                0.967126349     -90.3309594
9.069                0.967036652     -90.4858511
9.07                 0.966946726     -90.6411487
9.071                0.966856572     -90.7968535
9.072                0.966766189     -90.9529663
9.073                0.966675577     -91.1094884
9.074                0.966584737     -91.2664208
9.075                0.966493669     -91.4237645
9.076                0.966402372     -91.5815207
9.077                0.966310847     -91.7396904
9.078                0.966219094     -91.8982746
9.079                0.966127113     -92.0572745
9.08                 0.966034905      -92.216691
9.081                0.965942469     -92.3765254
9.082                0.965849806     -92.5367786
9.083                0.965756915     -92.6974517
9.084                0.965663797     -92.8585458
9.085                0.965570453     -93.0200619
9.086                0.965476882     -93.1820012
9.087                0.965383085     -93.3443646
9.088                0.965289062     -93.5071532
9.089                0.965194814     -93.6703681
9.09                 0.965100339     -93.8340104
9.091                 0.96500564     -93.9980811
9.092                0.964910715     -94.1625813
9.093                0.964815566     -94.3275119
9.094                0.964720193     -94.4928742
9.095                0.964624596     -94.6586691
9.096                0.964528776     -94.8248977
9.097                0.964432732     -94.9915611
9.098                0.964336465     -95.1586602
9.099                0.964239976     -95.3261962
9.1                  0.964143265       -95.49417
9.101                0.964046333     -95.6625828
9.102                0.963949179     -95.8314355
9.103                0.963851805     -96.0007293
9.104                0.963754211     -96.1704651
9.105                0.963656397      -96.340644
9.106                0.963558363      -96.511267
9.107                0.963460111     -96.6823352
9.108                0.963361641     -96.8538495
9.109                0.963262954     -97.0258111
9.11                 0.963164049     -97.1982209
9.111                0.963064928     -97.3710799
9.112                0.962965591     -97.5443892
9.113                0.962866039     -97.7181499
9.114                0.962766272     -97.8923628
9.115                0.962666291      -98.067029
9.116                0.962566097     -98.2421496
9.117                 0.96246569     -98.4177255
9.118                0.962365071     -98.5937578
9.119                0.962264242     -98.7702473
9.12                 0.962163201     -98.9471953
9.121                0.962061951     -99.1246025
9.122                0.961960492     -99.3024701
9.123                0.961858825     -99.4807989
9.124                 0.96175695     -99.6595901
9.125                0.961654869     -99.8388445
9.126                0.961552582     -100.018563
9.127                 0.96145009     -100.198747
9.128                0.961347395     -100.379397
9.129                0.961244496     -100.560514
9.13                 0.961141395       -100.7421
9.131                0.961038092     -100.924154
9.132                 0.96093459     -101.106678
9.133                0.960830888     -101.289674
9.134                0.960726988     -101.473141
9.135                 0.96062289     -101.657081
9.136                0.960518596     -101.841495
9.137                0.960414107     -102.026384
9.138                0.960309424     -102.211748
9.139                0.960204547     -102.397588
9.14                 0.960099479     -102.583907
9.141                 0.95999422     -102.770703
9.142                0.959888771     -102.957979
9.143                0.959783134     -103.145735
9.144                0.959677309     -103.333972
9.145                0.959571299     -103.522691
9.146                0.959465103     -103.711893
9.147                0.959358724     -103.901579
9.148                0.959252163     -104.091749
9.149                0.959145421     -104.282404
9.15                 0.959038499     -104.473546
9.151                0.958931399     -104.665175
9.152                0.958824122     -104.857293
9.153                 0.95871667     -105.049898
9.154                0.958609043     -105.242994
9.155                0.958501244      -105.43658
9.156                0.958393274     -105.630658
9.157                0.958285134     -105.825227
9.158                0.958176826      -106.02029
9.159                0.958068351     -106.215846
9.16                 0.957959712     -106.411897
9.161                0.957850909     -106.608443
9.162                0.957741944     -106.805485
9.163                0.957632819     -107.003024
9.164                0.957523535      -107.20106
9.165                0.957414095     -107.399596
9.166                0.957304499      -107.59863
9.167                0.957194751     -107.798164
9.168                 0.95708485     -107.998198
9.169                  0.9569748     -108.198734
9.17                 0.956864602     -108.399772
9.171                0.956754258     -108.601313
9.172                 0.95664377     -108.803357
9.173                0.956533139     -109.005905
9.174                0.956422368     -109.208958
9.175                0.956311458     -109.412517
9.176                0.956200412     -109.616582
9.177                0.956089231     -109.821153
9.178                0.955977918     -110.026232
9.179                0.955866475     -110.231819
9.18                 0.955754903     -110.437914
9.181                0.955643205     -110.644519
9.182                0.955531383     -110.851634
9.183                0.955419439     -111.059259
9.184                0.955307376     -111.267396
9.185                0.955195195     -111.476044
9.186                0.955082898     -111.685204
9.187                0.954970489     -111.894877
9.188                 0.95485797     -112.105063
9.189                0.954745342     -112.315763
9.19                 0.954632608     -112.526978
9.191                0.954519771     -112.738707
9.192                0.954406832     -112.950952
9.193                0.954293795     -113.163712
9.194                0.954180662     -113.376989
9.195                0.954067435     -113.590783
9.196                0.953954118     -113.805094
9.197                0.953840711     -114.019922
9.198                0.953727219     -114.235269
9.199                0.953613644     -114.451134
9.2                  0.953499988     -114.667518
9.201                0.953386254     -114.884421
9.202                0.953272445     -115.101844
9.203                0.953158564     -115.319787
9.204                0.953044613     -115.538251
9.205                0.952930595     -115.757235
9.206                0.952816513      -115.97674
9.207                 0.95270237     -116.196766
9.208                0.952588169     -116.417314
9.209                0.952473913     -116.638385
9.21                 0.952359604     -116.859977
9.211                0.952245247     -117.082092
9.212                0.952130842     -117.304729
9.213                0.952016395     -117.527889
9.214                0.951901908     -117.751573
9.215                0.951787383      -117.97578
9.216                0.951672825      -118.20051
9.217                0.951558236     -118.425764
9.218                 0.95144362     -118.651542
9.219                 0.95132898     -118.877844
9.22                 0.951214318      -119.10467
9.221                 0.95109964      -119.33202
9.222                0.950984946     -119.559894
9.223                0.950870242     -119.788293
9.224                0.950755531     -120.017216
9.225                0.950640815     -120.246664
9.226                0.950526099     -120.476636
9.227                0.950411386     -120.707133
9.228                 0.95029668     -120.938154
9.229                0.950181983       -121.1697
9.23                   0.9500673      -121.40177
9.231                0.949952634     -121.634364
9.232                0.949837989     -121.867483
9.233                0.949723369     -122.101126
9.234                0.949608777     -122.335293
9.235                0.949494217     -122.569984
9.236                0.949379692     -122.805198
9.237                0.949265208     -123.040937
9.238                0.949150766     -123.277199
9.239                0.949036373     -123.513984
9.24                  0.94892203     -123.751292
9.241                0.948807742     -123.989123
9.242                0.948693514     -124.227476
9.243                0.948579349     -124.466352
9.244                0.948465251      -124.70575
9.245                0.948351224     -124.945669
9.246                0.948237272      -125.18611
9.247                  0.9481234     -125.427072
9.248                0.948009611     -125.668554
9.249                 0.94789591     -125.910557
9.25                 0.947782301     -126.153079
9.251                0.947668788     -126.396121
9.252                0.947555376     -126.639681
9.253                0.947442068      -126.88376
9.254                0.947328869     -127.128357
9.255                0.947215783     -127.373472
9.256                0.947102816     -127.619103
9.257                 0.94698997     -127.865251
9.258                0.946877251     -128.111914
9.259                0.946764663     -128.359093
9.26                  0.94665221     -128.606786
9.261                0.946539898     -128.854993
9.262                 0.94642773     -129.103713
9.263                0.946315712     -129.352946
9.264                0.946203847      -129.60269
9.265                 0.94609214     -129.852946
9.266                0.945980597     -130.103712
9.267                0.945869221     -130.354987
9.268                0.945758018     -130.606772
9.269                0.945646992     -130.859064
9.27                 0.945536148     -131.111864
9.271                 0.94542549     -131.365169
9.272                0.945315025      -131.61898
9.273                0.945204755     -131.873296
9.274                0.945094687     -132.128115
9.275                0.944984824     -132.383436
9.276                0.944875173      -132.63926
9.277                0.944765738     -132.895583
9.278                0.944656523     -133.152406
9.279                0.944547535     -133.409728
9.28                 0.944438777     -133.667547
9.281                0.944330255     -133.925863
9.282                0.944221974     -134.184673
9.283                0.944113939     -134.443978
9.284                0.944006155     -134.703775
9.285                0.943898627     -134.964065
9.286                 0.94379136     -135.224844
9.287                 0.94368436     -135.486113
9.288                0.943577631      -135.74787
9.289                 0.94347118     -136.010113
9.29                 0.943365009     -136.272841
9.291                0.943259127     -136.536054
9.292                0.943153536     -136.799749
9.293                0.943048243     -137.063925
9.294                0.942943253     -137.328581
9.295                0.942838571     -137.593715
9.296                0.942734203     -137.859326
9.297                0.942630153     -138.125413
9.298                0.942526428     -138.391973
9.299                0.942423032     -138.659005
9.3                  0.942319971     -138.926508
9.301                 0.94221725      -139.19448
9.302                0.942114874      -139.46292
9.303                0.942012849     -139.731825
9.304                0.941911181     -140.001194
9.305                0.941809875     -140.271026
9.306                0.941708935     -140.541318
9.307                0.941608368      -140.81207
9.308                 0.94150818     -141.083278
9.309                0.941408374     -141.354941
9.31                 0.941308958     -141.627058
9.311                0.941209936     -141.899627
9.312                0.941111314     -142.172645
9.313                0.941013098     -142.446111
9.314                0.940915292     -142.720023
9.315                0.940817902     -142.994379
9.316                0.940720935     -143.269176
9.317                0.940624395     -143.544413
9.318                0.940528287     -143.820088
9.319                0.940432618     -144.096199
9.32                 0.940337393     -144.372743
9.321                0.940242617     -144.649719
9.322                0.940148295     -144.927124
9.323                0.940054434     -145.204956
9.324                0.939961039     -145.483212
9.325                0.939868116     -145.761892
9.326                0.939775669     -146.040992
9.327                0.939683704      -146.32051
9.328                0.939592227     -146.600443
9.329                0.939501244      -146.88079
9.33                 0.939410759     -147.161549
9.331                0.939320779     -147.442715
9.332                0.939231308     -147.724288
9.333                0.939142353     -148.006265
9.334                0.939053918     -148.288643
9.335                0.938966009     -148.571419
9.336                0.938878631     -148.854592
9.337                0.938791791     -149.138159
9.338                0.938705493     -149.422117
9.339                0.938619742     -149.706463
9.34                 0.938534545     -149.991195
9.341                0.938449906      -150.27631
9.342                0.938365831     -150.561806
9.343                0.938282325     -150.847679
9.344                0.938199394     -151.133927
9.345                0.938117043     -151.420548
9.346                0.938035276     -151.707538
9.347                  0.9379541     -151.994895
9.348                 0.93787352     -152.282616
9.349                 0.93779354     -152.570697
9.35                 0.937714167     -152.859137
9.351                0.937635405     -153.147931
9.352                0.937557259     -153.437078
9.353                0.937479735     -153.726574
9.354                0.937402837     -154.016416
9.355                0.937326572     -154.306602
9.356                0.937250943     -154.597127
9.357                0.937175956      -154.88799
9.358                0.937101616     -155.179186
9.359                0.937027928     -155.470713
9.36                 0.936954897     -155.762568
9.361                0.936882528     -156.054748
9.362                0.936810825     -156.347249
9.363                0.936739794     -156.640068
9.364                0.936669439     -156.933202
9.365                0.936599766     -157.226647
9.366                0.936530779     -157.520401
9.367                0.936462482      -157.81446
9.368                0.936394881     -158.108821
9.369                 0.93632798      -158.40348
9.37                 0.936261784     -158.698434
9.371                0.936196297     -158.993679
9.372                0.936131524     -159.289213
9.373                0.936067469     -159.585031
9.374                0.936004137     -159.881131
9.375                0.935941532     -160.177508
9.376                 0.93587966      -160.47416
9.377                0.935818523     -160.771082
9.378                0.935758126     -161.068271
9.379                0.935698475     -161.365724
9.38                 0.935639572     -161.663437
9.381                0.935581422     -161.961407
9.382                0.935524029     -162.259629
9.383                0.935467397       -162.5581
9.384                0.935411531     -162.856817
9.385                0.935356434     -163.155775
9.386                 0.93530211     -163.454972
9.387                0.935248563     -163.754403
9.388                0.935195797     -164.054064
9.389                0.935143816     -164.353952
9.39                 0.935092623     -164.654063
9.391                0.935042222     -164.954393
9.392                0.934992617     -165.254939
9.393                0.934943811     -165.555696
9.394                0.934895808     -165.856661
9.395                0.934848612      -166.15783
9.396                0.934802225     -166.459199
