! TOUCHSTONE file generated by CST DESIGN STUDIO
! Date and time: Tue Feb  4 18:31:27 2025
! Project name: C:\Work\MatlabApps\UnitCellOptimizationMatlab\CST\unitcell.cst
! Tree item: Tasks\Sweep1\SPara1\S-Parameters
! Header version: 2024
! Port assignment regex: !\s*Touchstone port\s*([0-9]+)\s*=\s*(CST MWS port|CST DES external port|CST DES block port)\s*(.+)\s* \(\"(.*)\"\)(\s*mode\s*([0-9]+))?.*
! Touchstone port assignment:
! Touchstone port 1 = CST DES external port 1 ("")
# GHz S MA R 50
9                    0.954165515     -79.7339374
9.001                0.954044159     -79.8624921
9.002                0.953922433     -79.9913819
9.003                0.953800337     -80.1206078
9.004                0.953677869     -80.2501708
9.005                0.953555028     -80.3800719
9.006                0.953431815     -80.5103123
9.007                0.953308228     -80.6408928
9.008                0.953184266     -80.7718146
9.009                 0.95305993     -80.9030786
9.01                 0.952935217      -81.034686
9.011                0.952810129     -81.1666377
9.012                0.952684663     -81.2989348
9.013                0.952558819     -81.4315783
9.014                0.952432597     -81.5645693
9.015                0.952305995     -81.6979088
9.016                0.952179014     -81.8315979
9.017                0.952051652     -81.9656376
9.018                0.951923909      -82.100029
9.019                0.951795785     -82.2347731
9.02                 0.951667278      -82.369871
9.021                0.951538388     -82.5053238
9.022                0.951409115     -82.6411324
9.023                0.951279457      -82.777298
9.024                0.951149414     -82.9138216
9.025                0.951018987     -83.0507043
9.026                0.950888173     -83.1879472
9.027                0.950756973     -83.3255513
9.028                0.950625385     -83.4635177
9.029                 0.95049341     -83.6018475
9.03                 0.950361047     -83.7405417
9.031                0.950228295     -83.8796014
9.032                0.950095154     -84.0190278
9.033                0.949961623     -84.1588218
9.034                0.949827701     -84.2989845
9.035                0.949693389     -84.4395171
9.036                0.949558686     -84.5804206
9.037                0.949423591     -84.7216961
9.038                0.949288104     -84.8633447
9.039                0.949152224     -85.0053675
9.04                  0.94901595     -85.1477655
9.041                0.948879284     -85.2905399
9.042                0.948742223     -85.4336918
9.043                0.948604768     -85.5772221
9.044                0.948466918     -85.7211322
9.045                0.948328673     -85.8654229
9.046                0.948190032     -86.0100955
9.047                0.948050995      -86.155151
9.048                0.947911562     -86.3005905
9.049                0.947771733     -86.4464152
9.05                 0.947631506      -86.592626
9.051                0.947490882     -86.7392243
9.052                 0.94734986     -86.8862109
9.053                 0.94720844     -87.0335871
9.054                0.947066622     -87.1813539
9.055                0.946924405     -87.3295125
9.056                 0.94678179     -87.4780639
9.057                0.946638776     -87.6270093
9.058                0.946495362     -87.7763498
9.059                0.946351549     -87.9260864
9.06                 0.946207336     -88.0762204
9.061                0.946062723     -88.2267527
9.062                 0.94591771     -88.3776846
9.063                0.945772297     -88.5290171
9.064                0.945626484     -88.6807513
9.065                 0.94548027     -88.8328884
9.066                0.945333655     -88.9854295
9.067                 0.94518664     -89.1383757
9.068                0.945039223     -89.2917281
9.069                0.944891406     -89.4454878
9.07                 0.944743188     -89.5996559
9.071                0.944594569     -89.7542336
9.072                0.944445549     -89.9092219
9.073                0.944296127     -90.0646221
9.074                0.944146305     -90.2204351
9.075                0.943996082     -90.3766621
9.076                0.943845458     -90.5333043
9.077                0.943694432     -90.6903628
9.078                0.943543006     -90.8478386
9.079                 0.94339118     -91.0057329
9.08                 0.943238952     -91.1640468
9.081                0.943086324     -91.3227815
9.082                0.942933296      -91.481938
9.083                0.942779868     -91.6415174
9.084                0.942626039     -91.8015209
9.085                0.942471811     -91.9619496
9.086                0.942317183     -92.1228046
9.087                0.942162156      -92.284087
9.088                 0.94200673      -92.445798
9.089                0.941850905     -92.6079386
9.09                 0.941694682       -92.77051
9.091                0.941538061     -92.9335132
9.092                0.941381041     -93.0969494
9.093                0.941223625     -93.2608198
9.094                0.941065811     -93.4251253
9.095                0.940907601     -93.5898671
9.096                0.940748995     -93.7550464
9.097                0.940589992     -93.9206642
9.098                0.940430595     -94.0867216
9.099                0.940270803     -94.2532198
9.1                  0.940110617     -94.4201598
9.101                0.939950037     -94.5875428
9.102                0.939789064     -94.7553698
9.103                0.939627699     -94.9236419
9.104                0.939465941     -95.0923603
9.105                0.939303793     -95.2615261
9.106                0.939141254     -95.4311403
9.107                0.938978325      -95.601204
9.108                0.938815007     -95.7717183
9.109                0.938651301     -95.9426843
9.11                 0.938487207     -96.1141031
9.111                0.938322726     -96.2859758
9.112                0.938157859     -96.4583035
9.113                0.937992607     -96.6310872
9.114                0.937826971      -96.804328
9.115                0.937660951     -96.9780271
9.116                0.937494549     -97.1521854
9.117                0.937327765      -97.326804
9.118                0.937160601     -97.5018841
9.119                0.936993058     -97.6774266
9.12                 0.936825136     -97.8534327
9.121                0.936656837     -98.0299034
9.122                0.936488161     -98.2068398
9.123                 0.93631911     -98.3842428
9.124                0.936149686     -98.5621137
9.125                0.935979888     -98.7404534
9.126                0.935809719     -98.9192629
9.127                 0.93563918     -99.0985433
9.128                0.935468272     -99.2782957
9.129                0.935296995      -99.458521
9.13                 0.935125353     -99.6392204
9.131                0.934953345     -99.8203948
9.132                0.934780974     -100.002045
9.133                0.934608241     -100.184173
9.134                0.934435147     -100.366779
9.135                0.934261694     -100.549863
9.136                0.934087884     -100.733428
9.137                0.933913717     -100.917474
9.138                0.933739196     -101.102002
9.139                0.933564321     -101.287014
9.14                 0.933389096     -101.472509
9.141                0.933213522      -101.65849
9.142                0.933037599     -101.844956
9.143                0.932861331      -102.03191
9.144                0.932684719     -102.219352
9.145                0.932507764     -102.407282
9.146                0.932330469     -102.595703
9.147                0.932152836     -102.784615
9.148                0.931974866     -102.974018
9.149                0.931796561     -103.163914
9.15                 0.931617925     -103.354304
9.151                0.931438957     -103.545189
9.152                0.931259662      -103.73657
9.153                 0.93108004     -103.928446
9.154                0.930900095     -104.120821
9.155                0.930719828     -104.313694
9.156                0.930539241     -104.507066
9.157                0.930358337     -104.700938
9.158                0.930177119     -104.895311
9.159                0.929995588     -105.090186
9.16                 0.929813747     -105.285564
9.161                0.929631599     -105.481446
9.162                0.929449145     -105.677833
9.163                0.929266389     -105.874724
9.164                0.929083334     -106.072122
9.165                0.928899981     -106.270028
9.166                0.928716333     -106.468441
9.167                0.928532394     -106.667363
9.168                0.928348165     -106.866794
9.169                0.928163651     -107.066736
9.17                 0.927978853      -107.26719
9.171                0.927793774     -107.468155
9.172                0.927608418     -107.669633
9.173                0.927422787     -107.871625
9.174                0.927236885     -108.074131
9.175                0.927050714     -108.277152
9.176                0.926864277     -108.480689
9.177                0.926677578     -108.684743
9.178                0.926490621     -108.889314
9.179                0.926303407     -109.094403
9.18                 0.926115941     -109.300011
9.181                0.925928226     -109.506139
9.182                0.925740265     -109.712787
9.183                0.925552062     -109.919955
9.184                0.925363619     -110.127646
9.185                0.925174942     -110.335859
9.186                0.924986032     -110.544594
9.187                0.924796895     -110.753853
9.188                0.924607533     -110.963637
9.189                 0.92441795     -111.173945
9.19                 0.924228151     -111.384779
9.191                0.924038138     -111.596139
9.192                0.923847916     -111.808025
9.193                0.923657488     -112.020439
9.194                0.923466859     -112.233381
9.195                0.923276033     -112.446851
9.196                0.923085014      -112.66085
9.197                0.922893805     -112.875378
9.198                0.922702411     -113.090437
9.199                0.922510837     -113.306026
9.2                  0.922319086     -113.522146
9.201                0.922127162     -113.738798
9.202                0.921935071     -113.955982
9.203                0.921742817     -114.173698
9.204                0.921550403     -114.391948
9.205                0.921357835      -114.61073
9.206                0.921165117     -114.830047
9.207                0.920972254     -115.049897
9.208                0.920779251     -115.270283
9.209                0.920586111     -115.491203
9.21                 0.920392841     -115.712659
9.211                0.920199445     -115.934651
9.212                0.920005927     -116.157178
9.213                0.919812293     -116.380242
9.214                0.919618547     -116.603843
9.215                0.919424696     -116.827981
9.216                0.919230743     -117.052657
9.217                0.919036694      -117.27787
9.218                0.918842554     -117.503621
9.219                0.918648329      -117.72991
9.22                 0.918454024     -117.956737
9.221                0.918259643     -118.184103
9.222                0.918065194     -118.412008
9.223                 0.91787068     -118.640452
9.224                0.917676108     -118.869435
9.225                0.917481483     -119.098957
9.226                0.917286811     -119.329018
9.227                0.917092098     -119.559619
9.228                0.916897349      -119.79076
9.229                 0.91670257     -120.022441
9.23                 0.916507767     -120.254661
9.231                0.916312946     -120.487421
9.232                0.916118113     -120.720721
9.233                0.915923273     -120.954561
9.234                0.915728434     -121.188941
9.235                  0.9155336      -121.42386
9.236                0.915338779      -121.65932
9.237                0.915143976     -121.895319
9.238                0.914949198     -122.131858
9.239                0.914754452     -122.368936
9.24                 0.914559743     -122.606554
9.241                0.914365077     -122.844712
9.242                0.914170463     -123.083408
9.243                0.913975905     -123.322644
9.244                0.913781411     -123.562418
9.245                0.913586988     -123.802731
9.246                0.913392641     -124.043583
9.247                0.913198378     -124.284973
9.248                0.913004206       -124.5269
9.249                0.912810132     -124.769366
9.25                 0.912616162     -125.012368
9.251                0.912422304     -125.255908
9.252                0.912228564     -125.499984
9.253                0.912034949     -125.744596
9.254                0.911841468     -125.989744
9.255                0.911648126     -126.235428
9.256                0.911454931     -126.481647
9.257                0.911261891       -126.7284
9.258                0.911069013     -126.975688
9.259                0.910876304     -127.223509
9.26                 0.910683772     -127.471863
9.261                0.910491424      -127.72075
9.262                0.910299267     -127.970169
9.263                 0.91010731     -128.220119
9.264                0.909915559       -128.4706
9.265                0.909724024     -128.721611
9.266                 0.90953271     -128.973151
9.267                0.909341627     -129.225221
9.268                0.909150782     -129.477818
9.269                0.908960182     -129.730943
9.27                 0.908769837     -129.984595
9.271                0.908579753     -130.238772
9.272                0.908389939     -130.493475
9.273                0.908200403     -130.748701
9.274                0.908011152     -131.004452
9.275                0.907822196     -131.260724
9.276                0.907633542     -131.517519
9.277                0.907445199     -131.774834
9.278                0.907257174     -132.032669
9.279                0.907069477     -132.291023
9.28                 0.906882115     -132.549895
9.281                0.906695097     -132.809284
9.282                0.906508431     -133.069188
9.283                0.906322126     -133.329607
9.284                0.906136191      -133.59054
9.285                0.905950633     -133.851985
9.286                0.905765462     -134.113942
9.287                0.905580686     -134.376409
9.288                0.905396314     -134.639385
9.289                0.905212355     -134.902869
9.29                 0.905028816     -135.166859
9.291                0.904845708     -135.431355
9.292                0.904663039     -135.696355
9.293                0.904480817     -135.961857
9.294                0.904299053     -136.227861
9.295                0.904117753     -136.494365
9.296                0.903936928     -136.761367
9.297                0.903756587     -137.028866
9.298                0.903576738     -137.296861
9.299                0.903397391     -137.565351
9.3                  0.903218554     -137.834332
9.301                0.903040236     -138.103805
9.302                0.902862448     -138.373768
9.303                0.902685197     -138.644218
9.304                0.902508493     -138.915155
9.305                0.902332346     -139.186577
9.306                0.902156764     -139.458481
9.307                0.901981756     -139.730867
9.308                0.901807333     -140.003732
9.309                0.901633503     -140.277076
9.31                 0.901460275     -140.550895
9.311                0.901287659     -140.825188
9.312                0.901115663     -141.099954
9.313                0.900944299      -141.37519
9.314                0.900773574     -141.650895
9.315                0.900603498     -141.927067
9.316                0.900434081     -142.203703
9.317                0.900265331     -142.480802
9.318                0.900097259     -142.758361
9.319                0.899929874      -143.03638
9.32                 0.899763184     -143.314855
9.321                  0.8995972     -143.593784
9.322                0.899431931     -143.873166
9.323                0.899267387     -144.152997
9.324                0.899103576     -144.433277
9.325                0.898940509     -144.714003
9.326                0.898778194     -144.995172
9.327                0.898616641     -145.276783
9.328                 0.89845586     -145.558832
9.329                 0.89829586     -145.841318
9.33                  0.89813665     -146.124239
9.331                 0.89797824     -146.407591
9.332                 0.89782064     -146.691373
9.333                0.897663858     -146.975582
9.334                0.897507905     -147.260216
9.335                0.897352789     -147.545271
9.336                0.897198519     -147.830746
9.337                0.897045106     -148.116639
9.338                0.896892559     -148.402945
9.339                0.896740887     -148.689664
9.34                 0.896590099     -148.976791
9.341                0.896440205     -149.264325
9.342                0.896291214     -149.552263
9.343                0.896143134     -149.840602
9.344                0.895995977     -150.129339
9.345                 0.89584975     -150.418472
9.346                0.895704463     -150.707997
9.347                0.895560125     -150.997913
9.348                0.895416746     -151.288215
9.349                0.895274334     -151.578902
9.35                 0.895132898     -151.869969
9.351                0.894992448     -152.161415
9.352                0.894852992     -152.453236
9.353                0.894714541      -152.74543
9.354                0.894577101     -153.037993
9.355                0.894440684     -153.330921
9.356                0.894305296     -153.624213
9.357                0.894170948     -153.917865
9.358                0.894037649     -154.211874
9.359                0.893905406     -154.506237
9.36                 0.893774228      -154.80095
9.361                0.893644125      -155.09601
9.362                0.893515105     -155.391414
9.363                0.893387177     -155.687159
9.364                0.893260348     -155.983242
9.365                0.893134629     -156.279658
9.366                0.893010026     -156.576406
9.367                0.892886549     -156.873481
9.368                0.892764205     -157.170879
9.369                0.892643004     -157.468599
9.37                 0.892522953     -157.766635
9.371                0.892404061     -158.064986
9.372                0.892286335     -158.363646
9.373                0.892169783     -158.662613
9.374                0.892054415     -158.961883
9.375                0.891940237     -159.261453
9.376                0.891827257     -159.561318
9.377                0.891715484     -159.861476
9.378                0.891604925     -160.161922
9.379                0.891495587     -160.462654
9.38                 0.891387479     -160.763667
9.381                0.891280607     -161.064957
9.382                0.891174979     -161.366521
9.383                0.891070603     -161.668356
9.384                0.890967486     -161.970457
9.385                0.890865635      -162.27282
9.386                0.890765057     -162.575442
9.387                 0.89066576     -162.878319
9.388                 0.89056775     -163.181447
9.389                0.890471033     -163.484822
9.39                 0.890375618      -163.78844
9.391                0.890281511     -164.092297
9.392                0.890188718      -164.39639
9.393                0.890097245     -164.700714
9.394                0.890007101     -165.005266
9.395                 0.88991829     -165.310041
9.396                0.889830819     -165.615035
