! TOUCHSTONE file generated by CST DESIGN STUDIO
! Date and time: Tue Feb  4 18:31:31 2025
! Project name: C:\Work\MatlabApps\UnitCellOptimizationMatlab\CST\unitcell.cst
! Tree item: Tasks\Sweep1\SPara1\S-Parameters
! Header version: 2024
! Port assignment regex: !\s*Touchstone port\s*([0-9]+)\s*=\s*(CST MWS port|CST DES external port|CST DES block port)\s*(.+)\s* \(\"(.*)\"\)(\s*mode\s*([0-9]+))?.*
! Touchstone port assignment:
! Touchstone port 1 = CST DES external port 1 ("")
# GHz S MA R 50
9                    0.957156874     -72.2960855
9.001                0.957050368      -72.405912
9.002                0.956943528     -72.5160151
9.003                0.956836355     -72.6263957
9.004                0.956728846     -72.7370547
9.005                0.956621001      -72.847993
9.006                0.956512819     -72.9592115
9.007                  0.9564043      -73.070711
9.008                0.956295442     -73.1824924
9.009                0.956186244     -73.2945567
9.01                 0.956076706     -73.4069047
9.011                0.955966826     -73.5195373
9.012                0.955856604     -73.6324554
9.013                0.955746039     -73.7456599
9.014                 0.95563513     -73.8591517
9.015                0.955523875     -73.9729318
9.016                0.955412275      -74.087001
9.017                0.955300329     -74.2013602
9.018                0.955188034     -74.3160104
9.019                0.955075391     -74.4309524
9.02                 0.954962399     -74.5461872
9.021                0.954849057     -74.6617157
9.022                0.954735363     -74.7775388
9.023                0.954621317     -74.8936575
9.024                0.954506919     -75.0100726
9.025                0.954392166     -75.1267852
9.026                0.954277059      -75.243796
9.027                0.954161597     -75.3611062
9.028                0.954045778     -75.4787165
9.029                0.953929602     -75.5966281
9.03                 0.953813068     -75.7148417
9.031                0.953696175     -75.8333583
9.032                0.953578922     -75.9521789
9.033                0.953461309     -76.0713045
9.034                0.953343334     -76.1907359
9.035                0.953224997     -76.3104742
9.036                0.953106296     -76.4305202
9.037                0.952987232      -76.550875
9.038                0.952867802     -76.6715396
9.039                0.952748008     -76.7925148
9.04                 0.952627846     -76.9138017
9.041                0.952507317     -77.0354011
9.042                 0.95238642     -77.1573142
9.043                0.952265154     -77.2795418
9.044                0.952143519      -77.402085
9.045                0.952021512     -77.5249447
9.046                0.951899135     -77.6481219
9.047                0.951776385     -77.7716175
9.048                0.951653262     -77.8954327
9.049                0.951529765     -78.0195683
9.05                 0.951405894     -78.1440253
9.051                0.951281647     -78.2688047
9.052                0.951157024     -78.3939076
9.053                0.951032025      -78.519335
9.054                0.950906647     -78.6450877
9.055                0.950780891     -78.7711669
9.056                0.950654756     -78.8975735
9.057                0.950528241     -79.0243086
9.058                0.950401345     -79.1513731
9.059                0.950274068      -79.278768
9.06                 0.950146409     -79.4064945
9.061                0.950018366     -79.5345534
9.062                 0.94988994     -79.6629458
9.063                 0.94976113     -79.7916728
9.064                0.949631934     -79.9207353
9.065                0.949502352     -80.0501343
9.066                0.949372384      -80.179871
9.067                0.949242029     -80.3099463
9.068                0.949111286     -80.4403612
9.069                0.948980154     -80.5711169
9.07                 0.948848633     -80.7022142
9.071                0.948716722     -80.8336543
9.072                 0.94858442     -80.9654382
9.073                0.948451727      -81.097567
9.074                0.948318642     -81.2300416
9.075                0.948185165     -81.3628632
9.076                0.948051294     -81.4960327
9.077                0.947917029     -81.6295512
9.078                 0.94778237     -81.7634198
9.079                0.947647316     -81.8976396
9.08                 0.947511866     -82.0322115
9.081                 0.94737602     -82.1671366
9.082                0.947239777      -82.302416
9.083                0.947103136     -82.4380508
9.084                0.946966097      -82.574042
9.085                 0.94682866     -82.7103907
9.086                0.946690824     -82.8470979
9.087                0.946552588     -82.9841648
9.088                0.946413951     -83.1215923
9.089                0.946274914     -83.2593815
9.09                 0.946135476     -83.3975336
9.091                0.945995635     -83.5360496
9.092                0.945855393     -83.6749305
9.093                0.945714747     -83.8141775
9.094                0.945573699     -83.9537917
9.095                0.945432246      -84.093774
9.096                 0.94529039     -84.2341256
9.097                0.945148128     -84.3748476
9.098                0.945005462     -84.5159411
9.099                 0.94486239     -84.6574071
9.1                  0.944718912     -84.7992468
9.101                0.944575028     -84.9414612
9.102                0.944430737     -85.0840514
9.103                0.944286038     -85.2270185
9.104                0.944140933     -85.3703636
9.105                0.943995419     -85.5140878
9.106                0.943849498     -85.6581922
9.107                0.943703167     -85.8026779
9.108                0.943556428      -85.947546
9.109                 0.94340928     -86.0927976
9.11                 0.943261722     -86.2384337
9.111                0.943113754     -86.3844556
9.112                0.942965377     -86.5308643
9.113                0.942816589     -86.6776609
9.114                0.942667391     -86.8248465
9.115                0.942517781     -86.9724222
9.116                0.942367761     -87.1203891
9.117                 0.94221733     -87.2687484
9.118                0.942066487     -87.4175011
9.119                0.941915233     -87.5666484
9.12                 0.941763567     -87.7161913
9.121                0.941611489      -87.866131
9.122                0.941458999     -88.0164686
9.123                0.941306098     -88.1672052
9.124                0.941152783      -88.318342
9.125                0.940999057       -88.46988
9.126                0.940844918     -88.6218203
9.127                0.940690367     -88.7741641
9.128                0.940535404     -88.9269124
9.129                0.940380028     -89.0800665
9.13                  0.94022424     -89.2336274
9.131                0.940068039     -89.3875962
9.132                0.939911426     -89.5419741
9.133                  0.9397544     -89.6967621
9.134                0.939596963     -89.8519615
9.135                0.939439113     -90.0075732
9.136                0.939280851     -90.1635985
9.137                0.939122177     -90.3200384
9.138                0.938963091     -90.4768941
9.139                0.938803594     -90.6341667
9.14                 0.938643685     -90.7918573
9.141                0.938483365     -90.9499671
9.142                0.938322634      -91.108497
9.143                0.938161492     -91.2674484
9.144                0.937999939     -91.4268222
9.145                0.937837976     -91.5866196
9.146                0.937675604     -91.7468418
9.147                0.937512821     -91.9074898
9.148                 0.93734963     -92.0685648
9.149                0.937186029     -92.2300678
9.15                  0.93702202         -92.392
9.151                0.936857603     -92.5543626
9.152                0.936692778     -92.7171565
9.153                0.936527546      -92.880383
9.154                0.936361907     -93.0440432
9.155                0.936195861     -93.2081381
9.156                 0.93602941     -93.3726689
9.157                0.935862554     -93.5376366
9.158                0.935695293     -93.7030425
9.159                0.935527628     -93.8688876
9.16                  0.93535956      -94.035173
9.161                0.935191089     -94.2018999
9.162                0.935022215     -94.3690692
9.163                 0.93485294     -94.5366822
9.164                0.934683265     -94.7047399
9.165                0.934513189     -94.8732435
9.166                0.934342715      -95.042194
9.167                0.934171841     -95.2115925
9.168                0.934000571     -95.3814402
9.169                0.933828903     -95.5517381
9.17                  0.93365684     -95.7224873
9.171                0.933484381     -95.8936889
9.172                0.933311529      -96.065344
9.173                0.933138283     -96.2374537
9.174                0.932964645     -96.4100191
9.175                0.932790616     -96.5830412
9.176                0.932616198     -96.7565212
9.177                 0.93244139     -96.9304601
9.178                0.932266194     -97.1048589
9.179                0.932090611     -97.2797189
9.18                 0.931914643     -97.4550409
9.181                 0.93173829     -97.6308262
9.182                0.931561555     -97.8070757
9.183                0.931384437     -97.9837906
9.184                0.931206938     -98.1609719
9.185                0.931029061     -98.3386206
9.186                0.930850805     -98.5167378
9.187                0.930672172     -98.6953245
9.188                0.930493165     -98.8743819
9.189                0.930313783     -99.0539109
9.19                 0.930134029     -99.2339125
9.191                0.929953905     -99.4143879
9.192                0.929773411     -99.5953381
9.193                0.929592549      -99.776764
9.194                0.929411322     -99.9586668
9.195                 0.92922973     -100.141047
9.196                0.929047775     -100.323907
9.197                0.928865459     -100.507246
9.198                0.928682784     -100.691066
9.199                0.928499751     -100.875368
9.2                  0.928316363     -101.060153
9.201                0.928132621     -101.245422
9.202                0.927948527     -101.431176
9.203                0.927764082     -101.617415
9.204                 0.92757929     -101.804142
9.205                0.927394152     -101.991356
9.206                 0.92720867     -102.179059
9.207                0.927022846     -102.367252
9.208                0.926836682     -102.555935
9.209                 0.92665018      -102.74511
9.21                 0.926463343     -102.934778
9.211                0.926276173      -103.12494
9.212                0.926088672     -103.315596
9.213                0.925900842     -103.506747
9.214                0.925712686     -103.698395
9.215                0.925524206      -103.89054
9.216                0.925335405     -104.083183
9.217                0.925146284     -104.276326
9.218                0.924956848     -104.469969
9.219                0.924767097     -104.664112
9.22                 0.924577035     -104.858757
9.221                0.924386665     -105.053906
9.222                0.924195988     -105.249557
9.223                0.924005009     -105.445713
9.224                0.923813729     -105.642375
9.225                0.923622152     -105.839543
9.226                0.923430279     -106.037218
9.227                0.923238115       -106.2354
9.228                0.923045662     -106.434092
9.229                0.922852924     -106.633293
9.23                 0.922659902     -106.833005
9.231                0.922466601     -107.033227
9.232                0.922273023     -107.233962
9.233                0.922079171     -107.435209
9.234                 0.92188505     -107.636971
9.235                0.921690661     -107.839246
9.236                0.921496009     -108.042037
9.237                0.921301097     -108.245343
9.238                0.921105928     -108.449167
9.239                0.920910506     -108.653507
9.24                 0.920714833     -108.858366
9.241                0.920518915     -109.063744
9.242                0.920322754     -109.269641
9.243                0.920126353     -109.476059
9.244                0.919929718     -109.682998
9.245                0.919732851     -109.890458
9.246                0.919535756     -110.098441
9.247                0.919338437     -110.306947
9.248                0.919140899     -110.515976
9.249                0.918943144      -110.72553
9.25                 0.918745177     -110.935609
9.251                0.918547002     -111.146214
9.252                0.918348624     -111.357345
9.253                0.918150045     -111.569002
9.254                0.917951271     -111.781188
9.255                0.917752306     -111.993901
9.256                0.917553154     -112.207143
9.257                 0.91735382     -112.420914
9.258                0.917154307     -112.635215
9.259                0.916954621     -112.850046
9.26                 0.916754765     -113.065408
9.261                0.916554745     -113.281301
9.262                0.916354565     -113.497726
9.263                 0.91615423     -113.714683
9.264                0.915953744     -113.932174
9.265                0.915753113     -114.150197
9.266                 0.91555234     -114.368754
9.267                0.915351432     -114.587846
9.268                0.915150392     -114.807471
9.269                0.914949227     -115.027632
9.27                  0.91474794     -115.248329
9.271                0.914546538     -115.469561
9.272                0.914345025     -115.691329
9.273                0.914143407     -115.913634
9.274                0.913941688     -116.136475
9.275                0.913739875     -116.359854
9.276                0.913537972      -116.58377
9.277                0.913335985     -116.808224
9.278                 0.91313392     -117.033217
9.279                0.912931781     -117.258747
9.28                 0.912729576     -117.484816
9.281                0.912527309     -117.711424
9.282                0.912324985     -117.938572
9.283                0.912122612     -118.166258
9.284                0.911920194     -118.394484
9.285                0.911717738      -118.62325
9.286                 0.91151525     -118.852555
9.287                0.911312735     -119.082401
9.288                  0.9111102     -119.312786
9.289                 0.91090765     -119.543712
9.29                 0.910705092     -119.775178
9.291                0.910502533     -120.007185
9.292                0.910299977     -120.239732
9.293                0.910097433     -120.472819
9.294                0.909894906     -120.706447
9.295                0.909692402     -120.940616
9.296                0.909489928     -121.175325
9.297                0.909287491     -121.410575
9.298                0.909085098     -121.646365
9.299                0.908882754     -121.882696
9.3                  0.908680467     -122.119567
9.301                0.908478244     -122.356978
9.302                0.908276091     -122.594929
9.303                0.908074015     -122.833421
9.304                0.907872023     -123.072452
9.305                0.907670123     -123.312023
9.306                0.907468321     -123.552133
9.307                0.907266624     -123.792782
9.308                 0.90706504     -124.033971
9.309                0.906863576     -124.275698
9.31                 0.906662238     -124.517964
9.311                0.906461035     -124.760768
9.312                0.906259974      -125.00411
9.313                0.906059063      -125.24799
9.314                0.905858308     -125.492406
9.315                0.905657717      -125.73736
9.316                0.905457298      -125.98285
9.317                0.905257059     -126.228876
9.318                0.905057007     -126.475437
9.319                 0.90485715     -126.722534
9.32                 0.904657496     -126.970165
9.321                0.904458052      -127.21833
9.322                0.904258827     -127.467029
9.323                0.904059829     -127.716261
9.324                0.903861066     -127.966026
9.325                0.903662545     -128.216322
9.326                0.903464274      -128.46715
9.327                0.903266263     -128.718508
9.328                0.903068519     -128.970396
9.329                0.902871051     -129.222814
9.33                 0.902673866      -129.47576
9.331                0.902476973     -129.729234
9.332                0.902280381     -129.983234
9.333                0.902084097     -130.237762
9.334                0.901888131     -130.492814
9.335                0.901692491     -130.748392
9.336                0.901497186     -131.004493
9.337                0.901302224     -131.261117
9.338                0.901107613     -131.518263
9.339                0.900913363     -131.775931
9.34                 0.900719483     -132.034118
9.341                0.900525981     -132.292825
9.342                0.900332865     -132.552049
9.343                0.900140146     -132.811791
9.344                0.899947831     -133.072049
9.345                 0.89975593     -133.332823
9.346                0.899564452      -133.59411
9.347                0.899373406     -133.855909
9.348                0.899182801     -134.118221
9.349                0.898992645     -134.381043
9.35                 0.898802949     -134.644374
9.351                0.898613721     -134.908213
9.352                0.898424971     -135.172559
9.353                0.898236707     -135.437411
9.354                 0.89804894     -135.702767
9.355                0.897861678     -135.968625
9.356                0.897674931     -136.234985
9.357                0.897488708     -136.501846
9.358                0.897303019     -136.769204
9.359                0.897117872      -137.03706
9.36                 0.896933278     -137.305412
9.361                0.896749247     -137.574258
9.362                0.896565786     -137.843597
9.363                0.896382907     -138.113427
9.364                0.896200618     -138.383747
9.365                 0.89601893     -138.654554
9.366                0.895837852     -138.925848
9.367                0.895657393     -139.197627
9.368                0.895477563     -139.469889
9.369                0.895298372     -139.742632
9.37                 0.895119829     -140.015854
9.371                0.894941945     -140.289554
9.372                0.894764729      -140.56373
9.373                0.894588191     -140.838381
9.374                 0.89441234     -141.113503
9.375                0.894237187     -141.389096
9.376                 0.89406274     -141.665157
9.377                0.893889011     -141.941685
9.378                0.893716008     -142.218678
9.379                0.893543742     -142.496133
9.38                 0.893372222     -142.774048
9.381                0.893201458     -143.052422
9.382                0.893031461     -143.331252
9.383                0.892862239     -143.610537
9.384                0.892693803     -143.890273
9.385                0.892526163      -144.17046
9.386                0.892359328     -144.451094
9.387                0.892193308     -144.732174
9.388                0.892028114     -145.013696
9.389                0.891863754      -145.29566
9.39                  0.89170024     -145.578063
9.391                 0.89153758     -145.860901
9.392                0.891375784     -146.144174
9.393                0.891214863     -146.427878
9.394                0.891054827     -146.712011
9.395                0.890895684     -146.996571
9.396                0.890737445     -147.281555
