! TOUCHSTONE file generated by CST DESIGN STUDIO
! Date and time: Tue Feb  4 18:31:29 2025
! Project name: C:\Work\MatlabApps\UnitCellOptimizationMatlab\CST\unitcell.cst
! Tree item: Tasks\Sweep1\SPara1\S-Parameters
! Header version: 2024
! Port assignment regex: !\s*Touchstone port\s*([0-9]+)\s*=\s*(CST MWS port|CST DES external port|CST DES block port)\s*(.+)\s* \(\"(.*)\"\)(\s*mode\s*([0-9]+))?.*
! Touchstone port assignment:
! Touchstone port 1 = CST DES external port 1 ("")
# GHz S MA R 50
9                    0.955614607     -76.0616455
9.001                0.955500426     -76.1808052
9.002                0.955385892     -76.3002708
9.003                0.955271003     -76.4200433
9.004                0.955155758     -76.5401235
9.005                0.955040155     -76.6605124
9.006                0.954924196     -76.7812111
9.007                0.954807878     -76.9022204
9.008                  0.9546912     -77.0235413
9.009                0.954574163     -77.1451748
9.01                 0.954456765     -77.2671219
9.011                0.954339004     -77.3893835
9.012                0.954220882     -77.5119606
9.013                0.954102396     -77.6348542
9.014                0.953983546     -77.7580653
9.015                0.953864331     -77.8815948
9.016                 0.95374475     -78.0054438
9.017                0.953624802     -78.1296131
9.018                0.953504487     -78.2541039
9.019                0.953383804     -78.3789171
9.02                 0.953262752     -78.5040537
9.021                0.953141331     -78.6295146
9.022                0.953019538      -78.755301
9.023                0.952897375     -78.8814137
9.024                 0.95277484     -79.0078538
9.025                0.952651931     -79.1346224
9.026                0.952528649     -79.2617203
9.027                0.952404993     -79.3891486
9.028                0.952280962     -79.5169083
9.029                0.952156555     -79.6450005
9.03                 0.952031772     -79.7734262
9.031                0.951906611     -79.9021863
9.032                0.951781072     -80.0312819
9.033                0.951655155      -80.160714
9.034                0.951528858     -80.2904836
9.035                0.951402181     -80.4205918
9.036                0.951275123     -80.5510396
9.037                0.951147683      -80.681828
9.038                0.951019862     -80.8129581
9.039                0.950891657     -80.9444309
9.04                 0.950763069     -81.0762474
9.041                0.950634097     -81.2084086
9.042                0.950504739     -81.3409157
9.043                0.950374997     -81.4737696
9.044                0.950244868     -81.6069714
9.045                0.950114352     -81.7405221
9.046                0.949983448     -81.8744229
9.047                0.949852157     -82.0086747
9.048                0.949720476     -82.1432785
9.049                0.949588407     -82.2782355
9.05                 0.949455947     -82.4135468
9.051                0.949323097     -82.5492133
9.052                0.949189855     -82.6852361
9.053                0.949056222     -82.8216163
9.054                0.948922197     -82.9583549
9.055                0.948787779      -83.095453
9.056                0.948652967     -83.2329118
9.057                0.948517762     -83.3707322
9.058                0.948382161     -83.5089153
9.059                0.948246166     -83.6474621
9.06                 0.948109775     -83.7863739
9.061                0.947972989     -83.9256516
9.062                0.947835805     -84.0652963
9.063                0.947698225     -84.2053091
9.064                0.947560247     -84.3456911
9.065                0.947421871     -84.4864434
9.066                0.947283097      -84.627567
9.067                0.947143923      -84.769063
9.068                0.947004351     -84.9109325
9.069                0.946864378     -85.0531766
9.07                 0.946724006     -85.1957964
9.071                0.946583232      -85.338793
9.072                0.946442058     -85.4821675
9.073                0.946300482     -85.6259209
9.074                0.946158505     -85.7700544
9.075                0.946016126     -85.9145691
9.076                0.945873344      -86.059466
9.077                0.945730159     -86.2047462
9.078                0.945586571     -86.3504109
9.079                 0.94544258     -86.4964611
9.08                 0.945298184      -86.642898
9.081                0.945153385     -86.7897227
9.082                0.945008182     -86.9369362
9.083                0.944862574     -87.0845396
9.084                0.944716561     -87.2325341
9.085                0.944570143     -87.3809208
9.086                 0.94442332     -87.5297008
9.087                0.944276092     -87.6788751
9.088                0.944128458      -87.828445
9.089                0.943980418     -87.9784114
9.09                 0.943831972     -88.1287756
9.091                0.943683119     -88.2795386
9.092                0.943533861     -88.4307015
9.093                0.943384196     -88.5822655
9.094                0.943234125     -88.7342316
9.095                0.943083647      -88.886601
9.096                0.942932762     -89.0393749
9.097                0.942781471     -89.1925542
9.098                0.942629773     -89.3461401
9.099                0.942477668     -89.5001338
9.1                  0.942325157     -89.6545363
9.101                0.942172238     -89.8093488
9.102                0.942018913     -89.9645723
9.103                0.941865181     -90.1202081
9.104                0.941711043     -90.2762572
9.105                0.941556498     -90.4327207
9.106                0.941401547     -90.5895997
9.107                0.941246189     -90.7468954
9.108                0.941090425     -90.9046089
9.109                0.940934255     -91.0627413
9.11                  0.94077768     -91.2212938
9.111                0.940620698     -91.3802673
9.112                0.940463311     -91.5396631
9.113                0.940305519     -91.6994822
9.114                0.940147322     -91.8597259
9.115                 0.93998872     -92.0203951
9.116                0.939829714      -92.181491
9.117                0.939670304     -92.3430147
9.118                 0.93951049     -92.5049674
9.119                0.939350272     -92.6673501
9.12                 0.939189652      -92.830164
9.121                0.939028628     -92.9934102
9.122                0.938867203     -93.1570897
9.123                0.938705376     -93.3212037
9.124                0.938543147     -93.4857533
9.125                0.938380518     -93.6507396
9.126                0.938217488     -93.8161638
9.127                0.938054059     -93.9820268
9.128                 0.93789023     -94.1483299
9.129                0.937726003     -94.3150741
9.13                 0.937561378     -94.4822605
9.131                0.937396355     -94.6498903
9.132                0.937230936     -94.8179644
9.133                 0.93706512     -94.9864841
9.134                0.936898909     -95.1554505
9.135                0.936732304     -95.3248645
9.136                0.936565304     -95.4947274
9.137                0.936397912     -95.6650401
9.138                0.936230127     -95.8358039
9.139                 0.93606195     -96.0070197
9.14                 0.935893383     -96.1786887
9.141                0.935724427     -96.3508119
9.142                0.935555081     -96.5233904
9.143                0.935385348     -96.6964254
9.144                0.935215227     -96.8699178
9.145                0.935044721     -97.0438688
9.146                 0.93487383     -97.2182794
9.147                0.934702555     -97.3931508
9.148                0.934530897     -97.5684838
9.149                0.934358857     -97.7442797
9.15                 0.934186437     -97.9205396
9.151                0.934013638     -98.0972643
9.152                 0.93384046     -98.2744551
9.153                0.933666906     -98.4521129
9.154                0.933492976     -98.6302388
9.155                0.933318672     -98.8088339
9.156                0.933143994     -98.9878991
9.157                0.932968945     -99.1674356
9.158                0.932793526     -99.3474444
9.159                0.932617738     -99.5279265
9.16                 0.932441582     -99.7088829
9.161                0.932265061     -99.8903147
9.162                0.932088175     -100.072223
9.163                0.931910926     -100.254608
9.164                0.931733316     -100.437472
9.165                0.931555346     -100.620816
9.166                0.931377018      -100.80464
9.167                0.931198334     -100.988945
9.168                0.931019296     -101.173733
9.169                0.930839904     -101.359004
9.17                 0.930660162     -101.544759
9.171                 0.93048007        -101.731
9.172                0.930299631     -101.917727
9.173                0.930118847     -102.104942
9.174                0.929937719     -102.292645
9.175                 0.92975625     -102.480837
9.176                0.929574441      -102.66952
9.177                0.929392295     -102.858693
9.178                0.929209813     -103.048359
9.179                0.929026998     -103.238518
9.18                 0.928843852     -103.429171
9.181                0.928660377     -103.620319
9.182                0.928476576     -103.811962
9.183                 0.92829245     -104.004103
9.184                0.928108003     -104.196741
9.185                0.927923236     -104.389878
9.186                0.927738151     -104.583514
9.187                0.927552752     -104.777651
9.188                 0.92736704     -104.972289
9.189                0.927181019     -105.167429
9.19                  0.92699469     -105.363073
9.191                0.926808057      -105.55922
9.192                0.926621122     -105.755872
9.193                0.926433888      -105.95303
9.194                0.926246357     -106.150694
9.195                0.926058533     -106.348865
9.196                0.925870418     -106.547545
9.197                0.925682014     -106.746733
9.198                0.925493326     -106.946432
9.199                0.925304355     -107.146641
9.2                  0.925115106     -107.347361
9.201                 0.92492558     -107.548594
9.202                0.924735781     -107.750339
9.203                0.924545713     -107.952599
9.204                0.924355377     -108.155372
9.205                0.924164779     -108.358662
9.206                 0.92397392     -108.562467
9.207                0.923782804     -108.766789
9.208                0.923591435     -108.971628
9.209                0.923399816     -109.176986
9.21                  0.92320795     -109.382863
9.211                0.923015842     -109.589259
9.212                0.922823493     -109.796176
9.213                0.922630909     -110.003613
9.214                0.922438093     -110.211573
9.215                0.922245048     -110.420054
9.216                0.922051778     -110.629059
9.217                0.921858287     -110.838588
9.218                0.921664579      -111.04864
9.219                0.921470658     -111.259218
9.22                 0.921276528     -111.470321
9.221                0.921082192     -111.681951
9.222                0.920887655     -111.894107
9.223                0.920692921      -112.10679
9.224                0.920497994     -112.320002
9.225                0.920302879     -112.533741
9.226                0.920107578      -112.74801
9.227                0.919912098     -112.962809
9.228                0.919716442     -113.178137
9.229                0.919520614     -113.393996
9.23                  0.91932462     -113.610386
9.231                0.919128463     -113.827307
9.232                0.918932148     -114.044761
9.233                 0.91873568     -114.262747
9.234                0.918539063     -114.481266
9.235                0.918342302     -114.700318
9.236                0.918145402     -114.919904
9.237                0.917948368     -115.140024
9.238                0.917751205     -115.360679
9.239                0.917553917     -115.581869
9.24                  0.91735651     -115.803594
9.241                0.917158989     -116.025855
9.242                0.916961358     -116.248652
9.243                0.916763623     -116.471985
9.244                0.916565789     -116.695854
9.245                0.916367862     -116.920261
9.246                0.916169846     -117.145205
9.247                0.915971747     -117.370687
9.248                 0.91577357     -117.596706
9.249                0.915575322     -117.823263
9.25                 0.915377007     -118.050359
9.251                0.915178631     -118.277993
9.252                  0.9149802     -118.506165
9.253                0.914781719     -118.734876
9.254                0.914583194     -118.964127
9.255                0.914384632     -119.193916
9.256                0.914186037     -119.424244
9.257                0.913987416     -119.655112
9.258                0.913788774     -119.886519
9.259                0.913590119     -120.118466
9.26                 0.913391455     -120.350952
9.261                0.913192789     -120.583978
9.262                0.912994128     -120.817544
9.263                0.912795476     -121.051649
9.264                0.912596842     -121.286293
9.265                0.912398231     -121.521477
9.266                0.912199649     -121.757201
9.267                0.912001103     -121.993464
9.268                  0.9118026     -122.230267
9.269                0.911604146     -122.467608
9.27                 0.911405747     -122.705489
9.271                0.911207411     -122.943909
9.272                0.911009144     -123.182868
9.273                0.910810953     -123.422365
9.274                0.910612845     -123.662401
9.275                0.910414826     -123.902975
9.276                0.910216905     -124.144088
9.277                0.910019086     -124.385737
9.278                0.909821379     -124.627925
9.279                0.909623789     -124.870649
9.28                 0.909426325     -125.113911
9.281                0.909228992     -125.357709
9.282                  0.9090318     -125.602043
9.283                0.908834754     -125.846912
9.284                0.908637862     -126.092318
9.285                0.908441132     -126.338258
9.286                0.908244571     -126.584732
9.287                0.908048187     -126.831741
9.288                0.907851987     -127.079283
9.289                0.907655979     -127.327359
9.29                  0.90746017     -127.575967
9.291                0.907264569     -127.825106
9.292                0.907069183     -128.074778
9.293                 0.90687402     -128.324979
9.294                0.906679088     -128.575712
9.295                0.906484394     -128.826973
9.296                0.906289948     -129.078764
9.297                0.906095756     -129.331082
9.298                0.905901827     -129.583929
9.299                0.905708169     -129.837301
9.3                   0.90551479       -130.0912
9.301                0.905321699     -130.345624
9.302                0.905128903     -130.600573
9.303                0.904936411     -130.856045
9.304                0.904744231     -131.112039
9.305                0.904552372     -131.368556
9.306                0.904360842     -131.625593
9.307                 0.90416965      -131.88315
9.308                0.903978804     -132.141226
9.309                0.903788313     -132.399821
9.31                 0.903598185     -132.658932
9.311                0.903408429     -132.918559
9.312                0.903219053     -133.178702
9.313                0.903030067     -133.439358
9.314                0.902841479     -133.700527
9.315                0.902653298     -133.962208
9.316                0.902465533     -134.224399
9.317                0.902278192     -134.487099
9.318                0.902091285     -134.750308
9.319                0.901904821     -135.014023
9.32                 0.901718808     -135.278244
9.321                0.901533256     -135.542969
9.322                0.901348173     -135.808198
9.323                0.901163569     -136.073928
9.324                0.900979452     -136.340158
9.325                0.900795833     -136.606887
9.326                0.900612719     -136.874114
9.327                0.900430121     -137.141837
9.328                0.900248048     -137.410054
9.329                0.900066508     -137.678765
9.33                 0.899885512     -137.947967
9.331                0.899705068     -138.217659
9.332                0.899525185     -138.487839
9.333                0.899345874     -138.758506
9.334                0.899167143     -139.029659
9.335                0.898989002     -139.301294
9.336                0.898811461     -139.573412
9.337                0.898634528      -139.84601
9.338                0.898458213     -140.119086
9.339                0.898282526     -140.392639
9.34                 0.898107477     -140.666666
9.341                0.897933074     -140.941167
9.342                0.897759328     -141.216138
9.343                0.897586247     -141.491579
9.344                0.897413842     -141.767487
9.345                0.897242122      -142.04386
9.346                0.897071096     -142.320696
9.347                0.896900774     -142.597994
9.348                0.896731167     -142.875752
9.349                0.896562282     -143.153966
9.35                 0.896394131     -143.432636
9.351                0.896226722     -143.711759
9.352                0.896060066     -143.991332
9.353                0.895894172     -144.271355
9.354                0.895729049     -144.551824
9.355                0.895564707     -144.832737
9.356                0.895401156     -145.114092
9.357                0.895238405     -145.395887
9.358                0.895076465      -145.67812
9.359                0.894915344     -145.960787
9.36                 0.894755052     -146.243888
9.361                0.894595599     -146.527418
9.362                0.894436995     -146.811377
9.363                0.894279249     -147.095761
9.364                0.894122371     -147.380568
9.365                 0.89396637     -147.665796
9.366                0.893811256     -147.951441
9.367                0.893657038     -148.237502
9.368                0.893503726     -148.523975
9.369                0.893351329     -148.810859
9.37                 0.893199858      -149.09815
9.371                0.893049321     -149.385845
9.372                0.892899727     -149.673943
9.373                0.892751087      -149.96244
9.374                 0.89260341     -150.251334
9.375                0.892456705     -150.540621
9.376                0.892310981     -150.830299
9.377                0.892166248     -151.120366
9.378                0.892022515     -151.410817
9.379                0.891879792     -151.701651
9.38                 0.891738087     -151.992864
9.381                 0.89159741     -152.284454
9.382                0.891457769     -152.576417
9.383                0.891319175      -152.86875
9.384                0.891181636      -153.16145
9.385                0.891045162     -153.454515
9.386                0.890909761     -153.747941
9.387                0.890775442     -154.041725
9.388                0.890642214     -154.335864
9.389                0.890510086     -154.630354
9.39                 0.890379067     -154.925193
9.391                0.890249166     -155.220377
9.392                0.890120391     -155.515903
9.393                0.889992752     -155.811768
9.394                0.889866256     -156.107969
9.395                0.889740913     -156.404501
9.396                0.889616731     -156.701362
