! TOUCHSTONE file generated by CST DESIGN STUDIO
! Date and time: Tue Feb  4 18:31:41 2025
! Project name: C:\Work\MatlabApps\UnitCellOptimizationMatlab\CST\unitcell.cst
! Tree item: Tasks\Sweep1\SPara1\S-Parameters
! Header version: 2024
! Port assignment regex: !\s*Touchstone port\s*([0-9]+)\s*=\s*(CST MWS port|CST DES external port|CST DES block port)\s*(.+)\s* \(\"(.*)\"\)(\s*mode\s*([0-9]+))?.*
! Touchstone port assignment:
! Touchstone port 1 = CST DES external port 1 ("")
# GHz S MA R 50
9                    0.967015635     -50.1768152
9.001                0.966956958     -50.2404336
9.002                0.966898103     -50.3041853
9.003                 0.96683907     -50.3680707
9.004                0.966779858     -50.4320902
9.005                0.966720468     -50.4962442
9.006                0.966660898     -50.5605331
9.007                0.966601147     -50.6249573
9.008                0.966541215     -50.6895173
9.009                0.966481102     -50.7542134
9.01                 0.966420807     -50.8190461
9.011                0.966360329     -50.8840158
9.012                0.966299667     -50.9491229
9.013                0.966238821     -51.0143679
9.014                0.966177791     -51.0797511
9.015                0.966116576     -51.1452729
9.016                0.966055175     -51.2109339
9.017                0.965993587     -51.2767344
9.018                0.965931812     -51.3426748
9.019                0.965869849     -51.4087556
9.02                 0.965807698     -51.4749772
9.021                0.965745358     -51.5413401
9.022                0.965682829     -51.6078447
9.023                0.965620109     -51.6744913
9.024                0.965557198     -51.7412806
9.025                0.965494096     -51.8082128
9.026                0.965430801     -51.8752884
9.027                0.965367314     -51.9425079
9.028                0.965303633     -52.0098718
9.029                0.965239758     -52.0773804
9.03                 0.965175688     -52.1450342
9.031                0.965111423     -52.2128337
9.032                0.965046962     -52.2807792
9.033                0.964982304     -52.3488714
9.034                0.964917448     -52.4171105
9.035                0.964852395     -52.4854972
9.036                0.964787142     -52.5540317
9.037                0.964721691     -52.6227146
9.038                0.964656039     -52.6915464
9.039                0.964590186     -52.7605275
9.04                 0.964524132     -52.8296584
9.041                0.964457876     -52.8989394
9.042                0.964391418     -52.9683712
9.043                0.964324755     -53.0379542
9.044                0.964257889     -53.1076888
9.045                0.964190818     -53.1775755
9.046                0.964123541     -53.2476148
9.047                0.964056058     -53.3178072
9.048                0.963988368     -53.3881531
9.049                 0.96392047      -53.458653
9.05                 0.963852365     -53.5293075
9.051                 0.96378405     -53.6001169
9.052                0.963715525     -53.6710817
9.053                 0.96364679     -53.7422026
9.054                0.963577844     -53.8134798
9.055                0.963508687      -53.884914
9.056                0.963439316     -53.9565056
9.057                0.963369733     -54.0282552
9.058                0.963299935     -54.1001631
9.059                0.963229923     -54.1722299
9.06                 0.963159695     -54.2444562
9.061                0.963089252     -54.3168423
9.062                0.963018591     -54.3893889
9.063                0.962947713     -54.4620964
9.064                0.962876616     -54.5349652
9.065                0.962805301      -54.607996
9.066                0.962733766     -54.6811893
9.067                 0.96266201     -54.7545455
9.068                0.962590033     -54.8280651
9.069                0.962517834     -54.9017487
9.07                 0.962445412     -54.9755968
9.071                0.962372767     -55.0496099
9.072                0.962299897     -55.1237886
9.073                0.962226803     -55.1981333
9.074                0.962153483     -55.2726446
9.075                0.962079936     -55.3473229
9.076                0.962006162      -55.422169
9.077                 0.96193216     -55.4971831
9.078                0.961857929      -55.572366
9.079                0.961783469     -55.6477181
9.08                 0.961708779       -55.72324
9.081                0.961633857     -55.7989321
9.082                0.961558703     -55.8747951
9.083                0.961483317     -55.9508295
9.084                0.961407698     -56.0270359
9.085                0.961331844     -56.1034147
9.086                0.961255755     -56.1799665
9.087                0.961179431     -56.2566919
9.088                 0.96110287     -56.3335914
9.089                0.961026071     -56.4106656
9.09                 0.960949035     -56.4879151
9.091                 0.96087176     -56.5653403
9.092                0.960794244     -56.6429419
9.093                0.960716489     -56.7207204
9.094                0.960638492     -56.7986764
9.095                0.960560253     -56.8768104
9.096                0.960481771     -56.9551231
9.097                0.960403045     -57.0336149
9.098                0.960324075     -57.1122865
9.099                0.960244859     -57.1911384
9.1                  0.960165397     -57.2701713
9.101                0.960085689     -57.3493856
9.102                0.960005732      -57.428782
9.103                0.959925527      -57.508361
9.104                0.959845072     -57.5881233
9.105                0.959764367     -57.6680694
9.106                0.959683411     -57.7481999
9.107                0.959602203     -57.8285155
9.108                0.959520742     -57.9090166
9.109                0.959439028     -57.9897039
9.11                 0.959357059      -58.070578
9.111                0.959274835     -58.1516395
9.112                0.959192354      -58.232889
9.113                0.959109617     -58.3143271
9.114                0.959026622     -58.3959545
9.115                0.958943368     -58.4777716
9.116                0.958859854     -58.5597791
9.117                 0.95877608     -58.6419777
9.118                0.958692045     -58.7243679
9.119                0.958607748     -58.8069505
9.12                 0.958523188     -58.8897259
9.121                0.958438364     -58.9726948
9.122                0.958353275     -59.0558578
9.123                0.958267921     -59.1392157
9.124                  0.9581823     -59.2227689
9.125                0.958096412     -59.3065181
9.126                0.958010256      -59.390464
9.127                 0.95792383     -59.4746072
9.128                0.957837135     -59.5589484
9.129                0.957750169     -59.6434881
9.13                 0.957662931      -59.728227
9.131                 0.95757542     -59.8131658
9.132                0.957487636     -59.8983051
9.133                0.957399578     -59.9836455
9.134                0.957311244     -60.0691878
9.135                0.957222634     -60.1549325
9.136                0.957133747     -60.2408803
9.137                0.957044582      -60.327032
9.138                0.956955139      -60.413388
9.139                0.956865415     -60.4999492
9.14                 0.956775411     -60.5867161
9.141                0.956685125     -60.6736895
9.142                0.956594556       -60.76087
9.143                0.956503705     -60.8482583
9.144                0.956412569      -60.935855
9.145                0.956321147     -61.0236609
9.146                 0.95622944     -61.1116766
9.147                0.956137445     -61.1999027
9.148                0.956045162     -61.2883401
9.149                0.955952591     -61.3769894
9.15                 0.955859729     -61.4658512
9.151                0.955766577     -61.5549262
9.152                0.955673133     -61.6442153
9.153                0.955579396     -61.7337189
9.154                0.955485366     -61.8234379
9.155                0.955391041      -61.913373
9.156                0.955296421     -62.0035248
9.157                0.955201504     -62.0938941
9.158                 0.95510629     -62.1844816
9.159                0.955010778     -62.2752879
9.16                 0.954914967     -62.3663139
9.161                0.954818855     -62.4575602
9.162                0.954722442     -62.5490275
9.163                0.954625727     -62.6407166
9.164                0.954528709     -62.7326281
9.165                0.954431387     -62.8247629
9.166                 0.95433376     -62.9171217
9.167                0.954235828     -63.0097051
9.168                0.954137588     -63.1025139
9.169                 0.95403904     -63.1955489
9.17                 0.953940184     -63.2888107
9.171                0.953841018     -63.3823002
9.172                0.953741541     -63.4760181
9.173                0.953641753     -63.5699651
9.174                0.953541652     -63.6641421
9.175                0.953441237     -63.7585496
9.176                0.953340508     -63.8531885
9.177                0.953239463     -63.9480596
9.178                0.953138102     -64.0431636
9.179                0.953036423     -64.1385012
9.18                 0.952934425     -64.2340734
9.181                0.952832108     -64.3298807
9.182                0.952729471      -64.425924
9.183                0.952626512      -64.522204
9.184                0.952523231     -64.6187216
9.185                0.952419626     -64.7154776
9.186                0.952315697     -64.8124726
9.187                0.952211443     -64.9097075
9.188                0.952106862     -65.0071831
9.189                0.952001954     -65.1049001
9.19                 0.951896718     -65.2028594
9.191                0.951791152     -65.3010617
9.192                0.951685256      -65.399508
9.193                0.951579028     -65.4981988
9.194                0.951472468     -65.5971351
9.195                0.951365575     -65.6963177
9.196                0.951258348     -65.7957474
9.197                0.951150785     -65.8954249
9.198                0.951042886     -65.9953512
9.199                 0.95093465      -66.095527
9.2                  0.950826075     -66.1959531
9.201                0.950717161     -66.2966304
9.202                0.950607907     -66.3975596
9.203                0.950498311     -66.4987417
9.204                0.950388374     -66.6001775
9.205                0.950278092     -66.7018678
9.206                0.950167467     -66.8038133
9.207                0.950056496     -66.9060151
9.208                0.949945179     -67.0084738
9.209                0.949833515     -67.1111905
9.21                 0.949721502     -67.2141658
9.211                 0.94960914     -67.3174007
9.212                0.949496428     -67.4208959
9.213                0.949383364     -67.5246525
9.214                0.949269948     -67.6286712
9.215                0.949156178     -67.7329529
9.216                0.949042054     -67.8374984
9.217                0.948927575     -67.9423087
9.218                 0.94881274     -68.0473846
9.219                0.948697547     -68.1527269
9.22                 0.948581995     -68.2583366
9.221                0.948466085     -68.3642145
9.222                0.948349813     -68.4703615
9.223                0.948233181     -68.5767786
9.224                0.948116186     -68.6834665
9.225                0.947998828     -68.7904262
9.226                0.947881105     -68.8976585
9.227                0.947763017     -69.0051645
9.228                0.947644562     -69.1129449
9.229                 0.94752574     -69.2210007
9.23                 0.947406549     -69.3293327
9.231                 0.94728699      -69.437942
9.232                0.947167059     -69.5468293
9.233                0.947046757     -69.6559957
9.234                0.946926083      -69.765442
9.235                0.946805036     -69.8751691
9.236                0.946683614     -69.9851781
9.237                0.946561816     -70.0954697
9.238                0.946439642     -70.2060449
9.239                0.946317091     -70.3169047
9.24                 0.946194161     -70.4280501
9.241                0.946070852     -70.5394818
9.242                0.945947163     -70.6512009
9.243                0.945823092     -70.7632083
9.244                0.945698639      -70.875505
9.245                0.945573802      -70.988092
9.246                0.945448581       -71.10097
9.247                0.945322975     -71.2141402
9.248                0.945196983     -71.3276035
9.249                0.945070603     -71.4413608
9.25                 0.944943835     -71.5554132
9.251                0.944816678     -71.6697615
9.252                 0.94468913     -71.7844067
9.253                0.944561192     -71.8993498
9.254                0.944432861     -72.0145919
9.255                0.944304138     -72.1301338
9.256                 0.94417502     -72.2459765
9.257                0.944045507     -72.3621211
9.258                0.943915598     -72.4785685
9.259                0.943785293     -72.5953197
9.26                 0.943654589     -72.7123757
9.261                0.943523487     -72.8297375
9.262                0.943391985     -72.9474061
9.263                0.943260082     -73.0653825
9.264                0.943127778     -73.1836677
9.265                0.942995071     -73.3022627
9.266                 0.94286196     -73.4211685
9.267                0.942728446     -73.5403862
9.268                0.942594525     -73.6599167
9.269                0.942460199     -73.7797611
9.27                 0.942325465     -73.8999203
9.271                0.942190323     -74.0203955
9.272                0.942054772     -74.1411876
9.273                0.941918812     -74.2622977
9.274                 0.94178244     -74.3837268
9.275                0.941645657      -74.505476
9.276                0.941508461     -74.6275462
9.277                0.941370851     -74.7499385
9.278                0.941232827      -74.872654
9.279                0.941094388     -74.9956937
9.28                 0.940955533     -75.1190587
9.281                0.940816261       -75.24275
9.282                 0.94067657     -75.3667686
9.283                0.940536461     -75.4911157
9.284                0.940395933     -75.6157923
9.285                0.940254984     -75.7407994
9.286                0.940113614     -75.8661382
9.287                0.939971821     -75.9918097
9.288                0.939829606     -76.1178149
9.289                0.939686967     -76.2441549
9.29                 0.939543903     -76.3708309
9.291                0.939400414     -76.4978439
9.292                0.939256499     -76.6251949
9.293                0.939112157     -76.7528851
9.294                0.938967387     -76.8809156
9.295                0.938822188     -77.0092874
9.296                 0.93867656     -77.1380017
9.297                0.938530502     -77.2670595
9.298                0.938384012     -77.3964619
9.299                0.938237092     -77.5262101
9.3                  0.938089738     -77.6563051
9.301                0.937941952     -77.7867481
9.302                0.937793731     -77.9175402
9.303                0.937645076     -78.0486824
9.304                0.937495986     -78.1801759
9.305                 0.93734646     -78.3120218
9.306                0.937196497     -78.4442213
9.307                0.937046096     -78.5767754
9.308                0.936895257     -78.7096853
9.309                0.936743979     -78.8429521
9.31                 0.936592262     -78.9765769
9.311                0.936440105     -79.1105609
9.312                0.936287507     -79.2449052
9.313                0.936134467      -79.379611
9.314                0.935980986     -79.5146793
9.315                0.935827061     -79.6501113
9.316                0.935672693     -79.7859083
9.317                0.935517882     -79.9220712
9.318                0.935362626     -80.0586014
9.319                0.935206924     -80.1954998
9.32                 0.935050777     -80.3327677
9.321                0.934894184     -80.4704063
9.322                0.934737144     -80.6084166
9.323                0.934579657        -80.7468
9.324                0.934421722     -80.8855574
9.325                0.934263339     -81.0246901
9.326                0.934104506     -81.1641993
9.327                0.933945225     -81.3040861
9.328                0.933785493     -81.4443517
9.329                0.933625311     -81.5849972
9.33                 0.933464679     -81.7260239
9.331                0.933303595      -81.867433
9.332                0.933142059     -82.0092255
9.333                0.932980072     -82.1514028
9.334                0.932817632     -82.2939659
9.335                0.932654739     -82.4369161
9.336                0.932491393     -82.5802546
9.337                0.932327594     -82.7239825
9.338                 0.93216334      -82.868101
9.339                0.931998632     -83.0126114
9.34                  0.93183347     -83.1575148
9.341                0.931667853     -83.3028124
9.342                 0.93150178     -83.4485055
9.343                0.931335253     -83.5945951
9.344                0.931168269     -83.7410827
9.345                 0.93100083     -83.8879693
9.346                0.930832934     -84.0352561
9.347                0.930664582     -84.1829444
9.348                0.930495773     -84.3310353
9.349                0.930326508     -84.4795302
9.35                 0.930156785     -84.6284301
9.351                0.929986606     -84.7777364
9.352                0.929815969     -84.9274501
9.353                0.929644876     -85.0775727
9.354                0.929473324     -85.2281052
9.355                0.929301316     -85.3790488
9.356                0.929128849     -85.5304049
9.357                0.928955925     -85.6821747
9.358                0.928782544     -85.8343592
9.359                0.928608705     -85.9869599
9.36                 0.928434409     -86.1399779
9.361                0.928259654     -86.2934144
9.362                0.928084443     -86.4472707
9.363                0.927908774      -86.601548
9.364                0.927732648     -86.7562476
9.365                0.927556065     -86.9113706
9.366                0.927379024     -87.0669183
9.367                0.927201527     -87.2228919
9.368                0.927023573     -87.3792927
9.369                0.926845163     -87.5361219
9.37                 0.926666296     -87.6933808
9.371                0.926486974     -87.8510705
9.372                0.926307195     -88.0091923
9.373                0.926126962     -88.1677476
9.374                0.925946273     -88.3267374
9.375                0.925765129      -88.486163
9.376                0.925583531     -88.6460257
9.377                0.925401479     -88.8063268
9.378                0.925218974     -88.9670674
9.379                0.925036015     -89.1282488
9.38                 0.924852604     -89.2898722
9.381                 0.92466874     -89.4519389
9.382                0.924484425     -89.6144502
9.383                0.924299658     -89.7774072
9.384                0.924114441     -89.9408112
9.385                0.923928774     -90.1046635
9.386                0.923742658     -90.2689653
9.387                0.923556093     -90.4337178
9.388                 0.92336908     -90.5989223
9.389                0.923181619       -90.76458
9.39                 0.922993712     -90.9306922
9.391                0.922805359       -91.09726
9.392                0.922616561     -91.2642848
9.393                0.922427319     -91.4317678
9.394                0.922237633     -91.5997102
9.395                0.922047505     -91.7681133
9.396                0.921856935     -91.9369782
