! TOUCHSTONE file generated by CST DESIGN STUDIO
! Date and time: Tue Feb  4 18:31:33 2025
! Project name: C:\Work\MatlabApps\UnitCellOptimizationMatlab\CST\unitcell.cst
! Tree item: Tasks\Sweep1\SPara1\S-Parameters
! Header version: 2024
! Port assignment regex: !\s*Touchstone port\s*([0-9]+)\s*=\s*(CST MWS port|CST DES external port|CST DES block port)\s*(.+)\s* \(\"(.*)\"\)(\s*mode\s*([0-9]+))?.*
! Touchstone port assignment:
! Touchstone port 1 = CST DES external port 1 ("")
# GHz S MA R 50
9                    0.958763968     -68.4976665
9.001                0.958665499     -68.5984493
9.002                0.958566721     -68.6994804
9.003                0.958467633     -68.8007606
9.004                0.958368235     -68.9022905
9.005                0.958268524      -69.004071
9.006                0.958168501     -69.1061029
9.007                0.958068164     -69.2083871
9.008                0.957967513     -69.3109242
9.009                0.957866547     -69.4137152
9.01                 0.957765264     -69.5167607
9.011                0.957663664     -69.6200617
9.012                0.957561746      -69.723619
9.013                0.957459508     -69.8274333
9.014                0.957356951     -69.9315055
9.015                0.957254073     -70.0358363
9.016                0.957150873     -70.1404267
9.017                0.957047351     -70.2452775
9.018                0.956943504     -70.3503894
9.019                0.956839333     -70.4557633
9.02                 0.956734837        -70.5614
9.021                0.956630014     -70.6673004
9.022                0.956524864     -70.7734653
9.023                0.956419386     -70.8798956
9.024                0.956313578     -70.9865921
9.025                0.956207441     -71.0935556
9.026                0.956100972     -71.2007869
9.027                0.955994172      -71.308287
9.028                0.955887038     -71.4160568
9.029                0.955779571     -71.5240969
9.03                 0.955671769     -71.6324084
9.031                0.955563632      -71.740992
9.032                0.955455158     -71.8498486
9.033                0.955346347     -71.9589792
9.034                0.955237197     -72.0683845
9.035                0.955127708     -72.1780654
9.036                0.955017879     -72.2880228
9.037                0.954907709     -72.3982577
9.038                0.954797197     -72.5087707
9.039                0.954686342      -72.619563
9.04                 0.954575143     -72.7306352
9.041                0.954463599     -72.8419884
9.042                 0.95435171     -72.9536234
9.043                0.954239474     -73.0655411
9.044                0.954126891     -73.1777423
9.045                 0.95401396     -73.2902281
9.046                0.953900679     -73.4029992
9.047                0.953787049     -73.5160566
9.048                0.953673067     -73.6294012
9.049                0.953558733     -73.7430339
9.05                 0.953444047     -73.8569557
9.051                0.953329006     -73.9711673
9.052                0.953213611     -74.0856698
9.053                0.953097861      -74.200464
9.054                0.952981755     -74.3155509
9.055                0.952865291     -74.4309313
9.056                0.952748469     -74.5466063
9.057                0.952631287     -74.6625768
9.058                0.952513746     -74.7788436
9.059                0.952395845     -74.8954077
9.06                 0.952277581     -75.0122701
9.061                0.952158955     -75.1294316
9.062                0.952039966     -75.2468933
9.063                0.951920613      -75.364656
9.064                0.951800894     -75.4827207
9.065                0.951680809     -75.6010884
9.066                0.951560358     -75.7197599
9.067                0.951439539     -75.8387364
9.068                0.951318351     -75.9580186
9.069                0.951196794     -76.0776076
9.07                 0.951074866     -76.1975043
9.071                0.950952568     -76.3177097
9.072                0.950829898     -76.4382248
9.073                0.950706855     -76.5590504
9.074                0.950583438     -76.6801877
9.075                0.950459647     -76.8016375
9.076                0.950335481     -76.9234009
9.077                0.950210939     -77.0454787
9.078                0.950086019      -77.167872
9.079                0.949960723     -77.2905819
9.08                 0.949835047     -77.4136091
9.081                0.949708993     -77.5369548
9.082                0.949582558       -77.66062
9.083                0.949455742     -77.7846055
9.084                0.949328545     -77.9089125
9.085                0.949200965     -78.0335418
9.086                0.949073003     -78.1584946
9.087                0.948944656     -78.2837718
9.088                0.948815924     -78.4093744
9.089                0.948686807     -78.5353034
9.09                 0.948557303     -78.6615598
9.091                0.948427413     -78.7881447
9.092                0.948297134      -78.915059
9.093                0.948166467     -79.0423037
9.094                0.948035411     -79.1698799
9.095                0.947903965     -79.2977886
9.096                0.947772128     -79.4260309
9.097                0.947639899     -79.5546076
9.098                0.947507278     -79.6835199
9.099                0.947374265     -79.8127688
9.1                  0.947240858     -79.9423553
9.101                0.947107056     -80.0722805
9.102                 0.94697286     -80.2025454
9.103                0.946838267     -80.3331509
9.104                0.946703279     -80.4640982
9.105                0.946567893     -80.5953884
9.106                 0.94643211     -80.7270223
9.107                0.946295929     -80.8590012
9.108                0.946159348     -80.9913259
9.109                0.946022368     -81.1239977
9.11                 0.945884988     -81.2570175
9.111                0.945747207     -81.3903863
9.112                0.945609024     -81.5241053
9.113                 0.94547044     -81.6581755
9.114                0.945331452     -81.7925979
9.115                0.945192061     -81.9273737
9.116                0.945052267     -82.0625038
9.117                0.944912068     -82.1979894
9.118                0.944771464     -82.3338314
9.119                0.944630454     -82.4700311
9.12                 0.944489039     -82.6065894
9.121                0.944347217     -82.7435074
9.122                0.944204987     -82.8807861
9.123                 0.94406235     -83.0184268
9.124                0.943919305     -83.1564304
9.125                0.943775851      -83.294798
9.126                0.943631988     -83.4335307
9.127                0.943487715     -83.5726296
9.128                0.943343032     -83.7120957
9.129                0.943197938     -83.8519302
9.13                 0.943052434     -83.9921342
9.131                0.942906518     -84.1327086
9.132                 0.94276019     -84.2736547
9.133                0.942613449     -84.4149735
9.134                0.942466296     -84.5566661
9.135                 0.94231873     -84.6987336
9.136                0.942170751     -84.8411771
9.137                0.942022358     -84.9839976
9.138                 0.94187355     -85.1271964
9.139                0.941724328     -85.2707745
9.14                 0.941574691     -85.4147329
9.141                0.941424639     -85.5590728
9.142                0.941274171     -85.7037954
9.143                0.941123287     -85.8489016
9.144                0.940971988     -85.9943927
9.145                0.940820272     -86.1402697
9.146                 0.94066814     -86.2865337
9.147                 0.94051559     -86.4331858
9.148                0.940362624     -86.5802272
9.149                 0.94020924      -86.727659
9.15                 0.940055439     -86.8754823
9.151                0.939901221     -87.0236981
9.152                0.939746584     -87.1723076
9.153                 0.93959153      -87.321312
9.154                0.939436057     -87.4707123
9.155                0.939280167     -87.6205097
9.156                0.939123858     -87.7707053
9.157                 0.93896713     -87.9213001
9.158                0.938809984     -88.0722954
9.159                 0.93865242     -88.2236922
9.16                 0.938494437     -88.3754917
9.161                0.938336035     -88.5276949
9.162                0.938177215     -88.6803031
9.163                0.938017976     -88.8333173
9.164                0.937858319     -88.9867387
9.165                0.937698243     -89.1405683
9.166                0.937537749     -89.2948074
9.167                0.937376837      -89.449457
9.168                0.937215506     -89.6045182
9.169                0.937053757     -89.7599923
9.17                  0.93689159     -89.9158802
9.171                0.936729005     -90.0721832
9.172                0.936566002     -90.2289023
9.173                0.936402582     -90.3860388
9.174                0.936238745     -90.5435936
9.175                0.936074491      -90.701568
9.176                 0.93590982     -90.8599631
9.177                0.935744732     -91.0187799
9.178                0.935579229     -91.1780197
9.179                0.935413309     -91.3376836
9.18                 0.935246974     -91.4977726
9.181                0.935080223     -91.6582879
9.182                0.934913058     -91.8192306
9.183                0.934745479     -91.9806019
9.184                0.934577485     -92.1424029
9.185                0.934409078     -92.3046346
9.186                0.934240258     -92.4672983
9.187                0.934071026     -92.6303951
9.188                0.933901381      -92.793926
9.189                0.933731325     -92.9578921
9.19                 0.933560858     -93.1222947
9.191                 0.93338998     -93.2871349
9.192                0.933218693     -93.4524136
9.193                0.933046997     -93.6181322
9.194                0.932874892     -93.7842916
9.195                 0.93270238      -93.950893
9.196                 0.93252946     -94.1179375
9.197                0.932356135     -94.2854263
9.198                0.932182403     -94.4533604
9.199                0.932008267     -94.6217409
9.2                  0.931833728      -94.790569
9.201                0.931658785     -94.9598457
9.202                 0.93148344     -95.1295722
9.203                0.931307693     -95.2997496
9.204                0.931131546     -95.4703789
9.205                   0.930955     -95.6414614
9.206                0.930778056     -95.8129979
9.207                0.930600714     -95.9849898
9.208                0.930422975      -96.157438
9.209                0.930244842     -96.3303437
9.21                 0.930066314     -96.5037079
9.211                0.929887393     -96.6775317
9.212                 0.92970808     -96.8518163
9.213                0.929528377     -97.0265627
9.214                0.929348284     -97.2017719
9.215                0.929167803     -97.3774451
9.216                0.928986935     -97.5535833
9.217                0.928805681     -97.7301877
9.218                0.928624043     -97.9072592
9.219                0.928442022     -98.0847989
9.22                 0.928259619      -98.262808
9.221                0.928076837     -98.4412874
9.222                0.927893676     -98.6202383
9.223                0.927710138     -98.7996617
9.224                0.927526224     -98.9795585
9.225                0.927341937       -99.15993
9.226                0.927157277     -99.3407771
9.227                0.926972246     -99.5221008
9.228                0.926786847     -99.7039022
9.229                 0.92660108     -99.8861824
9.23                 0.926414948     -100.068942
9.231                0.926228452     -100.252183
9.232                0.926041594     -100.435906
9.233                0.925854376     -100.620111
9.234                  0.9256668       -100.8048
9.235                0.925478868     -100.989974
9.236                0.925290581     -101.175634
9.237                0.925101943     -101.361781
9.238                0.924912954     -101.548415
9.239                0.924723618     -101.735539
9.24                 0.924533935     -101.923152
9.241                0.924343908     -102.111256
9.242                0.924153541     -102.299852
9.243                0.923962833     -102.488941
9.244                0.923771789     -102.678523
9.245                 0.92358041       -102.8686
9.246                0.923388699     -103.059173
9.247                0.923196658     -103.250242
9.248                0.923004289     -103.441808
9.249                0.922811596     -103.633873
9.25                  0.92261858     -103.826438
9.251                0.922425244     -104.019503
9.252                0.922231592     -104.213069
9.253                0.922037624     -104.407137
9.254                0.921843345     -104.601708
9.255                0.921648756     -104.796783
9.256                0.921453862     -104.992363
9.257                0.921258664     -105.188449
9.258                0.921063165     -105.385041
9.259                0.920867369     -105.582141
9.26                 0.920671278     -105.779749
9.261                0.920474895     -105.977867
9.262                0.920278224     -106.176494
9.263                0.920081267     -106.375632
9.264                0.919884028     -106.575282
9.265                 0.91968651     -106.775444
9.266                0.919488716      -106.97612
9.267                0.919290649      -107.17731
9.268                0.919092314     -107.379015
9.269                0.918893712     -107.581236
9.27                 0.918694848     -107.783973
9.271                0.918495725     -107.987228
9.272                0.918296347     -108.191001
9.273                0.918096717     -108.395293
9.274                0.917896839     -108.600104
9.275                0.917696716     -108.805435
9.276                0.917496353     -109.011288
9.277                0.917295752     -109.217663
9.278                0.917094919      -109.42456
9.279                0.916893857      -109.63198
9.28                 0.916692569     -109.839924
9.281                 0.91649106     -110.048393
9.282                0.916289333     -110.257387
9.283                0.916087394     -110.466907
9.284                0.915885245     -110.676954
9.285                0.915682892     -110.887528
9.286                0.915480338      -111.09863
9.287                0.915277588      -111.31026
9.288                0.915074646      -111.52242
9.289                0.914871517     -111.735109
9.29                 0.914668204     -111.948328
9.291                0.914464713     -112.162079
9.292                0.914261048      -112.37636
9.293                0.914057213     -112.591174
9.294                0.913853214     -112.806521
9.295                0.913649055       -113.0224
9.296                0.913444741     -113.238813
9.297                0.913240277      -113.45576
9.298                0.913035667     -113.673242
9.299                0.912830916     -113.891259
9.3                  0.912626031     -114.109811
9.301                0.912421014     -114.328899
9.302                0.912215873     -114.548524
9.303                0.912010611     -114.768686
9.304                0.911805234     -114.989385
9.305                0.911599748     -115.210621
9.306                0.911394158     -115.432396
9.307                0.911188468     -115.654709
9.308                0.910982685     -115.877561
9.309                0.910776814     -116.100952
9.31                 0.910570861     -116.324883
9.311                0.910364831     -116.549353
9.312                 0.91015873     -116.774364
9.313                0.909952564     -116.999915
9.314                0.909746338     -117.226006
9.315                0.909540058     -117.452639
9.316                0.909333731     -117.679812
9.317                0.909127361     -117.907527
9.318                0.908920956     -118.135784
9.319                0.908714521     -118.364582
9.32                 0.908508063     -118.593923
9.321                0.908301587     -118.823805
9.322                  0.9080951      -119.05423
9.323                0.907888608     -119.285197
9.324                0.907682118     -119.516707
9.325                0.907475635     -119.748759
9.326                0.907269167     -119.981354
9.327                 0.90706272     -120.214492
9.328                0.906856301     -120.448172
9.329                0.906649915     -120.682396
9.33                 0.906443571     -120.917162
9.331                0.906237274     -121.152471
9.332                0.906031031     -121.388322
9.333                 0.90582485     -121.624717
9.334                0.905618738     -121.861654
9.335                  0.9054127     -122.099134
9.336                0.905206745     -122.337156
9.337                0.905000879     -122.575721
9.338                 0.90479511     -122.814828
9.339                0.904589445     -123.054477
9.34                 0.904383891     -123.294668
9.341                0.904178455       -123.5354
9.342                0.903973145     -123.776674
9.343                0.903767968      -124.01849
9.344                0.903562932     -124.260846
9.345                0.903358045     -124.503743
9.346                0.903153313      -124.74718
9.347                0.902948745     -124.991158
9.348                0.902744348     -125.235675
9.349                 0.90254013     -125.480731
9.35                   0.9023361     -125.726327
9.351                0.902132263     -125.972461
9.352                 0.90192863     -126.219133
9.353                0.901725207     -126.466343
9.354                0.901522003     -126.714091
9.355                0.901319026     -126.962375
9.356                0.901116284     -127.211195
9.357                0.900913785     -127.460551
9.358                0.900711537     -127.710442
9.359                0.900509549     -127.960868
9.36                 0.900307829     -128.211828
9.361                0.900106385     -128.463321
9.362                0.899905227     -128.715346
9.363                0.899704362     -128.967904
9.364                0.899503798     -129.220993
9.365                0.899303545     -129.474613
9.366                0.899103612     -129.728762
9.367                0.898904006     -129.983441
9.368                0.898704737     -130.238648
9.369                0.898505813     -130.494382
9.37                 0.898307243     -130.750644
9.371                0.898109036      -131.00743
9.372                0.897911202     -131.264742
9.373                0.897713748     -131.522578
9.374                0.897516684     -131.780937
9.375                0.897320019     -132.039818
9.376                0.897123762      -132.29922
9.377                0.896927923     -132.559142
9.378                 0.89673251     -132.819583
9.379                0.896537532     -133.080542
9.38                 0.896342999     -133.342018
9.381                0.896148921      -133.60401
9.382                0.895955306     -133.866516
9.383                0.895762163     -134.129536
9.384                0.895569503     -134.393068
9.385                0.895377335     -134.657111
9.386                0.895185668     -134.921664
9.387                0.894994511     -135.186725
9.388                0.894803874     -135.452294
9.389                0.894613768     -135.718368
9.39                   0.8944242     -135.984948
9.391                0.894235182      -136.25203
9.392                0.894046722     -136.519614
9.393                0.893858831     -136.787698
9.394                0.893671518     -137.056281
9.395                0.893484793     -137.325362
9.396                0.893298665     -137.594938
