! TOUCHSTONE file generated by CST DESIGN STUDIO
! Date and time: Tue Feb  4 12:28:38 2025
! Project name: C:\Work\MatlabApps\UnitCellOptimizationMatlab\CST\unitcell.cst
! Tree item: Tasks\Sweep1\SPara1\S-Parameters
! Header version: 2024
! Port assignment regex: !\s*Touchstone port\s*([0-9]+)\s*=\s*(CST MWS port|CST DES external port|CST DES block port)\s*(.+)\s* \(\"(.*)\"\)(\s*mode\s*([0-9]+))?.*
! Touchstone port assignment:
! Touchstone port 1 = CST DES external port 1 ("")
# GHz S MA R 50
9                    0.987251196     -77.9966008
9.001                0.987220051     -78.1160832
9.002                 0.98718881     -78.2358609
9.003                0.987157474     -78.3559345
9.004                0.987126041     -78.4763051
9.005                0.987094513     -78.5969733
9.006                0.987062888     -78.7179402
9.007                0.987031167     -78.8392065
9.008                0.986999349     -78.9607732
9.009                0.986967434     -79.0826411
9.01                 0.986935422     -79.2048111
9.011                0.986903313      -79.327284
9.012                0.986871106     -79.4500608
9.013                0.986838802     -79.5731423
9.014                  0.9868064     -79.6965294
9.015                  0.9867739      -79.820223
9.016                0.986741301      -79.944224
9.017                0.986708605     -80.0685332
9.018                 0.98667581     -80.1931516
9.019                0.986642916       -80.31808
9.02                 0.986609924     -80.4433193
9.021                0.986576832     -80.5688704
9.022                0.986543641     -80.6947342
9.023                0.986510351     -80.8209117
9.024                0.986476961     -80.9474036
9.025                0.986443472      -81.074211
9.026                0.986409883     -81.2013346
9.027                0.986376194     -81.3287755
9.028                0.986342404     -81.4565344
9.029                0.986308515     -81.5846124
9.03                 0.986274525     -81.7130103
9.031                0.986240434      -81.841729
9.032                0.986206242     -81.9707695
9.033                 0.98617195     -82.1001326
9.034                0.986137556     -82.2298192
9.035                0.986103061     -82.3598303
9.036                0.986068465     -82.4901669
9.037                0.986033767     -82.6208297
9.038                0.985998968     -82.7518197
9.039                0.985964067     -82.8831379
9.04                 0.985929063     -83.0147852
9.041                0.985893958     -83.1467624
9.042                0.985858751     -83.2790705
9.043                0.985823441     -83.4117105
9.044                0.985788029     -83.5446832
9.045                0.985752514     -83.6779896
9.046                0.985716896     -83.8116307
9.047                0.985681176     -83.9456072
9.048                0.985645352     -84.0799203
9.049                0.985609426     -84.2145707
9.05                 0.985573396     -84.3495595
9.051                0.985537263     -84.4848875
9.052                0.985501026     -84.6205558
9.053                0.985464686     -84.7565652
9.054                0.985428243     -84.8929167
9.055                0.985391695     -85.0296111
9.056                0.985355044     -85.1666496
9.057                0.985318289     -85.3040329
9.058                0.985281429     -85.4417621
9.059                0.985244466     -85.5798381
9.06                 0.985207398     -85.7182617
9.061                0.985170226     -85.8570341
9.062                 0.98513295      -85.996156
9.063                0.985095569     -86.1356285
9.064                0.985058083     -86.2754525
9.065                0.985020493      -86.415629
9.066                0.984982799     -86.5561588
9.067                0.984944999      -86.697043
9.068                0.984907094     -86.8382825
9.069                0.984869085     -86.9798782
9.07                 0.984830971     -87.1218311
9.071                0.984792751     -87.2641422
9.072                0.984754427     -87.4068124
9.073                0.984715997     -87.5498426
9.074                0.984677462     -87.6932338
9.075                0.984638822     -87.8369869
9.076                0.984600077      -87.981103
9.077                0.984561226     -88.1255829
9.078                 0.98452227     -88.2704276
9.079                0.984483209     -88.4156381
9.08                 0.984444042     -88.5612153
9.081                 0.98440477     -88.7071602
9.082                0.984365392     -88.8534737
9.083                0.984325909     -89.0001569
9.084                 0.98428632     -89.1472105
9.085                0.984246626     -89.2946357
9.086                0.984206826     -89.4424333
9.087                0.984166921     -89.5906043
9.088                 0.98412691     -89.7391497
9.089                0.984086794     -89.8880704
9.09                 0.984046573     -90.0373674
9.091                0.984006245     -90.1870417
9.092                0.983965813     -90.3370941
9.093                0.983925275     -90.4875257
9.094                0.983884631     -90.6383374
9.095                0.983843883     -90.7895301
9.096                0.983803029     -90.9411048
9.097                0.983762069     -91.0930625
9.098                0.983721005     -91.2454042
9.099                0.983679835     -91.3981307
9.1                   0.98363856      -91.551243
9.101                 0.98359718     -91.7047422
9.102                0.983555695      -91.858629
9.103                0.983514105     -92.0129045
9.104                 0.98347241     -92.1675697
9.105                0.983430611     -92.3226255
9.106                0.983388706     -92.4780728
9.107                0.983346697     -92.6339126
9.108                0.983304584     -92.7901458
9.109                0.983262366     -92.9467734
9.11                 0.983220044     -93.1037963
9.111                0.983177617     -93.2612155
9.112                0.983135087     -93.4190319
9.113                0.983092452     -93.5772465
9.114                0.983049714     -93.7358602
9.115                0.983006872     -93.8948739
9.116                0.982963926     -94.0542886
9.117                0.982920877     -94.2141052
9.118                0.982877725     -94.3743247
9.119                0.982834469      -94.534948
9.12                 0.982791111      -94.695976
9.121                0.982747649     -94.8574097
9.122                0.982704085       -95.01925
9.123                0.982660419     -95.1814977
9.124                 0.98261665      -95.344154
9.125                0.982572779     -95.5072196
9.126                0.982528807     -95.6706955
9.127                0.982484732     -95.8345827
9.128                0.982440556      -95.998882
9.129                0.982396279     -96.1635943
9.13                 0.982351901     -96.3287207
9.131                0.982307422     -96.4942619
9.132                0.982262842      -96.660219
9.133                0.982218162     -96.8265928
9.134                0.982173382     -96.9933842
9.135                0.982128502     -97.1605941
9.136                0.982083522     -97.3282235
9.137                0.982038443     -97.4962733
9.138                0.981993265     -97.6647442
9.139                0.981947988     -97.8336374
9.14                 0.981902613     -98.0029535
9.141                 0.98185714     -98.1726936
9.142                0.981811568     -98.3428584
9.143                0.981765899      -98.513449
9.144                0.981720133     -98.6844662
9.145                 0.98167427     -98.8559108
9.146                 0.98162831     -99.0277837
9.147                0.981582254     -99.2000859
9.148                0.981536102     -99.3728181
9.149                0.981489855     -99.5459813
9.15                 0.981443512     -99.7195763
9.151                0.981397075      -99.893604
9.152                0.981350543     -100.068065
9.153                0.981303917     -100.242961
9.154                0.981257198     -100.418292
9.155                0.981210385     -100.594058
9.156                0.981163479     -100.770262
9.157                0.981116481     -100.946904
9.158                0.981069391     -101.123984
9.159                0.981022209     -101.301504
9.16                 0.980974936     -101.479463
9.161                0.980927573     -101.657864
9.162                0.980880119     -101.836707
9.163                0.980832576     -102.015992
9.164                0.980784943     -102.195721
9.165                0.980737222     -102.375895
9.166                0.980689412     -102.556513
9.167                0.980641515     -102.737577
9.168                 0.98059353     -102.919089
9.169                0.980545459     -103.101047
9.17                 0.980497301     -103.283454
9.171                0.980449058      -103.46631
9.172                 0.98040073     -103.649615
9.173                0.980352317     -103.833371
9.174                 0.98030382     -104.017579
9.175                 0.98025524     -104.202239
9.176                0.980206577     -104.387351
9.177                0.980157832     -104.572917
9.178                0.980109006     -104.758938
9.179                0.980060098     -104.945413
9.18                  0.98001111     -105.132344
9.181                0.979962043     -105.319732
9.182                0.979912896     -105.507577
9.183                0.979863672      -105.69588
9.184                0.979814369     -105.884642
9.185                0.979764989     -106.073863
9.186                0.979715533     -106.263543
9.187                0.979666002     -106.453685
9.188                0.979616396     -106.644288
9.189                0.979566715     -106.835353
9.19                 0.979516961     -107.026881
9.191                0.979467134     -107.218872
9.192                0.979417236     -107.411327
9.193                0.979367266     -107.604247
9.194                0.979317225     -107.797632
9.195                0.979267116     -107.991483
9.196                0.979216937       -108.1858
9.197                 0.97916669     -108.380585
9.198                0.979116376     -108.575838
9.199                0.979065996     -108.771558
9.2                   0.97901555     -108.967748
9.201                 0.97896504     -109.164407
9.202                0.978914466     -109.361537
9.203                0.978863829     -109.559137
9.204                0.978813129     -109.757208
9.205                0.978762369     -109.955751
9.206                0.978711549     -110.154766
9.207                0.978660669     -110.354255
9.208                0.978609731     -110.554216
9.209                0.978558736     -110.754652
9.21                 0.978507684     -110.955562
9.211                0.978456576     -111.156946
9.212                0.978405415     -111.358806
9.213                0.978354199     -111.561142
9.214                0.978302931     -111.763955
9.215                0.978251612     -111.967244
9.216                0.978200243      -112.17101
9.217                0.978148824     -112.375254
9.218                0.978097356     -112.579976
9.219                0.978045842     -112.785176
9.22                 0.977994281     -112.990856
9.221                0.977942675     -113.197015
9.222                0.977891025     -113.403653
9.223                0.977839332     -113.610772
9.224                0.977787598     -113.818371
9.225                0.977735823     -114.026451
9.226                0.977684009     -114.235012
9.227                0.977632156     -114.444054
9.228                0.977580267     -114.653579
9.229                0.977528341     -114.863585
9.23                 0.977476381     -115.074074
9.231                0.977424387     -115.285046
9.232                0.977372362     -115.496501
9.233                0.977320305     -115.708439
9.234                0.977268218      -115.92086
9.235                0.977216104     -116.133765
9.236                0.977163962     -116.347155
9.237                0.977111794     -116.561028
9.238                0.977059602     -116.775386
9.239                0.977007386     -116.990229
9.24                 0.976955149     -117.205556
9.241                0.976902891     -117.421369
9.242                0.976850614     -117.637666
9.243                0.976798319     -117.854449
9.244                0.976746008     -118.071717
9.245                0.976693682     -118.289471
9.246                0.976641343     -118.507711
9.247                0.976588991     -118.726436
9.248                0.976536629     -118.945647
9.249                0.976484257     -119.165344
9.25                 0.976431878     -119.385527
9.251                0.976379493     -119.606196
9.252                0.976327103      -119.82735
9.253                0.976274709     -120.048991
9.254                0.976222314     -120.271118
9.255                0.976169919     -120.493731
9.256                0.976117525     -120.716829
9.257                0.976065134     -120.940414
9.258                0.976012748     -121.164484
9.259                0.975960368     -121.389041
9.26                 0.975907995     -121.614083
9.261                0.975855632      -121.83961
9.262                 0.97580328     -122.065623
9.263                0.975750941     -122.292121
9.264                0.975698615     -122.519104
9.265                0.975646306     -122.746572
9.266                0.975594014     -122.974525
9.267                0.975541742     -123.202963
9.268                0.975489491     -123.431885
9.269                0.975437263     -123.661291
9.27                 0.975385059      -123.89118
9.271                0.975332881     -124.121554
9.272                0.975280732     -124.352411
9.273                0.975228612      -124.58375
9.274                0.975176524     -124.815573
9.275                0.975124469     -125.047878
9.276                0.975072449     -125.280665
9.277                0.975020467     -125.513933
9.278                0.974968523     -125.747683
9.279                 0.97491662     -125.981913
9.28                  0.97486476     -126.216624
9.281                0.974812944     -126.451815
9.282                0.974761175     -126.687486
9.283                0.974709454     -126.923636
9.284                0.974657783     -127.160264
9.285                0.974606164      -127.39737
9.286                0.974554599     -127.634954
9.287                0.974503091     -127.873015
9.288                 0.97445164     -128.111552
9.289                0.974400249     -128.350565
9.29                  0.97434892     -128.590053
9.291                0.974297656     -128.830016
9.292                0.974246457     -129.070453
9.293                0.974195326     -129.311363
9.294                0.974144265     -129.552746
9.295                0.974093276     -129.794601
9.296                0.974042361     -130.036927
9.297                0.973991523     -130.279723
9.298                0.973940762     -130.522989
9.299                0.973890082     -130.766724
9.3                  0.973839485     -131.010928
9.301                0.973788972     -131.255598
9.302                0.973738545     -131.500736
9.303                0.973688208     -131.746339
9.304                0.973637962     -131.992406
9.305                0.973587808     -132.238938
9.306                 0.97353775     -132.485932
9.307                0.973487789     -132.733389
9.308                0.973437928     -132.981306
9.309                0.973388169     -133.229684
9.31                 0.973338514     -133.478521
9.311                0.973288965     -133.727816
9.312                0.973239525     -133.977568
9.313                0.973190195     -134.227776
9.314                0.973140978     -134.478439
9.315                0.973091876     -134.729556
9.316                0.973042892     -134.981125
9.317                0.972994027     -135.233146
9.318                0.972945285     -135.485617
9.319                0.972896666     -135.738538
9.32                 0.972848175     -135.991906
9.321                0.972799812     -136.245721
9.322                 0.97275158     -136.499982
9.323                0.972703481     -136.754687
9.324                0.972655518     -137.009835
9.325                0.972607694     -137.265424
9.326                0.972560009     -137.521454
9.327                0.972512468     -137.777922
9.328                0.972465071     -138.034828
9.329                0.972417822     -138.292171
9.33                 0.972370723     -138.549947
9.331                0.972323776     -138.808158
9.332                0.972276984     -139.066799
9.333                0.972230348     -139.325871
9.334                0.972183871     -139.585372
9.335                0.972137557       -139.8453
9.336                0.972091406     -140.105654
9.337                0.972045421     -140.366432
9.338                0.971999606     -140.627632
9.339                0.971953961     -140.889253
9.34                 0.971908491     -141.151293
9.341                0.971863196     -141.413751
9.342                0.971818079     -141.676624
9.343                0.971773144     -141.939912
9.344                0.971728391     -142.203611
9.345                0.971683825     -142.467722
9.346                0.971639446     -142.732241
9.347                0.971595258     -142.997167
9.348                0.971551262     -143.262498
9.349                0.971507462     -143.528233
9.35                  0.97146386     -143.794368
9.351                0.971420458     -144.060904
9.352                0.971377258     -144.327837
9.353                0.971334264     -144.595165
9.354                0.971291477     -144.862887
9.355                0.971248899     -145.131001
9.356                0.971206534     -145.399504
9.357                0.971164384     -145.668395
9.358                0.971122451     -145.937672
9.359                0.971080737     -146.207331
9.36                 0.971039245     -146.477373
9.361                0.970997977     -146.747793
9.362                0.970956937      -147.01859
9.363                0.970916125     -147.289763
9.364                0.970875545     -147.561308
9.365                0.970835199     -147.833223
9.366                0.970795089     -148.105506
9.367                0.970755218     -148.378156
9.368                0.970715588     -148.651169
9.369                0.970676201     -148.924543
9.37                 0.970637061     -149.198277
9.371                0.970598168     -149.472367
9.372                0.970559527     -149.746811
9.373                0.970521138     -150.021607
9.374                0.970483005     -150.296753
9.375                0.970445129     -150.572245
9.376                0.970407513     -150.848082
9.377                 0.97037016     -151.124261
9.378                0.970333071      -151.40078
9.379                 0.97029625     -151.677635
9.38                 0.970259697     -151.954825
9.381                0.970223417     -152.232347
9.382                 0.97018741     -152.510198
9.383                0.970151679     -152.788375
9.384                0.970116227     -153.066877
9.385                0.970081055       -153.3457
9.386                0.970046167     -153.624841
9.387                0.970011564     -153.904298
9.388                0.969977248     -154.184069
9.389                0.969943222      -154.46415
9.39                 0.969909487     -154.744539
9.391                0.969876047     -155.025232
9.392                0.969842903     -155.306228
9.393                0.969810058     -155.587523
9.394                0.969777513     -155.869114
9.395                 0.96974527     -156.150999
9.396                0.969713333     -156.433175
