! TOUCHSTONE file generated by CST DESIGN STUDIO
! Date and time: Tue Feb  4 12:28:43 2025
! Project name: C:\Work\MatlabApps\UnitCellOptimizationMatlab\CST\unitcell.cst
! Tree item: Tasks\Sweep1\SPara1\S-Parameters
! Header version: 2024
! Port assignment regex: !\s*Touchstone port\s*([0-9]+)\s*=\s*(CST MWS port|CST DES external port|CST DES block port)\s*(.+)\s* \(\"(.*)\"\)(\s*mode\s*([0-9]+))?.*
! Touchstone port assignment:
! Touchstone port 1 = CST DES external port 1 ("")
# GHz S MA R 50
9                     0.98830203     -73.6812933
9.001                0.988274897     -73.7908909
9.002                 0.98824768     -73.9007552
9.003                 0.98822038     -74.0108869
9.004                0.988192995      -74.121287
9.005                0.988165526     -74.2319561
9.006                0.988137973     -74.3428951
9.007                0.988110335     -74.4541048
9.008                0.988082612     -74.5655861
9.009                0.988054804     -74.6773396
9.01                 0.988026911     -74.7893663
9.011                0.987998932      -74.901667
9.012                0.987970868     -75.0142424
9.013                0.987942718     -75.1270934
9.014                0.987914482     -75.2402209
9.015                0.987886159     -75.3536255
9.016                0.987857751     -75.4673083
9.017                0.987829255     -75.5812699
9.018                0.987800673     -75.6955112
9.019                0.987772004     -75.8100331
9.02                 0.987743248     -75.9248364
9.021                0.987714404     -76.0399219
9.022                0.987685473     -76.1552905
9.023                0.987656455      -76.270943
9.024                0.987627348     -76.3868802
9.025                0.987598153      -76.503103
9.026                 0.98756887     -76.6196123
9.027                0.987539499     -76.7364088
9.028                0.987510038     -76.8534935
9.029                 0.98748049     -76.9708671
9.03                 0.987450852     -77.0885306
9.031                0.987421124     -77.2064848
9.032                0.987391308     -77.3247305
9.033                0.987361402     -77.4432687
9.034                0.987331406     -77.5621001
9.035                0.987301321     -77.6812256
9.036                0.987271145     -77.8006462
9.037                0.987240879     -77.9203626
9.038                0.987210523     -78.0403757
9.039                0.987180076     -78.1606865
9.04                 0.987149539     -78.2812957
9.041                 0.98711891     -78.4022043
9.042                0.987088191     -78.5234131
9.043                 0.98705738      -78.644923
9.044                0.987026478      -78.766735
9.045                0.986995484     -78.8888497
9.046                0.986964398     -79.0112683
9.047                0.986933221     -79.1339914
9.048                0.986901951     -79.2570201
9.049                 0.98687059     -79.3803552
9.05                 0.986839136     -79.5039976
9.051                0.986807589     -79.6279483
9.052                 0.98677595      -79.752208
9.053                0.986744217     -79.8767776
9.054                0.986712392     -80.0016582
9.055                0.986680474     -80.1268506
9.056                0.986648462     -80.2523556
9.057                0.986616357     -80.3781742
9.058                0.986584158     -80.5043073
9.059                0.986551865     -80.6307558
9.06                 0.986519479     -80.7575206
9.061                0.986486998     -80.8846026
9.062                0.986454424     -81.0120028
9.063                0.986421755      -81.139722
9.064                0.986388991     -81.2677611
9.065                0.986356133     -81.3961211
9.066                 0.98632318     -81.5248028
9.067                0.986290133     -81.6538073
9.068                 0.98625699     -81.7831354
9.069                0.986223752      -81.912788
9.07                 0.986190419     -82.0427661
9.071                 0.98615699     -82.1730705
9.072                0.986123466     -82.3037023
9.073                0.986089847     -82.4346623
9.074                0.986056131     -82.5659515
9.075                 0.98602232     -82.6975708
9.076                0.985988413     -82.8295211
9.077                0.985954409     -82.9618034
9.078                 0.98592031     -83.0944186
9.079                0.985886114     -83.2273676
9.08                 0.985851821     -83.3606513
9.081                0.985817432     -83.4942708
9.082                0.985782947     -83.6282269
9.083                0.985748365     -83.7625206
9.084                0.985713685     -83.8971528
9.085                0.985678909     -84.0321245
9.086                0.985644036     -84.1674366
9.087                0.985609066       -84.30309
9.088                0.985573998     -84.4390858
9.089                0.985538834     -84.5754248
9.09                 0.985503571      -84.712108
9.091                0.985468212     -84.8491363
9.092                0.985432754     -84.9865107
9.093                  0.9853972     -85.1242322
9.094                0.985361547     -85.2623017
9.095                0.985325797     -85.4007202
9.096                0.985289949     -85.5394885
9.097                0.985254002     -85.6786077
9.098                0.985217958     -85.8180787
9.099                0.985181816     -85.9579025
9.1                  0.985145576     -86.0980801
9.101                0.985109238     -86.2386123
9.102                0.985072801     -86.3795002
9.103                0.985036266     -86.5207447
9.104                0.984999633     -86.6623467
9.105                0.984962902     -86.8043073
9.106                0.984926072     -86.9466274
9.107                0.984889144     -87.0893079
9.108                0.984852117     -87.2323499
9.109                0.984814992     -87.3757542
9.11                 0.984777768     -87.5195219
9.111                0.984740446     -87.6636539
9.112                0.984703026     -87.8081512
9.113                0.984665506     -87.9530147
9.114                0.984627889     -88.0982454
9.115                0.984590172     -88.2438443
9.116                0.984552357     -88.3898124
9.117                0.984514444     -88.5361505
9.118                0.984476431     -88.6828598
9.119                0.984438321      -88.829941
9.12                 0.984400111     -88.9773953
9.121                0.984361803     -89.1252236
9.122                0.984323397     -89.2734268
9.123                0.984284892     -89.4220059
9.124                0.984246289     -89.5709619
9.125                0.984207587     -89.7202958
9.126                0.984168786     -89.8700085
9.127                0.984129888      -90.020101
9.128                 0.98409089     -90.1705742
9.129                0.984051795     -90.3214292
9.13                 0.984012601     -90.4726668
9.131                 0.98397331     -90.6242881
9.132                0.983933919      -90.776294
9.133                0.983894431     -90.9286856
9.134                0.983854845     -91.0814637
9.135                0.983815161     -91.2346293
9.136                0.983775379     -91.3881834
9.137                0.983735499     -91.5421269
9.138                0.983695522     -91.6964609
9.139                0.983655447     -91.8511863
9.14                 0.983615274      -92.006304
9.141                0.983575004     -92.1618151
9.142                0.983534637     -92.3177204
9.143                0.983494172     -92.4740209
9.144                0.983453611     -92.6307176
9.145                0.983412952     -92.7878115
9.146                0.983372197     -92.9453036
9.147                0.983331345     -93.1031946
9.148                0.983290396     -93.2614858
9.149                0.983249351     -93.4201779
9.15                 0.983208209     -93.5792719
9.151                0.983166972     -93.7387688
9.152                0.983125638     -93.8986696
9.153                0.983084209     -94.0589752
9.154                0.983042684     -94.2196865
9.155                0.983001064     -94.3808045
9.156                0.982959348     -94.5423302
9.157                0.982917537     -94.7042645
9.158                0.982875631     -94.8666083
9.159                0.982833631     -95.0293625
9.16                 0.982791536     -95.1925282
9.161                0.982749346     -95.3561062
9.162                0.982707063     -95.5200976
9.163                0.982664685     -95.6845031
9.164                0.982622215     -95.8493238
9.165                 0.98257965     -96.0145606
9.166                0.982536993     -96.1802145
9.167                0.982494242     -96.3462862
9.168                0.982451399     -96.5127769
9.169                0.982408464     -96.6796874
9.17                 0.982365436     -96.8470185
9.171                0.982322316     -97.0147714
9.172                0.982279105     -97.1829467
9.173                0.982235803     -97.3515456
9.174                 0.98219241     -97.5205688
9.175                0.982148926     -97.6900173
9.176                0.982105351      -97.859892
9.177                0.982061686     -98.0301938
9.178                0.982017932     -98.2009236
9.179                0.981974088     -98.3720823
9.18                 0.981930155     -98.5436708
9.181                0.981886134       -98.71569
9.182                0.981842024     -98.8881408
9.183                0.981797826      -99.061024
9.184                 0.98175354     -99.2343405
9.185                0.981709167     -99.4080913
9.186                0.981664707     -99.5822772
9.187                0.981620161      -99.756899
9.188                0.981575528     -99.9319577
9.189                 0.98153081     -100.107454
9.19                 0.981486006     -100.283389
9.191                0.981441117     -100.459763
9.192                0.981396144     -100.636578
9.193                0.981351087     -100.813834
9.194                0.981305947     -100.991532
9.195                0.981260723     -101.169672
9.196                0.981215416     -101.348256
9.197                0.981170028     -101.527285
9.198                0.981124557     -101.706759
9.199                0.981079006     -101.886679
9.2                  0.981033373     -102.067046
9.201                0.980987661     -102.247861
9.202                0.980941868     -102.429125
9.203                0.980895997     -102.610838
9.204                0.980850047     -102.793001
9.205                0.980804018     -102.975615
9.206                0.980757912     -103.158681
9.207                 0.98071173     -103.342199
9.208                 0.98066547     -103.526171
9.209                0.980619135     -103.710597
9.21                 0.980572724     -103.895478
9.211                0.980526239     -104.080815
9.212                 0.98047968     -104.266608
9.213                0.980433047     -104.452858
9.214                0.980386341     -104.639566
9.215                0.980339563     -104.826733
9.216                0.980292714     -105.014359
9.217                0.980245793     -105.202445
9.218                0.980198803     -105.390992
9.219                0.980151742     -105.580001
9.22                 0.980104613     -105.769472
9.221                0.980057416     -105.959406
9.222                0.980010151     -106.149804
9.223                0.979962819     -106.340666
9.224                0.979915421     -106.531994
9.225                0.979867958     -106.723787
9.226                 0.97982043     -106.916046
9.227                0.979772838     -107.108773
9.228                0.979725184     -107.301967
9.229                0.979677467      -107.49563
9.23                 0.979629688     -107.689762
9.231                0.979581849     -107.884364
9.232                 0.97953395     -108.079435
9.233                0.979485991     -108.274978
9.234                0.979437975     -108.470993
9.235                0.979389901     -108.667479
9.236                 0.97934177     -108.864439
9.237                0.979293584     -109.061871
9.238                0.979245343     -109.259778
9.239                0.979197048     -109.458159
9.24                 0.979148699     -109.657016
9.241                0.979100299     -109.856347
9.242                0.979051847     -110.056156
9.243                0.979003345      -110.25644
9.244                0.978954794     -110.457202
9.245                0.978906194     -110.658442
9.246                0.978857547      -110.86016
9.247                0.978808854     -111.062357
9.248                0.978760114     -111.265034
9.249                0.978711331     -111.468189
9.25                 0.978662504     -111.671826
9.251                0.978613634     -111.875943
9.252                0.978564723     -112.080541
9.253                0.978515771      -112.28562
9.254                0.978466781     -112.491182
9.255                0.978417752     -112.697226
9.256                0.978368686     -112.903754
9.257                0.978319583     -113.110764
9.258                0.978270446     -113.318258
9.259                0.978221275     -113.526236
9.26                 0.978172071     -113.734699
9.261                0.978122836     -113.943646
9.262                 0.97807357     -114.153079
9.263                0.978024275     -114.362997
9.264                0.977974952     -114.573401
9.265                0.977925602     -114.784291
9.266                0.977876226     -114.995668
9.267                0.977826826     -115.207531
9.268                0.977777402     -115.419881
9.269                0.977727957     -115.632719
9.27                 0.977678491     -115.846044
9.271                0.977629005     -116.059857
9.272                0.977579501     -116.274158
9.273                0.977529981     -116.488948
9.274                0.977480444     -116.704226
9.275                0.977430894     -116.919992
9.276                 0.97738133     -117.136247
9.277                0.977331755     -117.352992
9.278                 0.97728217     -117.570225
9.279                0.977232576     -117.787948
9.28                 0.977182974     -118.006161
9.281                0.977133366     -118.224863
9.282                0.977083754     -118.444054
9.283                0.977034138     -118.663736
9.284                 0.97698452     -118.883907
9.285                0.976934902     -119.104568
9.286                0.976885285      -119.32572
9.287                0.976835671     -119.547361
9.288                0.976786061     -119.769492
9.289                0.976736456     -119.992114
9.29                 0.976686858     -120.215225
9.291                0.976637268     -120.438826
9.292                0.976587689     -120.662918
9.293                0.976538122     -120.887499
9.294                0.976488567      -121.11257
9.295                0.976439028     -121.338131
9.296                0.976389504     -121.564182
9.297                0.976339999     -121.790722
9.298                0.976290513     -122.017752
9.299                0.976241049     -122.245271
9.3                  0.976191607     -122.473279
9.301                0.976142189     -122.701777
9.302                0.976092798     -122.930762
9.303                0.976043435     -123.160237
9.304                0.975994101       -123.3902
9.305                0.975944798     -123.620651
9.306                0.975895528      -123.85159
9.307                0.975846293     -124.083016
9.308                0.975797094      -124.31493
9.309                0.975747934      -124.54733
9.31                 0.975698813     -124.780218
9.311                0.975649734     -125.013591
9.312                0.975600698     -125.247451
9.313                0.975551707     -125.481796
9.314                0.975502764     -125.716627
9.315                0.975453869     -125.951942
9.316                0.975405025     -126.187741
9.317                0.975356234     -126.424025
9.318                0.975307497     -126.660791
9.319                0.975258816     -126.898041
9.32                 0.975210193     -127.135774
9.321                0.975161631     -127.373988
9.322                 0.97511313     -127.612683
9.323                0.975064693      -127.85186
9.324                0.975016322     -128.091516
9.325                0.974968018     -128.331653
9.326                0.974919785     -128.572268
9.327                0.974871623     -128.813362
9.328                0.974823534     -129.054933
9.329                0.974775521     -129.296982
9.33                 0.974727586     -129.539507
9.331                 0.97467973     -129.782508
9.332                0.974631955     -130.025983
9.333                0.974584265     -130.269933
9.334                0.974536659     -130.514357
9.335                0.974489142     -130.759253
9.336                0.974441714      -131.00462
9.337                0.974394378     -131.250459
9.338                0.974347136     -131.496768
9.339                 0.97429999     -131.743546
9.34                 0.974252942     -131.990793
9.341                0.974205994     -132.238507
9.342                0.974159148     -132.486688
9.343                0.974112407     -132.735334
9.344                0.974065772     -132.984445
9.345                0.974019245     -133.234019
9.346                 0.97397283     -133.484056
9.347                0.973926527     -133.734555
9.348                0.973880339     -133.985514
9.349                0.973834269     -134.236933
9.35                 0.973788318      -134.48881
9.351                0.973742489     -134.741144
9.352                0.973696783     -134.993934
9.353                0.973651204     -135.247179
9.354                0.973605753     -135.500878
9.355                0.973560432     -135.755029
9.356                0.973515243     -136.009631
9.357                 0.97347019     -136.264684
9.358                0.973425274     -136.520185
9.359                0.973380497     -136.776134
9.36                 0.973335862     -137.032528
9.361                0.973291371     -137.289368
9.362                0.973247025     -137.546651
9.363                0.973202828     -137.804375
9.364                0.973158782     -138.062541
9.365                0.973114889     -138.321145
9.366                0.973071151     -138.580188
9.367                 0.97302757     -138.839666
9.368                 0.97298415      -139.09958
9.369                0.972940891     -139.359926
9.37                 0.972897797     -139.620704
9.371                0.972854869     -139.881912
9.372                 0.97281211     -140.143549
9.373                0.972769523     -140.405613
9.374                0.972727109     -140.668101
9.375                0.972684872     -140.931014
9.376                0.972642812     -141.194348
9.377                0.972600933     -141.458103
9.378                0.972559237     -141.722276
9.379                0.972517726     -141.986865
9.38                 0.972476403      -142.25187
9.381                0.972435269     -142.517288
9.382                0.972394328     -142.783117
9.383                0.972353581     -143.049355
9.384                0.972313031     -143.316001
9.385                 0.97227268     -143.583053
9.386                0.972232531     -143.850508
9.387                0.972192585     -144.118366
9.388                0.972152846     -144.386623
9.389                0.972113315     -144.655278
9.39                 0.972073995     -144.924329
9.391                0.972034888     -145.193774
9.392                0.971995997     -145.463611
9.393                0.971957323     -145.733837
9.394                 0.97191887     -146.004451
9.395                0.971880639     -146.275451
9.396                0.971842632     -146.546834
