! TOUCHSTONE file generated by CST DESIGN STUDIO
! Date and time: Tue Feb  4 12:28:46 2025
! Project name: C:\Work\MatlabApps\UnitCellOptimizationMatlab\CST\unitcell.cst
! Tree item: Tasks\Sweep1\SPara1\S-Parameters
! Header version: 2024
! Port assignment regex: !\s*Touchstone port\s*([0-9]+)\s*=\s*(CST MWS port|CST DES external port|CST DES block port)\s*(.+)\s* \(\"(.*)\"\)(\s*mode\s*([0-9]+))?.*
! Touchstone port assignment:
! Touchstone port 1 = CST DES external port 1 ("")
# GHz S MA R 50
9                    0.988808149     -71.5149778
9.001                0.988782988     -71.6198238
9.002                0.988757751     -71.7249229
9.003                0.988732437     -71.8302758
9.004                0.988707045     -71.9358833
9.005                0.988681576     -72.0417461
9.006                 0.98865603     -72.1478651
9.007                0.988630406      -72.254241
9.008                0.988604704     -72.3608746
9.009                0.988578924     -72.4677666
9.01                 0.988553066     -72.5749179
9.011                0.988527129     -72.6823293
9.012                0.988501113     -72.7900014
9.013                0.988475019     -72.8979352
9.014                0.988448846     -73.0061313
9.015                0.988422593     -73.1145907
9.016                0.988396261      -73.223314
9.017                0.988369849     -73.3323021
9.018                0.988343358     -73.4415557
9.019                0.988316786     -73.5510757
9.02                 0.988290134      -73.660863
9.021                0.988263402     -73.7709181
9.022                0.988236589     -73.8812421
9.023                0.988209695     -73.9918357
9.024                0.988182721     -74.1026997
9.025                0.988155665     -74.2138349
9.026                0.988128528     -74.3252421
9.027                0.988101309     -74.4369222
9.028                0.988074009     -74.5488759
9.029                0.988046626     -74.6611041
9.03                 0.988019162     -74.7736077
9.031                0.987991615     -74.8863874
9.032                0.987963985      -74.999444
9.033                0.987936273     -75.1127784
9.034                0.987908479     -75.2263915
9.035                0.987880601      -75.340284
9.036                0.987852639     -75.4544568
9.037                0.987824595     -75.5689108
9.038                0.987796467     -75.6836467
9.039                0.987768255     -75.7986654
9.04                 0.987739959     -75.9139678
9.041                0.987711579     -76.0295547
9.042                0.987683114     -76.1454269
9.043                0.987654565     -76.2615853
9.044                0.987625932     -76.3780308
9.045                0.987597213     -76.4947642
9.046                 0.98756841     -76.6117863
9.047                0.987539521      -76.729098
9.048                0.987510547     -76.8467003
9.049                0.987481487     -76.9645938
9.05                 0.987452342     -77.0827796
9.051                 0.98742311     -77.2012584
9.052                0.987393793     -77.3200311
9.053                0.987364389     -77.4390986
9.054                0.987334899     -77.5584619
9.055                0.987305322     -77.6781216
9.056                0.987275659     -77.7980788
9.057                0.987245908     -77.9183342
9.058                0.987216071     -78.0388889
9.059                0.987186146     -78.1597436
9.06                 0.987156134     -78.2808992
9.061                0.987126034     -78.4023566
9.062                0.987095846     -78.5241168
9.063                0.987065571     -78.6461805
9.064                0.987035207     -78.7685487
9.065                0.987004755     -78.8912223
9.066                0.986974215     -79.0142022
9.067                0.986943586     -79.1374892
9.068                0.986912869     -79.2610843
9.069                0.986882062     -79.3849884
9.07                 0.986851167     -79.5092023
9.071                0.986820183     -79.6337269
9.072                0.986789109     -79.7585632
9.073                0.986757946     -79.8837121
9.074                0.986726693     -80.0091745
9.075                 0.98669535     -80.1349513
9.076                0.986663917     -80.2610433
9.077                0.986632395     -80.3874516
9.078                0.986600782      -80.514177
9.079                0.986569079     -80.6412204
9.08                 0.986537286     -80.7685828
9.081                0.986505402     -80.8962651
9.082                0.986473427     -81.0242682
9.083                0.986441361     -81.1525929
9.084                0.986409204     -81.2812404
9.085                0.986376957     -81.4102114
9.086                0.986344618     -81.5395068
9.087                0.986312187     -81.6691277
9.088                0.986279665      -81.799075
9.089                0.986247052     -81.9293496
9.09                 0.986214346     -82.0599523
9.091                0.986181549     -82.1908842
9.092                 0.98614866     -82.3221462
9.093                0.986115679     -82.4537393
9.094                0.986082606     -82.5856643
9.095                 0.98604944     -82.7179222
9.096                0.986016182     -82.8505139
9.097                0.985982831     -82.9834404
9.098                0.985949388     -83.1167027
9.099                0.985915852     -83.2503016
9.1                  0.985882223     -83.3842382
9.101                0.985848501     -83.5185133
9.102                0.985814686      -83.653128
9.103                0.985780778     -83.7880831
9.104                0.985746777     -83.9233796
9.105                0.985712683     -84.0590186
9.106                0.985678495     -84.1950008
9.107                0.985644213     -84.3313273
9.108                0.985609838     -84.4679991
9.109                 0.98557537     -84.6050171
9.11                 0.985540808     -84.7423822
9.111                0.985506152     -84.8800955
9.112                0.985471402     -85.0181578
9.113                0.985436558     -85.1565702
9.114                 0.98540162     -85.2953335
9.115                0.985366588     -85.4344489
9.116                0.985331462     -85.5739171
9.117                0.985296242     -85.7137393
9.118                0.985260928     -85.8539163
9.119                0.985225519     -85.9944491
9.12                 0.985190016     -86.1353388
9.121                0.985154419     -86.2765862
9.122                0.985118727     -86.4181923
9.123                0.985082941     -86.5601581
9.124                 0.98504706     -86.7024846
9.125                0.985011085     -86.8451728
9.126                0.984975015     -86.9882235
9.127                0.984938851     -87.1316379
9.128                0.984902592     -87.2754168
9.129                0.984866238     -87.4195613
9.13                  0.98482979     -87.5640722
9.131                0.984793247     -87.7089507
9.132                 0.98475661     -87.8541976
9.133                0.984719877      -87.999814
9.134                 0.98468305     -88.1458007
9.135                0.984646129     -88.2921589
9.136                0.984609113     -88.4388894
9.137                0.984572002     -88.5859932
9.138                0.984534796     -88.7334714
9.139                0.984497496     -88.8813249
9.14                 0.984460101     -89.0295546
9.141                0.984422611     -89.1781616
9.142                0.984385027     -89.3271469
9.143                0.984347349     -89.4765113
9.144                0.984309576     -89.6262559
9.145                0.984271708     -89.7763817
9.146                0.984233746     -89.9268896
9.147                0.984195689     -90.0777807
9.148                0.984157539     -90.2290558
9.149                0.984119294     -90.3807161
9.15                 0.984080954     -90.5327623
9.151                0.984042521     -90.6851956
9.152                0.984003994     -90.8380169
9.153                0.983965372     -90.9912272
9.154                0.983926657     -91.1448275
9.155                0.983887847     -91.2988186
9.156                0.983848944     -91.4532017
9.157                0.983809947     -91.6079777
9.158                0.983770857     -91.7631475
9.159                0.983731673     -91.9187122
9.16                 0.983692396     -92.0746726
9.161                0.983653026     -92.2310299
9.162                0.983613562     -92.3877848
9.163                0.983574005     -92.5449385
9.164                0.983534356     -92.7024919
9.165                0.983494613     -92.8604459
9.166                0.983454779     -93.0188016
9.167                0.983414851     -93.1775598
9.168                0.983374831     -93.3367216
9.169                0.983334719     -93.4962879
9.17                 0.983294515     -93.6562597
9.171                0.983254219      -93.816638
9.172                0.983213831     -93.9774236
9.173                0.983173352     -94.1386176
9.174                0.983132782     -94.3002209
9.175                 0.98309212     -94.4622345
9.176                0.983051367     -94.6246594
9.177                0.983010523     -94.7874964
9.178                0.982969589     -94.9507466
9.179                0.982928565     -95.1144108
9.18                  0.98288745     -95.2784901
9.181                0.982846245     -95.4429854
9.182                0.982804951     -95.6078976
9.183                0.982763567     -95.7732277
9.184                0.982722094     -95.9389766
9.185                0.982680532     -96.1051453
9.186                0.982638881     -96.2717346
9.187                0.982597142     -96.4387456
9.188                0.982555314     -96.6061791
9.189                0.982513398     -96.7740362
9.19                 0.982471395     -96.9423176
9.191                0.982429304     -97.1110244
9.192                0.982387126     -97.2801574
9.193                0.982344862     -97.4497177
9.194                0.982302511      -97.619706
9.195                0.982260073     -97.7901234
9.196                 0.98221755     -97.9609707
9.197                0.982174941     -98.1322488
9.198                0.982132247     -98.3039587
9.199                0.982089468     -98.4761013
9.2                  0.982046605     -98.6486774
9.201                0.982003657     -98.8216879
9.202                0.981960626     -98.9951338
9.203                0.981917511     -99.1690159
9.204                0.981874313     -99.3433352
9.205                0.981831032     -99.5180925
9.206                0.981787669     -99.6932887
9.207                0.981744224     -99.8689246
9.208                0.981700698     -100.045001
9.209                 0.98165709     -100.221519
9.21                 0.981613402      -100.39848
9.211                0.981569634     -100.575883
9.212                0.981525786     -100.753731
9.213                0.981481858     -100.932024
9.214                0.981437852     -101.110763
9.215                0.981393767     -101.289948
9.216                0.981349605     -101.469581
9.217                0.981305364     -101.649662
9.218                0.981261047     -101.830192
9.219                0.981216654     -102.011172
9.22                 0.981172184     -102.192603
9.221                0.981127639     -102.374486
9.222                0.981083019     -102.556821
9.223                0.981038324      -102.73961
9.224                0.980993556     -102.922852
9.225                0.980948714     -103.106549
9.226                  0.9809038     -103.290703
9.227                0.980858814     -103.475312
9.228                0.980813755     -103.660379
9.229                0.980768626     -103.845903
9.23                 0.980723427     -104.031887
9.231                0.980678157      -104.21833
9.232                0.980632819     -104.405233
9.233                0.980587411     -104.592598
9.234                0.980541936     -104.780424
9.235                0.980496394     -104.968713
9.236                0.980450785     -105.157465
9.237                 0.98040511     -105.346681
9.238                0.980359369     -105.536362
9.239                0.980313564     -105.726509
9.24                 0.980267695     -105.917122
9.241                0.980221763     -106.108201
9.242                0.980175768     -106.299748
9.243                0.980129712     -106.491764
9.244                0.980083594     -106.684248
9.245                0.980037416     -106.877202
9.246                0.979991179     -107.070627
9.247                0.979944882     -107.264522
9.248                0.979898528     -107.458889
9.249                0.979852116     -107.653728
9.25                 0.979805648     -107.849041
9.251                0.979759124     -108.044827
9.252                0.979712546     -108.241087
9.253                0.979665913     -108.437822
9.254                0.979619227     -108.635032
9.255                0.979572489     -108.832718
9.256                  0.9795257     -109.030881
9.257                0.979478859     -109.229522
9.258                0.979431969      -109.42864
9.259                0.979385031     -109.628236
9.26                 0.979338044     -109.828311
9.261                 0.97929101     -110.028866
9.262                0.979243931     -110.229901
9.263                0.979196806     -110.431416
9.264                0.979149637     -110.633413
9.265                0.979102425     -110.835891
9.266                 0.97905517     -111.038851
9.267                0.979007874     -111.242294
9.268                0.978960538      -111.44622
9.269                0.978913163     -111.650629
9.27                 0.978865749     -111.855522
9.271                0.978818298       -112.0609
9.272                0.978770811     -112.266763
9.273                0.978723289     -112.473112
9.274                0.978675733     -112.679946
9.275                0.978628144     -112.887266
9.276                0.978580522     -113.095073
9.277                0.978532871     -113.303367
9.278                0.978485189     -113.512148
9.279                0.978437479     -113.721417
9.28                 0.978389741     -113.931175
9.281                0.978341977     -114.141421
9.282                0.978294188     -114.352155
9.283                0.978246375     -114.563379
9.284                0.978198539     -114.775092
9.285                0.978150682     -114.987295
9.286                0.978102804     -115.199989
9.287                0.978054908     -115.413172
9.288                0.978006993     -115.626847
9.289                0.977959062     -115.841012
9.29                 0.977911115     -116.055668
9.291                0.977863154     -116.270816
9.292                 0.97781518     -116.486455
9.293                0.977767195     -116.702586
9.294                  0.9777192     -116.919209
9.295                0.977671195     -117.136325
9.296                0.977623183     -117.353932
9.297                0.977575165     -117.572033
9.298                0.977527142     -117.790625
9.299                0.977479115     -118.009711
9.3                  0.977431087      -118.22929
9.301                0.977383057     -118.449361
9.302                0.977335029     -118.669926
9.303                0.977287002     -118.890984
9.304                0.977238979     -119.112535
9.305                0.977190961      -119.33458
9.306                0.977142949     -119.557117
9.307                0.977094945     -119.780148
9.308                0.977046951     -120.003673
9.309                0.976998967     -120.227691
9.31                 0.976950996     -120.452202
9.311                0.976903039     -120.677206
9.312                0.976855098     -120.902703
9.313                0.976807173     -121.128694
9.314                0.976759267     -121.355178
9.315                0.976711381     -121.582154
9.316                0.976663517     -121.809624
9.317                0.976615676     -122.037586
9.318                 0.97656786     -122.266041
9.319                 0.97652007     -122.494988
9.32                 0.976472309     -122.724427
9.321                0.976424578     -122.954358
9.322                0.976376878     -123.184781
9.323                0.976329211     -123.415696
9.324                0.976281579     -123.647101
9.325                0.976233983     -123.878998
9.326                0.976186426     -124.111386
9.327                0.976138909     -124.344264
9.328                0.976091433     -124.577632
9.329                0.976044001      -124.81149
9.33                 0.975996614     -125.045837
9.331                0.975949274     -125.280674
9.332                0.975901983     -125.515999
9.333                0.975854742     -125.751812
9.334                0.975807554     -125.988114
9.335                0.975760419     -126.224902
9.336                0.975713341     -126.462178
9.337                 0.97566632      -126.69994
9.338                0.975619359     -126.938188
9.339                0.975572459     -127.176922
9.34                 0.975525623      -127.41614
9.341                0.975478852     -127.655843
9.342                0.975432148      -127.89603
9.343                0.975385514     -128.136699
9.344                 0.97533895     -128.377852
9.345                0.975292459     -128.619486
9.346                0.975246042     -128.861602
9.347                0.975199703     -129.104199
9.348                0.975153442     -129.347275
9.349                0.975107262     -129.590831
9.35                 0.975061164     -129.834865
9.351                0.975015152     -130.079377
9.352                0.974969225     -130.324366
9.353                0.974923388     -130.569831
9.354                0.974877641     -130.815772
9.355                0.974831986     -131.062187
9.356                0.974786427     -131.309076
9.357                0.974740964     -131.556438
9.358                  0.9746956     -131.804272
9.359                0.974650337     -132.052577
9.36                 0.974605176     -132.301353
9.361                0.974560121     -132.550597
9.362                0.974515173     -132.800309
9.363                0.974470334     -133.050489
9.364                0.974425606     -133.301135
9.365                0.974380992     -133.552246
9.366                0.974336493     -133.803822
9.367                0.974292112      -134.05586
9.368                 0.97424785      -134.30836
9.369                0.974203711     -134.561321
9.37                 0.974159696     -134.814742
9.371                0.974115807     -135.068621
9.372                0.974072046     -135.322958
9.373                0.974028416      -135.57775
9.374                0.973984919     -135.832997
9.375                0.973941557     -136.088698
9.376                0.973898332     -136.344852
9.377                0.973855246     -136.601456
9.378                0.973812302      -136.85851
9.379                0.973769501     -137.116012
9.38                 0.973726847     -137.373962
9.381                0.973684341     -137.632356
9.382                0.973641985     -137.891195
9.383                0.973599782     -138.150477
9.384                0.973557734       -138.4102
9.385                0.973515843     -138.670363
9.386                0.973474111     -138.930964
9.387                0.973432541     -139.192002
9.388                0.973391135     -139.453475
9.389                0.973349895     -139.715381
9.39                 0.973308823      -139.97772
9.391                0.973267922     -140.240489
9.392                0.973227194     -140.503686
9.393                0.973186641     -140.767311
9.394                0.973146266     -141.031361
9.395                 0.97310607     -141.295835
9.396                0.973066057     -141.560731
