! TOUCHSTONE file generated by CST DESIGN STUDIO
! Date and time: Tue Feb  4 12:28:36 2025
! Project name: C:\Work\MatlabApps\UnitCellOptimizationMatlab\CST\unitcell.cst
! Tree item: Tasks\Sweep1\SPara1\S-Parameters
! Header version: 2024
! Port assignment regex: !\s*Touchstone port\s*([0-9]+)\s*=\s*(CST MWS port|CST DES external port|CST DES block port)\s*(.+)\s* \(\"(.*)\"\)(\s*mode\s*([0-9]+))?.*
! Touchstone port assignment:
! Touchstone port 1 = CST DES external port 1 ("")
# GHz S MA R 50
9                    0.986989745     -79.0375422
9.001                0.986957524     -79.1595012
9.002                0.986925206     -79.2817625
9.003                0.986892789     -79.4043269
9.004                0.986860273     -79.5271953
9.005                 0.98682766     -79.6503685
9.006                0.986794947     -79.7738474
9.007                0.986762135      -79.897633
9.008                0.986729224      -80.021726
9.009                0.986696214     -80.1461275
9.01                 0.986663105     -80.2708382
9.011                0.986629895     -80.3958591
9.012                0.986596586     -80.5211911
9.013                0.986563177      -80.646835
9.014                0.986529667     -80.7727917
9.015                0.986496057     -80.8990622
9.016                0.986462347     -81.0256473
9.017                0.986428536      -81.152548
9.018                0.986394624      -81.279765
9.019                 0.98636061     -81.4072994
9.02                 0.986326496      -81.535152
9.021                 0.98629228     -81.6633238
9.022                0.986257963     -81.7918156
9.023                0.986223544     -81.9206284
9.024                0.986189023      -82.049763
9.025                  0.9861544     -82.1792204
9.026                0.986119675     -82.3090015
9.027                0.986084847     -82.4391071
9.028                0.986049917     -82.5695383
9.029                0.986014884     -82.7002959
9.03                 0.985979749     -82.8313809
9.031                0.985944511     -82.9627941
9.032                0.985909169     -83.0945364
9.033                0.985873725     -83.2266089
9.034                0.985838177     -83.3590124
9.035                0.985802525     -83.4917479
9.036                 0.98576677     -83.6248162
9.037                0.985730911     -83.7582183
9.038                0.985694948     -83.8919552
9.039                0.985658881     -84.0260277
9.04                  0.98562271     -84.1604368
9.041                0.985586435     -84.2951834
9.042                0.985550055     -84.4302684
9.043                0.985513571     -84.5656928
9.044                0.985476983     -84.7014576
9.045                0.985440289     -84.8375635
9.046                0.985403491     -84.9740117
9.047                0.985366587      -85.110803
9.048                0.985329579     -85.2479383
9.049                0.985292465     -85.3854186
9.05                 0.985255247     -85.5232449
9.051                0.985217922     -85.6614181
9.052                0.985180493      -85.799939
9.053                0.985142957     -85.9388088
9.054                0.985105317     -86.0780282
9.055                 0.98506757     -86.2175983
9.056                0.985029717       -86.35752
9.057                0.984991759     -86.4977942
9.058                0.984953695     -86.6384219
9.059                0.984915524      -86.779404
9.06                 0.984877248     -86.9207415
9.061                0.984838865     -87.0624354
9.062                0.984800376     -87.2044865
9.063                 0.98476178     -87.3468959
9.064                0.984723079     -87.4896644
9.065                0.984684271     -87.6327931
9.066                0.984645356     -87.7762828
9.067                0.984606335     -87.9201346
9.068                0.984567207     -88.0643494
9.069                0.984527972     -88.2089281
9.07                 0.984488631     -88.3538716
9.071                0.984449183     -88.4991811
9.072                0.984409628     -88.6448573
9.073                0.984369967     -88.7909012
9.074                0.984330199     -88.9373139
9.075                0.984290323     -89.0840963
9.076                0.984250341     -89.2312492
9.077                0.984210253     -89.3787737
9.078                0.984170057     -89.5266707
9.079                0.984129754     -89.6749412
9.08                 0.984089345     -89.8235861
9.081                0.984048829     -89.9726065
9.082                0.984008205     -90.1220031
9.083                0.983967475      -90.271777
9.084                0.983926639     -90.4219292
9.085                0.983885695     -90.5724606
9.086                0.983844644     -90.7233721
9.087                0.983803487     -90.8746648
9.088                0.983762223     -91.0263395
9.089                0.983720852     -91.1783972
9.09                 0.983679375     -91.3308389
9.091                0.983637791     -91.4836655
9.092                  0.9835961      -91.636878
9.093                0.983554303     -91.7904772
9.094                0.983512399     -91.9444643
9.095                0.983470389     -92.0988401
9.096                0.983428273     -92.2536055
9.097                0.983386051     -92.4087616
9.098                0.983343722     -92.5643092
9.099                0.983301287     -92.7202494
9.1                  0.983258746      -92.876583
9.101                0.983216099      -93.033311
9.102                0.983173347     -93.1904343
9.103                0.983130489      -93.347954
9.104                0.983087525     -93.5058709
9.105                0.983044456     -93.6641859
9.106                0.983001281     -93.8229001
9.107                0.982958001     -93.9820143
9.108                0.982914616     -94.1415295
9.109                0.982871126     -94.3014467
9.11                 0.982827532     -94.4617667
9.111                0.982783832     -94.6224905
9.112                0.982740029      -94.783619
9.113                 0.98269612     -94.9451532
9.114                0.982652108      -95.107094
9.115                0.982607992     -95.2694423
9.116                0.982563771      -95.432199
9.117                0.982519447     -95.5953651
9.118                 0.98247502     -95.7589415
9.119                 0.98243049     -95.9229291
9.12                 0.982385856     -96.0873288
9.121                 0.98234112     -96.2521416
9.122                0.982296281     -96.4173683
9.123                0.982251339     -96.5830099
9.124                0.982206296     -96.7490673
9.125                 0.98216115     -96.9155414
9.126                0.982115903     -97.0824331
9.127                0.982070554     -97.2497433
9.128                0.982025104     -97.4174729
9.129                0.981979554     -97.5856227
9.13                 0.981933902     -97.7541938
9.131                 0.98188815      -97.923187
9.132                0.981842299     -98.0926031
9.133                0.981796347     -98.2624432
9.134                0.981750296     -98.4327079
9.135                0.981704146     -98.6033983
9.136                0.981657897     -98.7745153
9.137                0.981611549     -98.9460596
9.138                0.981565103     -99.1180322
9.139                0.981518559     -99.2904339
9.14                 0.981471918     -99.4632657
9.141                 0.98142518     -99.6365283
9.142                0.981378344     -99.8102226
9.143                0.981331413     -99.9843496
9.144                0.981284385      -100.15891
9.145                0.981237261     -100.333905
9.146                0.981190043     -100.509334
9.147                0.981142729       -100.6852
9.148                0.981095321     -100.861503
9.149                0.981047819     -101.038243
9.15                 0.981000223     -101.215422
9.151                0.980952534      -101.39304
9.152                0.980904752     -101.571098
9.153                0.980856878     -101.749597
9.154                0.980808912     -101.928538
9.155                0.980760855     -102.107922
9.156                0.980712707     -102.287749
9.157                0.980664468      -102.46802
9.158                 0.98061614     -102.648736
9.159                0.980567722     -102.829898
9.16                 0.980519215     -103.011506
9.161                 0.98047062     -103.193562
9.162                0.980421937     -103.376066
9.163                0.980373167     -103.559018
9.164                 0.98032431     -103.742421
9.165                0.980275367     -103.926274
9.166                0.980226338     -104.110578
9.167                0.980177224     -104.295334
9.168                0.980128026     -104.480542
9.169                0.980078744     -104.666204
9.17                 0.980029378     -104.852321
9.171                0.979979931     -105.038892
9.172                0.979930401     -105.225919
9.173                0.979880789     -105.413402
9.174                0.979831098     -105.601342
9.175                0.979781326     -105.789739
9.176                0.979731474     -105.978596
9.177                0.979681545     -106.167911
9.178                0.979631537     -106.357686
9.179                0.979581451     -106.547922
9.18                  0.97953129     -106.738619
9.181                0.979481052     -106.929777
9.182                0.979430739     -107.121399
9.183                0.979380352     -107.313483
9.184                0.979329892     -107.506031
9.185                0.979279358     -107.699044
9.186                0.979228753     -107.892521
9.187                0.979178076     -108.086464
9.188                0.979127329     -108.280874
9.189                0.979076512      -108.47575
9.19                 0.979025626     -108.671094
9.191                0.978974672     -108.866906
9.192                0.978923651     -109.063187
9.193                0.978872564     -109.259937
9.194                0.978821412     -109.457157
9.195                0.978770194     -109.654847
9.196                0.978718914     -109.853008
9.197                 0.97866757     -110.051641
9.198                0.978616165     -110.250746
9.199                0.978564698     -110.450323
9.2                  0.978513172     -110.650373
9.201                0.978461587     -110.850897
9.202                0.978409943     -111.051895
9.203                0.978358243     -111.253368
9.204                0.978306486     -111.455315
9.205                0.978254675     -111.657738
9.206                0.978202809     -111.860637
9.207                 0.97815089     -112.064013
9.208                0.978098919     -112.267865
9.209                0.978046897     -112.472195
9.21                 0.977994826     -112.677003
9.211                0.977942705     -112.882288
9.212                0.977890537     -113.088053
9.213                0.977838322     -113.294296
9.214                0.977786061     -113.501018
9.215                0.977733756     -113.708221
9.216                0.977681408     -113.915903
9.217                0.977629018     -114.124066
9.218                0.977576586     -114.332709
9.219                0.977524115     -114.541834
9.22                 0.977471605      -114.75144
9.221                0.977419058     -114.961528
9.222                0.977366475     -115.172098
9.223                0.977313857      -115.38315
9.224                0.977261205     -115.594685
9.225                 0.97720852     -115.806702
9.226                0.977155804     -116.019203
9.227                0.977103059     -116.232187
9.228                0.977050284     -116.445655
9.229                0.976997483     -116.659606
9.23                 0.976944655     -116.874042
9.231                0.976891803     -117.088961
9.232                0.976838927     -117.304365
9.233                 0.97678603     -117.520254
9.234                0.976733112     -117.736627
9.235                0.976680174     -117.953485
9.236                0.976627219     -118.170828
9.237                0.976574247     -118.388656
9.238                0.976521261     -118.606969
9.239                0.976468261     -118.825767
9.24                 0.976415249     -119.045051
9.241                0.976362226      -119.26482
9.242                0.976309194     -119.485075
9.243                0.976256154     -119.705815
9.244                0.976203109      -119.92704
9.245                0.976150058     -120.148751
9.246                0.976097005     -120.370947
9.247                 0.97604395     -120.593629
9.248                0.975990895     -120.816796
9.249                0.975937842     -121.040448
9.25                 0.975884792     -121.264586
9.251                0.975831747     -121.489209
9.252                0.975778708     -121.714317
9.253                0.975725677      -121.93991
9.254                0.975672656     -122.165988
9.255                0.975619647      -122.39255
9.256                 0.97556665     -122.619597
9.257                0.975513668     -122.847129
9.258                0.975460702     -123.075144
9.259                0.975407755     -123.303644
9.26                 0.975354827     -123.532627
9.261                0.975301921     -123.762093
9.262                0.975249038     -123.992043
9.263                 0.97519618     -124.222476
9.264                0.975143349     -124.453392
9.265                0.975090547      -124.68479
9.266                0.975037775      -124.91667
9.267                0.974985035     -125.149031
9.268                 0.97493233     -125.381874
9.269                 0.97487966     -125.615198
9.27                 0.974827028     -125.849003
9.271                0.974774436     -126.083287
9.272                0.974721885     -126.318052
9.273                0.974669378     -126.553295
9.274                0.974616916     -126.789018
9.275                0.974564501     -127.025219
9.276                0.974512135     -127.261898
9.277                0.974459821     -127.499054
9.278                0.974407559     -127.736687
9.279                0.974355353     -127.974796
9.28                 0.974303203     -128.213381
9.281                0.974251113      -128.45244
9.282                0.974199083     -128.691975
9.283                0.974147117     -128.931983
9.284                0.974095215     -129.172465
9.285                0.974043381     -129.413419
9.286                0.973991615     -129.654844
9.287                0.973939921     -129.896741
9.288                  0.9738883     -130.139109
9.289                0.973836754     -130.381946
9.29                 0.973785286     -130.625252
9.291                0.973733897     -130.869026
9.292                 0.97368259     -131.113268
9.293                0.973631367     -131.357976
9.294                 0.97358023      -131.60315
9.295                 0.97352918     -131.848788
9.296                0.973478221     -132.094891
9.297                0.973427354     -132.341456
9.298                0.973376582     -132.588484
9.299                0.973325907     -132.835973
9.3                   0.97327533     -133.083922
9.301                0.973224855     -133.332331
9.302                0.973174483     -133.581197
9.303                0.973124216     -133.830521
9.304                0.973074058     -134.080301
9.305                0.973024009     -134.330536
9.306                0.972974073     -134.581225
9.307                0.972924252     -134.832367
9.308                0.972874547     -135.083961
9.309                0.972824962     -135.336005
9.31                 0.972775498     -135.588499
9.311                0.972726158     -135.841441
9.312                0.972676943      -136.09483
9.313                0.972627858     -136.348665
9.314                0.972578903     -136.602944
9.315                 0.97253008     -136.857667
9.316                0.972481394     -137.112831
9.317                0.972432845     -137.368437
9.318                0.972384436     -137.624481
9.319                0.972336169     -137.880964
9.32                 0.972288047     -138.137883
9.321                0.972240073     -138.395237
9.322                0.972192247     -138.653024
9.323                0.972144574     -138.911244
9.324                0.972097055     -139.169895
9.325                0.972049693     -139.428975
9.326                0.972002489     -139.688483
9.327                0.971955448     -139.948417
9.328                 0.97190857     -140.208775
9.329                0.971861858     -140.469557
9.33                 0.971815315      -140.73076
9.331                0.971768943     -140.992383
9.332                0.971722744     -141.254423
9.333                0.971676722     -141.516881
9.334                0.971630878     -141.779753
9.335                0.971585215     -142.043038
9.336                0.971539735     -142.306734
9.337                 0.97149444      -142.57084
9.338                0.971449334     -142.835353
9.339                0.971404418     -143.100272
9.34                 0.971359696     -143.365596
9.341                0.971315168     -143.631321
9.342                0.971270839     -143.897447
9.343                 0.97122671     -144.163971
9.344                0.971182783     -144.430892
9.345                0.971139062     -144.698207
9.346                0.971095549     -144.965914
9.347                0.971052246     -145.234012
9.348                0.971009155     -145.502499
9.349                0.970966279     -145.771372
9.35                  0.97092362      -146.04063
9.351                0.970881182     -146.310269
9.352                0.970838965     -146.580289
9.353                0.970796974     -146.850687
9.354                 0.97075521     -147.121461
9.355                0.970713675     -147.392608
9.356                0.970672372     -147.664127
9.357                0.970631304     -147.936016
9.358                0.970590472     -148.208271
9.359                 0.97054988     -148.480891
9.36                 0.970509529     -148.753873
9.361                0.970469423     -149.027216
9.362                0.970429563     -149.300916
9.363                0.970389952     -149.574972
9.364                0.970350592     -149.849381
9.365                0.970311486     -150.124141
9.366                0.970272636     -150.399249
9.367                0.970234044     -150.674702
9.368                0.970195713     -150.950499
9.369                0.970157645     -151.226637
9.37                 0.970119843     -151.503113
9.371                0.970082309     -151.779924
9.372                0.970045044     -152.057069
9.373                0.970008053     -152.334545
9.374                0.969971336     -152.612348
9.375                0.969934896     -152.890477
9.376                0.969898735     -153.168929
9.377                0.969862856     -153.447701
9.378                0.969827261      -153.72679
9.379                0.969791953     -154.006194
9.38                 0.969756933      -154.28591
9.381                0.969722203     -154.565935
9.382                0.969687767     -154.846266
9.383                0.969653625     -155.126901
9.384                0.969619782     -155.407837
9.385                0.969586237     -155.689071
9.386                0.969552995       -155.9706
9.387                0.969520056     -156.252421
9.388                0.969487424     -156.534532
9.389                  0.9694551     -156.816929
9.39                 0.969423086      -157.09961
9.391                0.969391384     -157.382571
9.392                0.969359998      -157.66581
9.393                0.969328927     -157.949324
9.394                0.969298176     -158.233109
9.395                0.969267745     -158.517163
9.396                0.969237638     -158.801482
