! TOUCHSTONE file generated by CST DESIGN STUDIO
! Date and time: Tue Feb  4 12:28:42 2025
! Project name: C:\Work\MatlabApps\UnitCellOptimizationMatlab\CST\unitcell.cst
! Tree item: Tasks\Sweep1\SPara1\S-Parameters
! Header version: 2024
! Port assignment regex: !\s*Touchstone port\s*([0-9]+)\s*=\s*(CST MWS port|CST DES external port|CST DES block port)\s*(.+)\s* \(\"(.*)\"\)(\s*mode\s*([0-9]+))?.*
! Touchstone port assignment:
! Touchstone port 1 = CST DES external port 1 ("")
# GHz S MA R 50
9                    0.988042414     -74.7688087
9.001                0.988014341     -74.8808327
9.002                0.987986181     -74.9931303
9.003                0.987957935     -75.1057025
9.004                0.987929603     -75.2185501
9.005                0.987901183     -75.3316738
9.006                0.987872677     -75.4450746
9.007                0.987844083     -75.5587531
9.008                0.987815401     -75.6727103
9.009                0.987786632      -75.786947
9.01                 0.987757775      -75.901464
9.011                 0.98772883     -76.0162621
9.012                0.987699797     -76.1313422
9.013                0.987670675     -76.2467051
9.014                0.987641465     -76.3623516
9.015                0.987612165     -76.4782826
9.016                0.987582777      -76.594499
9.017                  0.9875533     -76.7110015
9.018                0.987523733      -76.827791
9.019                0.987494076     -76.9448684
9.02                  0.98746433     -77.0622345
9.021                0.987434494     -77.1798902
9.022                0.987404568     -77.2978363
9.023                0.987374551     -77.4160736
9.024                0.987344444     -77.5346031
9.025                0.987314246     -77.6534256
9.026                0.987283957     -77.7725419
9.027                0.987253578     -77.8919529
9.028                0.987223107     -78.0116595
9.029                0.987192544     -78.1316626
9.03                  0.98716189     -78.2519629
9.031                0.987131144     -78.3725615
9.032                0.987100307      -78.493459
9.033                0.987069377     -78.6146566
9.034                0.987038355     -78.7361549
9.035                 0.98700724     -78.8579549
9.036                0.986976033     -78.9800574
9.037                0.986944733     -79.1024634
9.038                 0.98691334     -79.2251737
9.039                0.986881854     -79.3481892
9.04                 0.986850275     -79.4715108
9.041                0.986818602     -79.5951394
9.042                0.986786835     -79.7190759
9.043                0.986754975     -79.8433211
9.044                0.986723021      -79.967876
9.045                0.986690972     -80.0927414
9.046                 0.98665883     -80.2179183
9.047                0.986626593     -80.3434075
9.048                0.986594261     -80.4692099
9.049                0.986561835     -80.5953265
9.05                 0.986529314     -80.7217581
9.051                0.986496697     -80.8485057
9.052                0.986463986     -80.9755702
9.053                0.986431179     -81.1029524
9.054                0.986398277     -81.2306533
9.055                0.986365279     -81.3586737
9.056                0.986332185     -81.4870147
9.057                0.986298996     -81.6156771
9.058                 0.98626571     -81.7446618
9.059                0.986232328     -81.8739697
9.06                  0.98619885     -82.0036018
9.061                0.986165276      -82.133559
9.062                0.986131604     -82.2638422
9.063                0.986097837     -82.3944523
9.064                0.986063972     -82.5253903
9.065                 0.98603001      -82.656657
9.066                0.985995951     -82.7882535
9.067                0.985961795     -82.9201805
9.068                0.985927542     -83.0524392
9.069                0.985893191     -83.1850303
9.07                 0.985858743     -83.3179548
9.071                0.985824197     -83.4512137
9.072                0.985789553     -83.5848079
9.073                0.985754811     -83.7187383
9.074                0.985719971     -83.8530059
9.075                0.985685033     -83.9876116
9.076                0.985649997     -84.1225563
9.077                0.985614863      -84.257841
9.078                 0.98557963     -84.3934666
9.079                0.985544299     -84.5294341
9.08                 0.985508869     -84.6657444
9.081                 0.98547334     -84.8023984
9.082                0.985437712     -84.9393972
9.083                0.985401986     -85.0767415
9.084                0.985366161     -85.2144325
9.085                0.985330236     -85.3524711
9.086                0.985294213     -85.4908581
9.087                 0.98525809     -85.6295945
9.088                0.985221868     -85.7686814
9.089                0.985185547     -85.9081196
9.09                 0.985149127     -86.0479101
9.091                0.985112606     -86.1880539
9.092                0.985075987     -86.3285519
9.093                0.985039268      -86.469405
9.094                0.985002449     -86.6106143
9.095                 0.98496553     -86.7521806
9.096                0.984928512      -86.894105
9.097                0.984891394     -87.0363884
9.098                0.984854176     -87.1790317
9.099                0.984816858     -87.3220359
9.1                  0.984779441     -87.4654021
9.101                0.984741923      -87.609131
9.102                0.984704306     -87.7532238
9.103                0.984666588     -87.8976813
9.104                0.984628771     -88.0425045
9.105                0.984590853     -88.1876944
9.106                0.984552836     -88.3332519
9.107                0.984514718     -88.4791781
9.108                0.984476501     -88.6254738
9.109                0.984438183     -88.7721401
9.11                 0.984399765     -88.9191778
9.111                0.984361247     -89.0665881
9.112                0.984322629     -89.2143717
9.113                0.984283911     -89.3625298
9.114                0.984245093     -89.5110631
9.115                0.984206176     -89.6599729
9.116                0.984167158     -89.8092599
9.117                 0.98412804     -89.9589251
9.118                0.984088822     -90.1089695
9.119                0.984049504     -90.2593942
9.12                 0.984010087     -90.4101999
9.121                0.983970569     -90.5613878
9.122                0.983930952     -90.7129588
9.123                0.983891235     -90.8649137
9.124                0.983851419     -91.0172537
9.125                0.983811503     -91.1699796
9.126                0.983771487     -91.3230924
9.127                0.983731372     -91.4765931
9.128                0.983691158     -91.6304827
9.129                0.983650844     -91.7847621
9.13                 0.983610431     -91.9394322
9.131                0.983569919      -92.094494
9.132                0.983529308     -92.2499485
9.133                0.983488598     -92.4057967
9.134                0.983447789     -92.5620394
9.135                0.983406882     -92.7186777
9.136                0.983365876     -92.8757125
9.137                0.983324771     -93.0331448
9.138                0.983283568     -93.1909755
9.139                0.983242267     -93.3492055
9.14                 0.983200868     -93.5078359
9.141                0.983159371     -93.6668675
9.142                0.983117775     -93.8263014
9.143                0.983076083     -93.9861384
9.144                0.983034293     -94.1463795
9.145                0.982992405     -94.3070257
9.146                0.982950421     -94.4680779
9.147                0.982908339      -94.629537
9.148                0.982866161     -94.7914041
9.149                0.982823885     -94.9536799
9.15                 0.982781514     -95.1163655
9.151                0.982739046     -95.2794619
9.152                0.982696483     -95.4429698
9.153                0.982653823     -95.6068903
9.154                0.982611068     -95.7712244
9.155                0.982568217     -95.9359728
9.156                0.982525272     -96.1011366
9.157                0.982482231     -96.2667167
9.158                0.982439096      -96.432714
9.159                0.982395866     -96.5991294
9.16                 0.982352542     -96.7659639
9.161                0.982309125     -96.9332183
9.162                0.982265613     -97.1008936
9.163                0.982222008     -97.2689907
9.164                0.982178311     -97.4375105
9.165                 0.98213452     -97.6064539
9.166                0.982090637     -97.7758218
9.167                0.982046661     -97.9456151
9.168                0.982002594     -98.1158347
9.169                0.981958435     -98.2864815
9.17                 0.981914185     -98.4575564
9.171                0.981869845     -98.6290603
9.172                0.981825413     -98.8009941
9.173                0.981780891     -98.9733586
9.174                 0.98173628     -99.1461548
9.175                0.981691579     -99.3193834
9.176                0.981646788     -99.4930455
9.177                0.981601909     -99.6671419
9.178                0.981556942     -99.8416733
9.179                0.981511886     -100.016641
9.18                 0.981466743     -100.192045
9.181                0.981421513     -100.367887
9.182                0.981376196     -100.544168
9.183                0.981330793     -100.720888
9.184                0.981285304     -100.898048
9.185                0.981239729     -101.075649
9.186                0.981194069     -101.253693
9.187                0.981148325     -101.432179
9.188                0.981102497     -101.611109
9.189                0.981056585     -101.790483
9.19                  0.98101059     -101.970302
9.191                0.980964512     -102.150567
9.192                0.980918352      -102.33128
9.193                 0.98087211      -102.51244
9.194                0.980825788     -102.694048
9.195                0.980779384     -102.876106
9.196                0.980732901     -103.058614
9.197                0.980686338     -103.241573
9.198                0.980639696     -103.424983
9.199                0.980592976     -103.608846
9.2                  0.980546178     -103.793162
9.201                0.980499303     -103.977931
9.202                0.980452351     -104.163156
9.203                0.980405323     -104.348836
9.204                0.980358219     -104.534972
9.205                0.980311041     -104.721566
9.206                0.980263788     -104.908617
9.207                0.980216462     -105.096126
9.208                0.980169064     -105.284095
9.209                0.980121592     -105.472523
9.21                  0.98007405     -105.661412
9.211                0.980026436     -105.850763
9.212                0.979978752     -106.040575
9.213                0.979930999      -106.23085
9.214                0.979883177     -106.421589
9.215                0.979835286     -106.612791
9.216                0.979787329     -106.804459
9.217                0.979739305     -106.996591
9.218                0.979691215      -107.18919
9.219                0.979643059     -107.382256
9.22                  0.97959484     -107.575789
9.221                0.979546557      -107.76979
9.222                0.979498211     -107.964259
9.223                0.979449804     -108.159198
9.224                0.979401335     -108.354607
9.225                0.979352806     -108.550486
9.226                0.979304217     -108.746837
9.227                 0.97925557     -108.943659
9.228                0.979206865     -109.140953
9.229                0.979158103      -109.33872
9.23                 0.979109285     -109.536961
9.231                0.979060412     -109.735675
9.232                0.979011485     -109.934865
9.233                0.978962505     -110.134529
9.234                0.978913472     -110.334669
9.235                0.978864388     -110.535285
9.236                0.978815253     -110.736377
9.237                0.978766069     -110.937947
9.238                0.978716837     -111.139995
9.239                0.978667556     -111.342521
9.24                  0.97861823     -111.545525
9.241                0.978568857     -111.749008
9.242                0.978519441     -111.952971
9.243                 0.97846998     -112.157414
9.244                0.978420478     -112.362338
9.245                0.978370934     -112.567742
9.246                0.978321349     -112.773628
9.247                0.978271726     -112.979996
9.248                0.978222064     -113.186845
9.249                0.978172365     -113.394177
9.25                  0.97812263     -113.601992
9.251                0.978072861      -113.81029
9.252                0.978023058     -114.019072
9.253                0.977973222     -114.228338
9.254                0.977923355     -114.438088
9.255                0.977873458     -114.648323
9.256                0.977823532     -114.859043
9.257                0.977773578     -115.070248
9.258                0.977723598     -115.281939
9.259                0.977673593     -115.494115
9.26                 0.977623563     -115.706778
9.261                0.977573511     -115.919926
9.262                0.977523437     -116.133562
9.263                0.977473343     -116.347684
9.264                 0.97742323     -116.562293
9.265                0.977373099      -116.77739
9.266                0.977322952     -116.992974
9.267                 0.97727279     -117.209045
9.268                0.977222614     -117.425605
9.269                0.977172426     -117.642652
9.27                 0.977122228     -117.860187
9.271                0.977072019     -118.078211
9.272                0.977021803     -118.296723
9.273                0.976971579     -118.515723
9.274                0.976921351     -118.735212
9.275                0.976871119      -118.95519
9.276                0.976820884     -119.175656
9.277                0.976770648     -119.396611
9.278                0.976720413     -119.618054
9.279                0.976670179     -119.839987
9.28                  0.97661995     -120.062408
9.281                0.976569725     -120.285318
9.282                0.976519507     -120.508716
9.283                0.976469296     -120.732604
9.284                0.976419096      -120.95698
9.285                0.976368907     -121.181844
9.286                 0.97631873     -121.407197
9.287                0.976268568     -121.633039
9.288                0.976218422     -121.859368
9.289                0.976168293     -122.086186
9.29                 0.976118183     -122.313492
9.291                0.976068095     -122.541285
9.292                0.976018029     -122.769567
9.293                0.975967987     -122.998335
9.294                0.975917971     -123.227591
9.295                0.975867982     -123.457334
9.296                0.975818023     -123.687564
9.297                0.975768094     -123.918281
9.298                0.975718199     -124.149483
9.299                0.975668337     -124.381172
9.3                  0.975618512     -124.613346
9.301                0.975568725     -124.846005
9.302                0.975518978      -125.07915
9.303                0.975469272     -125.312779
9.304                0.975419609     -125.546892
9.305                0.975369992     -125.781489
9.306                0.975320421      -126.01657
9.307                0.975270899     -126.252134
9.308                0.975221428      -126.48818
9.309                 0.97517201     -126.724708
9.31                 0.975122646     -126.961718
9.311                0.975073338     -127.199209
9.312                0.975024088      -127.43718
9.313                0.974974899     -127.675632
9.314                0.974925771     -127.914563
9.315                0.974876707     -128.153973
9.316                 0.97482771     -128.393861
9.317                 0.97477878     -128.634227
9.318                 0.97472992      -128.87507
9.319                0.974681131     -129.116389
9.32                 0.974632417     -129.358184
9.321                0.974583778     -129.600455
9.322                0.974535217     -129.843199
9.323                0.974486736     -130.086417
9.324                0.974438337     -130.330108
9.325                0.974390021     -130.574271
9.326                0.974341792     -130.818905
9.327                 0.97429365      -131.06401
9.328                0.974245599     -131.309584
9.329                0.974197639     -131.555628
9.33                 0.974149774     -131.802139
9.331                0.974102006     -132.049117
9.332                0.974054336     -132.296561
9.333                0.974006766     -132.544471
9.334                0.973959299     -132.792844
9.335                0.973911937     -133.041681
9.336                0.973864682     -133.290981
9.337                0.973817536     -133.540741
9.338                0.973770501     -133.790962
9.339                 0.97372358     -134.041642
9.34                 0.973676775     -134.292779
9.341                0.973630087     -134.544374
9.342                 0.97358352     -134.796425
9.343                0.973537074     -135.048931
9.344                0.973490754      -135.30189
9.345                 0.97344456     -135.555301
9.346                0.973398495     -135.809163
9.347                0.973352561     -136.063476
9.348                 0.97330676     -136.318237
9.349                0.973261095     -136.573445
9.35                 0.973215568       -136.8291
9.351                0.973170182     -137.085199
9.352                0.973124937     -137.341742
9.353                0.973079838     -137.598727
9.354                0.973034885     -137.856152
9.355                0.972990082     -138.114017
9.356                 0.97294543      -138.37232
9.357                0.972900933     -138.631059
9.358                0.972856591     -138.890233
9.359                0.972812408      -139.14984
9.36                 0.972768385      -139.40988
9.361                0.972724526     -139.670349
9.362                0.972680832     -139.931248
9.363                0.972637306     -140.192574
9.364                 0.97259395     -140.454325
9.365                0.972550767       -140.7165
9.366                0.972507758     -140.979098
9.367                0.972464926     -141.242116
9.368                0.972422274     -141.505553
9.369                0.972379803     -141.769407
9.37                 0.972337517     -142.033677
9.371                0.972295417      -142.29836
9.372                0.972253505     -142.563456
9.373                0.972211785     -142.828961
9.374                0.972170258     -143.094875
9.375                0.972128927     -143.361195
9.376                0.972087795     -143.627919
9.377                0.972046862     -143.895046
9.378                0.972006133     -144.162574
9.379                0.971965609       -144.4305
9.38                 0.971925292     -144.698823
9.381                0.971885186     -144.967541
9.382                0.971845291     -145.236651
9.383                0.971805611     -145.506152
9.384                0.971766148     -145.776042
9.385                0.971726905     -146.046318
9.386                0.971687883     -146.316978
9.387                0.971649085     -146.588021
9.388                0.971610513     -146.859443
9.389                0.971572169     -147.131244
9.39                 0.971534057      -147.40342
9.391                0.971496178     -147.675969
9.392                0.971458535      -147.94889
9.393                0.971421129      -148.22218
9.394                0.971383964     -148.495836
9.395                0.971347041     -148.769856
9.396                0.971310363     -149.044238
