! TOUCHSTONE file generated by CST DESIGN STUDIO
! Date and time: Wed Feb  5 13:40:36 2025
! Project name: C:\Work\MatlabApps\UnitCellOptimizationMatlab\CST\unitcell.cst
! Tree item: Tasks\Sweep1\SPara1\S-Parameters
! Header version: 2024
! Port assignment regex: !\s*Touchstone port\s*([0-9]+)\s*=\s*(CST MWS port|CST DES external port|CST DES block port)\s*(.+)\s* \(\"(.*)\"\)(\s*mode\s*([0-9]+))?.*
! Touchstone port assignment:
! Touchstone port 1 = CST DES external port 1 ("")
# GHz S MA R 50
9                     0.94715918     -70.1783628
9.001                0.946958599     -70.2879262
9.002                0.946757673     -70.3977669
9.003                0.946556403     -70.5078858
9.004                 0.94635479     -70.6182841
9.005                0.946152833     -70.7289628
9.006                0.945950534      -70.839923
9.007                0.945747893     -70.9511658
9.008                0.945544911     -71.0626922
9.009                0.945341589     -71.1745034
9.01                 0.945137926     -71.2866005
9.011                0.944933925     -71.3989845
9.012                0.944729585     -71.5116566
9.013                0.944524907     -71.6246178
9.014                0.944319891     -71.7378694
9.015                0.944114539     -71.8514123
9.016                0.943908851     -71.9652478
9.017                0.943702827     -72.0793769
9.018                0.943496469     -72.1938007
9.019                0.943289776     -72.3085206
9.02                  0.94308275     -72.4235374
9.021                0.942875391     -72.5388525
9.022                  0.9426677     -72.6544669
9.023                0.942459677     -72.7703818
9.024                0.942251323     -72.8865985
9.025                0.942042639     -73.0031179
9.026                0.941833625     -73.1199413
9.027                0.941624282     -73.2370699
9.028                0.941414611     -73.3545049
9.029                0.941204611     -73.4722474
9.03                 0.940994285     -73.5902987
9.031                0.940783632     -73.7086598
9.032                0.940572653     -73.8273321
9.033                0.940361349     -73.9463166
9.034                 0.94014972     -74.0656147
9.035                0.939937767     -74.1852275
9.036                0.939725491     -74.3051563
9.037                0.939512892     -74.4254022
9.038                0.939299972     -74.5459666
9.039                0.939086729     -74.6668505
9.04                 0.938873166     -74.7880553
9.041                0.938659283     -74.9095822
9.042                 0.93844508     -75.0314324
9.043                0.938230559     -75.1536072
9.044                0.938015719     -75.2761078
9.045                0.937800562     -75.3989355
9.046                0.937585088     -75.5220916
9.047                0.937369297     -75.6455773
9.048                0.937153191     -75.7693939
9.049                0.936936771     -75.8935426
9.05                 0.936720035     -76.0180248
9.051                0.936502987     -76.1428418
9.052                0.936285625     -76.2679947
9.053                0.936067951      -76.393485
9.054                0.935849965     -76.5193139
9.055                0.935631669     -76.6454827
9.056                0.935413062     -76.7719927
9.057                0.935194145     -76.8988453
9.058                0.934974919     -77.0260418
9.059                0.934755386     -77.1535834
9.06                 0.934535544     -77.2814715
9.061                0.934315396     -77.4097075
9.062                0.934094941     -77.5382927
9.063                0.933874181     -77.6672284
9.064                0.933653116     -77.7965159
9.065                0.933431746     -77.9261567
9.066                0.933210073      -78.056152
9.067                0.932988098     -78.1865033
9.068                 0.93276582     -78.3172118
9.069                 0.93254324     -78.4482791
9.07                  0.93232036     -78.5797063
9.071                 0.93209718      -78.711495
9.072                0.931873701     -78.8436465
9.073                0.931649923     -78.9761622
9.074                0.931425847     -79.1090434
9.075                0.931201474     -79.2422916
9.076                0.930976804     -79.3759082
9.077                0.930751839     -79.5098946
9.078                0.930526579     -79.6442522
9.079                0.930301024     -79.7789824
9.08                 0.930075176     -79.9140866
9.081                0.929849035     -80.0495662
9.082                0.929622603     -80.1854228
9.083                0.929395879     -80.3216576
9.084                0.929168864     -80.4582722
9.085                 0.92894156     -80.5952679
9.086                0.928713967     -80.7326464
9.087                0.928486085     -80.8704088
9.088                0.928257916     -81.0085569
9.089                0.928029461     -81.1470919
9.09                 0.927800719     -81.2860154
9.091                0.927571693     -81.4253288
9.092                0.927342383     -81.5650336
9.093                0.927112789     -81.7051313
9.094                0.926882912     -81.8456233
9.095                0.926652754     -81.9865112
9.096                0.926422314     -82.1277964
9.097                0.926191595     -82.2694805
9.098                0.925960596     -82.4115648
9.099                0.925729319      -82.554051
9.1                  0.925497764     -82.6969405
9.101                0.925265933     -82.8402349
9.102                0.925033826     -82.9839356
9.103                0.924801444     -83.1280442
9.104                0.924568788     -83.2725622
9.105                0.924335859     -83.4174911
9.106                0.924102657     -83.5628324
9.107                0.923869184     -83.7085878
9.108                0.923635441     -83.8547586
9.109                0.923401428     -84.0013466
9.11                 0.923167147     -84.1483531
9.111                0.922932599     -84.2957798
9.112                0.922697784     -84.4436283
9.113                0.922462703        -84.5919
9.114                0.922227357     -84.7405965
9.115                0.921991748     -84.8897195
9.116                0.921755876     -85.0392704
9.117                0.921519743     -85.1892509
9.118                0.921283349     -85.3396624
9.119                0.921046696     -85.4905067
9.12                 0.920809784     -85.6417853
9.121                0.920572615     -85.7934998
9.122                0.920335189     -85.9456517
9.123                0.920097508     -86.0982427
9.124                0.919859573     -86.2512743
9.125                0.919621385     -86.4047482
9.126                0.919382945     -86.5586659
9.127                0.919144254     -86.7130292
9.128                0.918905314     -86.8678395
9.129                0.918666125     -87.0230985
9.13                 0.918426689     -87.1788078
9.131                0.918187007     -87.3349691
9.132                 0.91794708     -87.4915839
9.133                0.917706909     -87.6486539
9.134                0.917466496     -87.8061807
9.135                0.917225842      -87.964166
9.136                0.916984948     -88.1226114
9.137                0.916743815     -88.2815185
9.138                0.916502445     -88.4408889
9.139                0.916260839     -88.6007244
9.14                 0.916018999     -88.7610265
9.141                0.915776925      -88.921797
9.142                 0.91553462     -89.0830374
9.143                0.915292084     -89.2447494
9.144                0.915049319     -89.4069347
9.145                0.914806326     -89.5695949
9.146                0.914563107     -89.7327317
9.147                0.914319663     -89.8963468
9.148                0.914075996     -90.0604418
9.149                0.913832108     -90.2250184
9.15                 0.913587999     -90.3900783
9.151                0.913343671     -90.5556231
9.152                0.913099127     -90.7216546
9.153                0.912854366     -90.8881743
9.154                0.912609392      -91.055184
9.155                0.912364206     -91.2226854
9.156                0.912118809     -91.3906801
9.157                0.911873203     -91.5591698
9.158                 0.91162739     -91.7281563
9.159                0.911381371     -91.8976411
9.16                 0.911135149     -92.0676261
9.161                0.910888725     -92.2381128
9.162                  0.9106421     -92.4091029
9.163                0.910395277     -92.5805983
9.164                0.910148257     -92.7526005
9.165                0.909901043     -92.9251112
9.166                0.909653636     -93.0981322
9.167                0.909406038     -93.2716651
9.168                0.909158252     -93.4457117
9.169                0.908910278     -93.6202736
9.17                 0.908662119     -93.7953526
9.171                0.908413778     -93.9709503
9.172                0.908165255     -94.1470684
9.173                0.907916554     -94.3237087
9.174                0.907667676     -94.5008728
9.175                0.907418624     -94.6785624
9.176                0.907169399     -94.8567793
9.177                0.906920004     -95.0355251
9.178                0.906670441     -95.2148016
9.179                0.906420713     -95.3946105
9.18                 0.906170821     -95.5749533
9.181                0.905920768     -95.7558319
9.182                0.905670557      -95.937248
9.183                0.905420189     -96.1192032
9.184                0.905169668     -96.3016992
9.185                0.904918995     -96.4847378
9.186                0.904668173     -96.6683206
9.187                0.904417205     -96.8524494
9.188                0.904166093     -97.0371258
9.189                 0.90391484     -97.2223514
9.19                 0.903663448     -97.4081281
9.191                 0.90341192     -97.5944575
9.192                0.903160259     -97.7813413
9.193                0.902908468     -97.9687811
9.194                0.902656549     -98.1567787
9.195                0.902404505     -98.3453357
9.196                0.902152339     -98.5344539
9.197                0.901900054     -98.7241348
9.198                0.901647652     -98.9143802
9.199                0.901395138     -99.1051918
9.2                  0.901142513     -99.2965712
9.201                0.900889781       -99.48852
9.202                0.900636945       -99.68104
9.203                0.900384007     -99.8741328
9.204                0.900130973       -100.0678
9.205                0.899877843     -100.262043
9.206                0.899624622     -100.456865
9.207                0.899371314     -100.652265
9.208                 0.89911792     -100.848247
9.209                0.898864445     -101.044811
9.21                 0.898610893      -101.24196
9.211                0.898357266     -101.439694
9.212                0.898103568     -101.638017
9.213                0.897849803     -101.836928
9.214                0.897595974      -102.03643
9.215                0.897342086     -102.236525
9.216                 0.89708814     -102.437214
9.217                0.896834143     -102.638498
9.218                0.896580097      -102.84038
9.219                0.896326005      -103.04286
9.22                 0.896071873     -103.245941
9.221                0.895817704     -103.449624
9.222                0.895563502      -103.65391
9.223                0.895309271     -103.858802
9.224                0.895055014       -104.0643
9.225                0.894800738     -104.270407
9.226                0.894546444     -104.477123
9.227                0.894292139     -104.684451
9.228                0.894037825     -104.892392
9.229                0.893783508     -105.100947
9.23                 0.893529192     -105.310118
9.231                0.893274881     -105.519906
9.232                 0.89302058     -105.730314
9.233                0.892766293     -105.941341
9.234                0.892512026     -106.152991
9.235                0.892257782     -106.365264
9.236                0.892003567     -106.578162
9.237                0.891749385     -106.791686
9.238                0.891495241     -107.005838
9.239                 0.89124114     -107.220619
9.24                 0.890987087     -107.436031
9.241                0.890733088     -107.652075
9.242                0.890479146     -107.868752
9.243                0.890225268     -108.086064
9.244                0.889971459     -108.304013
9.245                0.889717723     -108.522599
9.246                0.889464066     -108.741824
9.247                0.889210495      -108.96169
9.248                0.888957013     -109.182197
9.249                0.888703626     -109.403347
9.25                 0.888450341     -109.625142
9.251                0.888197163     -109.847582
9.252                0.887944097     -110.070669
9.253                0.887691149     -110.294405
9.254                0.887438326      -110.51879
9.255                0.887185632     -110.743826
9.256                0.886933075     -110.969513
9.257                0.886680659     -111.195855
9.258                0.886428391      -111.42285
9.259                0.886176278     -111.650502
9.26                 0.885924325      -111.87881
9.261                0.885672539     -112.107776
9.262                0.885420926     -112.337402
9.263                0.885169492     -112.567688
9.264                0.884918244     -112.798635
9.265                0.884667189     -113.030245
9.266                0.884416334     -113.262519
9.267                0.884165684     -113.495457
9.268                0.883915246     -113.729061
9.269                0.883665028     -113.963333
9.27                 0.883415037     -114.198272
9.271                0.883165278      -114.43388
9.272                 0.88291576     -114.670158
9.273                 0.88266649     -114.907108
9.274                0.882417474     -115.144729
9.275                 0.88216872     -115.383022
9.276                0.881920235      -115.62199
9.277                0.881672027     -115.861632
9.278                0.881424103      -116.10195
9.279                 0.88117647     -116.342945
9.28                 0.880929137     -116.584616
9.281                 0.88068211     -116.826966
9.282                0.880435398     -117.069995
9.283                0.880189008     -117.313703
9.284                0.879942948     -117.558092
9.285                0.879697227     -117.803162
9.286                0.879451851     -118.048914
9.287                 0.87920683     -118.295349
9.288                0.878962172     -118.542467
9.289                0.878717884     -118.790269
9.29                 0.878473975     -119.038756
9.291                0.878230453     -119.287927
9.292                0.877987327     -119.537785
9.293                0.877744605     -119.788329
9.294                0.877502297      -120.03956
9.295                 0.87726041     -120.291479
9.296                0.877018953     -120.544085
9.297                0.876777935      -120.79738
9.298                0.876537365     -121.051363
9.299                0.876297252     -121.306036
9.3                  0.876057605     -121.561399
9.301                0.875818433     -121.817451
9.302                0.875579746     -122.074194
9.303                0.875341551     -122.331627
9.304                0.875103859     -122.589752
9.305                 0.87486668     -122.848568
9.306                0.874630022     -123.108075
9.307                0.874393894     -123.368273
9.308                0.874158308     -123.629164
9.309                0.873923271     -123.890746
9.31                 0.873688795     -124.153021
9.311                0.873454888     -124.415987
9.312                0.873221561     -124.679646
9.313                0.872988823     -124.943997
9.314                0.872756684      -125.20904
9.315                0.872525155     -125.474776
9.316                0.872294246     -125.741203
9.317                0.872063966     -126.008323
9.318                0.871834327     -126.276134
9.319                0.871605337     -126.544637
9.32                 0.871377009     -126.813832
9.321                0.871149351     -127.083718
9.322                0.870922375     -127.354295
9.323                0.870696091     -127.625562
9.324                 0.87047051      -127.89752
9.325                0.870245643     -128.170169
9.326                0.870021499     -128.443506
9.327                0.869798091     -128.717533
9.328                0.869575428     -128.992249
9.329                0.869353522     -129.267653
9.33                 0.869132384     -129.543745
9.331                0.868912025     -129.820524
9.332                0.868692456     -130.097989
9.333                0.868473687     -130.376141
9.334                0.868255731     -130.654977
9.335                0.868038598     -130.934499
9.336                  0.8678223     -131.214704
9.337                0.867606849     -131.495591
9.338                0.867392254     -131.777161
9.339                0.867178529     -132.059413
9.34                 0.866965684     -132.342344
9.341                0.866753731     -132.625955
9.342                0.866542681     -132.910245
9.343                0.866332547     -133.195212
9.344                 0.86612334     -133.480855
9.345                0.865915071     -133.767174
9.346                0.865707752     -134.054166
9.347                0.865501396     -134.341832
9.348                0.865296014     -134.630169
9.349                0.865091618     -134.919177
9.35                  0.86488822     -135.208854
9.351                0.864685831     -135.499198
9.352                0.864484464     -135.790209
9.353                0.864284131     -136.081885
9.354                0.864084844     -136.374225
9.355                0.863886615     -136.667226
9.356                0.863689456     -136.960888
9.357                0.863493379     -137.255209
9.358                0.863298396     -137.550187
9.359                 0.86310452      -137.84582
9.36                 0.862911762     -138.142107
9.361                0.862720136     -138.439046
9.362                0.862529652     -138.736635
9.363                0.862340325     -139.034873
9.364                0.862152165     -139.333757
9.365                0.861965185     -139.633285
9.366                0.861779397     -139.933456
9.367                0.861594814     -140.234267
9.368                0.861411448     -140.535716
9.369                0.861229311     -140.837802
9.37                 0.861048416     -141.140521
9.371                0.860868775     -141.443872
9.372                0.860690401     -141.747853
9.373                0.860513305     -142.052461
9.374                  0.8603375     -142.357694
9.375                0.860162998     -142.663549
9.376                0.859989813     -142.970024
9.377                0.859817955     -143.277116
9.378                0.859647437     -143.584824
9.379                0.859478273     -143.893143
9.38                 0.859310473     -144.202072
9.381                0.859144051     -144.511608
9.382                0.858979018     -144.821749
9.383                0.858815386      -145.13249
9.384                0.858653169     -145.443831
9.385                0.858492378     -145.755766
9.386                0.858333025     -146.068295
9.387                0.858175122     -146.381414
9.388                0.858018682     -146.695119
9.389                0.857863717     -147.009408
9.39                 0.857710238     -147.324277
9.391                0.857558258     -147.639724
9.392                0.857407788     -147.955745
9.393                0.857258841     -148.272336
9.394                0.857111429     -148.589496
9.395                0.856965562     -148.907219
9.396                0.856821254     -149.225504
