! TOUCHSTONE file generated by CST DESIGN STUDIO
! Date and time: Wed Feb  5 13:40:35 2025
! Project name: C:\Work\MatlabApps\UnitCellOptimizationMatlab\CST\unitcell.cst
! Tree item: Tasks\Sweep1\SPara1\S-Parameters
! Header version: 2024
! Port assignment regex: !\s*Touchstone port\s*([0-9]+)\s*=\s*(CST MWS port|CST DES external port|CST DES block port)\s*(.+)\s* \(\"(.*)\"\)(\s*mode\s*([0-9]+))?.*
! Touchstone port assignment:
! Touchstone port 1 = CST DES external port 1 ("")
# GHz S MA R 50
9                    0.941210287     -75.2658967
9.001                0.940971344     -75.3888077
9.002                   0.940732     -75.5120392
9.003                0.940492255     -75.6355923
9.004                0.940252111     -75.7594683
9.005                0.940011569     -75.8836683
9.006                0.939770629     -76.0081937
9.007                0.939529294     -76.1330457
9.008                0.939287563     -76.2582256
9.009                0.939045438     -76.3837346
9.01                  0.93880292     -76.5095739
9.011                0.938560011     -76.6357449
9.012                 0.93831671     -76.7622487
9.013                 0.93807302     -76.8890868
9.014                0.937828941     -77.0162603
9.015                0.937584474     -77.1437706
9.016                0.937339621      -77.271619
9.017                0.937094383     -77.3998066
9.018                 0.93684876      -77.528335
9.019                0.936602754     -77.6572052
9.02                 0.936356366     -77.7864187
9.021                0.936109598     -77.9159768
9.022                0.935862449     -78.0458808
9.023                0.935614922     -78.1761321
9.024                0.935367017     -78.3067318
9.025                0.935118736     -78.4376815
9.026                 0.93487008     -78.5689823
9.027                 0.93462105     -78.7006358
9.028                0.934371647     -78.8326431
9.029                0.934121872     -78.9650057
9.03                 0.933871726     -79.0977249
9.031                0.933621212     -79.2308022
9.032                0.933370329     -79.3642387
9.033                0.933119079      -79.498036
9.034                0.932867463     -79.6321954
9.035                0.932615483     -79.7667183
9.036                 0.93236314      -79.901606
9.037                0.932110434     -80.0368601
9.038                0.931857368     -80.1724817
9.039                0.931603942     -80.3084724
9.04                 0.931350158     -80.4448336
9.041                0.931096016     -80.5815666
9.042                0.930841519     -80.7186729
9.043                0.930586668      -80.856154
9.044                0.930331463     -80.9940111
9.045                0.930075906     -81.1322458
9.046                0.929819998     -81.2708594
9.047                0.929563742     -81.4098535
9.048                0.929307137     -81.5492295
9.049                0.929050185     -81.6889887
9.05                 0.928792888     -81.8291327
9.051                0.928535247     -81.9696629
9.052                0.928277264     -82.1105807
9.053                0.928018939     -82.2518877
9.054                0.927760275     -82.3935853
9.055                0.927501271      -82.535675
9.056                0.927241931     -82.6781582
9.057                0.926982255     -82.8210364
9.058                0.926722245     -82.9643112
9.059                0.926461902     -83.1079839
9.06                 0.926201228     -83.2520561
9.061                0.925940224     -83.3965293
9.062                0.925678891     -83.5414051
9.063                0.925417231     -83.6866848
9.064                0.925155246       -83.83237
9.065                0.924892937     -83.9784623
9.066                0.924630305     -84.1249631
9.067                0.924367353      -84.271874
9.068                0.924104081     -84.4191964
9.069                0.923840491      -84.566932
9.07                 0.923576585     -84.7150823
9.071                0.923312364     -84.8636488
9.072                 0.92304783      -85.012633
9.073                0.922782985     -85.1620365
9.074                 0.92251783     -85.3118609
9.075                0.922252366     -85.4621076
9.076                0.921986596     -85.6127783
9.077                0.921720521     -85.7638746
9.078                0.921454143     -85.9153979
9.079                0.921187463     -86.0673499
9.08                 0.920920484     -86.2197322
9.081                0.920653206     -86.3725462
9.082                0.920385632     -86.5257937
9.083                0.920117764     -86.6794761
9.084                0.919849603     -86.8335951
9.085                 0.91958115     -86.9881522
9.086                0.919312409     -87.1431492
9.087                 0.91904338     -87.2985875
9.088                0.918774066     -87.4544687
9.089                0.918504468     -87.6107945
9.09                 0.918234588     -87.7675665
9.091                0.917964428     -87.9247863
9.092                0.917693991     -88.0824556
9.093                0.917423277     -88.2405758
9.094                 0.91715229     -88.3991487
9.095                 0.91688103     -88.5581759
9.096                  0.9166095     -88.7176589
9.097                0.916337703     -88.8775996
9.098                0.916065639     -89.0379994
9.099                0.915793311       -89.19886
9.1                  0.915520722      -89.360183
9.101                0.915247873     -89.5219702
9.102                0.914974766     -89.6842231
9.103                0.914701403     -89.8469435
9.104                0.914427788     -90.0101328
9.105                0.914153921     -90.1737929
9.106                0.913879805     -90.3379253
9.107                0.913605443     -90.5025317
9.108                0.913330837     -90.6676139
9.109                0.913055988     -90.8331734
9.11                 0.912780899     -90.9992118
9.111                0.912505573      -91.165731
9.112                0.912230012     -91.3327325
9.113                0.911954218     -91.5002181
9.114                0.911678194     -91.6681894
9.115                0.911401942      -91.836648
9.116                0.911125465     -92.0055957
9.117                0.910848765     -92.1750341
9.118                0.910571845      -92.344965
9.119                0.910294706       -92.51539
9.12                 0.910017353     -92.6863107
9.121                0.909739786      -92.857729
9.122                 0.90946201     -93.0296464
9.123                0.909184027     -93.2020647
9.124                0.908905838     -93.3749856
9.125                0.908627448     -93.5484106
9.126                0.908348859     -93.7223417
9.127                0.908070073     -93.8967804
9.128                0.907791094     -94.0717284
9.129                0.907511924     -94.2471874
9.13                 0.907232566     -94.4231592
9.131                0.906953024     -94.5996454
9.132                0.906673299     -94.7766477
9.133                0.906393395     -94.9541679
9.134                0.906113315     -95.1322076
9.135                0.905833062     -95.3107685
9.136                 0.90555264     -95.4898524
9.137                 0.90527205     -95.6694609
9.138                0.904991297     -95.8495957
9.139                0.904710383     -96.0302586
9.14                 0.904429313     -96.2114512
9.141                0.904148088     -96.3931752
9.142                0.903866712     -96.5754324
9.143                0.903585189     -96.7582244
9.144                0.903303522      -96.941553
9.145                0.903021715     -97.1254198
9.146                 0.90273977     -97.3098265
9.147                0.902457692     -97.4947749
9.148                0.902175483     -97.6802666
9.149                0.901893148     -97.8663033
9.15                  0.90161069     -98.0528868
9.151                0.901328112     -98.2400186
9.152                0.901045419     -98.4277006
9.153                0.900762614     -98.6159343
9.154                  0.9004797     -98.8047216
9.155                0.900196682      -98.994064
9.156                0.899913564     -99.1839632
9.157                0.899630349      -99.374421
9.158                0.899347041      -99.565439
9.159                0.899063645     -99.7570189
9.16                 0.898780163     -99.9491624
9.161                0.898496602     -100.141871
9.162                0.898212963     -100.335147
9.163                0.897929252     -100.528991
9.164                0.897645473     -100.723405
9.165                0.897361631     -100.918391
9.166                0.897077728     -101.113951
9.167                 0.89679377     -101.310086
9.168                0.896509762     -101.506798
9.169                0.896225707     -101.704089
9.17                  0.89594161     -101.901959
9.171                0.895657476     -102.100412
9.172                0.895373308     -102.299447
9.173                0.895089113     -102.499068
9.174                0.894804894     -102.699276
9.175                0.894520657     -102.900071
9.176                0.894236406     -103.101457
9.177                0.893952145     -103.303434
9.178                0.893667881     -103.506005
9.179                0.893383617      -103.70917
9.18                 0.893099359     -103.912931
9.181                0.892815113      -104.11729
9.182                0.892530882     -104.322249
9.183                0.892246672     -104.527809
9.184                0.891962488     -104.733971
9.185                0.891678337     -104.940738
9.186                0.891394222      -105.14811
9.187                 0.89111015      -105.35609
9.188                0.890826126     -105.564678
9.189                0.890542155     -105.773877
9.19                 0.890258243     -105.983688
9.191                0.889974395     -106.194112
9.192                0.889690618     -106.405151
9.193                0.889406917     -106.616806
9.194                0.889123298      -106.82908
9.195                0.888839766     -107.041973
9.196                0.888556329     -107.255487
9.197                 0.88827299     -107.469623
9.198                0.887989758     -107.684383
9.199                0.887706637     -107.899768
9.2                  0.887423634      -108.11578
9.201                0.887140755     -108.332421
9.202                0.886858007      -108.54969
9.203                0.886575396     -108.767591
9.204                0.886292928     -108.986124
9.205                0.886010609     -109.205292
9.206                0.885728447     -109.425094
9.207                0.885446448     -109.645533
9.208                0.885164619     -109.866609
9.209                0.884882966     -110.088325
9.21                 0.884601496     -110.310682
9.211                0.884320216      -110.53368
9.212                0.884039133     -110.757322
9.213                0.883758254     -110.981608
9.214                0.883477586      -111.20654
9.215                0.883197137     -111.432119
9.216                0.882916913     -111.658347
9.217                0.882636921     -111.885224
9.218                 0.88235717     -112.112752
9.219                0.882077666     -112.340932
9.22                 0.881798418     -112.569765
9.221                0.881519432     -112.799253
9.222                0.881240716     -113.029396
9.223                0.880962277     -113.260197
9.224                0.880684125     -113.491655
9.225                0.880406266     -113.723772
9.226                0.880128708     -113.956549
9.227                 0.87985146     -114.189988
9.228                 0.87957453     -114.424089
9.229                0.879297924     -114.658853
9.23                 0.879021653     -114.894282
9.231                0.878745723     -115.130377
9.232                0.878470144     -115.367138
9.233                0.878194924     -115.604567
9.234                 0.87792007     -115.842664
9.235                0.877645593      -116.08143
9.236                  0.8773715     -116.320867
9.237                  0.8770978     -116.560976
9.238                0.876824501     -116.801756
9.239                0.876551614      -117.04321
9.24                 0.876279146     -117.285338
9.241                0.876007106     -117.528141
9.242                0.875735504     -117.771619
9.243                0.875464349     -118.015774
9.244                 0.87519365     -118.260606
9.245                0.874923416     -118.506116
9.246                0.874653656     -118.752305
9.247                0.874384381     -118.999173
9.248                0.874115598     -119.246722
9.249                0.873847319     -119.494951
9.25                 0.873579553     -119.743862
9.251                0.873312308     -119.993455
9.252                0.873045596     -120.243731
9.253                0.872779426      -120.49469
9.254                0.872513807     -120.746334
9.255                0.872248751     -120.998661
9.256                0.871984266     -121.251674
9.257                0.871720363     -121.505372
9.258                0.871457053     -121.759756
9.259                0.871194345     -122.014826
9.26                 0.870932249     -122.270583
9.261                0.870670777     -122.527027
9.262                0.870409939     -122.784159
9.263                0.870149745     -123.041978
9.264                0.869890206     -123.300486
9.265                0.869631332     -123.559682
9.266                0.869373135     -123.819566
9.267                0.869115624      -124.08014
9.268                0.868858812     -124.341402
9.269                0.868602709     -124.603354
9.27                 0.868347325     -124.865995
9.271                0.868092673     -125.129325
9.272                0.867838763     -125.393346
9.273                0.867585606     -125.658055
9.274                0.867333214     -125.923455
9.275                0.867081599     -126.189543
9.276                 0.86683077     -126.456322
9.277                0.866580741      -126.72379
9.278                0.866331522     -126.991947
9.279                0.866083124     -127.260793
9.28                 0.865835561     -127.530328
9.281                0.865588843     -127.800553
9.282                0.865342982     -128.071465
9.283                0.865097991     -128.343067
9.284                 0.86485388     -128.615356
9.285                0.864610662     -128.888332
9.286                0.864368349     -129.161996
9.287                0.864126952     -129.436347
9.288                0.863886485     -129.711385
9.289                0.863646959     -129.987108
9.29                 0.863408386     -130.263517
9.291                0.863170778      -130.54061
9.292                0.862934149     -130.818388
9.293                 0.86269851      -131.09685
9.294                0.862463873     -131.375994
9.295                0.862230252     -131.655821
9.296                0.861997658     -131.936329
9.297                0.861766105     -132.217519
9.298                0.861535604     -132.499388
9.299                0.861306169     -132.781936
9.3                  0.861077811     -133.065163
9.301                0.860850545     -133.349067
9.302                0.860624382     -133.633648
9.303                0.860399335     -133.918903
9.304                0.860175417     -134.204833
9.305                0.859952642     -134.491437
9.306                0.859731021     -134.778712
9.307                0.859510568     -135.066659
9.308                0.859291296     -135.355275
9.309                0.859073217     -135.644559
9.31                 0.858856345     -135.934511
9.311                0.858640693     -136.225129
9.312                0.858426274     -136.516411
9.313                  0.8582131     -136.808357
9.314                0.858001186     -137.100964
9.315                0.857790543     -137.394231
9.316                0.857581186     -137.688157
9.317                0.857373127     -137.982739
9.318                 0.85716638     -138.277977
9.319                0.856960958     -138.573869
9.32                 0.856756873     -138.870413
9.321                0.856554139     -139.167607
9.322                 0.85635277      -139.46545
9.323                0.856152778     -139.763939
9.324                0.855954177     -140.063073
9.325                 0.85575698     -140.362849
9.326                  0.8555612     -140.663266
9.327                0.855366851     -140.964323
9.328                0.855173945     -141.266015
9.329                0.854982496     -141.568342
9.33                 0.854792517     -141.871302
9.331                 0.85460402     -142.174892
9.332                0.854417021      -142.47911
9.333                 0.85423153     -142.783953
9.334                0.854047563     -143.089419
9.335                0.853865131     -143.395507
9.336                0.853684248     -143.702212
9.337                0.853504926     -144.009534
9.338                 0.85332718     -144.317469
9.339                0.853151022     -144.626015
9.34                 0.852976465     -144.935169
9.341                0.852803521     -145.244928
9.342                0.852632205     -145.555291
9.343                0.852462528     -145.866253
9.344                0.852294504     -146.177812
9.345                0.852128145     -146.489966
9.346                0.851963464      -146.80271
9.347                0.851800474     -147.116044
9.348                0.851639188     -147.429962
9.349                0.851479618     -147.744463
9.35                 0.851321776     -148.059543
9.351                0.851165676     -148.375199
9.352                 0.85101133     -148.691428
9.353                0.850858749     -149.008227
9.354                0.850707947     -149.325591
9.355                0.850558936     -149.643519
9.356                0.850411727     -149.962006
9.357                0.850266334     -150.281049
9.358                0.850122767     -150.600645
9.359                 0.84998104      -150.92079
9.36                 0.849841163      -151.24148
9.361                0.849703149     -151.562711
9.362                 0.84956701     -151.884481
9.363                0.849432756     -152.206785
9.364                  0.8493004      -152.52962
9.365                0.849169954     -152.852982
9.366                0.849041427     -153.176866
9.367                0.848914833     -153.501269
9.368                0.848790181     -153.826187
9.369                0.848667484     -154.151616
9.37                 0.848546751     -154.477552
9.371                0.848427994      -154.80399
9.372                0.848311224     -155.130927
9.373                 0.84819645     -155.458359
9.374                0.848083685      -155.78628
9.375                0.847972938     -156.114687
9.376                0.847864219     -156.443576
9.377                0.847757538     -156.772941
9.378                0.847652907     -157.102779
9.379                0.847550334     -157.433086
9.38                 0.847449829     -157.763855
9.381                0.847351402     -158.095084
9.382                0.847255063     -158.426767
9.383                 0.84716082       -158.7589
9.384                0.847068684     -159.091477
9.385                0.846978663     -159.424495
9.386                0.846890766     -159.757949
9.387                0.846805002     -160.091832
9.388                 0.84672138     -160.426142
9.389                0.846639908     -160.760872
9.39                 0.846560594     -161.096018
9.391                0.846483447     -161.431575
9.392                0.846408475     -161.767537
9.393                0.846335686       -162.1039
9.394                0.846265086     -162.440659
9.395                0.846196685     -162.777808
9.396                0.846130489     -163.115342
