! TOUCHSTONE file generated by CST DESIGN STUDIO
! Date and time: Wed Feb  5 13:40:28 2025
! Project name: C:\Work\MatlabApps\UnitCellOptimizationMatlab\CST\unitcell.cst
! Tree item: Tasks\Sweep1\SPara1\S-Parameters
! Header version: 2024
! Port assignment regex: !\s*Touchstone port\s*([0-9]+)\s*=\s*(CST MWS port|CST DES external port|CST DES block port)\s*(.+)\s* \(\"(.*)\"\)(\s*mode\s*([0-9]+))?.*
! Touchstone port assignment:
! Touchstone port 1 = CST DES external port 1 ("")
# GHz S MA R 50
9                    0.912424304     -100.182416
9.001                0.911992537     -100.378385
9.002                0.911560063     -100.574878
9.003                0.911126894     -100.771899
9.004                0.910693038     -100.969447
9.005                0.910258507     -101.167524
9.006                 0.90982331     -101.366133
9.007                0.909387459     -101.565273
9.008                0.908950963     -101.764947
9.009                0.908513834     -101.965157
9.01                 0.908076082     -102.165903
9.011                0.907637718     -102.367187
9.012                0.907198753      -102.56901
9.013                0.906759198     -102.771374
9.014                0.906319064      -102.97428
9.015                0.905878363     -103.177731
9.016                0.905437106     -103.381726
9.017                0.904995303     -103.586268
9.018                0.904552968     -103.791358
9.019                0.904110111     -103.996997
9.02                 0.903666744     -104.203187
9.021                 0.90322288      -104.40993
9.022                0.902778529     -104.617226
9.023                0.902333704     -104.825077
9.024                0.901888418     -105.033485
9.025                0.901442681      -105.24245
9.026                0.900996508     -105.451975
9.027                 0.90054991     -105.662061
9.028                0.900102899     -105.872709
9.029                0.899655488      -106.08392
9.03                 0.899207691     -106.295696
9.031                0.898759519     -106.508039
9.032                0.898310987     -106.720949
9.033                0.897862106     -106.934429
9.034                0.897412889     -107.148479
9.035                0.896963351     -107.363101
9.036                0.896513505     -107.578296
9.037                0.896063363     -107.794065
9.038                 0.89561294     -108.010411
9.039                0.895162249     -108.227334
9.04                 0.894711303     -108.444836
9.041                0.894260117     -108.662917
9.042                0.893808704      -108.88158
9.043                0.893357079     -109.100826
9.044                0.892905256     -109.320656
9.045                0.892453248     -109.541071
9.046                 0.89200107     -109.762073
9.047                0.891548737     -109.983663
9.048                0.891096263     -110.205842
9.049                0.890643663     -110.428612
9.05                 0.890190951     -110.651974
9.051                0.889738142     -110.875929
9.052                0.889285251     -111.100478
9.053                0.888832293     -111.325624
9.054                0.888379283     -111.551366
9.055                0.887926237     -111.777707
9.056                0.887473169     -112.004647
9.057                0.887020096     -112.232187
9.058                0.886567031      -112.46033
9.059                0.886113992     -112.689076
9.06                 0.885660994     -112.918427
9.061                0.885208053     -113.148383
9.062                0.884755184     -113.378946
9.063                0.884302403     -113.610117
9.064                0.883849727     -113.841897
9.065                0.883397172     -114.074288
9.066                0.882944754      -114.30729
9.067                0.882492489     -114.540905
9.068                0.882040394     -114.775133
9.069                0.881588485     -115.009977
9.07                  0.88113678     -115.245436
9.071                0.880685294     -115.481513
9.072                0.880234045     -115.718208
9.073                0.879783049     -115.955522
9.074                0.879332324     -116.193456
9.075                0.878881887     -116.432012
9.076                0.878431755      -116.67119
9.077                0.877981945     -116.910992
9.078                0.877532475     -117.151418
9.079                0.877083362     -117.392469
9.08                 0.876634624     -117.634147
9.081                0.876186278     -117.876453
9.082                0.875738342     -118.119386
9.083                0.875290834     -118.362949
9.084                0.874843773     -118.607142
9.085                0.874397175     -118.851967
9.086                 0.87395106     -119.097423
9.087                0.873505445     -119.343512
9.088                0.873060349     -119.590235
9.089                 0.87261579     -119.837592
9.09                 0.872171787     -120.085585
9.091                0.871728358     -120.334214
9.092                0.871285521      -120.58348
9.093                0.870843297     -120.833383
9.094                0.870401702     -121.083925
9.095                0.869960757     -121.335107
9.096                 0.86952048     -121.586928
9.097                0.869080891      -121.83939
9.098                0.868642007     -122.092493
9.099                 0.86820385     -122.346238
9.1                  0.867766438     -122.600626
9.101                 0.86732979     -122.855656
9.102                0.866893926     -123.111331
9.103                0.866458865      -123.36765
9.104                0.866024628     -123.624614
9.105                0.865591233     -123.882223
9.106                  0.8651587     -124.140478
9.107                 0.86472705      -124.39938
9.108                0.864296303     -124.658929
9.109                0.863866477     -124.919124
9.11                 0.863437594     -125.179968
9.111                0.863009673      -125.44146
9.112                0.862582735       -125.7036
9.113                  0.8621568     -125.966389
9.114                0.861731888     -126.229827
9.115                0.861308019     -126.493914
9.116                0.860885215     -126.758651
9.117                0.860463495     -127.024038
9.118                0.860042881     -127.290076
9.119                0.859623392     -127.556763
9.12                 0.859205049     -127.824101
9.121                0.858787874      -128.09209
9.122                0.858371887     -128.360729
9.123                0.857957109     -128.630019
9.124                0.857543561      -128.89996
9.125                0.857131264     -129.170552
9.126                0.856720239     -129.441795
9.127                0.856310506     -129.713689
9.128                0.855902088     -129.986233
9.129                0.855495005     -130.259428
9.13                 0.855089278     -130.533273
9.131                0.854684929     -130.807769
9.132                0.854281979     -131.082915
9.133                0.853880449     -131.358711
9.134                0.853480361     -131.635156
9.135                0.853081736     -131.912251
9.136                0.852684596     -132.189995
9.137                0.852288962     -132.468388
9.138                0.851894855     -132.747429
9.139                0.851502297     -133.027118
9.14                  0.85111131     -133.307455
9.141                0.850721916     -133.588438
9.142                0.850334135     -133.870068
9.143                0.849947989     -134.152344
9.144                0.849563501     -134.435265
9.145                0.849180692     -134.718831
9.146                0.848799583     -135.003041
9.147                0.848420196     -135.287894
9.148                0.848042554      -135.57339
9.149                0.847666677     -135.859527
9.15                 0.847292587     -136.146306
9.151                0.846920307     -136.433725
9.152                0.846549857     -136.721783
9.153                 0.84618126     -137.010479
9.154                0.845814537     -137.299813
9.155                0.845449711     -137.589784
9.156                0.845086802     -137.880389
9.157                0.844725832     -138.171629
9.158                0.844366824     -138.463502
9.159                0.844009799     -138.756007
9.16                 0.843654778     -139.049143
9.161                0.843301784     -139.342909
9.162                0.842950837     -139.637303
9.163                 0.84260196     -139.932324
9.164                0.842255174      -140.22797
9.165                0.841910501     -140.524241
9.166                0.841567961     -140.821134
9.167                0.841227578     -141.118649
9.168                0.840889371     -141.416783
9.169                0.840553363     -141.715536
9.17                 0.840219575     -142.014905
9.171                0.839888027      -142.31489
9.172                0.839558743     -142.615487
9.173                0.839231742     -142.916696
9.174                0.838907045     -143.218514
9.175                0.838584675     -143.520941
9.176                0.838264651     -143.823973
9.177                0.837946996      -144.12761
9.178                0.837631729     -144.431848
9.179                0.837318873     -144.736687
9.18                 0.837008446     -145.042123
9.181                0.836700471     -145.348156
9.182                0.836394968     -145.654782
9.183                0.836091957        -145.962
9.184                0.835791459     -146.269807
9.185                0.835493494     -146.578201
9.186                0.835198082      -146.88718
9.187                0.834905244     -147.196742
9.188                   0.834615     -147.506883
9.189                 0.83432737     -147.817601
9.19                 0.834042373     -148.128895
9.191                0.833760029     -148.440761
9.192                0.833480359     -148.753197
9.193                0.833203381     -149.066199
9.194                0.832929115     -149.379766
9.195                0.832657581     -149.693895
9.196                0.832388797     -150.008583
9.197                0.832122782     -150.323826
9.198                0.831859556     -150.639623
9.199                0.831599137     -150.955969
9.2                  0.831341545     -151.272863
9.201                0.831086796     -151.590301
9.202                0.830834911      -151.90828
9.203                0.830585906     -152.226797
9.204                0.830339801     -152.545848
9.205                0.830096613     -152.865431
9.206                0.829856359     -153.185542
9.207                0.829619058     -153.506178
9.208                0.829384727     -153.827335
9.209                0.829153383      -154.14901
9.21                 0.828925043       -154.4712
9.211                0.828699724     -154.793901
9.212                0.828477443     -155.117109
9.213                0.828258216     -155.440822
9.214                0.828042061     -155.765034
9.215                0.827828992     -156.089743
9.216                0.827619025     -156.414945
9.217                0.827412178     -156.740635
9.218                0.827208465     -157.066811
9.219                0.827007902     -157.393467
9.22                 0.826810503     -157.720601
9.221                0.826616285     -158.048208
9.222                0.826425261     -158.376285
9.223                0.826237446     -158.704826
9.224                0.826052854     -159.033828
9.225                  0.8258715     -159.363287
9.226                0.825693398     -159.693199
9.227                 0.82551856     -160.023559
9.228                0.825347001     -160.354363
9.229                0.825178734     -160.685606
9.23                 0.825013771     -161.017285
9.231                0.824852125     -161.349394
9.232                 0.82469381     -161.681929
9.233                0.824538836     -162.014887
9.234                0.824387216     -162.348261
9.235                0.824238961     -162.682048
9.236                0.824094083     -163.016242
9.237                0.823952594      -163.35084
9.238                0.823814503     -163.685836
9.239                0.823679822     -164.021225
9.24                 0.823548561     -164.357003
9.241                 0.82342073     -164.693165
9.242                 0.82329634     -165.029706
9.243                0.823175398      -165.36662
9.244                0.823057915     -165.703903
9.245                  0.8229439     -166.041551
9.246                0.822833361     -166.379557
9.247                0.822726307     -166.717916
9.248                0.822622746     -167.056624
9.249                0.822522685     -167.395675
9.25                 0.822426132     -167.735064
9.251                0.822333095     -168.074786
9.252                 0.82224358     -168.414835
9.253                0.822157594     -168.755206
9.254                0.822075142     -169.095894
9.255                0.821996232     -169.436892
9.256                0.821920869     -169.778197
9.257                0.821849058     -170.119802
9.258                0.821780804     -170.461701
9.259                0.821716112     -170.803889
9.26                 0.821654986     -171.146361
9.261                0.821597431     -171.489111
9.262                0.821543449     -171.832133
9.263                0.821493046     -172.175421
9.264                0.821446223      -172.51897
9.265                0.821402983     -172.862775
9.266                0.821363329     -173.206828
9.267                0.821327264     -173.551125
9.268                0.821294788     -173.895659
9.269                0.821265904     -174.240425
9.27                 0.821240611     -174.585416
9.271                0.821218913     -174.930628
9.272                0.821200807     -175.276053
9.273                0.821186296     -175.621686
9.274                0.821175378     -175.967521
9.275                0.821168053     -176.313551
9.276                 0.82116432     -176.659772
9.277                0.821164178     -177.006176
9.278                0.821167625     -177.352758
9.279                0.821174659     -177.699511
9.28                 0.821185278      -178.04643
9.281                 0.82119948     -178.393507
9.282                0.821217261     -178.740738
9.283                0.821238618     -179.088115
9.284                0.821263547     -179.435633
9.285                0.821292045     -179.783285
9.286                0.821324107      179.868935
9.287                0.821359728      179.521033
9.288                0.821398904      179.173015
9.289                0.821441629      178.824888
9.29                 0.821487897      178.476659
9.291                0.821537702      178.128333
9.292                0.821591038      177.779917
9.293                0.821647898      177.431417
9.294                0.821708275      177.082839
9.295                0.821772161      176.734191
9.296                0.821839549      176.385477
9.297                0.821910431      176.036706
9.298                0.821984798      175.687882
9.299                0.822062641      175.339013
9.3                  0.822143952      174.990104
9.301                 0.82222872      174.641164
9.302                0.822316937      174.292196
9.303                0.822408591      173.943209
9.304                0.822503673      173.594209
9.305                0.822602172      173.245201
9.306                0.822704076      172.896193
9.307                0.822809375      172.547191
9.308                0.822918055      172.198201
9.309                0.823030107       171.84923
9.31                 0.823145516      171.500284
9.311                 0.82326427      171.151369
9.312                0.823386357      170.802493
9.313                0.823511762      170.453661
9.314                0.823640472       170.10488
9.315                0.823772474      169.756156
9.316                0.823907753      169.407496
9.317                0.824046294      169.058906
9.318                0.824188083      168.710393
9.319                0.824333104      168.361962
9.32                 0.824481343      168.013621
9.321                0.824632782      167.665375
9.322                0.824787406      167.317232
9.323                0.824945199      166.969196
9.324                0.825106145      166.621275
9.325                0.825270225      166.273476
9.326                0.825437424      165.925803
9.327                0.825607723      165.578264
9.328                0.825781106      165.230865
9.329                0.825957553      164.883612
9.33                 0.826137047      164.536511
9.331                0.826319569      164.189569
9.332                  0.8265051      163.842792
9.333                0.826693622      163.496186
9.334                0.826885115      163.149757
9.335                 0.82707956      162.803511
9.336                0.827276936      162.457455
9.337                0.827477225      162.111594
9.338                0.827680404      161.765935
9.339                0.827886455      161.420484
9.34                 0.828095356      161.075247
9.341                0.828307087      160.730229
9.342                0.828521626      160.385437
9.343                0.828738952      160.040877
9.344                0.828959044      159.696555
9.345                0.829181879      159.352476
9.346                0.829407436      159.008647
9.347                0.829635692      158.665074
9.348                0.829866626      158.321761
9.349                0.830100214      157.978716
9.35                 0.830336434      157.635944
9.351                0.830575262       157.29345
9.352                0.830816677      156.951241
9.353                0.831060654      156.609322
9.354                 0.83130717      156.267698
9.355                0.831556201      155.926376
9.356                0.831807725      155.585361
9.357                0.832061715      155.244659
9.358                 0.83231815      154.904274
9.359                0.832577004      154.564213
9.36                 0.832838253      154.224481
9.361                0.833101873      153.885084
9.362                0.833367838      153.546027
9.363                0.833636125      153.207314
9.364                0.833906708      152.868953
9.365                0.834179563      152.530947
9.366                0.834454663      152.193303
9.367                0.834731985      151.856024
9.368                0.835011502      151.519118
9.369                0.835293189      151.182588
9.37                 0.835577021      150.846439
9.371                0.835862972      150.510678
9.372                0.836151016      150.175308
9.373                0.836441128      149.840336
9.374                0.836733282      149.505765
9.375                0.837027451      149.171601
9.376                 0.83732361      148.837848
9.377                0.837621733      148.504512
9.378                0.837921793      148.171597
9.379                0.838223764      147.839109
9.38                 0.838527621       147.50705
9.381                0.838833337      147.175427
9.382                0.839140885      146.844244
9.383                0.839450239      146.513506
9.384                0.839761373      146.183217
9.385                 0.84007426      145.853381
9.386                0.840388875      145.524003
9.387                0.840705189      145.195088
9.388                0.841023178      144.866639
9.389                0.841342815      144.538661
9.39                 0.841664072      144.211159
9.391                0.841986924      143.884137
9.392                0.842311344      143.557598
9.393                0.842637305      143.231547
9.394                0.842964782      142.905988
9.395                0.843293747      142.580926
9.396                0.843624174      142.256363
