! TOUCHSTONE file generated by CST DESIGN STUDIO
! Date and time: Tue Feb  4 15:46:05 2025
! Project name: C:\Work\MatlabApps\UnitCellOptimizationMatlab\CST\unitcell.cst
! Tree item: Tasks\Sweep1\SPara1\S-Parameters
! Header version: 2024
! Port assignment regex: !\s*Touchstone port\s*([0-9]+)\s*=\s*(CST MWS port|CST DES external port|CST DES block port)\s*(.+)\s* \(\"(.*)\"\)(\s*mode\s*([0-9]+))?.*
! Touchstone port assignment:
! Touchstone port 1 = CST DES external port 1 ("")
# GHz S MA R 50
9                    0.975199184     -76.5915577
9.001                0.975137641     -76.7089674
9.002                0.975075913     -76.8266698
9.003                0.975013998     -76.9446657
9.004                0.974951897      -77.062956
9.005                0.974889609     -77.1815416
9.006                0.974827134     -77.3004233
9.007                0.974764472     -77.4196021
9.008                0.974701621     -77.5390788
9.009                0.974638582     -77.6588543
9.01                 0.974575354     -77.7789296
9.011                0.974511937     -77.8993055
9.012                 0.97444833     -78.0199828
9.013                0.974384533     -78.1409626
9.014                0.974320546     -78.2622456
9.015                0.974256368     -78.3838329
9.016                0.974191998     -78.5057252
9.017                0.974127438     -78.6279235
9.018                0.974062685     -78.7504288
9.019                0.973997739     -78.8732418
9.02                 0.973932601     -78.9963636
9.021                 0.97386727      -79.119795
9.022                0.973801745     -79.2435369
9.023                0.973736027     -79.3675903
9.024                0.973670114     -79.4919561
9.025                0.973604007     -79.6166352
9.026                0.973537704     -79.7416285
9.027                0.973471206     -79.8669369
9.028                0.973404513     -79.9925614
9.029                0.973337623     -80.1185029
9.03                 0.973270537     -80.2447623
9.031                0.973203255     -80.3713405
9.032                0.973135775     -80.4982386
9.033                0.973068097     -80.6254573
9.034                0.973000222     -80.7529977
9.035                0.972932149     -80.8808607
9.036                0.972863877     -81.0090472
9.037                0.972795406     -81.1375581
9.038                0.972726737     -81.2663945
9.039                0.972657867     -81.3955572
9.04                 0.972588798     -81.5250472
9.041                0.972519529     -81.6548654
9.042                0.972450059     -81.7850129
9.043                0.972380389     -81.9154904
9.044                0.972310517     -82.0462991
9.045                0.972240444     -82.1774398
9.046                 0.97217017     -82.3089135
9.047                0.972099693     -82.4407211
9.048                0.972029014     -82.5728636
9.049                0.971958133     -82.7053421
9.05                 0.971887049     -82.8381573
9.051                0.971815761     -82.9713103
9.052                 0.97174427     -83.1048021
9.053                0.971672576     -83.2386336
9.054                0.971600678     -83.3728058
9.055                0.971528575     -83.5073197
9.056                0.971456268     -83.6421761
9.057                0.971383756     -83.7773762
9.058                0.971311039     -83.9129208
9.059                0.971238117      -84.048811
9.06                  0.97116499     -84.1850476
9.061                0.971091657     -84.3216318
9.062                0.971018118     -84.4585644
9.063                0.970944373     -84.5958465
9.064                0.970870421     -84.7334789
9.065                0.970796263     -84.8714628
9.066                0.970721898      -85.009799
9.067                0.970647326     -85.1484887
9.068                0.970572547     -85.2875326
9.069                 0.97049756     -85.4269319
9.07                 0.970422366     -85.5666875
9.071                0.970346964     -85.7068004
9.072                0.970271354     -85.8472716
9.073                0.970195536      -85.988102
9.074                 0.97011951     -86.1292928
9.075                0.970043275     -86.2708448
9.076                0.969966832      -86.412759
9.077                 0.96989018     -86.5550365
9.078                0.969813319     -86.6976782
9.079                0.969736249     -86.8406851
9.08                  0.96965897     -86.9840583
9.081                0.969581481     -87.1277986
9.082                0.969503784     -87.2719072
9.083                0.969425877      -87.416385
9.084                 0.96934776     -87.5612329
9.085                0.969269433     -87.7064521
9.086                0.969190897     -87.8520435
9.087                0.969112151     -87.9980081
9.088                0.969033195     -88.1443468
9.089                0.968954029     -88.2910608
9.09                 0.968874653      -88.438151
9.091                0.968795067     -88.5856183
9.092                0.968715271     -88.7334639
9.093                0.968635264     -88.8816886
9.094                0.968555048     -89.0302935
9.095                0.968474621     -89.1792797
9.096                0.968393984      -89.328648
9.097                0.968313137     -89.4783995
9.098                 0.96823208     -89.6285353
9.099                0.968150812     -89.7790562
9.1                  0.968069334     -89.9299633
9.101                0.967987646     -90.0812577
9.102                0.967905748     -90.2329403
9.103                 0.96782364      -90.385012
9.104                0.967741322      -90.537474
9.105                0.967658794     -90.6903272
9.106                0.967576056     -90.8435726
9.107                0.967493108     -90.9972113
9.108                0.967409951     -91.1512441
9.109                0.967326584     -91.3056722
9.11                 0.967243007     -91.4604965
9.111                0.967159222      -91.615718
9.112                0.967075227     -91.7713377
9.113                0.966991023     -91.9273566
9.114                 0.96690661     -92.0837758
9.115                0.966821988     -92.2405961
9.116                0.966737158     -92.3978187
9.117                0.966652119     -92.5554445
9.118                0.966566872     -92.7134744
9.119                0.966481418     -92.8719096
9.12                 0.966395755     -93.0307509
9.121                0.966309885     -93.1899994
9.122                0.966223807     -93.3496561
9.123                0.966137523      -93.509722
9.124                0.966051031      -93.670198
9.125                0.965964334     -93.8310851
9.126                0.965877429     -93.9923844
9.127                0.965790319     -94.1540967
9.128                0.965703004     -94.3162232
9.129                0.965615483     -94.4787648
9.13                 0.965527757     -94.6417224
9.131                0.965439826      -94.805097
9.132                0.965351691     -94.9688897
9.133                0.965263352     -95.1331013
9.134                0.965174809      -95.297733
9.135                0.965086064     -95.4627856
9.136                0.964997115     -95.6282601
9.137                0.964907964     -95.7941574
9.138                0.964818612     -95.9604787
9.139                0.964729058     -96.1272248
9.14                 0.964639302     -96.2943966
9.141                0.964549347     -96.4619952
9.142                0.964459191     -96.6300215
9.143                0.964368836     -96.7984765
9.144                0.964278281     -96.9673611
9.145                0.964187528     -97.1366763
9.146                0.964096578      -97.306423
9.147                0.964005429     -97.4766022
9.148                0.963914084     -97.6472148
9.149                0.963822543     -97.8182618
9.15                 0.963730806     -97.9897441
9.151                0.963638874     -98.1616626
9.152                0.963546747     -98.3340183
9.153                0.963454427     -98.5068121
9.154                0.963361913      -98.680045
9.155                0.963269207     -98.8537178
9.156                 0.96317631     -99.0278315
9.157                0.963083221      -99.202387
9.158                0.962989942     -99.3773853
9.159                0.962896474     -99.5528272
9.16                 0.962802816     -99.7287136
9.161                0.962708971     -99.9050455
9.162                0.962614938     -100.081824
9.163                0.962520719     -100.259049
9.164                0.962426314     -100.436723
9.165                0.962331724     -100.614846
9.166                 0.96223695     -100.793418
9.167                0.962141993     -100.972442
9.168                0.962046855     -101.151917
9.169                0.961951534     -101.331844
9.17                 0.961856034     -101.512225
9.171                0.961760354     -101.693061
9.172                0.961664495     -101.874351
9.173                0.961568459     -102.056098
9.174                0.961472246     -102.238301
9.175                0.961375858     -102.420963
9.176                0.961279296     -102.604082
9.177                 0.96118256     -102.787661
9.178                0.961085652     -102.971701
9.179                0.960988573     -103.156201
9.18                 0.960891323     -103.341164
9.181                0.960793905     -103.526589
9.182                0.960696318     -103.712477
9.183                0.960598565      -103.89883
9.184                0.960500647     -104.085648
9.185                0.960402564     -104.272932
9.186                0.960304318     -104.460683
9.187                 0.96020591     -104.648901
9.188                0.960107342     -104.837587
9.189                0.960008615     -105.026743
9.19                 0.959909729     -105.216368
9.191                0.959810687     -105.406464
9.192                 0.95971149     -105.597031
9.193                0.959612139      -105.78807
9.194                0.959512635     -105.979582
9.195                 0.95941298     -106.171568
9.196                0.959313176     -106.364028
9.197                0.959213223     -106.556963
9.198                0.959113124     -106.750373
9.199                0.959012879      -106.94426
9.2                  0.958912491     -107.138624
9.201                 0.95881196     -107.333466
9.202                0.958711289     -107.528787
9.203                0.958610479     -107.724586
9.204                0.958509532     -107.920866
9.205                0.958408449     -108.117626
9.206                0.958307232     -108.314867
9.207                0.958205882      -108.51259
9.208                0.958104402     -108.710795
9.209                0.958002792     -108.909483
9.21                 0.957901056     -109.108656
9.211                0.957799194     -109.308312
9.212                0.957697208     -109.508453
9.213                0.957595101      -109.70908
9.214                0.957492873     -109.910193
9.215                0.957390528     -110.111793
9.216                0.957288066     -110.313879
9.217                 0.95718549     -110.516454
9.218                0.957082801     -110.719517
9.219                0.956980003     -110.923069
9.22                 0.956877095      -111.12711
9.221                0.956774082     -111.331641
9.222                0.956670964     -111.536663
9.223                0.956567744     -111.742176
9.224                0.956464423      -111.94818
9.225                0.956361005     -112.154676
9.226                 0.95625749     -112.361665
9.227                0.956153882     -112.569146
9.228                0.956050182     -112.777121
9.229                0.955946393     -112.985589
9.23                 0.955842517     -113.194552
9.231                0.955738556     -113.404009
9.232                0.955634512     -113.613961
9.233                0.955530388     -113.824409
9.234                0.955426187     -114.035352
9.235                0.955321909     -114.246792
9.236                0.955217559     -114.458728
9.237                0.955113138     -114.671162
9.238                0.955008649     -114.884092
9.239                0.954904094      -115.09752
9.24                 0.954799476     -115.311446
9.241                0.954694797      -115.52587
9.242                 0.95459006     -115.740793
9.243                0.954485267     -115.956214
9.244                0.954380422     -116.172134
9.245                0.954275526     -116.388554
9.246                0.954170582     -116.605473
9.247                0.954065594     -116.822892
9.248                0.953960563     -117.040811
9.249                0.953855493      -117.25923
9.25                 0.953750386     -117.478149
9.251                0.953645246     -117.697569
9.252                0.953540074      -117.91749
9.253                0.953434874     -118.137911
9.254                0.953329649     -118.358834
9.255                0.953224401     -118.580257
9.256                0.953119133     -118.802182
9.257                 0.95301385     -119.024608
9.258                0.952908552     -119.247535
9.259                0.952803245     -119.470964
9.26                 0.952697929     -119.694895
9.261                 0.95259261     -119.919327
9.262                0.952487289      -120.14426
9.263                 0.95238197     -120.369695
9.264                0.952276656     -120.595631
9.265                 0.95217135     -120.822069
9.266                0.952066055     -121.049009
9.267                0.951960775     -121.276449
9.268                0.951855513     -121.504392
9.269                0.951750273     -121.732835
9.27                 0.951645056     -121.961779
9.271                0.951539868     -122.191225
9.272                0.951434711     -122.421171
9.273                0.951329588     -122.651618
9.274                0.951224504     -122.882566
9.275                0.951119461     -123.114014
9.276                0.951014463     -123.345962
9.277                0.950909514     -123.578409
9.278                0.950804616     -123.811357
9.279                0.950699775     -124.044804
9.28                 0.950594992      -124.27875
9.281                0.950490273     -124.513195
9.282                0.950385619     -124.748139
9.283                0.950281036      -124.98358
9.284                0.950176527      -125.21952
9.285                0.950072096     -125.455957
9.286                0.949967745     -125.692891
9.287                 0.94986348     -125.930322
9.288                0.949759304     -126.168249
9.289                 0.94965522     -126.406672
9.29                 0.949551233      -126.64559
9.291                0.949447346     -126.885003
9.292                0.949343564     -127.124911
9.293                0.949239889     -127.365313
9.294                0.949136328     -127.606208
9.295                0.949032882     -127.847595
9.296                0.948929556     -128.089475
9.297                0.948826355     -128.331847
9.298                0.948723282      -128.57471
9.299                0.948620341     -128.818063
9.3                  0.948517536     -129.061905
9.301                0.948414872     -129.306237
9.302                0.948312353     -129.551058
9.303                0.948209983     -129.796366
9.304                0.948107766      -130.04216
9.305                0.948005706     -130.288441
9.306                0.947903807     -130.535208
9.307                0.947802074     -130.782459
9.308                0.947700511     -131.030194
9.309                0.947599123     -131.278412
9.31                 0.947497913     -131.527112
9.311                0.947396886     -131.776293
9.312                0.947296046     -132.025954
9.313                0.947195399     -132.276095
9.314                0.947094947     -132.526714
9.315                0.946994696     -132.777811
9.316                 0.94689465     -133.029384
9.317                0.946794813     -133.281433
9.318                 0.94669519     -133.533956
9.319                0.946595786     -133.786953
9.32                 0.946496605     -134.040421
9.321                0.946397651     -134.294361
9.322                0.946298929     -134.548772
9.323                0.946200444     -134.803651
9.324                  0.9461022     -135.058997
9.325                0.946004202     -135.314811
9.326                0.945906455      -135.57109
9.327                0.945808962     -135.827833
9.328                0.945711729     -136.085039
9.329                0.945614761     -136.342706
9.33                 0.945518062     -136.600834
9.331                0.945421637      -136.85942
9.332                 0.94532549     -137.118465
9.333                0.945229627     -137.377965
9.334                0.945134051     -137.637921
9.335                0.945038768     -137.898329
9.336                0.944943783      -138.15919
9.337                  0.9448491     -138.420502
9.338                0.944754724     -138.682262
9.339                0.944660661      -138.94447
9.34                 0.944566913     -139.207123
9.341                0.944473488     -139.470222
9.342                0.944380389     -139.733763
9.343                 0.94428762     -139.997745
9.344                0.944195188     -140.262166
9.345                0.944103097     -140.527026
9.346                0.944011352     -140.792322
9.347                0.943919957     -141.058052
9.348                0.943828918     -141.324215
9.349                 0.94373824      -141.59081
9.35                 0.943647926     -141.857833
9.351                0.943557983     -142.125284
9.352                0.943468415      -142.39316
9.353                0.943379227     -142.661461
9.354                0.943290424     -142.930183
9.355                0.943202011     -143.199325
9.356                0.943113992     -143.468885
9.357                0.943026373     -143.738861
9.358                0.942939159     -144.009251
9.359                0.942852354     -144.280054
9.36                 0.942765964     -144.551266
9.361                0.942679993     -144.822887
9.362                0.942594446     -145.094913
9.363                0.942509328     -145.367344
9.364                0.942424645     -145.640176
9.365                  0.9423404     -145.913408
9.366                  0.9422566     -146.187037
9.367                0.942173248     -146.461062
9.368                 0.94209035     -146.735479
9.369                 0.94200791     -147.010288
9.37                 0.941925934     -147.285485
9.371                0.941844426     -147.561068
9.372                0.941763392     -147.837035
9.373                0.941682835     -148.113383
9.374                0.941602762     -148.390111
9.375                0.941523176     -148.667216
9.376                0.941444083     -148.944695
9.377                0.941365487     -149.222546
9.378                0.941287394     -149.500767
9.379                0.941209808     -149.779354
9.38                 0.941132733     -150.058306
9.381                0.941056175      -150.33762
9.382                0.940980139     -150.617294
9.383                0.940904629     -150.897324
9.384                 0.94082965     -151.177709
9.385                0.940755206     -151.458445
9.386                0.940681303      -151.73953
9.387                0.940607944     -152.020962
9.388                0.940535136     -152.302737
9.389                0.940462881     -152.584853
9.39                 0.940391186     -152.867307
9.391                0.940320054     -153.150096
9.392                 0.94024949     -153.433218
9.393                0.940179499      -153.71667
9.394                0.940110086     -154.000449
9.395                0.940041254     -154.284552
9.396                0.939973008     -154.568976
