! TOUCHSTONE file generated by CST DESIGN STUDIO
! Date and time: Tue Feb  4 15:46:13 2025
! Project name: C:\Work\MatlabApps\UnitCellOptimizationMatlab\CST\unitcell.cst
! Tree item: Tasks\Sweep1\SPara1\S-Parameters
! Header version: 2024
! Port assignment regex: !\s*Touchstone port\s*([0-9]+)\s*=\s*(CST MWS port|CST DES external port|CST DES block port)\s*(.+)\s* \(\"(.*)\"\)(\s*mode\s*([0-9]+))?.*
! Touchstone port assignment:
! Touchstone port 1 = CST DES external port 1 ("")
# GHz S MA R 50
9                    0.976353617     -65.6435745
9.001                0.976302511     -65.7363776
9.002                0.976251247     -65.8294002
9.003                0.976199826     -65.9226432
9.004                0.976148246     -66.0161071
9.005                0.976096508     -66.1097926
9.006                0.976044611     -66.2037005
9.007                0.975992554     -66.2978314
9.008                0.975940337      -66.392186
9.009                 0.97588796     -66.4867651
9.01                 0.975835421     -66.5815692
9.011                0.975782721     -66.6765991
9.012                0.975729859     -66.7718556
9.013                0.975676834     -66.8673392
9.014                0.975623647     -66.9630508
9.015                0.975570296     -67.0589909
9.016                0.975516781     -67.1551605
9.017                0.975463101       -67.25156
9.018                0.975409257     -67.3481903
9.019                0.975355247     -67.4450521
9.02                 0.975301071     -67.5421461
9.021                0.975246729      -67.639473
9.022                 0.97519222     -67.7370335
9.023                0.975137544     -67.8348284
9.024                0.975082699     -67.9328583
9.025                0.975027687     -68.0311241
9.026                0.974972505     -68.1296264
9.027                0.974917154     -68.2283661
9.028                0.974861634     -68.3273437
9.029                0.974805943     -68.4265601
9.03                 0.974750081      -68.526016
9.031                0.974694048     -68.6257122
9.032                0.974637843     -68.7256493
9.033                0.974581466     -68.8258282
9.034                0.974524916     -68.9262496
9.035                0.974468193     -69.0269142
9.036                0.974411296     -69.1278228
9.037                0.974354225     -69.2289762
9.038                0.974296979     -69.3303751
9.039                0.974239558     -69.4320202
9.04                 0.974181961     -69.5339124
9.041                0.974124188     -69.6360524
9.042                0.974066238      -69.738441
9.043                0.974008111     -69.8410789
9.044                0.973949806     -69.9439669
9.045                0.973891324     -70.0471059
9.046                0.973832662     -70.1504965
9.047                0.973773821     -70.2541395
9.048                0.973714801     -70.3580358
9.049                  0.9736556     -70.4621861
9.05                 0.973596219     -70.5665912
9.051                0.973536656     -70.6712519
9.052                0.973476912      -70.776169
9.053                0.973416986     -70.8813432
9.054                0.973356877     -70.9867755
9.055                0.973296585     -71.0924665
9.056                0.973236109     -71.1984171
9.057                 0.97317545      -71.304628
9.058                0.973114605     -71.4111002
9.059                0.973053576     -71.5178343
9.06                 0.972992361     -71.6248313
9.061                 0.97293096     -71.7320918
9.062                0.972869373     -71.8396168
9.063                0.972807598      -71.947407
9.064                0.972745636     -72.0554633
9.065                0.972683486     -72.1637864
9.066                0.972621147     -72.2723773
9.067                 0.97255862     -72.3812367
9.068                0.972495903     -72.4903655
9.069                0.972432996     -72.5997644
9.07                 0.972369898     -72.7094344
9.071                 0.97230661     -72.8193763
9.072                 0.97224313     -72.9295908
9.073                0.972179459     -73.0400789
9.074                0.972115595     -73.1508413
9.075                0.972051538      -73.261879
9.076                0.971987288     -73.3731928
9.077                0.971922844     -73.4847835
9.078                0.971858206     -73.5966519
9.079                0.971793373      -73.708799
9.08                 0.971728345     -73.8212255
9.081                0.971663121     -73.9339324
9.082                0.971597701     -74.0469205
9.083                0.971532085     -74.1601906
9.084                0.971466271     -74.2737437
9.085                 0.97140026     -74.3875805
9.086                 0.97133405      -74.501702
9.087                0.971267643     -74.6161091
9.088                0.971201036     -74.7308026
9.089                 0.97113423     -74.8457833
9.09                 0.971067224     -74.9610522
9.091                0.971000017     -75.0766101
9.092                 0.97093261      -75.192458
9.093                0.970865002     -75.3085967
9.094                0.970797192      -75.425027
9.095                 0.97072918       -75.54175
9.096                0.970660965     -75.6587664
9.097                0.970592547     -75.7760772
9.098                0.970523925     -75.8936833
9.099                  0.9704551     -76.0115855
9.1                   0.97038607     -76.1297848
9.101                0.970316835      -76.248282
9.102                0.970247395     -76.3670782
9.103                 0.97017775     -76.4861741
9.104                0.970107898     -76.6055706
9.105                 0.97003784     -76.7252688
9.106                0.969967574     -76.8452695
9.107                0.969897102     -76.9655737
9.108                0.969826421     -77.0861821
9.109                0.969755532     -77.2070959
9.11                 0.969684434     -77.3283158
9.111                0.969613127     -77.4498428
9.112                0.969541611     -77.5716779
9.113                0.969469885     -77.6938219
9.114                0.969397948     -77.8162758
9.115                0.969325801     -77.9390405
9.116                0.969253442      -78.062117
9.117                0.969180872     -78.1855062
9.118                 0.96910809     -78.3092091
9.119                0.969035095     -78.4332265
9.12                 0.968961888     -78.5575594
9.121                0.968888468     -78.6822088
9.122                0.968814834     -78.8071755
9.123                0.968740986     -78.9324607
9.124                0.968666924     -79.0580651
9.125                0.968592647     -79.1839898
9.126                0.968518155     -79.3102357
9.127                0.968443447     -79.4368038
9.128                0.968368524      -79.563695
9.129                0.968293385     -79.6909103
9.13                 0.968218029     -79.8184506
9.131                0.968142456      -79.946317
9.132                0.968066666     -80.0745103
9.133                0.967990659     -80.2030316
9.134                0.967914433     -80.3318817
9.135                 0.96783799     -80.4610618
9.136                0.967761327     -80.5905727
9.137                0.967684446     -80.7204154
9.138                0.967607346      -80.850591
9.139                0.967530026     -80.9811003
9.14                 0.967452486     -81.1119444
9.141                0.967374726     -81.2431243
9.142                0.967296745     -81.3746408
9.143                0.967218544     -81.5064951
9.144                0.967140121     -81.6386881
9.145                0.967061478     -81.7712208
9.146                0.966982612     -81.9040942
9.147                0.966903524     -82.0373092
9.148                0.966824215     -82.1708669
9.149                0.966744682     -82.3047682
9.15                 0.966664927     -82.4390142
9.151                0.966584949     -82.5736059
9.152                0.966504747     -82.7085442
9.153                0.966424322     -82.8438302
9.154                0.966343673     -82.9794648
9.155                  0.9662628     -83.1154491
9.156                0.966181702      -83.251784
9.157                 0.96610038     -83.3884707
9.158                0.966018834       -83.52551
9.159                0.965937062     -83.6629029
9.16                 0.965855065     -83.8006506
9.161                0.965772843      -83.938754
9.162                0.965690395     -84.0772141
9.163                0.965607721      -84.216032
9.164                0.965524821     -84.3552086
9.165                0.965441695      -84.494745
9.166                0.965358343     -84.6346422
9.167                0.965274764     -84.7749012
9.168                0.965190959      -84.915523
9.169                0.965106926     -85.0565087
9.17                 0.965022667     -85.1978593
9.171                0.964938181     -85.3395757
9.172                0.964853467     -85.4816591
9.173                0.964768526     -85.6241104
9.174                0.964683358     -85.7669308
9.175                0.964597961     -85.9101211
9.176                0.964512338     -86.0536824
9.177                0.964426486     -86.1976158
9.178                0.964340406     -86.3419224
9.179                0.964254099      -86.486603
9.18                 0.964167563     -86.6316588
9.181                  0.9640808     -86.7770908
9.182                0.963993808        -86.9229
9.183                0.963906588     -87.0690875
9.184                 0.96381914     -87.2156543
9.185                0.963731463     -87.3626014
9.186                0.963643558     -87.5099298
9.187                0.963555425     -87.6576407
9.188                0.963467064      -87.805735
9.189                0.963378474     -87.9542138
9.19                 0.963289656     -88.1030781
9.191                 0.96320061      -88.252329
9.192                0.963111335     -88.4019674
9.193                0.963021832     -88.5519945
9.194                0.962932102     -88.7024113
9.195                0.962842143     -88.8532188
9.196                0.962751956      -89.004418
9.197                0.962661541     -89.1560101
9.198                0.962570898     -89.3079959
9.199                0.962480028     -89.4603767
9.2                   0.96238893     -89.6131534
9.201                0.962297605      -89.766327
9.202                0.962206052     -89.9198986
9.203                0.962114272     -90.0738693
9.204                0.962022265       -90.22824
9.205                0.961930031     -90.3830118
9.206                0.961837571     -90.5381859
9.207                0.961744884     -90.6937631
9.208                0.961651971     -90.8497445
9.209                0.961558831     -91.0061313
9.21                 0.961465466     -91.1629243
9.211                0.961371875     -91.3201247
9.212                0.961278059     -91.4777335
9.213                0.961184018     -91.6357517
9.214                0.961089752     -91.7941804
9.215                0.960995261     -91.9530206
9.216                0.960900547     -92.1122733
9.217                0.960805608     -92.2719396
9.218                0.960710445     -92.4320205
9.219                 0.96061506     -92.5925171
9.22                 0.960519451     -92.7534303
9.221                 0.96042362     -92.9147612
9.222                0.960327567     -93.0765109
9.223                0.960231292     -93.2386803
9.224                0.960134796     -93.4012705
9.225                0.960038079     -93.5642825
9.226                0.959941141     -93.7277174
9.227                0.959843983     -93.8915761
9.228                0.959746606     -94.0558597
9.229                0.959649009     -94.2205692
9.23                 0.959551194     -94.3857057
9.231                0.959453161       -94.55127
9.232                 0.95935491     -94.7172634
9.233                0.959256442     -94.8836867
9.234                0.959157757     -95.0505411
9.235                0.959058857     -95.2178274
9.236                0.958959741     -95.3855467
9.237                 0.95886041     -95.5537001
9.238                0.958760866     -95.7222884
9.239                0.958661107     -95.8913129
9.24                 0.958561136     -96.0607743
9.241                0.958460953     -96.2306738
9.242                0.958360558     -96.4010122
9.243                0.958259953     -96.5717908
9.244                0.958159137     -96.7430103
9.245                0.958058112     -96.9146718
9.246                0.957956878     -97.0867763
9.247                0.957855436     -97.2593248
9.248                0.957753787     -97.4323182
9.249                0.957651932     -97.6057576
9.25                 0.957549872     -97.7796439
9.251                0.957447607      -97.953978
9.252                0.957345138      -98.128761
9.253                0.957242466     -98.3039939
9.254                0.957139592     -98.4796775
9.255                0.957036517     -98.6558128
9.256                0.956933242     -98.8324009
9.257                0.956829768     -99.0094426
9.258                0.956726095     -99.1869389
9.259                0.956622225     -99.3648908
9.26                 0.956518159     -99.5432992
9.261                0.956413897      -99.722165
9.262                0.956309442     -99.9014891
9.263                0.956204793     -100.081273
9.264                0.956099952     -100.261516
9.265                0.955994921     -100.442221
9.266                0.955889699     -100.623388
9.267                0.955784289     -100.805018
9.268                0.955678691     -100.987112
9.269                0.955572907      -101.16967
9.27                 0.955466938     -101.352695
9.271                0.955360785     -101.536186
9.272                 0.95525445     -101.720144
9.273                0.955147933     -101.904571
9.274                0.955041236     -102.089467
9.275                 0.95493436     -102.274833
9.276                0.954827307      -102.46067
9.277                0.954720078     -102.646979
9.278                0.954612675     -102.833761
9.279                0.954505098     -103.021017
9.28                 0.954397349     -103.208747
9.281                 0.95428943     -103.396952
9.282                0.954181342     -103.585633
9.283                0.954073087     -103.774791
9.284                0.953964666     -103.964427
9.285                0.953856081     -104.154542
9.286                0.953747333     -104.345136
9.287                0.953638424     -104.536211
9.288                0.953529356     -104.727766
9.289                 0.95342013     -104.919804
9.29                 0.953310747     -105.112323
9.291                0.953201211     -105.305327
9.292                0.953091521     -105.498814
9.293                 0.95298168     -105.692787
9.294                0.952871691     -105.887245
9.295                0.952761553      -106.08219
9.296                0.952651271     -106.277622
9.297                0.952540844     -106.473542
9.298                0.952430276     -106.669951
9.299                0.952319567     -106.866849
9.3                  0.952208721     -107.064237
9.301                0.952097738     -107.262116
9.302                0.951986622     -107.460487
9.303                0.951875373      -107.65935
9.304                0.951763994     -107.858706
9.305                0.951652487     -108.058556
9.306                0.951540855       -108.2589
9.307                0.951429098     -108.459739
9.308                 0.95131722     -108.661073
9.309                0.951205222     -108.862904
9.31                 0.951093107     -109.065232
9.311                0.950980877     -109.268057
9.312                0.950868534     -109.471381
9.313                 0.95075608     -109.675203
9.314                0.950643518     -109.879524
9.315                0.950530851     -110.084346
9.316                0.950418079     -110.289668
9.317                0.950305207     -110.495491
9.318                0.950192236     -110.701816
9.319                0.950079169     -110.908643
9.32                 0.949966007     -111.115973
9.321                0.949852755     -111.323806
9.322                0.949739414     -111.532143
9.323                0.949625986     -111.740984
9.324                0.949512475      -111.95033
9.325                0.949398883     -112.160181
9.326                0.949285213     -112.370538
9.327                0.949171467     -112.581402
9.328                0.949057648     -112.792772
9.329                0.948943759     -113.004649
9.33                 0.948829803     -113.217034
9.331                0.948715782     -113.429927
9.332                0.948601699     -113.643328
9.333                0.948487558     -113.857238
9.334                 0.94837336     -114.071657
9.335                 0.94825911     -114.286586
9.336                0.948144809     -114.502025
9.337                0.948030462     -114.717974
9.338                 0.94791607     -114.934433
9.339                0.947801637     -115.151404
9.34                 0.947687166     -115.368885
9.341                 0.94757266     -115.586879
9.342                0.947458123     -115.805384
9.343                0.947343557     -116.024401
9.344                0.947228966     -116.243931
9.345                0.947114353     -116.463973
9.346                0.946999721     -116.684528
9.347                0.946885073     -116.905596
9.348                0.946770413     -117.127177
9.349                0.946655745     -117.349272
9.35                  0.94654107      -117.57188
9.351                0.946426394     -117.795002
9.352                 0.94631172     -118.018638
9.353                 0.94619705     -118.242788
9.354                0.946082389     -118.467452
9.355                0.945967739     -118.692631
9.356                0.945853105     -118.918324
9.357                0.945738491     -119.144531
9.358                0.945623899     -119.371253
9.359                0.945509333     -119.598489
9.36                 0.945394798     -119.826239
9.361                0.945280297     -120.054505
9.362                0.945165833     -120.283285
9.363                0.945051411     -120.512579
9.364                0.944937034     -120.742388
9.365                0.944822707     -120.972711
9.366                0.944708432     -121.203548
9.367                0.944594215       -121.4349
9.368                0.944480058     -121.666766
9.369                0.944365966     -121.899146
9.37                 0.944251943     -122.132039
9.371                0.944137993     -122.365447
9.372                 0.94402412     -122.599368
9.373                0.943910329     -122.833802
9.374                0.943796622      -123.06875
9.375                0.943683005      -123.30421
9.376                0.943569482     -123.540183
9.377                0.943456056     -123.776668
9.378                0.943342733     -124.013666
9.379                0.943229516     -124.251175
9.38                 0.943116409     -124.489196
9.381                0.943003418     -124.727727
9.382                0.942890546      -124.96677
9.383                0.942777798     -125.206323
9.384                0.942665178     -125.446386
9.385                0.942552691     -125.686958
9.386                0.942440341      -125.92804
9.387                0.942328133      -126.16963
9.388                0.942216071     -126.411729
9.389                 0.94210416     -126.654335
9.39                 0.941992405     -126.897448
9.391                0.941880809     -127.141068
9.392                0.941769378     -127.385195
9.393                0.941658117     -127.629826
9.394                0.941547029     -127.874963
9.395                0.941436121     -128.120604
9.396                0.941325396     -128.366748
