! TOUCHSTONE file generated by CST DESIGN STUDIO
! Date and time: Tue Feb  4 15:46:09 2025
! Project name: C:\Work\MatlabApps\UnitCellOptimizationMatlab\CST\unitcell.cst
! Tree item: Tasks\Sweep1\SPara1\S-Parameters
! Header version: 2024
! Port assignment regex: !\s*Touchstone port\s*([0-9]+)\s*=\s*(CST MWS port|CST DES external port|CST DES block port)\s*(.+)\s* \(\"(.*)\"\)(\s*mode\s*([0-9]+))?.*
! Touchstone port assignment:
! Touchstone port 1 = CST DES external port 1 ("")
# GHz S MA R 50
9                    0.975846458     -70.1784081
9.001                0.975790767     -70.2809862
9.002                0.975734906     -70.3838127
9.003                0.975678874     -70.4868886
9.004                0.975622672     -70.5902145
9.005                0.975566298     -70.6937912
9.006                0.975509753     -70.7976195
9.007                0.975453035     -70.9017001
9.008                0.975396144     -71.0060338
9.009                 0.97533908     -71.1106215
9.01                 0.975281843     -71.2154639
9.011                0.975224431     -71.3205617
9.012                0.975166845     -71.4259158
9.013                0.975109084     -71.5315269
9.014                0.975051147     -71.6373958
9.015                0.974993035     -71.7435234
9.016                0.974934746     -71.8499104
9.017                 0.97487628     -71.9565576
9.018                0.974817637     -72.0634659
9.019                0.974758816     -72.1706359
9.02                 0.974699816     -72.2780686
9.021                0.974640638     -72.3857646
9.022                0.974581281      -72.493725
9.023                0.974521744     -72.6019503
9.024                0.974462028     -72.7104415
9.025                 0.97440213     -72.8191994
9.026                0.974342052     -72.9282248
9.027                0.974281792     -73.0375184
9.028                0.974221351     -73.1470812
9.029                0.974160727      -73.256914
9.03                  0.97409992     -73.3670175
9.031                 0.97403893     -73.4773926
9.032                0.973977756     -73.5880401
9.033                0.973916398     -73.6989609
9.034                0.973854856     -73.8101558
9.035                0.973793128     -73.9216256
9.036                0.973731215     -74.0333712
9.037                0.973669116     -74.1453934
9.038                0.973606831     -74.2576931
9.039                0.973544359     -74.3702711
9.04                   0.9734817     -74.4831282
9.041                0.973418853     -74.5962653
9.042                0.973355818     -74.7096833
9.043                0.973292594     -74.8233829
9.044                0.973229181     -74.9373652
9.045                0.973165579     -75.0516308
9.046                0.973101787     -75.1661807
9.047                0.973037804     -75.2810158
9.048                0.972973631     -75.3961369
9.049                0.972909267     -75.5115448
9.05                 0.972844711     -75.6272405
9.051                0.972779963     -75.7432249
9.052                0.972715023     -75.8594987
9.053                0.972649889     -75.9760628
9.054                0.972584563     -76.0929182
9.055                0.972519042     -76.2100658
9.056                0.972453328     -76.3275063
9.057                0.972387419     -76.4452407
9.058                0.972321315     -76.5632699
9.059                0.972255015     -76.6815948
9.06                  0.97218852     -76.8002162
9.061                0.972121828     -76.9191351
9.062                 0.97205494     -77.0383523
9.063                0.971987855     -77.1578687
9.064                0.971920572     -77.2776853
9.065                0.971853092     -77.3978029
9.066                0.971785413     -77.5182225
9.067                0.971717536     -77.6389449
9.068                 0.97164946      -77.759971
9.069                0.971581184     -77.8813018
9.07                 0.971512708     -78.0029382
9.071                0.971444032     -78.1248811
9.072                0.971375156     -78.2471314
9.073                0.971306078       -78.36969
9.074                  0.9712368     -78.4925578
9.075                0.971167319     -78.6157358
9.076                0.971097637     -78.7392249
9.077                0.971027752      -78.863026
9.078                0.970957664       -78.98714
9.079                0.970887372     -79.1115678
9.08                 0.970816878     -79.2363105
9.081                0.970746179     -79.3613689
9.082                0.970675276      -79.486744
9.083                0.970604169     -79.6124366
9.084                0.970532856     -79.7384478
9.085                0.970461338     -79.8647785
9.086                0.970389614     -79.9914295
9.087                0.970317685      -80.118402
9.088                0.970245548     -80.2456967
9.089                0.970173206     -80.3733147
9.09                 0.970100656     -80.5012569
9.091                0.970027899     -80.6295242
9.092                0.969954934     -80.7581177
9.093                0.969881761     -80.8870382
9.094                0.969808379     -81.0162867
9.095                0.969734789     -81.1458642
9.096                0.969660991     -81.2757717
9.097                0.969586982       -81.40601
9.098                0.969512765     -81.5365802
9.099                0.969438337     -81.6674832
9.1                  0.969363699       -81.79872
9.101                0.969288851     -81.9302916
9.102                0.969213792     -82.0621989
9.103                0.969138522     -82.1944429
9.104                0.969063041     -82.3270246
9.105                0.968987349     -82.4599449
9.106                0.968911444     -82.5932048
9.107                0.968835328     -82.7268053
9.108                0.968758999     -82.8607474
9.109                0.968682457      -82.995032
9.11                 0.968605703     -83.1296602
9.111                0.968528735     -83.2646329
9.112                0.968451555     -83.3999512
9.113                 0.96837416     -83.5356159
9.114                0.968296552     -83.6716281
9.115                 0.96821873     -83.8079887
9.116                0.968140694     -83.9446988
9.117                0.968062444     -84.0817594
9.118                0.967983978     -84.2191714
9.119                0.967905298     -84.3569358
9.12                 0.967826403     -84.4950536
9.121                0.967747293     -84.6335259
9.122                0.967667968     -84.7723536
9.123                0.967588427     -84.9115377
9.124                 0.96750867     -85.0510793
9.125                0.967428697     -85.1909792
9.126                0.967348508     -85.3312386
9.127                0.967268103     -85.4718584
9.128                0.967187482     -85.6128396
9.129                0.967106644     -85.7541833
9.13                  0.96702559     -85.8958904
9.131                0.966944319     -86.0379619
9.132                0.966862831     -86.1803989
9.133                0.966781126     -86.3232024
9.134                0.966699205     -86.4663733
9.135                0.966617066     -86.6099127
9.136                0.966534709     -86.7538216
9.137                0.966452136      -86.898101
9.138                0.966369345      -87.042752
9.139                0.966286337     -87.1877754
9.14                 0.966203111     -87.3331724
9.141                0.966119668     -87.4789439
9.142                0.966036007      -87.625091
9.143                0.965952128     -87.7716147
9.144                0.965868032      -87.918516
9.145                0.965783718     -88.0657959
9.146                0.965699186     -88.2134555
9.147                0.965614437     -88.3614957
9.148                 0.96552947     -88.5099176
9.149                0.965444285     -88.6587221
9.15                 0.965358883     -88.8079104
9.151                0.965273263     -88.9574834
9.152                0.965187425     -89.1074421
9.153                 0.96510137     -89.2577877
9.154                0.965015098     -89.4085209
9.155                0.964928608      -89.559643
9.156                0.964841901     -89.7111549
9.157                0.964754976     -89.8630577
9.158                0.964667835     -90.0153523
9.159                0.964580476     -90.1680398
9.16                 0.964492901     -90.3211212
9.161                0.964405109     -90.4745975
9.162                  0.9643171     -90.6284697
9.163                0.964228874     -90.7827389
9.164                0.964140433     -90.9374061
9.165                0.964051775     -91.0924723
9.166                0.963962901     -91.2479384
9.167                0.963873812     -91.4038056
9.168                0.963784506     -91.5600749
9.169                0.963694986     -91.7167472
9.17                  0.96360525     -91.8738236
9.171                0.963515299      -92.031305
9.172                0.963425134     -92.1891926
9.173                0.963334754     -92.3474873
9.174                 0.96324416     -92.5061902
9.175                0.963153353     -92.6653021
9.176                0.963062331     -92.8248243
9.177                0.962971097     -92.9847576
9.178                0.962879649     -93.1451031
9.179                0.962787989     -93.3058617
9.18                 0.962696116     -93.4670346
9.181                0.962604032     -93.6286227
9.182                0.962511735      -93.790627
9.183                0.962419228     -93.9530484
9.184                 0.96232651     -94.1158881
9.185                0.962233582      -94.279147
9.186                0.962140443     -94.4428262
9.187                0.962047095     -94.6069265
9.188                0.961953538      -94.771449
9.189                0.961859772     -94.9363948
9.19                 0.961765798     -95.1017647
9.191                0.961671616     -95.2675599
9.192                0.961577227     -95.4337812
9.193                0.961482632     -95.6004297
9.194                 0.96138783     -95.7675063
9.195                0.961292823     -95.9350121
9.196                 0.96119761      -96.102948
9.197                0.961102193      -96.271315
9.198                0.961006573     -96.4401141
9.199                0.960910749     -96.6093462
9.2                  0.960814722     -96.7790124
9.201                0.960718493     -96.9491136
9.202                0.960622063     -97.1196507
9.203                0.960525432     -97.2906248
9.204                0.960428601     -97.4620368
9.205                0.960331571     -97.6338877
9.206                0.960234342     -97.8061784
9.207                0.960136915     -97.9789098
9.208                0.960039291      -98.152083
9.209                 0.95994147     -98.3256989
9.21                 0.959843454     -98.4997583
9.211                0.959745243     -98.6742624
9.212                0.959646838      -98.849212
9.213                 0.95954824      -99.024608
9.214                 0.95944945     -99.2004514
9.215                0.959350468     -99.3767431
9.216                0.959251295      -99.553484
9.217                0.959151933     -99.7306752
9.218                0.959052382     -99.9083174
9.219                0.958952643     -100.086412
9.22                 0.958852717     -100.264959
9.221                0.958752605      -100.44396
9.222                0.958652309     -100.623415
9.223                0.958551828     -100.803327
9.224                0.958451165     -100.983694
9.225                0.958350319      -101.16452
9.226                0.958249293     -101.345803
9.227                0.958148087     -101.527546
9.228                0.958046703     -101.709749
9.229                0.957945141     -101.892412
9.23                 0.957843403     -102.075538
9.231                 0.95774149     -102.259126
9.232                0.957639402     -102.443178
9.233                0.957537142     -102.627694
9.234                0.957434711     -102.812675
9.235                0.957332109     -102.998122
9.236                0.957229338     -103.184037
9.237                0.957126399     -103.370419
9.238                0.957023294      -103.55727
9.239                0.956920024      -103.74459
9.24                  0.95681659      -103.93238
9.241                0.956712994     -104.120641
9.242                0.956609237     -104.309374
9.243                 0.95650532      -104.49858
9.244                0.956401245     -104.688259
9.245                0.956297013     -104.878413
9.246                0.956192627     -105.069041
9.247                0.956088086     -105.260146
9.248                0.955983394     -105.451726
9.249                0.955878551     -105.643785
9.25                 0.955773559     -105.836321
9.251                0.955668419     -106.029336
9.252                0.955563134      -106.22283
9.253                0.955457704     -106.416805
9.254                0.955352133     -106.611261
9.255                 0.95524642     -106.806199
9.256                0.955140568     -107.001619
9.257                0.955034579     -107.197522
9.258                0.954928454     -107.393909
9.259                0.954822196      -107.59078
9.26                 0.954715806     -107.788137
9.261                0.954609285      -107.98598
9.262                0.954502636     -108.184309
9.263                0.954395861     -108.383126
9.264                0.954288962      -108.58243
9.265                 0.95418194     -108.782223
9.266                0.954074797     -108.982505
9.267                0.953967536     -109.183277
9.268                0.953860158      -109.38454
9.269                0.953752666     -109.586293
9.27                 0.953645061     -109.788538
9.271                0.953537346     -109.991275
9.272                0.953429522     -110.194505
9.273                0.953321593     -110.398228
9.274                0.953213559     -110.602445
9.275                0.953105424     -110.807157
9.276                0.952997189     -111.012364
9.277                0.952888857     -111.218066
9.278                 0.95278043     -111.424264
9.279                 0.95267191     -111.630959
9.28                   0.9525633     -111.838151
9.281                0.952454602      -112.04584
9.282                0.952345818     -112.254027
9.283                0.952236951     -112.462713
9.284                0.952128003     -112.671898
9.285                0.952018977     -112.881583
9.286                0.951909875     -113.091767
9.287                  0.9518007     -113.302452
9.288                0.951691454     -113.513637
9.289                0.951582139     -113.725324
9.29                 0.951472759     -113.937511
9.291                0.951363316     -114.150201
9.292                0.951253813     -114.363393
9.293                0.951144253     -114.577088
9.294                0.951034637     -114.791286
9.295                0.950924969     -115.005987
9.296                0.950815252     -115.221191
9.297                0.950705488       -115.4369
9.298                 0.95059568     -115.653113
9.299                0.950485832      -115.86983
9.3                  0.950375945     -116.087052
9.301                0.950266024     -116.304779
9.302                 0.95015607     -116.523012
9.303                0.950046087      -116.74175
9.304                0.949936078     -116.960993
9.305                0.949826046     -117.180743
9.306                0.949715993     -117.400999
9.307                0.949605924     -117.621761
9.308                0.949495841     -117.843029
9.309                0.949385747     -118.064804
9.31                 0.949275645     -118.287086
9.311                0.949165539     -118.509875
9.312                0.949055432     -118.733171
9.313                0.948945328     -118.956974
9.314                0.948835228     -119.181284
9.315                0.948725137     -119.406101
9.316                0.948615059     -119.631426
9.317                0.948504996     -119.857257
9.318                0.948394951     -120.083597
9.319                0.948284929     -120.310443
9.32                 0.948174933     -120.537797
9.321                0.948064966     -120.765658
9.322                0.947955032     -120.994026
9.323                0.947845134     -121.222901
9.324                0.947735276     -121.452284
9.325                0.947625462     -121.682173
9.326                0.947515695     -121.912569
9.327                0.947405978     -122.143472
9.328                0.947296316     -122.374882
9.329                0.947186713     -122.606798
9.33                 0.947077171      -122.83922
9.331                0.946967695     -123.072149
9.332                0.946858289     -123.305583
9.333                0.946748956     -123.539523
9.334                0.946639701     -123.773968
9.335                0.946530527     -124.008918
9.336                0.946421437     -124.244373
9.337                0.946312437     -124.480332
9.338                 0.94620353     -124.716796
9.339                 0.94609472     -124.953764
9.34                 0.945986011     -125.191235
9.341                0.945877407     -125.429209
9.342                0.945768912     -125.667686
9.343                0.945660531     -125.906665
9.344                0.945552267     -126.146146
9.345                0.945444125     -126.386128
9.346                0.945336108     -126.626612
9.347                0.945228222     -126.867595
9.348                 0.94512047     -127.109079
9.349                0.945012856     -127.351062
9.35                 0.944905385     -127.593544
9.351                0.944798062     -127.836525
9.352                0.944690889     -128.080003
9.353                0.944583873     -128.323978
9.354                0.944477017     -128.568449
9.355                0.944370326     -128.813416
9.356                0.944263804     -129.058879
9.357                0.944157456     -129.304836
9.358                0.944051285     -129.551286
9.359                0.943945298      -129.79823
9.36                 0.943839497     -130.045666
9.361                0.943733888     -130.293593
9.362                0.943628476     -130.542011
9.363                0.943523265     -130.790919
9.364                0.943418259     -131.040316
9.365                0.943313463     -131.290201
9.366                0.943208882     -131.540573
9.367                0.943104521     -131.791431
9.368                0.943000385     -132.042775
9.369                0.942896477     -132.294604
9.37                 0.942792803     -132.546916
9.371                0.942689368      -132.79971
9.372                0.942586176     -133.052986
9.373                0.942483232     -133.306743
9.374                0.942380542     -133.560978
9.375                0.942278109     -133.815692
9.376                 0.94217594     -134.070884
9.377                0.942074038     -134.326551
9.378                0.941972408     -134.582693
9.379                0.941871056     -134.839309
9.38                 0.941769987     -135.096398
9.381                0.941669205     -135.353958
9.382                0.941568716     -135.611988
9.383                0.941468524     -135.870486
9.384                0.941368635     -136.129452
9.385                0.941269053     -136.388885
9.386                0.941169783     -136.648782
9.387                0.941070831     -136.909143
9.388                0.940972202     -137.169965
9.389                0.940873901     -137.431249
9.39                 0.940775932     -137.692992
9.391                0.940678301     -137.955192
9.392                0.940581013     -138.217849
9.393                0.940484074      -138.48096
9.394                0.940387488     -138.744525
9.395                 0.94029126     -139.008542
9.396                0.940195396     -139.273008
