! TOUCHSTONE file generated by CST DESIGN STUDIO
! Date and time: Tue Feb  4 15:46:11 2025
! Project name: C:\Work\MatlabApps\UnitCellOptimizationMatlab\CST\unitcell.cst
! Tree item: Tasks\Sweep1\SPara1\S-Parameters
! Header version: 2024
! Port assignment regex: !\s*Touchstone port\s*([0-9]+)\s*=\s*(CST MWS port|CST DES external port|CST DES block port)\s*(.+)\s* \(\"(.*)\"\)(\s*mode\s*([0-9]+))?.*
! Touchstone port assignment:
! Touchstone port 1 = CST DES external port 1 ("")
# GHz S MA R 50
9                     0.97609317     -67.9287409
9.001                 0.97603963     -68.0263959
9.002                0.975985927     -68.1242848
9.003                0.975932062     -68.2224083
9.004                0.975878032      -68.320767
9.005                0.975823838     -68.4193617
9.006                0.975769479     -68.5181932
9.007                0.975714956     -68.6172622
9.008                0.975660266     -68.7165694
9.009                 0.97560541     -68.8161155
9.01                 0.975550388     -68.9159014
9.011                0.975495199     -69.0159277
9.012                0.975439842     -69.1161951
9.013                0.975384317     -69.2167045
9.014                0.975328624     -69.3174566
9.015                0.975272761      -69.418452
9.016                0.975216729     -69.5196917
9.017                0.975160528     -69.6211763
9.018                0.975104156     -69.7229066
9.019                0.975047613     -69.8248833
9.02                 0.974990899     -69.9271072
9.021                0.974934013     -70.0295791
9.022                0.974876955     -70.1322998
9.023                0.974819724     -70.2352699
9.024                 0.97476232     -70.3384904
9.025                0.974704742     -70.4419619
9.026                 0.97464699     -70.5456852
9.027                0.974589064     -70.6496611
9.028                0.974530962     -70.7538904
9.029                0.974472685     -70.8583739
9.03                 0.974414233     -70.9631123
9.031                0.974355603     -71.0681065
9.032                0.974296797     -71.1733572
9.033                0.974237813     -71.2788652
9.034                0.974178652     -71.3846313
9.035                0.974119312     -71.4906564
9.036                0.974059793     -71.5969411
9.037                0.974000095     -71.7034864
9.038                0.973940218     -71.8102929
9.039                 0.97388016     -71.9173616
9.04                 0.973819921     -72.0246932
9.041                0.973759502     -72.1322885
9.042                0.973698901     -72.2401484
9.043                0.973638118     -72.3482736
9.044                0.973577152      -72.456665
9.045                0.973516003     -72.5653233
9.046                0.973454671     -72.6742495
9.047                0.973393155     -72.7834444
9.048                0.973331455     -72.8929086
9.049                 0.97326957     -73.0026432
9.05                   0.9732075     -73.1126489
9.051                0.973145244     -73.2229265
9.052                0.973082801      -73.333477
9.053                0.973020173      -73.444301
9.054                0.972957357     -73.5553995
9.055                0.972894353     -73.6667733
9.056                0.972831162     -73.7784232
9.057                0.972767782     -73.8903501
9.058                0.972704213     -74.0025549
9.059                0.972640455     -74.1150383
9.06                 0.972576507     -74.2278013
9.061                0.972512369     -74.3408447
9.062                0.972448041     -74.4541693
9.063                0.972383521      -74.567776
9.064                0.972318809     -74.6816657
9.065                0.972253906     -74.7958392
9.066                 0.97218881     -74.9102974
9.067                0.972123521     -75.0250412
9.068                0.972058039     -75.1400714
9.069                0.971992363      -75.255389
9.07                 0.971926493     -75.3709947
9.071                0.971860429     -75.4868894
9.072                0.971794169     -75.6030741
9.073                0.971727714     -75.7195496
9.074                0.971661063     -75.8363168
9.075                0.971594215     -75.9533766
9.076                0.971527171     -76.0707299
9.077                 0.97145993     -76.1883775
9.078                0.971392491     -76.3063204
9.079                0.971324854     -76.4245594
9.08                 0.971257018     -76.5430955
9.081                0.971188984     -76.6619295
9.082                 0.97112075     -76.7810624
9.083                0.971052317      -76.900495
9.084                0.970983684     -77.0202282
9.085                 0.97091485      -77.140263
9.086                0.970845815     -77.2606003
9.087                0.970776579     -77.3812409
9.088                0.970707141     -77.5021858
9.089                0.970637501     -77.6234359
9.09                 0.970567659     -77.7449922
9.091                0.970497614     -77.8668554
9.092                0.970427365     -77.9890266
9.093                0.970356913     -78.1115068
9.094                0.970286257     -78.2342967
9.095                0.970215396     -78.3573973
9.096                0.970144331     -78.4808096
9.097                 0.97007306     -78.6045345
9.098                0.970001584     -78.7285729
9.099                0.969929902     -78.8529258
9.1                  0.969858013     -78.9775941
9.101                0.969785918     -79.1025787
9.102                0.969713616     -79.2278806
9.103                0.969641107     -79.3535007
9.104                 0.96956839       -79.47944
9.105                0.969495464     -79.6056994
9.106                0.969422331     -79.7322798
9.107                0.969348988     -79.8591823
9.108                0.969275436     -79.9864077
9.109                0.969201675      -80.113957
9.11                 0.969127705     -80.2418312
9.111                0.969053524     -80.3700312
9.112                0.968979132      -80.498558
9.113                 0.96890453     -80.6274126
9.114                0.968829717     -80.7565959
9.115                0.968754692     -80.8861088
9.116                0.968679456     -81.0159524
9.117                0.968604008     -81.1461276
9.118                0.968528347     -81.2766354
9.119                0.968452474     -81.4074767
9.12                 0.968376388     -81.5386526
9.121                0.968300088      -81.670164
9.122                0.968223576     -81.8020118
9.123                0.968146849     -81.9341971
9.124                0.968069908     -82.0667209
9.125                0.967992753      -82.199584
9.126                0.967915384     -82.3327876
9.127                  0.9678378     -82.4663325
9.128                    0.96776     -82.6002199
9.129                0.967681986     -82.7344505
9.13                 0.967603755     -82.8690256
9.131                0.967525309     -83.0039459
9.132                0.967446647     -83.1392126
9.133                0.967367768     -83.2748266
9.134                0.967288673      -83.410789
9.135                0.967209361     -83.5471006
9.136                0.967129833     -83.6837626
9.137                0.967050087     -83.8207759
9.138                0.966970124     -83.9581415
9.139                0.966889943     -84.0958604
9.14                 0.966809544     -84.2339336
9.141                0.966728928     -84.3723622
9.142                0.966648093     -84.5111471
9.143                 0.96656704     -84.6502893
9.144                0.966485769     -84.7897898
9.145                0.966404279     -84.9296497
9.146                 0.96632257       -85.06987
9.147                0.966240643     -85.2104516
9.148                0.966158496     -85.3513957
9.149                 0.96607613     -85.4927031
9.15                 0.965993545     -85.6343749
9.151                 0.96591074     -85.7764122
9.152                0.965827716     -85.9188159
9.153                0.965744472      -86.061587
9.154                0.965661009     -86.2047267
9.155                0.965577325     -86.3482358
9.156                0.965493422     -86.4921155
9.157                0.965409298     -86.6363666
9.158                0.965324955     -86.7809904
9.159                0.965240392     -86.9259877
9.16                 0.965155608     -87.0713597
9.161                0.965070604     -87.2171072
9.162                 0.96498538     -87.3632314
9.163                0.964899935     -87.5097333
9.164                 0.96481427     -87.6566139
9.165                0.964728385     -87.8038743
9.166                 0.96464228     -87.9515153
9.167                0.964555954     -88.0995382
9.168                0.964469408     -88.2479439
9.169                0.964382641     -88.3967334
9.17                 0.964295655     -88.5459077
9.171                0.964208448      -88.695468
9.172                0.964121021     -88.8454152
9.173                0.964033373     -88.9957503
9.174                0.963945506     -89.1464744
9.175                0.963857419     -89.2975886
9.176                0.963769112     -89.4490937
9.177                0.963680585     -89.6009909
9.178                0.963591839     -89.7532813
9.179                0.963502873     -89.9059657
9.18                 0.963413687     -90.0590453
9.181                0.963324282     -90.2125211
9.182                0.963234658     -90.3663941
9.183                0.963144815     -90.5206654
9.184                0.963054754     -90.6753359
9.185                0.962964473     -90.8304068
9.186                0.962873975     -90.9858789
9.187                0.962783258     -91.1417534
9.188                0.962692322     -91.2980314
9.189                 0.96260117     -91.4547137
9.19                 0.962509799     -91.6118014
9.191                0.962418211     -91.7692957
9.192                0.962326406     -91.9271974
9.193                0.962234385     -92.0855076
9.194                0.962142147     -92.2442274
9.195                0.962049692     -92.4033578
9.196                0.961957022     -92.5628997
9.197                0.961864136     -92.7228542
9.198                0.961771035     -92.8832224
9.199                0.961677719     -93.0440052
9.2                  0.961584188     -93.2052037
9.201                0.961490443     -93.3668189
9.202                0.961396484     -93.5288518
9.203                0.961302312     -93.6913034
9.204                0.961207927     -93.8541747
9.205                0.961113329     -94.0174668
9.206                0.961018519     -94.1811806
9.207                0.960923498     -94.3453173
9.208                0.960828265     -94.5098776
9.209                0.960732821     -94.6748628
9.21                 0.960637167     -94.8402738
9.211                0.960541304     -95.0061115
9.212                0.960445231     -95.1723771
9.213                0.960348949     -95.3390715
9.214                0.960252459     -95.5061956
9.215                0.960155762     -95.6737506
9.216                0.960058857     -95.8417373
9.217                0.959961746     -96.0101568
9.218                0.959864429     -96.1790101
9.219                0.959766907     -96.3482981
9.22                 0.959669181     -96.5180219
9.221                 0.95957125     -96.6881824
9.222                0.959473117     -96.8587807
9.223                 0.95937478     -97.0298176
9.224                0.959276242     -97.2012942
9.225                0.959177503     -97.3732114
9.226                0.959078563     -97.5455703
9.227                0.958979424     -97.7183717
9.228                0.958880086     -97.8916167
9.229                 0.95878055     -98.0653061
9.23                 0.958680816     -98.2394411
9.231                0.958580886     -98.4140225
9.232                0.958480761     -98.5890512
9.233                0.958380441     -98.7645283
9.234                0.958279926     -98.9404546
9.235                0.958179219     -99.1168312
9.236                 0.95807832      -99.293659
9.237                 0.95797723     -99.4709388
9.238                0.957875949     -99.6486717
9.239                0.957774479     -99.8268585
9.24                 0.957672821       -100.0055
9.241                0.957570976     -100.184598
9.242                0.957468944     -100.364152
9.243                0.957366728     -100.544164
9.244                0.957264327     -100.724634
9.245                0.957161743     -100.905564
9.246                0.957058977     -101.086955
9.247                0.956956031     -101.268806
9.248                0.956852904      -101.45112
9.249                  0.9567496     -101.633896
9.25                 0.956646117     -101.817137
9.251                0.956542459     -102.000842
9.252                0.956438626     -102.185013
9.253                0.956334619     -102.369651
9.254                 0.95623044     -102.554756
9.255                 0.95612609     -102.740329
9.256                0.956021569     -102.926372
9.257                0.955916881     -103.112884
9.258                0.955812025     -103.299867
9.259                0.955707004     -103.487322
9.26                 0.955601818     -103.675249
9.261                0.955496469      -103.86365
9.262                0.955390959     -104.052525
9.263                0.955285288     -104.241874
9.264                0.955179459       -104.4317
9.265                0.955073473     -104.622002
9.266                0.954967332     -104.812781
9.267                0.954861036     -105.004038
9.268                0.954754588     -105.195775
9.269                0.954647989     -105.387991
9.27                 0.954541241     -105.580687
9.271                0.954434346     -105.773865
9.272                0.954327305     -105.967525
9.273                0.954220119     -106.161667
9.274                0.954112791     -106.356293
9.275                0.954005322     -106.551403
9.276                0.953897715     -106.746998
9.277                 0.95378997     -106.943079
9.278                 0.95368209     -107.139646
9.279                0.953574076       -107.3367
9.28                 0.953465931     -107.534242
9.281                0.953357655     -107.732272
9.282                0.953249253     -107.930792
9.283                0.953140724     -108.129801
9.284                0.953032071     -108.329301
9.285                0.952923296     -108.529292
9.286                0.952814402     -108.729775
9.287                0.952705389      -108.93075
9.288                0.952596261     -109.132218
9.289                0.952487019      -109.33418
9.29                 0.952377665     -109.536636
9.291                0.952268203     -109.739587
9.292                0.952158632     -109.943034
9.293                0.952048957     -110.146976
9.294                0.951939179     -110.351416
9.295                  0.9518293     -110.556352
9.296                0.951719323     -110.761787
9.297                 0.95160925     -110.967719
9.298                0.951499084     -111.174151
9.299                0.951388826     -111.381082
9.3                  0.951278479     -111.588512
9.301                0.951168046     -111.796444
9.302                0.951057529     -112.004876
9.303                 0.95094693     -112.213809
9.304                0.950836253     -112.423245
9.305                0.950725498     -112.633183
9.306                 0.95061467     -112.843623
9.307                0.950503771     -113.054567
9.308                0.950392803     -113.266014
9.309                0.950281769     -113.477966
9.31                 0.950170671     -113.690422
9.311                0.950059513     -113.903383
9.312                0.949948297     -114.116849
9.313                0.949837025     -114.330821
9.314                0.949725701     -114.545299
9.315                0.949614328     -114.760283
9.316                0.949502908     -114.975774
9.317                0.949391444     -115.191772
9.318                0.949279939     -115.408277
9.319                0.949168396      -115.62529
9.32                 0.949056818      -115.84281
9.321                0.948945208     -116.060839
9.322                0.948833569     -116.279377
9.323                0.948721904     -116.498423
9.324                0.948610216     -116.717978
9.325                0.948498509     -116.938042
9.326                0.948386784     -117.158615
9.327                0.948275047     -117.379698
9.328                0.948163299     -117.601291
9.329                0.948051544     -117.823393
9.33                 0.947939785     -118.046006
9.331                0.947828026     -118.269128
9.332                0.947716269     -118.492761
9.333                0.947604519     -118.716905
9.334                0.947492779     -118.941558
9.335                0.947381051     -119.166723
9.336                 0.94726934     -119.392398
9.337                0.947157649     -119.618583
9.338                0.947045981     -119.845279
9.339                 0.94693434     -120.072486
9.34                  0.94682273     -120.300204
9.341                0.946711153     -120.528432
9.342                0.946599615     -120.757171
9.343                0.946488118      -120.98642
9.344                0.946376665      -121.21618
9.345                0.946265262      -121.44645
9.346                0.946153911     -121.677231
9.347                0.946042616     -121.908522
9.348                0.945931381     -122.140323
9.349                 0.94582021     -122.372634
9.35                 0.945709107     -122.605454
9.351                0.945598075     -122.838784
9.352                0.945487119     -123.072624
9.353                0.945376242     -123.306972
9.354                0.945265449      -123.54183
9.355                0.945154743     -123.777196
9.356                0.945044129     -124.013071
9.357                 0.94493361     -124.249453
9.358                 0.94482319     -124.486344
9.359                0.944712874     -124.723742
9.36                 0.944602666     -124.961646
9.361                 0.94449257     -125.200058
9.362                0.944382591     -125.438976
9.363                0.944272731       -125.6784
9.364                0.944162996     -125.918329
9.365                 0.94405339     -126.158764
9.366                0.943943918     -126.399703
9.367                0.943834583     -126.641146
9.368                0.943725389     -126.883093
9.369                0.943616343     -127.125543
9.37                 0.943507446     -127.368495
9.371                0.943398705      -127.61195
9.372                0.943290124     -127.855905
9.373                0.943181706     -128.100362
9.374                0.943073458     -128.345319
9.375                0.942965382     -128.590775
9.376                0.942857484      -128.83673
9.377                0.942749769     -129.083184
9.378                 0.94264224     -129.330135
9.379                0.942534903     -129.577582
9.38                 0.942427762     -129.825526
9.381                0.942320822     -130.073965
9.382                0.942214087     -130.322898
9.383                0.942107563     -130.572325
9.384                0.942001254     -130.822245
9.385                0.941895165     -131.072656
9.386                  0.9417893     -131.323559
9.387                0.941683665     -131.574952
9.388                0.941578265     -131.826834
9.389                0.941473103     -132.079205
9.39                 0.941368186     -132.332062
9.391                0.941263518     -132.585406
9.392                0.941159103     -132.839236
9.393                0.941054947     -133.093549
9.394                0.940951056     -133.348346
9.395                0.940847433     -133.603625
9.396                0.940744084     -133.859385
