! TOUCHSTONE file generated by CST DESIGN STUDIO
! Date and time: Tue Feb  4 15:46:02 2025
! Project name: C:\Work\MatlabApps\UnitCellOptimizationMatlab\CST\unitcell.cst
! Tree item: Tasks\Sweep1\SPara1\S-Parameters
! Header version: 2024
! Port assignment regex: !\s*Touchstone port\s*([0-9]+)\s*=\s*(CST MWS port|CST DES external port|CST DES block port)\s*(.+)\s* \(\"(.*)\"\)(\s*mode\s*([0-9]+))?.*
! Touchstone port assignment:
! Touchstone port 1 = CST DES external port 1 ("")
# GHz S MA R 50
9                    0.974858573     -80.3755445
9.001                0.974793881     -80.5022372
9.002                0.974728998     -80.6292498
9.003                0.974663922     -80.7565831
9.004                0.974598654     -80.8842382
9.005                0.974533193     -81.0122159
9.006                0.974467539     -81.1405172
9.007                0.974401692      -81.269143
9.008                0.974335651     -81.3980942
9.009                0.974269416     -81.5273719
9.01                 0.974202986     -81.6569769
9.011                0.974136361     -81.7869103
9.012                0.974069542     -81.9171728
9.013                0.974002527     -82.0477656
9.014                0.973935316     -82.1786894
9.015                0.973867909     -82.3099454
9.016                0.973800306     -82.4415344
9.017                0.973732506     -82.5734574
9.018                0.973664509     -82.7057154
9.019                0.973596314     -82.8383092
9.02                 0.973527923       -82.97124
9.021                0.973459333     -83.1045085
9.022                0.973390545     -83.2381159
9.023                0.973321559     -83.3720629
9.024                0.973252374     -83.5063507
9.025                0.973182989     -83.6409802
9.026                0.973113406     -83.7759523
9.027                0.973043623     -83.9112681
9.028                 0.97297364     -84.0469284
9.029                0.972903458     -84.1829343
9.03                 0.972833074     -84.3192867
9.031                0.972762491     -84.4559866
9.032                0.972691706     -84.5930349
9.033                0.972620721     -84.7304327
9.034                0.972549534      -84.868181
9.035                0.972478145     -85.0062806
9.036                0.972406555     -85.1447326
9.037                0.972334763      -85.283538
9.038                0.972262769     -85.4226977
9.039                0.972190572     -85.5622127
9.04                 0.972118173     -85.7020841
9.041                0.972045571     -85.8423127
9.042                0.971972765     -85.9828996
9.043                0.971899757     -86.1238458
9.044                0.971826545     -86.2651522
9.045                 0.97175313     -86.4068198
9.046                0.971679511     -86.5488497
9.047                0.971605689     -86.6912427
9.048                0.971531662         -86.834
9.049                0.971457431     -86.9771225
9.05                 0.971382995     -87.1206111
9.051                0.971308355     -87.2644669
9.052                0.971233511     -87.4086909
9.053                0.971158462     -87.5532841
9.054                0.971083208     -87.6982474
9.055                0.971007749     -87.8435818
9.056                0.970932084     -87.9892884
9.057                0.970856215     -88.1353681
9.058                 0.97078014      -88.281822
9.059                 0.97070386      -88.428651
9.06                 0.970627375     -88.5758561
9.061                0.970550684     -88.7234384
9.062                0.970473787     -88.8713987
9.063                0.970396685     -89.0197382
9.064                0.970319377     -89.1684578
9.065                0.970241863     -89.3175585
9.066                0.970164144     -89.4670413
9.067                0.970086219     -89.6169073
9.068                0.970008088     -89.7671573
9.069                0.969929751     -89.9177925
9.07                 0.969851208     -90.0688137
9.071                0.969772459     -90.2202221
9.072                0.969693504     -90.3720186
9.073                0.969614344     -90.5242041
9.074                0.969534978     -90.6767798
9.075                0.969455406     -90.8297466
9.076                0.969375628     -90.9831054
9.077                0.969295645     -91.1368574
9.078                0.969215456     -91.2910034
9.079                0.969135062     -91.4455445
9.08                 0.969054462     -91.6004817
9.081                0.968973657      -91.755816
9.082                0.968892646     -91.9115484
9.083                0.968811431     -92.0676798
9.084                 0.96873001     -92.2242113
9.085                0.968648385     -92.3811438
9.086                0.968566555     -92.5384784
9.087                 0.96848452      -92.696216
9.088                 0.96840228     -92.8543577
9.089                0.968319837     -93.0129044
9.09                 0.968237189      -93.171857
9.091                0.968154338     -93.3312167
9.092                0.968071282     -93.4909844
9.093                0.967988023      -93.651161
9.094                0.967904561     -93.8117476
9.095                0.967820896     -93.9727452
9.096                0.967737028     -94.1341546
9.097                0.967652958      -94.295977
9.098                0.967568685     -94.4582132
9.099                 0.96748421     -94.6208644
9.1                  0.967399534     -94.7839313
9.101                0.967314656     -94.9474151
9.102                0.967229577     -95.1113167
9.103                0.967144297      -95.275637
9.104                0.967058816     -95.4403771
9.105                0.966973136     -95.6055378
9.106                0.966887256     -95.7711203
9.107                0.966801176     -95.9371254
9.108                0.966714898     -96.1035541
9.109                0.966628421     -96.2704073
9.11                 0.966541745     -96.4376861
9.111                0.966454872     -96.6053913
9.112                0.966367802      -96.773524
9.113                0.966280535     -96.9420851
9.114                0.966193071     -97.1110755
9.115                0.966105411     -97.2804962
9.116                0.966017556     -97.4503481
9.117                0.965929506     -97.6206322
9.118                0.965841262     -97.7913495
9.119                0.965752823     -97.9625007
9.12                 0.965664192      -98.134087
9.121                0.965575367     -98.3061092
9.122                 0.96548635     -98.4785682
9.123                0.965397142     -98.6514651
9.124                0.965307743     -98.8248006
9.125                0.965218153     -98.9985757
9.126                0.965128373     -99.1727914
9.127                0.965038404     -99.3474486
9.128                0.964948247     -99.5225481
9.129                0.964857902     -99.6980909
9.13                  0.96476737     -99.8740778
9.131                0.964676652      -100.05051
9.132                0.964585748     -100.227388
9.133                0.964494659     -100.404713
9.134                0.964403385     -100.582485
9.135                0.964311929     -100.760707
9.136                0.964220289     -100.939377
9.137                0.964128468     -101.118499
9.138                0.964036467     -101.298071
9.139                0.963944284     -101.478096
9.14                 0.963851923     -101.658573
9.141                0.963759383     -101.839505
9.142                0.963666666     -102.020891
9.143                0.963573772     -102.202733
9.144                0.963480703     -102.385031
9.145                0.963387458     -102.567786
9.146                 0.96329404        -102.751
9.147                0.963200449     -102.934672
9.148                0.963106687     -103.118805
9.149                0.963012753     -103.303398
9.15                  0.96291865     -103.488452
9.151                0.962824378     -103.673968
9.152                0.962729939     -103.859948
9.153                0.962635333     -104.046391
9.154                0.962540562     -104.233299
9.155                0.962445626     -104.420672
9.156                0.962350527     -104.608511
9.157                0.962255266     -104.796818
9.158                0.962159845     -104.985592
9.159                0.962064264     -105.174835
9.16                 0.961968524     -105.364546
9.161                0.961872628     -105.554728
9.162                0.961776575     -105.745381
9.163                0.961680368     -105.936505
9.164                0.961584008     -106.128102
9.165                0.961487496     -106.320171
9.166                0.961390833     -106.512714
9.167                0.961294021     -106.705731
9.168                0.961197062     -106.899224
9.169                0.961099956     -107.093192
9.17                 0.961002705     -107.287637
9.171                 0.96090531     -107.482559
9.172                0.960807774     -107.677959
9.173                0.960710097     -107.873837
9.174                 0.96061228     -108.070195
9.175                0.960514327     -108.267032
9.176                0.960416237      -108.46435
9.177                0.960318014     -108.662149
9.178                0.960219657     -108.860429
9.179                0.960121169     -109.059193
9.18                 0.960022552     -109.258439
9.181                0.959923808     -109.458168
9.182                0.959824937     -109.658382
9.183                0.959725941     -109.859081
9.184                0.959626824     -110.060265
9.185                0.959527585     -110.261935
9.186                0.959428227     -110.464091
9.187                0.959328752     -110.666735
9.188                0.959229162     -110.869866
9.189                0.959129458     -111.073485
9.19                 0.959029643     -111.277593
9.191                0.958929718      -111.48219
9.192                0.958829685     -111.687277
9.193                0.958729546     -111.892854
9.194                0.958629303     -112.098921
9.195                0.958528959      -112.30548
9.196                0.958428514      -112.51253
9.197                0.958327972     -112.720072
9.198                0.958227335     -112.928107
9.199                0.958126603     -113.136634
9.2                   0.95802578     -113.345655
9.201                0.957924868      -113.55517
9.202                0.957823869     -113.765179
9.203                0.957722785     -113.975682
9.204                0.957621618     -114.186681
9.205                0.957520371     -114.398174
9.206                0.957419045     -114.610164
9.207                0.957317644     -114.822649
9.208                0.957216169      -115.03563
9.209                0.957114623     -115.249109
9.21                 0.957013008     -115.463084
9.211                0.956911327     -115.677556
9.212                0.956809582     -115.892526
9.213                0.956707776     -116.107994
9.214                 0.95660591      -116.32396
9.215                0.956503988     -116.540424
9.216                0.956402012     -116.757386
9.217                0.956299985     -116.974848
9.218                0.956197909     -117.192808
9.219                0.956095787     -117.411267
9.22                 0.955993621     -117.630226
9.221                0.955891414     -117.849684
9.222                 0.95578917     -118.069642
9.223                0.955686889       -118.2901
9.224                0.955584577     -118.511058
9.225                0.955482234     -118.732515
9.226                0.955379864     -118.954473
9.227                 0.95527747     -119.176931
9.228                0.955175054      -119.39989
9.229                 0.95507262     -119.623348
9.23                  0.95497017     -119.847307
9.231                0.954867708     -120.071766
9.232                0.954765235     -120.296726
9.233                0.954662756     -120.522186
9.234                0.954560274     -120.748147
9.235                 0.95445779     -120.974608
9.236                0.954355309     -121.201569
9.237                0.954252834      -121.42903
9.238                0.954150367     -121.656992
9.239                0.954047911     -121.885453
9.24                 0.953945471     -122.114415
9.241                0.953843049     -122.343876
9.242                0.953740648     -122.573837
9.243                0.953638271     -122.804297
9.244                0.953535923     -123.035257
9.245                0.953433606     -123.266716
9.246                0.953331323     -123.498673
9.247                0.953229078     -123.731129
9.248                0.953126874     -123.964084
9.249                0.953024715     -124.197537
9.25                 0.952922604     -124.431487
9.251                0.952820545     -124.665935
9.252                 0.95271854     -124.900881
9.253                0.952616594     -125.136323
9.254                0.952514711     -125.372262
9.255                0.952412893     -125.608697
9.256                0.952311144     -125.845627
9.257                0.952209468     -126.083053
9.258                0.952107868     -126.320974
9.259                0.952006349      -126.55939
9.26                 0.951904914     -126.798299
9.261                0.951803566     -127.037702
9.262                0.951702309     -127.277598
9.263                0.951601148     -127.517987
9.264                0.951500085     -127.758867
9.265                0.951399125     -128.000239
9.266                0.951298271     -128.242101
9.267                0.951197528     -128.484454
9.268                  0.9510969     -128.727297
9.269                0.950996389     -128.970628
9.27                    0.950896     -129.214448
9.271                0.950795738     -129.458755
9.272                0.950695605     -129.703549
9.273                0.950595607     -129.948829
9.274                0.950495746     -130.194595
9.275                0.950396028     -130.440846
9.276                0.950296456      -130.68758
9.277                0.950197034     -130.934797
9.278                0.950097766     -131.182497
9.279                0.949998657     -131.430678
9.28                 0.949899711      -131.67934
9.281                0.949800931     -131.928481
9.282                0.949702323     -132.178101
9.283                0.949603889     -132.428199
9.284                0.949505635     -132.678774
9.285                0.949407565     -132.929825
9.286                0.949309683      -133.18135
9.287                0.949211993      -133.43335
9.288                  0.9491145     -133.685822
9.289                0.949017207     -133.938766
9.29                  0.94892012     -134.192181
9.291                0.948823242     -134.446065
9.292                0.948726579     -134.700418
9.293                0.948630134     -134.955238
9.294                0.948533912     -135.210524
9.295                0.948437917     -135.466275
9.296                0.948342154      -135.72249
9.297                0.948246627     -135.979167
9.298                0.948151341     -136.236306
9.299                  0.9480563     -136.493904
9.3                  0.947961508     -136.751961
9.301                0.947866971     -137.010476
9.302                0.947772693     -137.269446
9.303                0.947678678     -137.528871
9.304                0.947584931     -137.788748
9.305                0.947491456     -138.049078
9.306                0.947398259     -138.309858
9.307                0.947305343     -138.571086
9.308                0.947212714     -138.832762
9.309                0.947120375     -139.094884
9.31                 0.947028332      -139.35745
9.311                 0.94693659     -139.620458
9.312                0.946845152     -139.883908
9.313                0.946754024     -140.147797
9.314                 0.94666321     -140.412123
9.315                0.946572715     -140.676886
9.316                0.946482544     -140.942083
9.317                0.946392701     -141.207713
9.318                0.946303191     -141.473774
9.319                0.946214019     -141.740265
9.32                 0.946125189     -142.007182
9.321                0.946036707     -142.274526
9.322                0.945948577     -142.542293
9.323                0.945860803     -142.810482
9.324                0.945773391     -143.079091
9.325                0.945686345     -143.348118
9.326                 0.94559967     -143.617561
9.327                 0.94551337     -143.887419
9.328                0.945427451     -144.157689
9.329                0.945341918     -144.428369
9.33                 0.945256774     -144.699458
9.331                0.945172025     -144.970952
9.332                0.945087675     -145.242851
9.333                 0.94500373     -145.515152
9.334                0.944920194     -145.787853
9.335                0.944837071     -146.060951
9.336                0.944754367     -146.334445
9.337                0.944672087     -146.608333
9.338                0.944590234     -146.882611
9.339                0.944508814     -147.157279
9.34                 0.944427831     -147.432333
9.341                0.944347291     -147.707771
9.342                0.944267198     -147.983592
9.343                0.944187556     -148.259792
9.344                 0.94410837      -148.53637
9.345                0.944029646     -148.813322
9.346                0.943951387     -149.090647
9.347                0.943873599     -149.368342
9.348                0.943796285     -149.646405
9.349                0.943719452     -149.924833
9.35                 0.943643103     -150.203623
9.351                0.943567243     -150.482774
9.352                0.943491876     -150.762282
9.353                0.943417008     -151.042145
9.354                0.943342642     -151.322361
9.355                0.943268785     -151.602926
9.356                0.943195439     -151.883838
9.357                0.943122609     -152.165094
9.358                0.943050301     -152.446693
9.359                0.942978518      -152.72863
9.36                 0.942907266     -153.010904
9.361                0.942836548     -153.293511
9.362                0.942766369     -153.576448
9.363                0.942696734     -153.859714
9.364                0.942627646     -154.143305
9.365                0.942559111     -154.427218
9.366                0.942491133      -154.71145
9.367                0.942423716     -154.995998
9.368                0.942356864      -155.28086
9.369                0.942290582     -155.566033
9.37                 0.942224874     -155.851513
9.371                0.942159744     -156.137298
9.372                0.942095197     -156.423384
9.373                0.942031236     -156.709769
9.374                0.941967866      -156.99645
9.375                0.941905092     -157.283423
9.376                0.941842916     -157.570685
9.377                0.941781344     -157.858234
9.378                 0.94172038     -158.146065
9.379                0.941660026     -158.434177
9.38                 0.941600288     -158.722565
9.381                 0.94154117     -159.011227
9.382                0.941482675     -159.300159
9.383                0.941424807     -159.589359
9.384                 0.94136757     -159.878822
9.385                0.941310968     -160.168546
9.386                0.941255005     -160.458527
9.387                0.941199684     -160.748762
9.388                 0.94114501     -161.039248
9.389                0.941090986     -161.329981
9.39                 0.941037615     -161.620958
9.391                0.940984902     -161.912176
9.392                0.940932849     -162.203631
9.393                0.940881461     -162.495319
9.394                0.940830741     -162.787238
9.395                0.940780692     -163.079384
9.396                0.940731318     -163.371753
