! TOUCHSTONE file generated by CST DESIGN STUDIO
! Date and time: Tue Feb  4 17:36:17 2025
! Project name: C:\Work\MatlabApps\UnitCellOptimizationMatlab\CST\unitcell.cst
! Tree item: Tasks\Sweep1\SPara1\S-Parameters
! Header version: 2024
! Port assignment regex: !\s*Touchstone port\s*([0-9]+)\s*=\s*(CST MWS port|CST DES external port|CST DES block port)\s*(.+)\s* \(\"(.*)\"\)(\s*mode\s*([0-9]+))?.*
! Touchstone port assignment:
! Touchstone port 1 = CST DES external port 1 ("")
# GHz S MA R 50
9                    0.920937839     -88.9630691
9.001                0.920710675     -89.1215789
9.002                0.920482856     -89.2805294
9.003                 0.92025438     -89.4399218
9.004                0.920025248     -89.5997575
9.005                0.919795459     -89.7600377
9.006                0.919565013     -89.9207637
9.007                 0.91933391     -90.0819368
9.008                 0.91910215     -90.2435584
9.009                0.918869733     -90.4056296
9.01                 0.918636659     -90.5681518
9.011                0.918402927     -90.7311264
9.012                0.918168538     -90.8945545
9.013                0.917933493     -91.0584375
9.014                 0.91769779     -91.2227767
9.015                 0.91746143     -91.3875733
9.016                0.917224413     -91.5528287
9.017                 0.91698674     -91.7185442
9.018                0.916748411     -91.8847211
9.019                0.916509425     -92.0513606
9.02                 0.916269783     -92.2184641
9.021                0.916029486     -92.3860329
9.022                0.915788533     -92.5540682
9.023                0.915546926     -92.7225713
9.024                0.915304664     -92.8915436
9.025                0.915061748     -93.0609864
9.026                0.914818178     -93.2309009
9.027                0.914573956     -93.4012884
9.028                0.914329081     -93.5721502
9.029                0.914083554     -93.7434876
9.03                 0.913837375      -93.915302
9.031                0.913590547     -94.0875945
9.032                0.913343068     -94.2603666
9.033                 0.91309494     -94.4336194
9.034                0.912846164     -94.6073543
9.035                 0.91259674     -94.7815726
9.036                 0.91234667     -94.9562754
9.037                0.912095953     -95.1314643
9.038                0.911844592     -95.3071403
9.039                0.911592587     -95.4833048
9.04                 0.911339939     -95.6599591
9.041                 0.91108665     -95.8371044
9.042                0.910832719     -96.0147421
9.043                 0.91057815     -96.1928733
9.044                0.910322942     -96.3714995
9.045                0.910067097     -96.5506218
9.046                0.909810616     -96.7302414
9.047                0.909553501     -96.9103598
9.048                0.909295752     -97.0909781
9.049                0.909037373     -97.2720977
9.05                 0.908778363     -97.4537197
9.051                0.908518724     -97.6358454
9.052                0.908258459     -97.8184761
9.053                0.907997568     -98.0016131
9.054                0.907736053     -98.1852575
9.055                0.907473916     -98.3694106
9.056                0.907211159     -98.5540737
9.057                0.906947784     -98.7392481
9.058                0.906683792     -98.9249348
9.059                0.906419186     -99.1111353
9.06                 0.906153966     -99.2978507
9.061                0.905888137     -99.4850822
9.062                0.905621698     -99.6728311
9.063                0.905354654     -99.8610985
9.064                0.905087005     -100.049886
9.065                0.904818754     -100.239194
9.066                0.904549904     -100.429024
9.067                0.904280456     -100.619378
9.068                0.904010413     -100.810257
9.069                0.903739778     -101.001661
9.07                 0.903468553     -101.193593
9.071                0.903196741     -101.386052
9.072                0.902924344     -101.579041
9.073                0.902651366      -101.77256
9.074                0.902377808     -101.966611
9.075                0.902103674     -102.161195
9.076                0.901828966     -102.356313
9.077                0.901553688     -102.551967
9.078                0.901277842     -102.748156
9.079                0.901001432     -102.944883
9.08                 0.900724461     -103.142149
9.081                0.900446932     -103.339954
9.082                0.900168848     -103.538301
9.083                0.899890212     -103.737189
9.084                0.899611028      -103.93662
9.085                  0.8993313     -104.136596
9.086                0.899051031     -104.337117
9.087                0.898770224     -104.538184
9.088                0.898488883     -104.739799
9.089                0.898207012     -104.941962
9.09                 0.897924615     -105.144675
9.091                0.897641696     -105.347939
9.092                0.897358258     -105.551755
9.093                0.897074305     -105.756123
9.094                0.896789842     -105.961045
9.095                0.896504873     -106.166522
9.096                0.896219402     -106.372555
9.097                0.895933433     -106.579145
9.098                 0.89564697     -106.786293
9.099                0.895360019        -106.994
9.1                  0.895072583     -107.202267
9.101                0.894784668     -107.411095
9.102                0.894496277     -107.620484
9.103                0.894207416     -107.830437
9.104                0.893918089     -108.040953
9.105                0.893628302     -108.252034
9.106                0.893338058     -108.463681
9.107                0.893047364     -108.675895
9.108                0.892756225     -108.888676
9.109                0.892464645     -109.102025
9.11                  0.89217263     -109.315944
9.111                0.891880185     -109.530433
9.112                0.891587316     -109.745493
9.113                0.891294028     -109.961125
9.114                0.891000327      -110.17733
9.115                0.890706218     -110.394109
9.116                0.890411708     -110.611462
9.117                0.890116802      -110.82939
9.118                0.889821506     -111.047895
9.119                0.889525826     -111.266976
9.12                 0.889229768     -111.486636
9.121                0.888933338     -111.706873
9.122                0.888636543      -111.92769
9.123                0.888339389     -112.149087
9.124                0.888041882     -112.371065
9.125                0.887744029     -112.593624
9.126                0.887445837     -112.816765
9.127                0.887147312      -113.04049
9.128                0.886848461     -113.264797
9.129                 0.88654929     -113.489689
9.13                 0.886249808     -113.715166
9.131                 0.88595002     -113.941228
9.132                0.885649935     -114.167876
9.133                0.885349558     -114.395111
9.134                0.885048898     -114.622934
9.135                0.884747962     -114.851344
9.136                0.884446757     -115.080343
9.137                0.884145292     -115.309931
9.138                0.883843572     -115.540108
9.139                0.883541608     -115.770875
9.14                 0.883239405     -116.002233
9.141                0.882936973     -116.234182
9.142                0.882634319     -116.466723
9.143                0.882331451     -116.699855
9.144                0.882028378      -116.93358
9.145                0.881725108     -117.167898
9.146                0.881421649     -117.402809
9.147                0.881118009     -117.638314
9.148                0.880814198     -117.874412
9.149                0.880510224     -118.111105
9.15                 0.880206096     -118.348393
9.151                0.879901823     -118.586275
9.152                0.879597413     -118.824753
9.153                0.879292875     -119.063827
9.154                 0.87898822     -119.303496
9.155                0.878683455     -119.543761
9.156                0.878378591     -119.784623
9.157                0.878073637     -120.026081
9.158                0.877768602     -120.268135
9.159                0.877463496     -120.510787
9.16                 0.877158328     -120.754035
9.161                0.876853109     -120.997881
9.162                0.876547849     -121.242324
9.163                0.876242556     -121.487364
9.164                0.875937242     -121.733001
9.165                0.875631917     -121.979235
9.166                 0.87532659     -122.226067
9.167                0.875021273     -122.473496
9.168                0.874715975     -122.721523
9.169                0.874410707     -122.970147
9.17                 0.874105481     -123.219368
9.171                0.873800305     -123.469186
9.172                0.873495193     -123.719601
9.173                0.873190153     -123.970613
9.174                0.872885198     -124.222221
9.175                0.872580338     -124.474426
9.176                0.872275585     -124.727227
9.177                 0.87197095     -124.980625
9.178                0.871666444     -125.234618
9.179                0.871362079     -125.489206
9.18                 0.871057866      -125.74439
9.181                0.870753818     -126.000168
9.182                0.870449945     -126.256541
9.183                0.870146259     -126.513508
9.184                0.869842773     -126.771068
9.185                0.869539499     -127.029222
9.186                0.869236448     -127.287969
9.187                0.868933633     -127.547307
9.188                0.868631066     -127.807238
9.189                0.868328759      -128.06776
9.19                 0.868026725     -128.328872
9.191                0.867724977     -128.590575
9.192                0.867423527     -128.852866
9.193                0.867122387     -129.115747
9.194                0.866821571     -129.379216
9.195                0.866521091     -129.643272
9.196                 0.86622096     -129.907915
9.197                0.865921192     -130.173143
9.198                0.865621799     -130.438957
9.199                0.865322795     -130.705355
9.2                  0.865024193     -130.972336
9.201                0.864726006       -131.2399
9.202                0.864428248     -131.508046
9.203                0.864130931     -131.776772
9.204                0.863834071     -132.046078
9.205                 0.86353768     -132.315963
9.206                0.863241772     -132.586425
9.207                0.862946362     -132.857465
9.208                0.862651462     -133.129079
9.209                0.862357086     -133.401268
9.21                  0.86206325     -133.674031
9.211                0.861769967     -133.947366
9.212                 0.86147725     -134.221271
9.213                0.861185115     -134.495746
9.214                0.860893575      -134.77079
9.215                0.860602646     -135.046401
9.216                 0.86031234     -135.322577
9.217                0.860022673     -135.599318
9.218                 0.85973366     -135.876622
9.219                0.859445315     -136.154487
9.22                 0.859157652     -136.432913
9.221                0.858870687     -136.711897
9.222                0.858584433     -136.991438
9.223                0.858298907     -137.271535
9.224                0.858014122     -137.552186
9.225                0.857730094     -137.833389
9.226                0.857446838     -138.115142
9.227                0.857164368     -138.397445
9.228                  0.8568827     -138.680294
9.229                0.856601849      -138.96369
9.23                  0.85632183     -139.247628
9.231                0.856042659     -139.532109
9.232                0.855764349     -139.817129
9.233                0.855486918     -140.102688
9.234                 0.85521038     -140.388782
9.235                 0.85493475     -140.675411
9.236                0.854660045     -140.962572
9.237                0.854386278     -141.250263
9.238                0.854113467     -141.538482
9.239                0.853841625     -141.827227
9.24                  0.85357077     -142.116495
9.241                0.853300915     -142.406286
9.242                0.853032078     -142.696595
9.243                0.852764273     -142.987422
9.244                0.852497516     -143.278763
9.245                0.852231823     -143.570618
9.246                0.851967209     -143.862982
9.247                 0.85170369     -144.155854
9.248                0.851441282     -144.449231
9.249                    0.85118     -144.743112
9.25                 0.850919861     -145.037492
9.251                0.850660879     -145.332371
9.252                 0.85040307     -145.627745
9.253                 0.85014645     -145.923611
9.254                0.849891036     -146.219968
9.255                0.849636841     -146.516812
9.256                0.849383883      -146.81414
9.257                0.849132177     -147.111951
9.258                0.848881739     -147.410241
9.259                0.848632583     -147.709007
9.26                 0.848384727     -148.008246
9.261                0.848138185     -148.307956
9.262                0.847892973     -148.608134
9.263                0.847649106     -148.908777
9.264                0.847406601     -149.209881
9.265                0.847165473     -149.511444
9.266                0.846925737     -149.813462
9.267                 0.84668741     -150.115933
9.268                0.846450505     -150.418853
9.269                0.846215039      -150.72222
9.27                 0.845981027      -151.02603
9.271                0.845748485     -151.330279
9.272                0.845517428     -151.634965
9.273                 0.84528787     -151.940083
9.274                0.845059828     -152.245632
9.275                0.844833316     -152.551607
9.276                 0.84460835     -152.858005
9.277                0.844384945     -153.164823
9.278                0.844163115     -153.472057
9.279                0.843942876     -153.779703
9.28                 0.843724243     -154.087758
9.281                 0.84350723     -154.396219
9.282                0.843291852     -154.705081
9.283                0.843078124     -155.014342
9.284                 0.84286606     -155.323997
9.285                0.842655676     -155.634043
9.286                0.842446984     -155.944475
9.287                0.842240001     -156.255291
9.288                0.842034741     -156.566486
9.289                0.841831216     -156.878057
9.29                 0.841629443     -157.189999
9.291                0.841429434     -157.502308
9.292                0.841231204     -157.814982
9.293                0.841034766     -158.128015
9.294                0.840840135     -158.441404
9.295                0.840647324     -158.755145
9.296                0.840456347     -159.069233
9.297                0.840267217     -159.383664
9.298                0.840079947     -159.698435
9.299                0.839894551     -160.013541
9.3                  0.839711043     -160.328978
9.301                0.839529434     -160.644742
9.302                0.839349739     -160.960828
9.303                 0.83917197     -161.277233
9.304                0.838996139     -161.593951
9.305                0.838822259     -161.910978
9.306                0.838650343     -162.228311
9.307                0.838480403     -162.545945
9.308                0.838312452     -162.863874
9.309                  0.8381465     -163.182096
9.31                 0.837982561     -163.500605
9.311                0.837820646     -163.819396
9.312                0.837660767     -164.138466
9.313                0.837502935      -164.45781
9.314                0.837347161     -164.777422
9.315                0.837193458       -165.0973
9.316                0.837041835     -165.417437
9.317                0.836892305     -165.737829
9.318                0.836744877     -166.058471
9.319                0.836599563      -166.37936
9.32                 0.836456373     -166.700489
9.321                0.836315317     -167.021855
9.322                0.836176406     -167.343452
9.323                0.836039649     -167.665276
9.324                0.835905056     -167.987321
9.325                0.835772637     -168.309584
9.326                0.835642402     -168.632058
9.327                 0.83551436      -168.95474
9.328                 0.83538852     -169.277624
9.329                0.835264891     -169.600705
9.33                 0.835143482     -169.923979
9.331                0.835024301      -170.24744
9.332                0.834907358     -170.571084
9.333                 0.83479266     -170.894905
9.334                0.834680216     -171.218898
9.335                0.834570033     -171.543059
9.336                0.834462119     -171.867382
9.337                0.834356482     -172.191862
9.338                0.834253129     -172.516494
9.339                0.834152068     -172.841273
9.34                 0.834053305     -173.166194
9.341                0.833956847     -173.491252
9.342                0.833862701     -173.816441
9.343                0.833770874     -174.141757
9.344                0.833681371     -174.467193
9.345                0.833594198     -174.792746
9.346                0.833509362      -175.11841
9.347                0.833426867     -175.444179
9.348                 0.83334672     -175.770049
9.349                0.833268926     -176.096014
9.35                 0.833193489     -176.422069
9.351                0.833120415     -176.748208
9.352                0.833049709     -177.074427
9.353                0.832981373      -177.40072
9.354                0.832915414     -177.727081
9.355                0.832851834     -178.053506
9.356                0.832790638      -178.37999
9.357                0.832731829     -178.706526
9.358                 0.83267541      -179.03311
9.359                0.832621386     -179.359737
9.36                 0.832569758       -179.6864
9.361                0.832520529      179.986905
9.362                0.832473703      179.660183
9.363                 0.83242928      179.333441
9.364                0.832387264      179.006683
9.365                0.832347657      178.679914
9.366                 0.83231046      178.353141
9.367                0.832275674      178.026367
9.368                  0.8322433      177.699599
9.369                0.832213341      177.372843
9.37                 0.832185796      177.046102
9.371                0.832160667      176.719383
9.372                0.832137953      176.392691
9.373                0.832117655      176.066031
9.374                0.832099773      175.739409
9.375                0.832084307      175.412829
9.376                0.832071256      175.086298
9.377                0.832060619      174.759821
9.378                0.832052396      174.433402
9.379                0.832046586      174.107047
9.38                 0.832043187      173.780762
9.381                0.832042198      173.454551
9.382                0.832043616       173.12842
9.383                0.832047441      172.802375
9.384                 0.83205367       172.47642
9.385                0.832062301      172.150561
9.386                0.832073331      171.824802
9.387                0.832086757       171.49915
9.388                0.832102576       171.17361
9.389                0.832120786      170.848186
9.39                 0.832141383      170.522884
9.391                0.832164362      170.197709
9.392                0.832189722      169.872666
9.393                0.832217456       169.54776
9.394                0.832247562      169.222997
9.395                0.832280035      168.898382
9.396                 0.83231487       168.57392
