! TOUCHSTONE file generated by CST DESIGN STUDIO
! Date and time: Tue Feb  4 17:36:26 2025
! Project name: C:\Work\MatlabApps\UnitCellOptimizationMatlab\CST\unitcell.cst
! Tree item: Tasks\Sweep1\SPara1\S-Parameters
! Header version: 2024
! Port assignment regex: !\s*Touchstone port\s*([0-9]+)\s*=\s*(CST MWS port|CST DES external port|CST DES block port)\s*(.+)\s* \(\"(.*)\"\)(\s*mode\s*([0-9]+))?.*
! Touchstone port assignment:
! Touchstone port 1 = CST DES external port 1 ("")
# GHz S MA R 50
9                    0.947749274     -60.9663933
9.001                0.947629076     -61.0517521
9.002                0.947508495     -61.1373142
9.003                 0.94738753     -61.2230803
9.004                 0.94726618     -61.3090509
9.005                0.947144442     -61.3952268
9.006                0.947022317     -61.4816087
9.007                0.946899802     -61.5681971
9.008                0.946776897     -61.6549929
9.009                  0.9466536     -61.7419965
9.01                 0.946529909     -61.8292088
9.011                0.946405824     -61.9166304
9.012                0.946281342      -62.004262
9.013                0.946156464     -62.0921043
9.014                0.946031186     -62.1801579
9.015                0.945905509     -62.2684235
9.016                0.945779431     -62.3569019
9.017                 0.94565295     -62.4455937
9.018                0.945526065     -62.5344997
9.019                0.945398775     -62.6236204
9.02                 0.945271078     -62.7129568
9.021                0.945142973     -62.8025093
9.022                0.945014459     -62.8922788
9.023                0.944885534     -62.9822659
9.024                0.944756197     -63.0724714
9.025                0.944626447     -63.1628959
9.026                0.944496282     -63.2535403
9.027                0.944365701     -63.3444051
9.028                0.944234702     -63.4354912
9.029                0.944103284     -63.5267992
9.03                 0.943971447     -63.6183299
9.031                0.943839187     -63.7100841
9.032                0.943706505     -63.8020624
9.033                0.943573398     -63.8942655
9.034                0.943439866     -63.9866943
9.035                0.943305906     -64.0793494
9.036                0.943171518     -64.1722316
9.037                  0.9430367     -64.2653417
9.038                0.942901451     -64.3586804
9.039                0.942765769     -64.4522483
9.04                 0.942629653     -64.5460464
9.041                0.942493101     -64.6400754
9.042                0.942356112     -64.7343359
9.043                0.942218685     -64.8288289
9.044                0.942080819     -64.9235549
9.045                0.941942511     -65.0185149
9.046                0.941803761     -65.1137095
9.047                0.941664566     -65.2091396
9.048                0.941524926     -65.3048059
9.049                 0.94138484     -65.4007091
9.05                 0.941244305     -65.4968502
9.051                 0.94110332     -65.5932298
9.052                0.940961884     -65.6898487
9.053                0.940819996     -65.7867078
9.054                0.940677654     -65.8838078
9.055                0.940534856     -65.9811495
9.056                0.940391602     -66.0787337
9.057                0.940247889     -66.1765612
9.058                0.940103716     -66.2746328
9.059                0.939959082     -66.3729494
9.06                 0.939813986     -66.4715116
9.061                0.939668426     -66.5703204
9.062                  0.9395224     -66.6693766
9.063                0.939375907     -66.7686809
9.064                0.939228945     -66.8682342
9.065                0.939081514     -66.9680372
9.066                0.938933612     -67.0680909
9.067                0.938785236     -67.1683961
9.068                0.938636387     -67.2689535
9.069                0.938487061     -67.3697641
9.07                 0.938337259     -67.4708286
9.071                0.938186978     -67.5721479
9.072                0.938036216     -67.6737228
9.073                0.937884974     -67.7755542
9.074                0.937733248     -67.8776429
9.075                0.937581037     -67.9799898
9.076                0.937428341     -68.0825957
9.077                0.937275157     -68.1854615
9.078                0.937121485      -68.288588
9.079                0.936967322     -68.3919761
9.08                 0.936812667     -68.4956267
9.081                0.936657519     -68.5995406
9.082                0.936501876     -68.7037187
9.083                0.936345736     -68.8081619
9.084                0.936189099      -68.912871
9.085                0.936031963     -69.0178469
9.086                0.935874326     -69.1230906
9.087                0.935716187     -69.2286028
9.088                0.935557544     -69.3343845
9.089                0.935398396     -69.4404366
9.09                 0.935238741     -69.5467599
9.091                0.935078578     -69.6533554
9.092                0.934917906      -69.760224
9.093                0.934756723     -69.8673665
9.094                0.934595027     -69.9747839
9.095                0.934432817      -70.082477
9.096                0.934270091     -70.1904469
9.097                0.934106849     -70.2986943
9.098                0.933943088     -70.4072202
9.099                0.933778807     -70.5160256
9.1                  0.933614005     -70.6251113
9.101                 0.93344868     -70.7344783
9.102                0.933282831     -70.8441275
9.103                0.933116456     -70.9540599
9.104                0.932949553     -71.0642763
9.105                0.932782122     -71.1747778
9.106                 0.93261416     -71.2855652
9.107                0.932445667     -71.3966395
9.108                 0.93227664     -71.5080016
9.109                0.932107079     -71.6196525
9.11                 0.931936982     -71.7315932
9.111                0.931766347     -71.8438246
9.112                0.931595173     -71.9563476
9.113                0.931423459     -72.0691632
9.114                0.931251203     -72.1822725
9.115                0.931078403     -72.2956762
9.116                0.930905058     -72.4093755
9.117                0.930731167     -72.5233714
9.118                0.930556728     -72.6376646
9.119                 0.93038174     -72.7522563
9.12                 0.930206202     -72.8671475
9.121                0.930030111     -72.9823391
9.122                0.929853466     -73.0978321
9.123                0.929676267     -73.2136274
9.124                0.929498511     -73.3297262
9.125                0.929320197     -73.4461294
9.126                0.929141324     -73.5628379
9.127                 0.92896189     -73.6798529
9.128                0.928781894     -73.7971752
9.129                0.928601335      -73.914806
9.13                  0.92842021     -74.0327461
9.131                0.928238519     -74.1509968
9.132                 0.92805626     -74.2695588
9.133                0.927873432     -74.3884334
9.134                0.927690033     -74.5076214
9.135                0.927506062      -74.627124
9.136                0.927321518     -74.7469421
9.137                0.927136399     -74.8670768
9.138                0.926950704     -74.9875292
9.139                0.926764431     -75.1083002
9.14                  0.92657758     -75.2293909
9.141                0.926390147     -75.3508024
9.142                0.926202134     -75.4725357
9.143                0.926013537     -75.5945918
9.144                0.925824356     -75.7169718
9.145                0.925634589     -75.8396768
9.146                0.925444235     -75.9627078
9.147                0.925253292     -76.0860659
9.148                 0.92506176     -76.2097522
9.149                0.924869637     -76.3337677
9.15                 0.924676921     -76.4581134
9.151                0.924483611     -76.5827906
9.152                0.924289707     -76.7078001
9.153                0.924095206     -76.8331432
9.154                0.923900108     -76.9588209
9.155                 0.92370441     -77.0848343
9.156                0.923508113     -77.2111845
9.157                0.923311214     -77.3378726
9.158                0.923113712     -77.4648996
9.159                0.922915607     -77.5922666
9.16                 0.922716896     -77.7199749
9.161                0.922517579     -77.8480254
9.162                0.922317654     -77.9764193
9.163                 0.92211712     -78.1051577
9.164                0.921915977     -78.2342416
9.165                0.921714221     -78.3636723
9.166                0.921511854     -78.4934508
9.167                0.921308872     -78.6235782
9.168                0.921105276     -78.7540557
9.169                0.920901064     -78.8848844
9.17                 0.920696235     -79.0160655
9.171                0.920490787     -79.1475999
9.172                 0.92028472      -79.279489
9.173                0.920078032     -79.4117338
9.174                0.919870723     -79.5443354
9.175                0.919662791     -79.6772951
9.176                0.919454235     -79.8106139
9.177                0.919245054      -79.944293
9.178                0.919035247     -80.0783335
9.179                0.918824813     -80.2127367
9.18                  0.91861375     -80.3475036
9.181                0.918402059     -80.4826354
9.182                0.918189737     -80.6181332
9.183                0.917976785     -80.7539984
9.184                  0.9177632     -80.8902319
9.185                0.917548982     -81.0268349
9.186                0.917334129     -81.1638087
9.187                0.917118642     -81.3011545
9.188                0.916902519     -81.4388733
9.189                0.916685758     -81.5769663
9.19                  0.91646836     -81.7154348
9.191                0.916250323       -81.85428
9.192                0.916031647     -81.9935029
9.193                0.915812329     -82.1331049
9.194                0.915592371      -82.273087
9.195                 0.91537177     -82.4134505
9.196                0.915150527     -82.5541966
9.197                0.914928639     -82.6953265
9.198                0.914706107     -82.8368413
9.199                 0.91448293     -82.9787423
9.2                  0.914259106     -83.1210307
9.201                0.914034636     -83.2637076
9.202                0.913809518     -83.4067743
9.203                0.913583752     -83.5502321
9.204                0.913357336      -83.694082
9.205                0.913130271     -83.8383254
9.206                0.912902556     -83.9829634
9.207                 0.91267419     -84.1279973
9.208                0.912445173     -84.2734283
9.209                0.912215503     -84.4192575
9.21                 0.911985181     -84.5654863
9.211                0.911754205     -84.7121159
9.212                0.911522576     -84.8591474
9.213                0.911290293     -85.0065821
9.214                0.911057355     -85.1544213
9.215                0.910823761     -85.3026661
9.216                0.910589512     -85.4513179
9.217                0.910354607     -85.6003778
9.218                0.910119046     -85.7498471
9.219                0.909882828     -85.8997271
9.22                 0.909645952     -86.0500189
9.221                 0.90940842     -86.2007238
9.222                0.909170229     -86.3518431
9.223                 0.90893138      -86.503378
9.224                0.908691873     -86.6553297
9.225                0.908451707     -86.8076996
9.226                0.908210883     -86.9604888
9.227                  0.9079694     -87.1136986
9.228                0.907727257     -87.2673303
9.229                0.907484456     -87.4213851
9.23                 0.907240995     -87.5758643
9.231                0.906996874     -87.7307692
9.232                0.906752095     -87.8861009
9.233                0.906506655     -88.0418608
9.234                0.906260557     -88.1980501
9.235                0.906013799     -88.3546701
9.236                0.905766381      -88.511722
9.237                0.905518304     -88.6692071
9.238                0.905269569     -88.8271267
9.239                0.905020174     -88.9854821
9.24                  0.90477012     -89.1442744
9.241                0.904519408     -89.3035051
9.242                0.904268038     -89.4631753
9.243                0.904016009     -89.6232862
9.244                0.903763323     -89.7838393
9.245                0.903509979     -89.9448357
9.246                0.903255979     -90.1062768
9.247                0.903001321     -90.2681637
9.248                0.902746008     -90.4304979
9.249                0.902490039     -90.5932804
9.25                 0.902233414     -90.7565127
9.251                0.901976136     -90.9201959
9.252                0.901718203     -91.0843315
9.253                0.901459616     -91.2489205
9.254                0.901200377     -91.4139644
9.255                0.900940486     -91.5794643
9.256                0.900679943     -91.7454216
9.257                 0.90041875     -91.9118375
9.258                0.900156907     -92.0787133
9.259                0.899894415     -92.2460503
9.26                 0.899631275     -92.4138497
9.261                0.899367488     -92.5821128
9.262                0.899103054      -92.750841
9.263                0.898837976     -92.9200354
9.264                0.898572253     -93.0896973
9.265                0.898305887      -93.259828
9.266                0.898038879     -93.4304288
9.267                0.897771231     -93.6015009
9.268                0.897502942     -93.7730456
9.269                0.897234016     -93.9450643
9.27                 0.896964452      -94.117558
9.271                0.896694253     -94.2905281
9.272                0.896423419      -94.463976
9.273                0.896151953     -94.6379027
9.274                0.895879855     -94.8123096
9.275                0.895607127      -94.987198
9.276                 0.89533377     -95.1625691
9.277                0.895059787     -95.3384241
9.278                0.894785179     -95.5147644
9.279                0.894509948     -95.6915912
9.28                 0.894234094     -95.8689056
9.281                0.893957621     -96.0467091
9.282                 0.89368053     -96.2250028
9.283                0.893402823     -96.4037879
9.284                0.893124502     -96.5830658
9.285                0.892845568     -96.7628376
9.286                0.892566025     -96.9431046
9.287                0.892285873      -97.123868
9.288                0.892005116     -97.3051291
9.289                0.891723755     -97.4868891
9.29                 0.891441793     -97.6691492
9.291                0.891159231     -97.8519107
9.292                0.890876073     -98.0351747
9.293                0.890592321     -98.2189426
9.294                0.890307977     -98.4032154
9.295                0.890023044     -98.5879945
9.296                0.889737524      -98.773281
9.297                 0.88945142     -98.9590762
9.298                0.889164735     -99.1453812
9.299                0.888877472     -99.3321973
9.3                  0.888589632     -99.5195257
9.301                 0.88830122     -99.7073674
9.302                0.888012238     -99.8957238
9.303                 0.88772269     -100.084596
9.304                0.887432577     -100.273985
9.305                0.887141904     -100.463893
9.306                0.886850673     -100.654319
9.307                0.886558888     -100.845267
9.308                0.886266553     -101.036736
9.309                 0.88597367     -101.228727
9.31                 0.885680242     -101.421243
9.311                0.885386274     -101.614284
9.312                0.885091769     -101.807851
9.313                0.884796731     -102.001946
9.314                0.884501163     -102.196569
9.315                0.884205069     -102.391722
9.316                0.883908453     -102.587406
9.317                0.883611319     -102.783621
9.318                0.883313671      -102.98037
9.319                0.883015513     -103.177653
9.32                 0.882716848     -103.375471
9.321                0.882417682     -103.573825
9.322                0.882118018     -103.772717
9.323                0.881817861     -103.972147
9.324                0.881517215     -104.172117
9.325                0.881216084     -104.372628
9.326                0.880914474      -104.57368
9.327                0.880612388     -104.775275
9.328                0.880309832     -104.977414
9.329                0.880006809     -105.180097
9.33                 0.879703326     -105.383327
9.331                0.879399387     -105.587103
9.332                0.879094996     -105.791428
9.333                 0.87879016     -105.996301
9.334                0.878484882     -106.201724
9.335                0.878179169     -106.407698
9.336                0.877873026     -106.614224
9.337                0.877566457     -106.821303
9.338                0.877259469     -107.028936
9.339                0.876952066     -107.237123
9.34                 0.876644255     -107.445866
9.341                0.876336041     -107.655166
9.342                 0.87602743     -107.865024
9.343                0.875718428      -108.07544
9.344                0.875409041     -108.286416
9.345                0.875099274     -108.497951
9.346                0.874789134     -108.710049
9.347                0.874478628     -108.922708
9.348                 0.87416776      -109.13593
9.349                0.873856538     -109.349716
9.35                 0.873544968     -109.564067
9.351                0.873233056     -109.778984
9.352                 0.87292081     -109.994466
9.353                0.872608235     -110.210516
9.354                0.872295339     -110.427134
9.355                0.871982128     -110.644321
9.356                 0.87166861     -110.862078
9.357                 0.87135479     -111.080404
9.358                0.871040678     -111.299302
9.359                0.870726279     -111.518772
9.36                 0.870411601     -111.738814
9.361                0.870096651      -111.95943
9.362                0.869781437     -112.180619
9.363                0.869465966     -112.402384
9.364                0.869150247     -112.624724
9.365                0.868834286     -112.847639
9.366                0.868518091     -113.071132
9.367                0.868201671     -113.295202
9.368                0.867885033      -113.51985
9.369                0.867568186     -113.745077
9.37                 0.867251138     -113.970882
9.371                0.866933896     -114.197268
9.372                 0.86661647     -114.424234
9.373                0.866298868     -114.651781
9.374                0.865981098      -114.87991
9.375                0.865663169      -115.10862
9.376                 0.86534509     -115.337913
9.377                 0.86502687     -115.567789
9.378                0.864708517     -115.798249
9.379                 0.86439004     -116.029293
9.38                 0.864071449     -116.260921
9.381                0.863752753     -116.493133
9.382                0.863433961     -116.725932
9.383                0.863115083     -116.959315
9.384                0.862796127     -117.193285
9.385                0.862477104     -117.427841
9.386                0.862158023     -117.662984
9.387                0.861838895     -117.898715
9.388                0.861519728     -118.135032
9.389                0.861200533     -118.371937
9.39                  0.86088132      -118.60943
9.391                0.860562099     -118.847512
9.392                 0.86024288     -119.086182
9.393                0.859923674      -119.32544
9.394                0.859604491     -119.565288
9.395                0.859285342     -119.805724
9.396                0.858966236      -120.04675
