! TOUCHSTONE file generated by CST DESIGN STUDIO
! Date and time: Tue Feb  4 17:36:28 2025
! Project name: C:\Work\MatlabApps\UnitCellOptimizationMatlab\CST\unitcell.cst
! Tree item: Tasks\Sweep1\SPara1\S-Parameters
! Header version: 2024
! Port assignment regex: !\s*Touchstone port\s*([0-9]+)\s*=\s*(CST MWS port|CST DES external port|CST DES block port)\s*(.+)\s* \(\"(.*)\"\)(\s*mode\s*([0-9]+))?.*
! Touchstone port assignment:
! Touchstone port 1 = CST DES external port 1 ("")
# GHz S MA R 50
9                    0.952440797     -56.1314324
9.001                  0.9523389     -56.2063517
9.002                0.952236686     -56.2814409
9.003                0.952134154     -56.3567007
9.004                0.952031301     -56.4321316
9.005                0.951928128     -56.5077341
9.006                0.951824633     -56.5835087
9.007                0.951720814     -56.6594561
9.008                0.951616672     -56.7355768
9.009                0.951512204     -56.8118713
9.01                  0.95140741     -56.8883401
9.011                0.951302288     -56.9649839
9.012                0.951196837     -57.0418032
9.013                0.951091057     -57.1187985
9.014                0.950984945     -57.1959705
9.015                0.950878502     -57.2733196
9.016                0.950771725     -57.3508464
9.017                0.950664614     -57.4285516
9.018                0.950557167     -57.5064357
9.019                0.950449383     -57.5844992
9.02                 0.950341262     -57.6627427
9.021                0.950232801     -57.7411669
9.022                   0.950124     -57.8197722
9.023                0.950014858     -57.8985593
9.024                0.949905373     -57.9775288
9.025                0.949795545     -58.0566812
9.026                0.949685372     -58.1360171
9.027                0.949574852     -58.2155371
9.028                0.949463985     -58.2952418
9.029                 0.94935277     -58.3751319
9.03                 0.949241205     -58.4552078
9.031                0.949129289     -58.5354702
9.032                0.949017021     -58.6159197
9.033                  0.9489044      -58.696557
9.034                0.948791424     -58.7773825
9.035                0.948678092     -58.8583969
9.036                0.948564404     -58.9396008
9.037                0.948450357     -59.0209949
9.038                0.948335951     -59.1025797
9.039                0.948221185     -59.1843559
9.04                 0.948106056     -59.2663241
9.041                0.947990565     -59.3484849
9.042                0.947874709     -59.4308388
9.043                0.947758488     -59.5133867
9.044                  0.9476419      -59.596129
9.045                0.947524943     -59.6790664
9.046                0.947407618     -59.7621996
9.047                0.947289922     -59.8455291
9.048                0.947171854     -59.9290556
9.049                0.947053413     -60.0127798
9.05                 0.946934598     -60.0967023
9.051                0.946815408     -60.1808237
9.052                 0.94669584     -60.2651447
9.053                0.946575894     -60.3496659
9.054                0.946455569      -60.434388
9.055                0.946334863     -60.5193116
9.056                0.946213775     -60.6044374
9.057                0.946092304     -60.6897661
9.058                0.945970449     -60.7752983
9.059                0.945848207     -60.8610346
9.06                 0.945725579     -60.9469758
9.061                0.945602561     -61.0331225
9.062                0.945479155     -61.1194753
9.063                0.945355357      -61.206035
9.064                0.945231166     -61.2928022
9.065                0.945106583     -61.3797776
9.066                0.944981604     -61.4669619
9.067                0.944856228     -61.5543557
9.068                0.944730455     -61.6419598
9.069                0.944604284     -61.7297748
9.07                 0.944477711     -61.8178015
9.071                0.944350738     -61.9060404
9.072                0.944223361     -61.9944924
9.073                 0.94409558      -62.083158
9.074                0.943967393     -62.1720381
9.075                0.943838799     -62.2611333
9.076                0.943709797     -62.3504442
9.077                0.943580386     -62.4399717
9.078                0.943450563     -62.5297165
9.079                0.943320328     -62.6196791
9.08                 0.943189679     -62.7098604
9.081                0.943058615     -62.8002611
9.082                0.942927134     -62.8908819
9.083                0.942795236     -62.9817235
9.084                0.942662918     -63.0727866
9.085                 0.94253018      -63.164072
9.086                 0.94239702     -63.2555804
9.087                0.942263436     -63.3473126
9.088                0.942129428     -63.4392692
9.089                0.941994994      -63.531451
9.09                 0.941860132     -63.6238587
9.091                0.941724841     -63.7164932
9.092                 0.94158912     -63.8093551
9.093                0.941452967     -63.9024451
9.094                0.941316381     -63.9957641
9.095                0.941179361     -64.0893128
9.096                0.941041904     -64.1830919
9.097                0.940904011     -64.2771023
9.098                0.940765678     -64.3713446
9.099                0.940626906     -64.4658196
9.1                  0.940487692     -64.5605282
9.101                0.940348035      -64.655471
9.102                0.940207934     -64.7506488
9.103                0.940067387     -64.8460625
9.104                0.939926393     -64.9417128
9.105                 0.93978495     -65.0376004
9.106                0.939643057     -65.1337263
9.107                0.939500712      -65.230091
9.108                0.939357915     -65.3266955
9.109                0.939214663     -65.4235406
9.11                 0.939070955     -65.5206269
9.111                0.938926791     -65.6179554
9.112                0.938782167     -65.7155268
9.113                0.938637084      -65.813342
9.114                0.938491538     -65.9114016
9.115                 0.93834553     -66.0097067
9.116                0.938199058     -66.1082578
9.117                0.938052119      -66.207056
9.118                0.937904713     -66.3061019
9.119                0.937756839     -66.4053965
9.12                 0.937608494     -66.5049404
9.121                0.937459677     -66.6047346
9.122                0.937310388     -66.7047799
9.123                0.937160623     -66.8050772
9.124                0.937010383     -66.9056271
9.125                0.936859665     -67.0064307
9.126                0.936708468     -67.1074887
9.127                 0.93655679     -67.2088019
9.128                0.936404631     -67.3103713
9.129                0.936251988     -67.4121976
9.13                  0.93609886     -67.5142818
9.131                0.935945246     -67.6166246
9.132                0.935791144      -67.719227
9.133                0.935636553     -67.8220897
9.134                0.935481471     -67.9252137
9.135                0.935325896     -68.0285998
9.136                0.935169828     -68.1322489
9.137                0.935013265     -68.2361619
9.138                0.934856206     -68.3403396
9.139                0.934698648     -68.4447829
9.14                  0.93454059     -68.5494927
9.141                0.934382032     -68.6544699
9.142                 0.93422297     -68.7597153
9.143                0.934063405     -68.8652299
9.144                0.933903335     -68.9710145
9.145                0.933742757     -69.0770701
9.146                0.933581671     -69.1833975
9.147                0.933420075     -69.2899977
9.148                0.933257967     -69.3968715
9.149                0.933095347     -69.5040198
9.15                 0.932932212     -69.6114437
9.151                0.932768561     -69.7191439
9.152                0.932604393     -69.8271213
9.153                0.932439706      -69.935377
9.154                0.932274499     -70.0439119
9.155                 0.93210877     -70.1527268
9.156                0.931942518     -70.2618227
9.157                0.931775741     -70.3712005
9.158                0.931608438     -70.4808611
9.159                0.931440607     -70.5908056
9.16                 0.931272247     -70.7010348
9.161                0.931103357     -70.8115497
9.162                0.930933934     -70.9223511
9.163                0.930763978     -71.0334402
9.164                0.930593487     -71.1448178
9.165                0.930422459     -71.2564849
9.166                0.930250894     -71.3684424
9.167                0.930078789     -71.4806913
9.168                0.929906143     -71.5932325
9.169                0.929732955     -71.7060671
9.17                 0.929559223      -71.819196
9.171                0.929384945     -71.9326202
9.172                0.929210121     -72.0463407
9.173                0.929034749     -72.1603584
9.174                0.928858828     -72.2746742
9.175                0.928682355     -72.3892893
9.176                 0.92850533     -72.5042046
9.177                0.928327751     -72.6194211
9.178                0.928149616     -72.7349398
9.179                0.927970925     -72.8507616
9.18                 0.927791676     -72.9668876
9.181                0.927611867     -73.0833188
9.182                0.927431496     -73.2000562
9.183                0.927250564     -73.3171007
9.184                0.927069067     -73.4344535
9.185                0.926887005     -73.5521156
9.186                0.926704376     -73.6700878
9.187                0.926521179     -73.7883714
9.188                0.926337413     -73.9069672
9.189                0.926153075     -74.0258764
9.19                 0.925968166     -74.1450999
9.191                0.925782682     -74.2646388
9.192                0.925596623     -74.3844942
9.193                0.925409988      -74.504667
9.194                0.925222775     -74.6251583
9.195                0.925034982     -74.7459692
9.196                0.924846609     -74.8671007
9.197                0.924657654     -74.9885539
9.198                0.924468116     -75.1103298
9.199                0.924277993     -75.2324294
9.2                  0.924087283     -75.3548539
9.201                0.923895987     -75.4776043
9.202                0.923704101     -75.6006817
9.203                0.923511626     -75.7240871
9.204                0.923318559     -75.8478217
9.205                0.923124899     -75.9718864
9.206                0.922930646     -76.0962824
9.207                0.922735797     -76.2210107
9.208                0.922540351     -76.3460725
9.209                0.922344308     -76.4714689
9.21                 0.922147665     -76.5972008
9.211                0.921950422     -76.7232694
9.212                0.921752578     -76.8496759
9.213                 0.92155413     -76.9764213
9.214                0.921355078     -77.1035067
9.215                 0.92115542     -77.2309332
9.216                0.920955156     -77.3587019
9.217                0.920754284      -77.486814
9.218                0.920552802     -77.6152706
9.219                0.920350711     -77.7440727
9.22                 0.920148007     -77.8732215
9.221                0.919944691     -78.0027181
9.222                0.919740761     -78.1325637
9.223                0.919536216     -78.2627594
9.224                0.919331055     -78.3933062
9.225                0.919125276     -78.5242054
9.226                0.918918879     -78.6554581
9.227                0.918711861     -78.7870654
9.228                0.918504223     -78.9190284
9.229                0.918295964     -79.0513484
9.23                 0.918087081     -79.1840264
9.231                0.917877574     -79.3170636
9.232                0.917667441     -79.4504612
9.233                0.917456683     -79.5842203
9.234                0.917245297     -79.7183421
9.235                0.917033283     -79.8528277
9.236                0.916820639     -79.9876783
9.237                0.916607365     -80.1228951
9.238                 0.91639346     -80.2584793
9.239                0.916178922     -80.3944319
9.24                 0.915963751     -80.5307542
9.241                0.915747945     -80.6674475
9.242                0.915531505     -80.8045127
9.243                0.915314428     -80.9419512
9.244                0.915096713     -81.0797641
9.245                0.914878361     -81.2179526
9.246                 0.91465937     -81.3565179
9.247                0.914439739     -81.4954612
9.248                0.914219467     -81.6347837
9.249                0.913998554     -81.7744866
9.25                 0.913776998      -81.914571
9.251                0.913554799     -82.0550382
9.252                0.913331957     -82.1958895
9.253                0.913108469     -82.3371259
9.254                0.912884336     -82.4787487
9.255                0.912659557     -82.6207592
9.256                 0.91243413     -82.7631585
9.257                0.912208056     -82.9059478
9.258                0.911981334     -83.0491285
9.259                0.911753962     -83.1927016
9.26                 0.911525941     -83.3366684
9.261                0.911297269     -83.4810302
9.262                0.911067946     -83.6257881
9.263                0.910837972     -83.7709435
9.264                0.910607345     -83.9164975
9.265                0.910376066     -84.0624513
9.266                0.910144133     -84.2088062
9.267                0.909911547     -84.3555635
9.268                0.909678306     -84.5027244
9.269                 0.90944441     -84.6502901
9.27                 0.909209859     -84.7982619
9.271                0.908974653      -84.946641
9.272                 0.90873879     -85.0954286
9.273                0.908502271      -85.244626
9.274                0.908265095     -85.3942346
9.275                0.908027261     -85.5442554
9.276                0.907788771     -85.6946898
9.277                0.907549622      -85.845539
9.278                0.907309815     -85.9968043
9.279                 0.90706935      -86.148487
9.28                 0.906828227     -86.3005882
9.281                0.906586444     -86.4531093
9.282                0.906344003     -86.6060516
9.283                0.906100902     -86.7594162
9.284                0.905857143     -86.9132046
9.285                0.905612724     -87.0674178
9.286                0.905367645     -87.2220573
9.287                0.905121908     -87.3771242
9.288                 0.90487551     -87.5326199
9.289                0.904628454     -87.6885456
9.29                 0.904380738     -87.8449026
9.291                0.904132363     -88.0016921
9.292                0.903883328     -88.1589156
9.293                0.903633635     -88.3165741
9.294                0.903383282     -88.4746691
9.295                0.903132271     -88.6332017
9.296                0.902880602     -88.7921733
9.297                0.902628274     -88.9515851
9.298                0.902375289     -89.1114385
9.299                0.902121646     -89.2717347
9.3                  0.901867345      -89.432475
9.301                0.901612388     -89.5936607
9.302                0.901356774      -89.755293
9.303                0.901100504     -89.9173733
9.304                0.900843579     -90.0799029
9.305                0.900585999     -90.2428829
9.306                0.900327764     -90.4063148
9.307                0.900068876     -90.5701998
9.308                0.899809334     -90.7345391
9.309                 0.89954914     -90.8993342
9.31                 0.899288294     -91.0645862
9.311                0.899026797     -91.2302965
9.312                0.898764649     -91.3964663
9.313                0.898501852     -91.5630969
9.314                0.898238407     -91.7301896
9.315                0.897974313     -91.8977458
9.316                0.897709573     -92.0657666
9.317                0.897444187     -92.2342534
9.318                0.897178156     -92.4032075
9.319                0.896911481     -92.5726301
9.32                 0.896644163     -92.7425226
9.321                0.896376204     -92.9128862
9.322                0.896107605     -93.0837222
9.323                0.895838366     -93.2550319
9.324                0.895568489     -93.4268165
9.325                0.895297976     -93.5990775
9.326                0.895026828     -93.7718159
9.327                0.894755045     -93.9450332
9.328                0.894482631     -94.1187306
9.329                0.894209585     -94.2929093
9.33                  0.89393591     -94.4675707
9.331                0.893661607      -94.642716
9.332                0.893386678     -94.8183466
9.333                0.893111124     -94.9944636
9.334                0.892834947     -95.1710683
9.335                 0.89255815     -95.3481621
9.336                0.892280733     -95.5257461
9.337                0.892002699     -95.7038217
9.338                0.891724049     -95.8823902
9.339                0.891444786     -96.0614526
9.34                 0.891164912     -96.2410105
9.341                0.890884428     -96.4210649
9.342                0.890603337     -96.6016171
9.343                0.890321641     -96.7826685
9.344                0.890039341     -96.9642202
9.345                0.889756442     -97.1462736
9.346                0.889472944     -97.3288297
9.347                 0.88918885       -97.51189
9.348                0.888904163     -97.6954556
9.349                0.888618885     -97.8795277
9.35                 0.888333019     -98.0641077
9.351                0.888046567     -98.2491966
9.352                0.887759532     -98.4347959
9.353                0.887471917     -98.6209066
9.354                0.887183724       -98.80753
9.355                0.886894956     -98.9946674
9.356                0.886605617     -99.1823199
9.357                0.886315709     -99.3704887
9.358                0.886025236     -99.5591751
9.359                0.885734199     -99.7483803
9.36                 0.885442603     -99.9381054
9.361                0.885150451     -100.128352
9.362                0.884857746      -100.31912
9.363                0.884564491     -100.510412
9.364                 0.88427069     -100.702229
9.365                0.883976346     -100.894572
9.366                0.883681463     -101.087442
9.367                0.883386044     -101.280839
9.368                0.883090093     -101.474767
9.369                0.882793614     -101.669225
9.37                  0.88249661     -101.864214
9.371                0.882199086     -102.059737
9.372                0.881901045     -102.255793
9.373                0.881602491     -102.452384
9.374                0.881303429     -102.649512
9.375                0.881003863     -102.847177
9.376                0.880703796     -103.045381
9.377                0.880403233     -103.244124
9.378                0.880102179     -103.443407
9.379                0.879800637     -103.643233
9.38                 0.879498613     -103.843601
9.381                0.879196111     -104.044514
9.382                0.878893135     -104.245971
9.383                0.878589691     -104.447975
9.384                0.878285782     -104.650525
9.385                0.877981415     -104.853624
9.386                0.877676593     -105.057273
9.387                0.877371323     -105.261471
9.388                0.877065608     -105.466221
9.389                0.876759455     -105.671523
9.39                 0.876452868     -105.877379
9.391                0.876145852     -106.083789
9.392                0.875838414     -106.290754
9.393                0.875530559     -106.498276
9.394                0.875222292     -106.706355
9.395                0.874913618     -106.914993
9.396                0.874604545      -107.12419
