! TOUCHSTONE file generated by CST DESIGN STUDIO
! Date and time: Tue Feb  4 17:36:20 2025
! Project name: C:\Work\MatlabApps\UnitCellOptimizationMatlab\CST\unitcell.cst
! Tree item: Tasks\Sweep1\SPara1\S-Parameters
! Header version: 2024
! Port assignment regex: !\s*Touchstone port\s*([0-9]+)\s*=\s*(CST MWS port|CST DES external port|CST DES block port)\s*(.+)\s* \(\"(.*)\"\)(\s*mode\s*([0-9]+))?.*
! Touchstone port assignment:
! Touchstone port 1 = CST DES external port 1 ("")
# GHz S MA R 50
9                    0.931844892     -77.2905612
9.001                0.931660227     -77.4164031
9.002                0.931474974     -77.5425815
9.003                0.931289133     -77.6690977
9.004                0.931102702     -77.7959527
9.005                 0.93091568     -77.9231477
9.006                0.930728066     -78.0506836
9.007                0.930539859     -78.1785617
9.008                0.930351056      -78.306783
9.009                0.930161657     -78.4353487
9.01                 0.929971661     -78.5642598
9.011                0.929781066     -78.6935174
9.012                 0.92958987     -78.8231227
9.013                0.929398073     -78.9530768
9.014                0.929205673     -79.0833809
9.015                0.929012669     -79.2140359
9.016                 0.92881906     -79.3450431
9.017                0.928624844     -79.4764036
9.018                0.928430021     -79.6081186
9.019                0.928234588     -79.7401891
9.02                 0.928038545     -79.8726163
9.021                0.927841891     -80.0054013
9.022                0.927644623     -80.1385453
9.023                0.927446742     -80.2720495
9.024                0.927248246     -80.4059149
9.025                0.927049134     -80.5401427
9.026                0.926849404     -80.6747341
9.027                0.926649055     -80.8096903
9.028                0.926448087     -80.9450123
9.029                0.926246498     -81.0807014
9.03                 0.926044287     -81.2167587
9.031                0.925841452     -81.3531854
9.032                0.925637994     -81.4899827
9.033                 0.92543391     -81.6271517
9.034                  0.9252292     -81.7646935
9.035                0.925023862     -81.9026095
9.036                0.924817895     -82.0409007
9.037                0.924611299     -82.1795683
9.038                0.924404073     -82.3186135
9.039                0.924196215     -82.4580376
9.04                 0.923987724     -82.5978416
9.041                  0.9237786     -82.7380268
9.042                0.923568841     -82.8785944
9.043                0.923358446     -83.0195455
9.044                0.923147415     -83.1608814
9.045                0.922935747     -83.3026033
9.046                 0.92272344     -83.4447123
9.047                0.922510494     -83.5872097
9.048                0.922296908     -83.7300967
9.049                0.922082681     -83.8733745
9.05                 0.921867813     -84.0170442
9.051                0.921652301     -84.1611072
9.052                0.921436146     -84.3055645
9.053                0.921219347     -84.4504176
9.054                0.921001903     -84.5956674
9.055                0.920783813     -84.7413154
9.056                0.920565076     -84.8873626
9.057                0.920345692     -85.0338104
9.058                 0.92012566     -85.1806599
9.059                0.919904979     -85.3279124
9.06                 0.919683649      -85.475569
9.061                0.919461669     -85.6236312
9.062                0.919239038        -85.7721
9.063                0.919015756     -85.9209767
9.064                0.918791822     -86.0702625
9.065                0.918567235     -86.2199587
9.066                0.918341996     -86.3700666
9.067                0.918116103     -86.5205873
9.068                0.917889556     -86.6715221
9.069                0.917662354     -86.8228723
9.07                 0.917434497     -86.9746391
9.071                0.917205985     -87.1268237
9.072                0.916976817     -87.2794274
9.073                0.916746993     -87.4324514
9.074                0.916516512     -87.5858971
9.075                0.916285374     -87.7397656
9.076                0.916053578     -87.8940582
9.077                0.915821125     -88.0487762
9.078                0.915588015     -88.2039208
9.079                0.915354246     -88.3594932
9.08                 0.915119818     -88.5154948
9.081                0.914884732     -88.6719268
9.082                0.914648987     -88.8287905
9.083                0.914412584     -88.9860871
9.084                0.914175521     -89.1438178
9.085                0.913937799      -89.301984
9.086                0.913699418      -89.460587
9.087                0.913460378     -89.6196278
9.088                0.913220678      -89.779108
9.089                0.912980319     -89.9390286
9.09                 0.912739302     -90.0993911
9.091                0.912497625     -90.2601965
9.092                0.912255289     -90.4214463
9.093                0.912012294     -90.5831417
9.094                 0.91176864     -90.7452839
9.095                0.911524328     -90.9078743
9.096                0.911279358      -91.070914
9.097                 0.91103373     -91.2344044
9.098                0.910787444     -91.3983467
9.099                0.910540501     -91.5627423
9.1                  0.910292901     -91.7275923
9.101                0.910044644     -91.8928981
9.102                0.909795731     -92.0586609
9.103                0.909546163     -92.2248819
9.104                0.909295939     -92.3915626
9.105                0.909045061      -92.558704
9.106                0.908793528     -92.7263076
9.107                0.908541343     -92.8943745
9.108                0.908288504     -93.0629061
9.109                0.908035013     -93.2319035
9.11                 0.907780871     -93.4013682
9.111                0.907526078     -93.5713013
9.112                0.907270636     -93.7417041
9.113                0.907014544     -93.9125778
9.114                0.906757805     -94.0839238
9.115                0.906500418     -94.2557433
9.116                0.906242385     -94.4280376
9.117                0.905983707     -94.6008079
9.118                0.905724384     -94.7740555
9.119                0.905464418     -94.9477817
9.12                 0.905203811     -95.1219876
9.121                0.904942562     -95.2966746
9.122                0.904680674      -95.471844
9.123                0.904418148     -95.6474969
9.124                0.904154985     -95.8236347
9.125                0.903891185     -96.0002585
9.126                0.903626752     -96.1773696
9.127                0.903361686     -96.3549694
9.128                0.903095988     -96.5330589
9.129                 0.90282966     -96.7116395
9.13                 0.902562705     -96.8907124
9.131                0.902295122     -97.0702789
9.132                0.902026914     -97.2503401
9.133                0.901758084     -97.4308974
9.134                0.901488631     -97.6119519
9.135                0.901218559     -97.7935048
9.136                0.900947869     -97.9755575
9.137                0.900676563     -98.1581111
9.138                0.900404644     -98.3411668
9.139                0.900132112      -98.524726
9.14                 0.899858971     -98.7087896
9.141                0.899585221     -98.8933591
9.142                0.899310867     -99.0784356
9.143                0.899035909     -99.2640203
9.144                 0.89876035     -99.4501144
9.145                0.898484192     -99.6367191
9.146                0.898207438     -99.8238356
9.147                 0.89793009     -100.011465
9.148                0.897652151     -100.199609
9.149                0.897373623     -100.388268
9.15                 0.897094509     -100.577443
9.151                0.896814812     -100.767137
9.152                0.896534534     -100.957349
9.153                0.896253678     -101.148081
9.154                0.895972247     -101.339334
9.155                0.895690245      -101.53111
9.156                0.895407673     -101.723409
9.157                0.895124534     -101.916233
9.158                0.894840833     -102.109583
9.159                0.894556573      -102.30346
9.16                 0.894271755     -102.497864
9.161                0.893986385     -102.692798
9.162                0.893700464     -102.888263
9.163                0.893413997     -103.084258
9.164                0.893126987     -103.280787
9.165                0.892839438     -103.477849
9.166                0.892551352     -103.675445
9.167                0.892262735     -103.873578
9.168                0.891973589     -104.072247
9.169                0.891683919     -104.271455
9.17                 0.891393728     -104.471201
9.171                 0.89110302     -104.671488
9.172                  0.8908118     -104.872316
9.173                0.890520071     -105.073686
9.174                0.890227837     -105.275599
9.175                0.889935104     -105.478057
9.176                0.889641874      -105.68106
9.177                0.889348153     -105.884609
9.178                0.889053945     -106.088706
9.179                0.888759255     -106.293351
9.18                 0.888464086     -106.498546
9.181                0.888168444     -106.704291
9.182                0.887872334     -106.910587
9.183                 0.88757576     -107.117436
9.184                0.887278728     -107.324838
9.185                0.886981241     -107.532794
9.186                0.886683306     -107.741305
9.187                0.886384927     -107.950373
9.188                 0.88608611     -108.159998
9.189                0.885786859      -108.37018
9.19                 0.885487181     -108.580922
9.191                 0.88518708     -108.792223
9.192                0.884886563     -109.004085
9.193                0.884585634     -109.216509
9.194                  0.8842843     -109.429495
9.195                0.883982566     -109.643045
9.196                0.883680438     -109.857158
9.197                0.883377922     -110.071837
9.198                0.883075024     -110.287081
9.199                 0.88277175     -110.502892
9.2                  0.882468107     -110.719271
9.201                0.882164099     -110.936217
9.202                0.881859735     -111.153733
9.203                 0.88155502     -111.371819
9.204                 0.88124996     -111.590475
9.205                0.880944563     -111.809702
9.206                0.880638835     -112.029502
9.207                0.880332783     -112.249874
9.208                0.880026413      -112.47082
9.209                0.879719733      -112.69234
9.21                 0.879412749     -112.914434
9.211                0.879105469     -113.137105
9.212                  0.8787979     -113.360351
9.213                0.878490049     -113.584174
9.214                0.878181924     -113.808575
9.215                0.877873531     -114.033554
9.216                0.877564879     -114.259111
9.217                0.877255975     -114.485248
9.218                0.876946828     -114.711965
9.219                0.876637444     -114.939262
9.22                 0.876327831      -115.16714
9.221                0.876017998     -115.395599
9.222                0.875707953      -115.62464
9.223                0.875397704     -115.854264
9.224                0.875087259     -116.084471
9.225                0.874776626     -116.315261
9.226                0.874465814     -116.546635
9.227                0.874154832     -116.778594
9.228                0.873843688     -117.011137
9.229                0.873532391     -117.244265
9.23                  0.87322095     -117.477979
9.231                0.872909373     -117.712279
9.232                 0.87259767     -117.947164
9.233                0.872285849     -118.182637
9.234                0.871973921     -118.418696
9.235                0.871661894     -118.655343
9.236                0.871349777     -118.892577
9.237                 0.87103758     -119.130398
9.238                0.870725313     -119.368808
9.239                0.870412985     -119.607806
9.24                 0.870100607     -119.847392
9.241                0.869788187     -120.087567
9.242                0.869475736      -120.32833
9.243                0.869163263     -120.569682
9.244                 0.86885078     -120.811624
9.245                0.868538296     -121.054154
9.246                0.868225821     -121.297274
9.247                0.867913367     -121.540983
9.248                0.867600942     -121.785281
9.249                0.867288559     -122.030168
9.25                 0.866976227     -122.275645
9.251                0.866663958     -122.521711
9.252                0.866351762     -122.768366
9.253                 0.86603965     -123.015611
9.254                0.865727634     -123.263444
9.255                0.865415724     -123.511867
9.256                0.865103932     -123.760879
9.257                0.864792268     -124.010479
9.258                0.864480745     -124.260668
9.259                0.864169375     -124.511445
9.26                 0.863858167      -124.76281
9.261                0.863547135     -125.014763
9.262                 0.86323629     -125.267304
9.263                0.862925644     -125.520432
9.264                0.862615209     -125.774147
9.265                0.862304996     -126.028449
9.266                0.861995019     -126.283337
9.267                0.861685289     -126.538811
9.268                0.861375818     -126.794871
9.269                0.861066619     -127.051515
9.27                 0.860757705     -127.308744
9.271                0.860449088     -127.566557
9.272                 0.86014078     -127.824954
9.273                0.859832795     -128.083934
9.274                0.859525145     -128.343496
9.275                0.859217843     -128.603641
9.276                0.858910902     -128.864366
9.277                0.858604336     -129.125672
9.278                0.858298157     -129.387558
9.279                0.857992378     -129.650023
9.28                 0.857687013     -129.913067
9.281                0.857382076     -130.176689
9.282                0.857077579     -130.440887
9.283                0.856773537     -130.705661
9.284                0.856469962     -130.971011
9.285                0.856166869     -131.236936
9.286                0.855864272     -131.503433
9.287                0.855562184     -131.770504
9.288                0.855260619     -132.038146
9.289                0.854959591     -132.306358
9.29                 0.854659115     -132.575141
9.291                0.854359204     -132.844491
9.292                0.854059872      -133.11441
9.293                0.853761134     -133.384895
9.294                0.853463005     -133.655945
9.295                0.853165498     -133.927559
9.296                0.852868629     -134.199736
9.297                0.852572411     -134.472475
9.298                0.852276859     -134.745774
9.299                0.851981988     -135.019632
9.3                  0.851687813     -135.294048
9.301                0.851394348     -135.569021
9.302                0.851101608     -135.844549
9.303                0.850809609      -136.12063
9.304                0.850518364     -136.397264
9.305                 0.85022789     -136.674448
9.306                0.849938201     -136.952182
9.307                0.849649312     -137.230463
9.308                0.849361238      -137.50929
9.309                0.849073996     -137.788662
9.31                 0.848787599     -138.068577
9.311                0.848502063     -138.349033
9.312                0.848217403     -138.630029
9.313                0.847933636     -138.911562
9.314                0.847650776     -139.193631
9.315                0.847368838     -139.476235
9.316                0.847087839      -139.75937
9.317                0.846807794     -140.043037
9.318                0.846528718     -140.327231
9.319                0.846250627     -140.611953
9.32                 0.845973536     -140.897199
9.321                0.845697462     -141.182968
9.322                 0.84542242     -141.469257
9.323                0.845148425     -141.756065
9.324                0.844875494      -142.04339
9.325                0.844603641     -142.331228
9.326                0.844332884     -142.619579
9.327                0.844063237      -142.90844
9.328                0.843794717     -143.197808
9.329                0.843527339     -143.487682
9.33                 0.843261119     -143.778059
9.331                0.842996073     -144.068936
9.332                0.842732217     -144.360312
9.333                0.842469567     -144.652184
9.334                0.842208138     -144.944549
9.335                0.841947946     -145.237405
9.336                0.841689008      -145.53075
9.337                0.841431339      -145.82458
9.338                0.841174954     -146.118894
9.339                0.840919871     -146.413688
9.34                 0.840666104     -146.708961
9.341                0.840413669     -147.004708
9.342                0.840162583     -147.300929
9.343                 0.83991286     -147.597619
9.344                0.839664518     -147.894776
9.345                0.839417571     -148.192397
9.346                0.839172035      -148.49048
9.347                0.838927927     -148.789021
9.348                0.838685261     -149.088017
9.349                0.838444053     -149.387466
9.35                 0.838204319     -149.687364
9.351                0.837966075     -149.987709
9.352                0.837729336     -150.288497
9.353                0.837494117     -150.589725
9.354                0.837260435     -150.891391
9.355                0.837028304      -151.19349
9.356                 0.83679774      -151.49602
9.357                0.836568758     -151.798977
9.358                0.836341374     -152.102358
9.359                0.836115602     -152.406161
9.36                 0.835891459      -152.71038
9.361                0.835668958     -153.015014
9.362                0.835448115     -153.320058
9.363                0.835228946      -153.62551
9.364                0.835011464     -153.931365
9.365                0.834795686      -154.23762
9.366                0.834581625     -154.544272
9.367                0.834369296     -154.851317
9.368                0.834158714     -155.158751
9.369                0.833949894     -155.466571
9.37                 0.833742851     -155.774774
9.371                0.833537597     -156.083354
9.372                0.833334149     -156.392309
9.373                0.833132519     -156.701635
9.374                0.832932723     -157.011328
9.375                0.832734773     -157.321384
9.376                0.832538686     -157.631799
9.377                0.832344473      -157.94257
9.378                0.832152149     -158.253692
9.379                0.831961727     -158.565161
9.38                 0.831773222     -158.876974
9.381                0.831586646     -159.189126
9.382                0.831402013     -159.501614
9.383                0.831219335     -159.814433
9.384                0.831038628     -160.127579
9.385                0.830859902     -160.441048
9.386                0.830683171     -160.754835
9.387                0.830508448     -161.068938
9.388                0.830335746      -161.38335
9.389                0.830165076     -161.698069
9.39                 0.829996452      -162.01309
9.391                0.829829886     -162.328408
9.392                0.829665389     -162.644019
9.393                0.829502974     -162.959918
9.394                0.829342652     -163.276103
9.395                0.829184436     -163.592567
9.396                0.829028336     -163.909306
