! TOUCHSTONE file generated by CST DESIGN STUDIO
! Date and time: Tue Feb  4 17:36:30 2025
! Project name: C:\Work\MatlabApps\UnitCellOptimizationMatlab\CST\unitcell.cst
! Tree item: Tasks\Sweep1\SPara1\S-Parameters
! Header version: 2024
! Port assignment regex: !\s*Touchstone port\s*([0-9]+)\s*=\s*(CST MWS port|CST DES external port|CST DES block port)\s*(.+)\s* \(\"(.*)\"\)(\s*mode\s*([0-9]+))?.*
! Touchstone port assignment:
! Touchstone port 1 = CST DES external port 1 ("")
# GHz S MA R 50
9                     0.95674967      -51.626406
9.001                0.956664033     -51.6923763
9.002                0.956578135     -51.7584887
9.003                0.956491975     -51.8247437
9.004                0.956405553     -51.8911417
9.005                0.956318868     -51.9576832
9.006                0.956231918     -52.0243686
9.007                0.956144703     -52.0911983
9.008                0.956057222     -52.1581728
9.009                0.955969475     -52.2252926
9.01                 0.955881459      -52.292558
9.011                0.955793174     -52.3599696
9.012                 0.95570462     -52.4275278
9.013                0.955615795     -52.4952331
9.014                0.955526698     -52.5630859
9.015                0.955437328     -52.6310867
9.016                0.955347685     -52.6992359
9.017                0.955257768      -52.767534
9.018                0.955167575     -52.8359814
9.019                0.955077105     -52.9045787
9.02                 0.954986358     -52.9733263
9.021                0.954895333     -53.0422247
9.022                0.954804028     -53.1112742
9.023                0.954712443     -53.1804755
9.024                0.954620577      -53.249829
9.025                0.954528429     -53.3193352
9.026                0.954435997     -53.3889944
9.027                0.954343281     -53.4588073
9.028                 0.95425028     -53.5287743
9.029                0.954156992     -53.5988959
9.03                 0.954063418     -53.6691726
9.031                0.953969555     -53.7396048
9.032                0.953875403      -53.810193
9.033                 0.95378096     -53.8809378
9.034                0.953686227     -53.9518396
9.035                0.953591201     -54.0228989
9.036                0.953495882     -54.0941163
9.037                0.953400269     -54.1654922
9.038                 0.95330436      -54.237027
9.039                0.953208155     -54.3087214
9.04                 0.953111653     -54.3805759
9.041                0.953014852     -54.4525908
9.042                0.952917752     -54.5247668
9.043                0.952820351     -54.5971043
9.044                0.952722649     -54.6696039
9.045                0.952624644      -54.742266
9.046                0.952526336     -54.8150912
9.047                0.952427723       -54.88808
9.048                0.952328804     -54.9612329
9.049                0.952229578     -55.0345505
9.05                 0.952130045     -55.1080332
9.051                0.952030202     -55.1816816
9.052                 0.95193005     -55.2554962
9.053                0.951829587     -55.3294776
9.054                0.951728811     -55.4036262
9.055                0.951627722     -55.4779426
9.056                0.951526319     -55.5524274
9.057                0.951424601      -55.627081
9.058                0.951322565      -55.701904
9.059                0.951220213      -55.776897
9.06                 0.951117541     -55.8520605
9.061                 0.95101455      -55.927395
9.062                0.950911238     -56.0029011
9.063                0.950807604     -56.0785793
9.064                0.950703647     -56.1544302
9.065                0.950599365     -56.2304543
9.066                0.950494758     -56.3066522
9.067                0.950389825     -56.3830245
9.068                0.950284564     -56.4595716
9.069                0.950178974     -56.5362942
9.07                 0.950073054     -56.6131928
9.071                0.949966803     -56.6902681
9.072                 0.94986022     -56.7675204
9.073                0.949753304     -56.8449505
9.074                0.949646053     -56.9225589
9.075                0.949538467     -57.0003462
9.076                0.949430544     -57.0783129
9.077                0.949322283     -57.1564596
9.078                0.949213682     -57.2347869
9.079                0.949104742     -57.3132954
9.08                  0.94899546     -57.3919856
9.081                0.948885835     -57.4708583
9.082                0.948775867     -57.5499138
9.083                0.948665554     -57.6291529
9.084                0.948554894     -57.7085761
9.085                0.948443887      -57.788184
9.086                0.948332532     -57.8679772
9.087                0.948220826     -57.9479563
9.088                 0.94810877      -58.028122
9.089                0.947996362     -58.1084747
9.09                   0.9478836     -58.1890152
9.091                0.947770484      -58.269744
9.092                0.947657012     -58.3506617
9.093                0.947543183      -58.431769
9.094                0.947428996     -58.5130665
9.095                0.947314449     -58.5945547
9.096                0.947199542     -58.6762343
9.097                0.947084273      -58.758106
9.098                0.946968641     -58.8401703
9.099                0.946852644     -58.9224279
9.1                  0.946736282     -59.0048794
9.101                0.946619553     -59.0875254
9.102                0.946502456     -59.1703665
9.103                0.946384989     -59.2534035
9.104                0.946267152     -59.3366369
9.105                0.946148943     -59.4200674
9.106                0.946030361     -59.5036956
9.107                0.945911404     -59.5875222
9.108                0.945792072     -59.6715478
9.109                0.945672363      -59.755773
9.11                 0.945552276     -59.8401985
9.111                0.945431809     -59.9248251
9.112                0.945310962     -60.0096532
9.113                0.945189732     -60.0946836
9.114                0.945068119      -60.179917
9.115                0.944946122     -60.2653539
9.116                0.944823738     -60.3509952
9.117                0.944700968     -60.4368414
9.118                0.944577809     -60.5228931
9.119                 0.94445426     -60.6091512
9.12                  0.94433032     -60.6956163
9.121                0.944205987     -60.7822889
9.122                0.944081261     -60.8691699
9.123                 0.94395614     -60.9562599
9.124                0.943830622     -61.0435596
9.125                0.943704706     -61.1310697
9.126                0.943578392     -61.2187908
9.127                0.943451677     -61.3067238
9.128                0.943324561     -61.3948691
9.129                0.943197041     -61.4832276
9.13                 0.943069117        -61.5718
9.131                0.942940787      -61.660587
9.132                0.942812051     -61.7495892
9.133                0.942682905     -61.8388074
9.134                 0.94255335     -61.9282422
9.135                0.942423384     -62.0178945
9.136                0.942293006     -62.1077649
9.137                0.942162214     -62.1978542
9.138                0.942031006     -62.2881629
9.139                0.941899382      -62.378692
9.14                  0.94176734     -62.4694421
9.141                0.941634878     -62.5604139
9.142                0.941501996     -62.6516082
9.143                0.941368692     -62.7430257
9.144                0.941234965     -62.8346672
9.145                0.941100812     -62.9265333
9.146                0.940966233     -63.0186249
9.147                0.940831227     -63.1109426
9.148                0.940695792     -63.2034873
9.149                0.940559926     -63.2962596
9.15                 0.940423629     -63.3892603
9.151                0.940286898     -63.4824902
9.152                0.940149733     -63.5759501
9.153                0.940012132     -63.6696407
9.154                0.939874093     -63.7635627
9.155                0.939735616      -63.857717
9.156                0.939596698     -63.9521042
9.157                0.939457339     -64.0467252
9.158                0.939317537     -64.1415808
9.159                 0.93917729     -64.2366717
9.16                 0.939036598     -64.3319987
9.161                0.938895458     -64.4275627
9.162                0.938753869     -64.5233642
9.163                 0.93861183     -64.6194043
9.164                0.938469339     -64.7156836
9.165                0.938326396     -64.8122029
9.166                0.938182998     -64.9089632
9.167                0.938039144      -65.005965
9.168                0.937894833     -65.1032093
9.169                0.937750063     -65.2006969
9.17                 0.937604832     -65.2984285
9.171                 0.93745914      -65.396405
9.172                0.937312985     -65.4946272
9.173                0.937166366      -65.593096
9.174                 0.93701928      -65.691812
9.175                0.936871727     -65.7907762
9.176                0.936723705     -65.8899894
9.177                0.936575212     -65.9894524
9.178                0.936426248      -66.089166
9.179                 0.93627681     -66.1891311
9.18                 0.936126898     -66.2893485
9.181                0.935976509     -66.3898191
9.182                0.935825643     -66.4905437
9.183                0.935674298     -66.5915231
9.184                0.935522472     -66.6927582
9.185                0.935370163     -66.7942498
9.186                0.935217372     -66.8959988
9.187                0.935064095     -66.9980061
9.188                0.934910332     -67.1002725
9.189                0.934756081     -67.2027989
9.19                  0.93460134     -67.3055861
9.191                0.934446108      -67.408635
9.192                0.934290384     -67.5119466
9.193                0.934134167     -67.6155216
9.194                0.933977454     -67.7193609
9.195                0.933820244     -67.8234654
9.196                0.933662535     -67.9278361
9.197                0.933504327     -68.0324738
9.198                0.933345618     -68.1373793
9.199                0.933186406     -68.2425536
9.2                   0.93302669     -68.3479976
9.201                0.932866468     -68.4537122
9.202                0.932705739     -68.5596983
9.203                0.932544501     -68.6659567
9.204                0.932382753     -68.7724884
9.205                0.932220494     -68.8792943
9.206                0.932057721     -68.9863754
9.207                0.931894434     -69.0937325
9.208                0.931730631     -69.2013665
9.209                 0.93156631     -69.3092784
9.21                 0.931401471     -69.4174692
9.211                0.931236111     -69.5259396
9.212                0.931070229     -69.6346908
9.213                0.930903823     -69.7437235
9.214                0.930736892     -69.8530388
9.215                0.930569436     -69.9626376
9.216                0.930401451     -70.0725208
9.217                0.930232937     -70.1826894
9.218                0.930063892     -70.2931443
9.219                0.929894315     -70.4038865
9.22                 0.929724204     -70.5149169
9.221                0.929553558     -70.6262366
9.222                0.929382375     -70.7378464
9.223                0.929210654     -70.8497474
9.224                0.929038393     -70.9619404
9.225                0.928865591     -71.0744266
9.226                0.928692247     -71.1872068
9.227                0.928518359      -71.300282
9.228                0.928343925     -71.4136533
9.229                0.928168944     -71.5273215
9.23                 0.927993415     -71.6412877
9.231                0.927817336     -71.7555529
9.232                0.927640706     -71.8701181
9.233                0.927463523     -71.9849843
9.234                0.927285786     -72.1001524
9.235                0.927107494     -72.2156236
9.236                0.926928644     -72.3313987
9.237                0.926749236     -72.4474788
9.238                0.926569268     -72.5638649
9.239                0.926388738      -72.680558
9.24                 0.926207646     -72.7975592
9.241                 0.92602599     -72.9148694
9.242                0.925843768     -73.0324898
9.243                0.925660979     -73.1504212
9.244                0.925477621     -73.2686649
9.245                0.925293694     -73.3872217
9.246                0.925109196     -73.5060927
9.247                0.924924125      -73.625279
9.248                0.924738479     -73.7447816
9.249                0.924552259     -73.8646016
9.25                 0.924365461       -73.98474
9.251                0.924178086     -74.1051979
9.252                0.923990131     -74.2259763
9.253                0.923801595     -74.3470762
9.254                0.923612476     -74.4684988
9.255                0.923422774     -74.5902452
9.256                0.923232487     -74.7123163
9.257                0.923041614     -74.8347132
9.258                0.922850153     -74.9574371
9.259                0.922658103      -75.080489
9.26                 0.922465462       -75.20387
9.261                 0.92227223     -75.3275811
9.262                0.922078405     -75.4516236
9.263                0.921883985     -75.5759983
9.264                 0.92168897     -75.7007065
9.265                0.921493358     -75.8257493
9.266                0.921297148     -75.9511277
9.267                0.921100338     -76.0768428
9.268                0.920902927     -76.2028958
9.269                0.920704915     -76.3292878
9.27                 0.920506299     -76.4560198
9.271                0.920307078      -76.583093
9.272                0.920107252     -76.7105085
9.273                0.919906819     -76.8382674
9.274                0.919705777     -76.9663709
9.275                0.919504126     -77.0948201
9.276                0.919301864      -77.223616
9.277                 0.91909899     -77.3527599
9.278                0.918895503     -77.4822529
9.279                0.918691402     -77.6120961
9.28                 0.918486686     -77.7422906
9.281                0.918281353     -77.8728376
9.282                0.918075402     -78.0037383
9.283                0.917868832     -78.1349938
9.284                0.917661642     -78.2666052
9.285                0.917453831     -78.3985737
9.286                0.917245397     -78.5309005
9.287                0.917036341     -78.6635867
9.288                0.916826659     -78.7966335
9.289                0.916616352      -78.930042
9.29                 0.916405419     -79.0638135
9.291                0.916193858     -79.1979491
9.292                0.915981668     -79.3324499
9.293                0.915768849     -79.4673172
9.294                0.915555398     -79.6025522
9.295                0.915341316     -79.7381559
9.296                0.915126601     -79.8741297
9.297                0.914911253     -80.0104746
9.298                0.914695269      -80.147192
9.299                 0.91447865     -80.2842829
9.3                  0.914261395     -80.4217486
9.301                0.914043502     -80.5595903
9.302                 0.91382497     -80.6978091
9.303                  0.9136058     -80.8364064
9.304                0.913385989     -80.9753832
9.305                0.913165537     -81.1147409
9.306                0.912944443     -81.2544805
9.307                0.912722706     -81.3946034
9.308                0.912500326     -81.5351108
9.309                0.912277301     -81.6760038
9.31                 0.912053632     -81.8172837
9.311                0.911829316     -81.9589517
9.312                0.911604354     -82.1010091
9.313                0.911378744      -82.243457
9.314                0.911152487     -82.3862968
9.315                 0.91092558     -82.5295296
9.316                0.910698024     -82.6731567
9.317                0.910469818     -82.8171793
9.318                0.910240961     -82.9615987
9.319                0.910011453     -83.1064161
9.32                 0.909781293     -83.2516327
9.321                 0.90955048     -83.3972498
9.322                0.909319015     -83.5432687
9.323                0.909086895     -83.6896906
9.324                0.908854122     -83.8365167
9.325                0.908620693     -83.9837484
9.326                 0.90838661     -84.1313868
9.327                0.908151871     -84.2794333
9.328                0.907916476     -84.4278891
9.329                0.907680424     -84.5767554
9.33                 0.907443716     -84.7260336
9.331                 0.90720635     -84.8757249
9.332                0.906968327     -85.0258305
9.333                0.906729646     -85.1763518
9.334                0.906490307       -85.32729
9.335                 0.90625031     -85.4786463
9.336                0.906009654     -85.6304222
9.337                0.905768339     -85.7826188
9.338                0.905526365     -85.9352374
9.339                0.905283731     -86.0882794
9.34                 0.905040438     -86.2417459
9.341                0.904796486     -86.3956383
9.342                0.904551874     -86.5499579
9.343                0.904306603      -86.704706
9.344                0.904060672     -86.8598838
9.345                0.903814081     -87.0154926
9.346                0.903566831     -87.1715338
9.347                 0.90331892     -87.3280086
9.348                0.903070351     -87.4849183
9.349                0.902821122     -87.6422642
9.35                 0.902571233     -87.8000476
9.351                0.902320686     -87.9582699
9.352                 0.90206948     -88.1169322
9.353                0.901817614      -88.276036
9.354                0.901565091     -88.4355825
9.355                0.901311909      -88.595573
9.356                 0.90105807     -88.7560088
9.357                0.900803573     -88.9168913
9.358                 0.90054842     -89.0782216
9.359                0.900292609     -89.2400013
9.36                 0.900036143     -89.4022314
9.361                 0.89977902     -89.5649134
9.362                0.899521243     -89.7280486
9.363                0.899262811     -89.8916382
9.364                0.899003725     -90.0556835
9.365                0.898743986      -90.220186
9.366                0.898483595     -90.3851469
9.367                0.898222551     -90.5505674
9.368                0.897960856      -90.716449
9.369                0.897698511     -90.8827928
9.37                 0.897435516     -91.0496003
9.371                0.897171873     -91.2168727
9.372                0.896907581     -91.3846114
9.373                0.896642643     -91.5528176
9.374                0.896377059     -91.7214927
9.375                0.896110831      -91.890638
9.376                0.895843958     -92.0602547
9.377                0.895576443     -92.2303442
9.378                0.895308286     -92.4009078
9.379                0.895039489     -92.5719468
9.38                 0.894770053     -92.7434626
9.381                 0.89449998     -92.9154563
9.382                0.894229269     -93.0879294
9.383                0.893957924      -93.260883
9.384                0.893685945     -93.4343187
9.385                0.893413334     -93.6082375
9.386                0.893140091     -93.7826409
9.387                 0.89286622     -93.9575301
9.388                0.892591721     -94.1329064
9.389                0.892316597     -94.3087711
9.39                 0.892040848     -94.4851256
9.391                0.891764476     -94.6619711
9.392                0.891487484     -94.8393089
9.393                0.891209873     -95.0171403
9.394                0.890931645     -95.1954666
9.395                0.890652802     -95.3742891
9.396                0.890373346      -95.553609
