! TOUCHSTONE file generated by CST DESIGN STUDIO
! Date and time: Tue Feb  4 17:36:35 2025
! Project name: C:\Work\MatlabApps\UnitCellOptimizationMatlab\CST\unitcell.cst
! Tree item: Tasks\Sweep1\SPara1\S-Parameters
! Header version: 2024
! Port assignment regex: !\s*Touchstone port\s*([0-9]+)\s*=\s*(CST MWS port|CST DES external port|CST DES block port)\s*(.+)\s* \(\"(.*)\"\)(\s*mode\s*([0-9]+))?.*
! Touchstone port assignment:
! Touchstone port 1 = CST DES external port 1 ("")
# GHz S MA R 50
9                    0.967396052      -39.995546
9.001                0.967347161     -40.0422364
9.002                0.967298129     -40.0890112
9.003                0.967248954     -40.1358708
9.004                0.967199637     -40.1828154
9.005                0.967150176     -40.2298452
9.006                0.967100571     -40.2769604
9.007                0.967050822     -40.3241614
9.008                0.967000928     -40.3714482
9.009                0.966950889     -40.4188213
9.01                 0.966900704     -40.4662807
9.011                0.966850374     -40.5138269
9.012                0.966799896     -40.5614599
9.013                0.966749272     -40.6091801
9.014                  0.9666985     -40.6569877
9.015                 0.96664758      -40.704883
9.016                0.966596512     -40.7528662
9.017                0.966545295     -40.8009375
9.018                0.966493928     -40.8490972
9.019                0.966442412     -40.8973456
9.02                 0.966390745      -40.945683
9.021                0.966338927     -40.9941094
9.022                0.966286958     -41.0426253
9.023                0.966234837     -41.0912309
9.024                0.966182564     -41.1399265
9.025                0.966130138     -41.1887122
9.026                0.966077559     -41.2375883
9.027                0.966024825     -41.2865552
9.028                0.965971938      -41.335613
9.029                0.965918896     -41.3847621
9.03                 0.965865699     -41.4340027
9.031                0.965812345      -41.483335
9.032                0.965758836     -41.5327594
9.033                 0.96570517      -41.582276
9.034                0.965651346     -41.6318852
9.035                0.965597365     -41.6815872
9.036                0.965543225     -41.7313823
9.037                0.965488926     -41.7812707
9.038                0.965434468     -41.8312528
9.039                 0.96537985     -41.8813288
9.04                 0.965325072     -41.9314989
9.041                0.965270133     -41.9817635
9.042                0.965215032     -42.0321228
9.043                 0.96515977     -42.0825771
9.044                0.965104345     -42.1331266
9.045                0.965048757     -42.1837717
9.046                0.964993005     -42.2345126
9.047                0.964937089     -42.2853496
9.048                0.964881009     -42.3362829
9.049                0.964824763     -42.3873129
9.05                 0.964768352     -42.4384399
9.051                0.964711775     -42.4896641
9.052                 0.96465503     -42.5409858
9.053                0.964598118     -42.5924052
9.054                0.964541039     -42.6439227
9.055                0.964483791     -42.6955386
9.056                0.964426374     -42.7472532
9.057                0.964368787     -42.7990666
9.058                 0.96431103     -42.8509793
9.059                0.964253102     -42.9029915
9.06                 0.964195004     -42.9551036
9.061                0.964136733     -43.0073157
9.062                 0.96407829     -43.0596282
9.063                0.964019674     -43.1120414
9.064                0.963960885     -43.1645555
9.065                0.963901921      -43.217171
9.066                0.963842783      -43.269888
9.067                0.963783469     -43.3227069
9.068                 0.96372398      -43.375628
9.069                0.963664314     -43.4286515
9.07                 0.963604471     -43.4817779
9.071                0.963544451     -43.5350073
9.072                0.963484252     -43.5883401
9.073                0.963423874     -43.6417766
9.074                0.963363318     -43.6953171
9.075                0.963302581     -43.7489619
9.076                0.963241663     -43.8027113
9.077                0.963180565     -43.8565657
9.078                0.963119284     -43.9105253
9.079                0.963057821     -43.9645904
9.08                 0.962996176     -44.0187614
9.081                0.962934346     -44.0730385
9.082                0.962872332     -44.1274222
9.083                0.962810134     -44.1819127
9.084                 0.96274775     -44.2365103
9.085                 0.96268518     -44.2912153
9.086                0.962622423     -44.3460281
9.087                0.962559479      -44.400949
9.088                0.962496346     -44.4559783
9.089                0.962433026     -44.5111164
9.09                 0.962369515     -44.5663635
9.091                0.962305816       -44.62172
9.092                0.962241925     -44.6771861
9.093                0.962177843     -44.7327624
9.094                 0.96211357      -44.788449
9.095                0.962049104     -44.8442463
9.096                0.961984445     -44.9001546
9.097                0.961919592     -44.9561743
9.098                0.961854545     -45.0123057
9.099                0.961789303     -45.0685492
9.1                  0.961723865      -45.124905
9.101                0.961658231     -45.1813735
9.102                0.961592399     -45.2379551
9.103                 0.96152637       -45.29465
9.104                0.961460143     -45.3514587
9.105                0.961393716     -45.4083815
9.106                 0.96132709     -45.4654187
9.107                0.961260263     -45.5225706
9.108                0.961193235     -45.5798377
9.109                0.961126006     -45.6372202
9.11                 0.961058573     -45.6947185
9.111                0.960990938      -45.752333
9.112                0.960923099      -45.810064
9.113                0.960855055     -45.8679119
9.114                0.960786807      -45.925877
9.115                0.960718352     -45.9839597
9.116                 0.96064969     -46.0421603
9.117                0.960580821     -46.1004792
9.118                0.960511745     -46.1589167
9.119                0.960442459     -46.2174733
9.12                 0.960372964     -46.2761492
9.121                0.960303259     -46.3349449
9.122                0.960233342     -46.3938607
9.123                0.960163214     -46.4528969
9.124                0.960092874      -46.512054
9.125                0.960022321     -46.5713323
9.126                0.959951554     -46.6307322
9.127                0.959880572      -46.690254
9.128                0.959809375     -46.7498982
9.129                0.959737962      -46.809665
9.13                 0.959666333      -46.869555
9.131                0.959594486     -46.9295683
9.132                 0.95952242     -46.9897055
9.133                0.959450136      -47.049967
9.134                0.959377631      -47.110353
9.135                0.959304907      -47.170864
9.136                0.959231961     -47.2315003
9.137                0.959158793     -47.2922624
9.138                0.959085402     -47.3531506
9.139                0.959011788     -47.4141654
9.14                 0.958937949      -47.475307
9.141                0.958863885      -47.536576
9.142                0.958789595     -47.5979727
9.143                0.958715079     -47.6594974
9.144                0.958640335     -47.7211507
9.145                0.958565363     -47.7829328
9.146                0.958490162     -47.8448442
9.147                0.958414732     -47.9068853
9.148                 0.95833907     -47.9690565
9.149                0.958263177     -48.0313582
9.15                 0.958187052     -48.0937908
9.151                0.958110695     -48.1563547
9.152                0.958034103     -48.2190503
9.153                0.957957276      -48.281878
9.154                0.957880215     -48.3448382
9.155                0.957802917     -48.4079314
9.156                0.957725381      -48.471158
9.157                0.957647609     -48.5345183
9.158                0.957569597     -48.5980128
9.159                0.957491346     -48.6616419
9.16                 0.957412854     -48.7254061
9.161                0.957334121     -48.7893057
9.162                0.957255147     -48.8533412
9.163                0.957175929     -48.9175129
9.164                0.957096468     -48.9818215
9.165                0.957016762     -49.0462671
9.166                0.956936811     -49.1108504
9.167                0.956856613     -49.1755717
9.168                0.956776168     -49.2404314
9.169                0.956695476       -49.30543
9.17                 0.956614534     -49.3705679
9.171                0.956533343     -49.4358456
9.172                0.956451901     -49.5012635
9.173                0.956370208      -49.566822
9.174                0.956288263     -49.6325216
9.175                0.956206064     -49.6983628
9.176                0.956123611     -49.7643459
9.177                0.956040903     -49.8304714
9.178                 0.95595794     -49.8967399
9.179                0.955874719     -49.9631516
9.18                 0.955791241     -50.0297071
9.181                0.955707505     -50.0964069
9.182                0.955623509     -50.1632513
9.183                0.955539253     -50.2302409
9.184                0.955454735     -50.2973761
9.185                0.955369956     -50.3646573
9.186                0.955284913     -50.4320851
9.187                0.955199606     -50.4996599
9.188                0.955114035     -50.5673822
9.189                0.955028197     -50.6352524
9.19                 0.954942093      -50.703271
9.191                0.954855721     -50.7714384
9.192                 0.95476908     -50.8397552
9.193                 0.95468217     -50.9082219
9.194                 0.95459499     -50.9768388
9.195                0.954507538     -51.0456066
9.196                0.954419813     -51.1145255
9.197                0.954331815     -51.1835963
9.198                0.954243543     -51.2528192
9.199                0.954154996     -51.3221949
9.2                  0.954066172     -51.3917238
9.201                0.953977071     -51.4614064
9.202                0.953887692     -51.5312432
9.203                0.953798034     -51.6012346
9.204                0.953708096     -51.6713813
9.205                0.953617877     -51.7416836
9.206                0.953527375     -51.8121421
9.207                0.953436591     -51.8827573
9.208                0.953345522     -51.9535296
9.209                0.953254169     -52.0244597
9.21                 0.953162529     -52.0955479
9.211                0.953070603     -52.1667948
9.212                0.952978388      -52.238201
9.213                0.952885884     -52.3097669
9.214                 0.95279309      -52.381493
9.215                0.952700006     -52.4533799
9.216                0.952606629      -52.525428
9.217                0.952512959      -52.597638
9.218                0.952418995     -52.6700103
9.219                0.952324735     -52.7425454
9.22                  0.95223018     -52.8152439
9.221                0.952135327     -52.8881064
9.222                0.952040176     -52.9611332
9.223                0.951944726      -53.034325
9.224                0.951848975     -53.1076823
9.225                0.951752923     -53.1812057
9.226                0.951656568     -53.2548956
9.227                 0.95155991     -53.3287527
9.228                0.951462947     -53.4027774
9.229                0.951365679     -53.4769703
9.23                 0.951268104      -53.551332
9.231                0.951170221     -53.6258629
9.232                 0.95107203     -53.7005638
9.233                0.950973528      -53.775435
9.234                0.950874715     -53.8504772
9.235                0.950775591      -53.925691
9.236                0.950676153     -54.0010768
9.237                0.950576401     -54.0766352
9.238                0.950476333     -54.1523669
9.239                0.950375949     -54.2282723
9.24                 0.950275247     -54.3043521
9.241                0.950174227     -54.3806068
9.242                0.950072887     -54.4570369
9.243                0.949971226     -54.5336432
9.244                0.949869243      -54.610426
9.245                0.949766936     -54.6873861
9.246                0.949664306      -54.764524
9.247                 0.94956135     -54.8418402
9.248                0.949458067     -54.9193355
9.249                0.949354457     -54.9970103
9.25                 0.949250518     -55.0748652
9.251                0.949146249     -55.1529008
9.252                0.949041649     -55.2311178
9.253                0.948936716     -55.3095168
9.254                 0.94883145     -55.3880982
9.255                 0.94872585     -55.4668628
9.256                0.948619914     -55.5458111
9.257                0.948513641     -55.6249438
9.258                0.948407029     -55.7042614
9.259                0.948300079     -55.7837645
9.26                 0.948192788     -55.8634539
9.261                0.948085156       -55.94333
9.262                 0.94797718     -56.0233935
9.263                0.947868861     -56.1036451
9.264                0.947760197     -56.1840853
9.265                0.947651186     -56.2647148
9.266                0.947541827     -56.3455341
9.267                 0.94743212      -56.426544
9.268                0.947322063     -56.5077451
9.269                0.947211655     -56.5891379
9.27                 0.947100894     -56.6707232
9.271                 0.94698978     -56.7525016
9.272                 0.94687831     -56.8344737
9.273                0.946766485     -56.9166401
9.274                0.946654303     -56.9990015
9.275                0.946541761     -57.0815586
9.276                0.946428861      -57.164312
9.277                0.946315599     -57.2472623
9.278                0.946201975     -57.3304103
9.279                0.946087987     -57.4137565
9.28                 0.945973635     -57.4973017
9.281                0.945858916     -57.5810464
9.282                0.945743831     -57.6649914
9.283                0.945628377     -57.7491374
9.284                0.945512553     -57.8334849
9.285                0.945396358     -57.9180348
9.286                0.945279791     -58.0027875
9.287                 0.94516285     -58.0877439
9.288                0.945045535     -58.1729047
9.289                0.944927843     -58.2582704
9.29                 0.944809774     -58.3438418
9.291                0.944691326     -58.4296195
9.292                0.944572498     -58.5156044
9.293                0.944453289      -58.601797
9.294                0.944333697      -58.688198
9.295                0.944213721     -58.7748082
9.296                 0.94409336     -58.8616283
9.297                0.943972613     -58.9486589
9.298                0.943851478     -59.0359008
9.299                0.943729953     -59.1233546
9.3                  0.943608038     -59.2110212
9.301                0.943485732     -59.2989012
9.302                0.943363032     -59.3869953
9.303                0.943239938     -59.4753042
9.304                0.943116448     -59.5638287
9.305                0.942992561     -59.6525695
9.306                0.942868275     -59.7415273
9.307                 0.94274359     -59.8307029
9.308                0.942618503      -59.920097
9.309                0.942493014     -60.0097103
9.31                 0.942367122     -60.0995436
9.311                0.942240824     -60.1895976
9.312                0.942114119      -60.279873
9.313                0.941987007     -60.3703707
9.314                0.941859485     -60.4610913
9.315                0.941731553     -60.5520356
9.316                0.941603209     -60.6432044
9.317                0.941474451     -60.7345984
9.318                0.941345278     -60.8262184
9.319                 0.94121569     -60.9180651
9.32                 0.941085683     -61.0101394
9.321                0.940955258      -61.102442
9.322                0.940824413     -61.1949736
9.323                0.940693146     -61.2877351
9.324                0.940561456     -61.3807271
9.325                0.940429341     -61.4739506
9.326                0.940296801     -61.5674063
9.327                0.940163833      -61.661095
9.328                0.940030436     -61.7550174
9.329                0.939896609     -61.8491744
9.33                 0.939762351     -61.9435668
9.331                 0.93962766     -62.0381953
9.332                0.939492535     -62.1330608
9.333                0.939356973      -62.228164
9.334                0.939220975     -62.3235058
9.335                0.939084538      -62.419087
9.336                0.938947661     -62.5149084
9.337                0.938810342     -62.6109709
9.338                0.938672581     -62.7072751
9.339                0.938534375     -62.8038221
9.34                 0.938395723     -62.9006125
9.341                0.938256625     -62.9976472
9.342                0.938117077     -63.0949271
9.343                0.937977079      -63.192453
9.344                 0.93783663     -63.2902257
9.345                0.937695728     -63.3882461
9.346                0.937554371      -63.486515
9.347                0.937412559     -63.5850333
9.348                0.937270289     -63.6838017
9.349                 0.93712756     -63.7828213
9.35                 0.936984371     -63.8820927
9.351                 0.93684072      -63.981617
9.352                0.936696606     -64.0813949
9.353                0.936552027     -64.1814273
9.354                0.936406983     -64.2817151
9.355                 0.93626147     -64.3822591
9.356                0.936115489     -64.4830603
9.357                0.935969036     -64.5841195
9.358                0.935822112     -64.6854376
9.359                0.935674715     -64.7870154
9.36                 0.935526842      -64.888854
9.361                0.935378493     -64.9909541
9.362                0.935229666     -65.0933166
9.363                0.935080359     -65.1959425
9.364                0.934930572     -65.2988327
9.365                0.934780302      -65.401988
9.366                0.934629548     -65.5054094
9.367                0.934478309     -65.6090977
9.368                0.934326583      -65.713054
9.369                0.934174369      -65.817279
9.37                 0.934021664     -65.9217738
9.371                0.933868469     -66.0265392
9.372                 0.93371478     -66.1315763
9.373                0.933560598     -66.2368858
9.374                0.933405919     -66.3424688
9.375                0.933250743     -66.4483261
9.376                0.933095069     -66.5544588
9.377                0.932938894     -66.6608677
9.378                0.932782217     -66.7675539
9.379                0.932625037     -66.8745182
9.38                 0.932467352     -66.9817616
9.381                0.932309161     -67.0892851
9.382                0.932150462     -67.1970896
9.383                0.931991254     -67.3051761
9.384                0.931831535     -67.4135456
9.385                0.931671303      -67.522199
9.386                0.931510558     -67.6311373
9.387                0.931349298     -67.7403615
9.388                0.931187521     -67.8498726
9.389                0.931025225     -67.9596715
9.39                  0.93086241     -68.0697592
9.391                0.930699073     -68.1801367
9.392                0.930535214     -68.2908051
9.393                0.930370831     -68.4017653
9.394                0.930205921     -68.5130183
9.395                0.930040485     -68.6245651
9.396                0.929874519     -68.7364067
