! TOUCHSTONE file generated by CST DESIGN STUDIO
! Date and time: Tue Feb  4 18:44:02 2025
! Project name: C:\Work\MatlabApps\UnitCellOptimizationMatlab\CST\unitcell.cst
! Tree item: Tasks\Sweep1\SPara1\S-Parameters
! Header version: 2024
! Port assignment regex: !\s*Touchstone port\s*([0-9]+)\s*=\s*(CST MWS port|CST DES external port|CST DES block port)\s*(.+)\s* \(\"(.*)\"\)(\s*mode\s*([0-9]+))?.*
! Touchstone port assignment:
! Touchstone port 1 = CST DES external port 1 ("")
# GHz S MA R 50
9                    0.964531662     -42.5428801
9.001                0.964474109     -42.5929338
9.002                0.964416381     -42.6430828
9.003                 0.96435848     -42.6933273
9.004                0.964300404     -42.7436677
9.005                0.964242153     -42.7941041
9.006                0.964183726     -42.8446368
9.007                0.964125123     -42.8952662
9.008                0.964066343     -42.9459924
9.009                0.964007385     -42.9968159
9.01                 0.963948249     -43.0477368
9.011                0.963888935     -43.0987555
9.012                0.963829441     -43.1498721
9.013                0.963769767     -43.2010871
9.014                0.963709912     -43.2524007
9.015                0.963649876     -43.3038132
9.016                0.963589659     -43.3553248
9.017                0.963529259     -43.4069359
9.018                0.963468675     -43.4586467
9.019                0.963407909     -43.5104576
9.02                 0.963346957     -43.5623688
9.021                0.963285821     -43.6143806
9.022                0.963224499     -43.6664932
9.023                0.963162991     -43.7187071
9.024                0.963101296     -43.7710225
9.025                0.963039414     -43.8234397
9.026                0.962977344      -43.875959
9.027                0.962915084     -43.9285806
9.028                0.962852635     -43.9813049
9.029                0.962789996     -44.0341322
9.03                 0.962727167     -44.0870628
9.031                0.962664146      -44.140097
9.032                0.962600933     -44.1932351
9.033                0.962537527     -44.2464774
9.034                0.962473927     -44.2998241
9.035                0.962410134     -44.3532757
9.036                0.962346146     -44.4068324
9.037                0.962281963     -44.4604945
9.038                0.962217583     -44.5142623
9.039                0.962153007     -44.5681362
9.04                 0.962088233     -44.6221164
9.041                0.962023261     -44.6762033
9.042                0.961958091     -44.7303972
9.043                0.961892721     -44.7846984
9.044                0.961827151     -44.8391072
9.045                0.961761379     -44.8936239
9.046                0.961695407     -44.9482489
9.047                0.961629232     -45.0029825
9.048                0.961562854     -45.0578249
9.049                0.961496272     -45.1127766
9.05                 0.961429487     -45.1678378
9.051                0.961362496     -45.2230089
9.052                0.961295299     -45.2782901
9.053                0.961227895     -45.3336819
9.054                0.961160285     -45.3891846
9.055                0.961092467     -45.4447984
9.056                0.961024439     -45.5005237
9.057                0.960956203     -45.5563608
9.058                0.960887756     -45.6123101
9.059                0.960819099      -45.668372
9.06                  0.96075023     -45.7245467
9.061                0.960681149     -45.7808345
9.062                0.960611854     -45.8372359
9.063                0.960542346     -45.8937511
9.064                0.960472623     -45.9503805
9.065                0.960402685     -46.0071245
9.066                0.960332531     -46.0639834
9.067                 0.96026216     -46.1209574
9.068                0.960191572     -46.1780471
9.069                0.960120765     -46.2352527
9.07                 0.960049739     -46.2925745
9.071                0.959978494      -46.350013
9.072                0.959907027     -46.4075684
9.073                 0.95983534     -46.4652411
9.074                 0.95976343     -46.5230315
9.075                0.959691297       -46.58094
9.076                 0.95961894     -46.6389668
9.077                0.959546359     -46.6971124
9.078                0.959473553     -46.7553771
9.079                0.959400521     -46.8137612
9.08                 0.959327261     -46.8722652
9.081                0.959253774     -46.9308893
9.082                0.959180059      -46.989634
9.083                0.959106114     -47.0484996
9.084                0.959031939     -47.1074865
9.085                0.958957534     -47.1665951
9.086                0.958882896     -47.2258256
9.087                0.958808026     -47.2851786
9.088                0.958732923     -47.3446543
9.089                0.958657586     -47.4042531
9.09                 0.958582014     -47.4639754
9.091                0.958506205     -47.5238217
9.092                0.958430161     -47.5837922
9.093                0.958353878     -47.6438873
9.094                0.958277358     -47.7041075
9.095                0.958200598      -47.764453
9.096                0.958123598     -47.8249244
9.097                0.958046358     -47.8855219
9.098                0.957968875      -47.946246
9.099                0.957891151      -48.007097
9.1                  0.957813183     -48.0680754
9.101                 0.95773497     -48.1291815
9.102                0.957656513     -48.1904157
9.103                0.957577809     -48.2517784
9.104                0.957498859       -48.31327
9.105                 0.95741966      -48.374891
9.106                0.957340214     -48.4366416
9.107                0.957260518     -48.4985223
9.108                0.957180571     -48.5605336
9.109                0.957100373     -48.6226757
9.11                 0.957019923     -48.6849491
9.111                 0.95693922     -48.7473543
9.112                0.956858263     -48.8098915
9.113                0.956777051     -48.8725613
9.114                0.956695584      -48.935364
9.115                 0.95661386     -48.9983001
9.116                0.956531878       -49.06137
9.117                0.956449638      -49.124574
9.118                0.956367138     -49.1879126
9.119                0.956284378     -49.2513862
9.12                 0.956201357     -49.3149952
9.121                0.956118074     -49.3787401
9.122                0.956034528     -49.4426212
9.123                0.955950717     -49.5066391
9.124                0.955866642     -49.5707941
9.125                0.955782301     -49.6350866
9.126                0.955697693     -49.6995171
9.127                0.955612817      -49.764086
9.128                0.955527672     -49.8287937
9.129                0.955442258     -49.8936407
9.13                 0.955356573     -49.9586274
9.131                0.955270617     -50.0237543
9.132                0.955184388     -50.0890217
9.133                0.955097885     -50.1544302
9.134                0.955011108     -50.2199801
9.135                0.954924055     -50.2856719
9.136                0.954836726     -50.3515061
9.137                0.954749119      -50.417483
9.138                0.954661234     -50.4836033
9.139                0.954573069     -50.5498672
9.14                 0.954484624     -50.6162752
9.141                0.954395898     -50.6828279
9.142                0.954306889     -50.7495256
9.143                0.954217596     -50.8163689
9.144                0.954128019     -50.8833581
9.145                0.954038157     -50.9504937
9.146                0.953948008     -51.0177763
9.147                0.953857572     -51.0852061
9.148                0.953766847     -51.1527839
9.149                0.953675832     -51.2205099
9.15                 0.953584527     -51.2883846
9.151                 0.95349293     -51.3564086
9.152                0.953401041     -51.4245823
9.153                0.953308858     -51.4929062
9.154                 0.95321638     -51.5613808
9.155                0.953123606     -51.6300064
9.156                0.953030535     -51.6987837
9.157                0.952937167     -51.7677131
9.158                0.952843499      -51.836795
9.159                0.952749531     -51.9060301
9.16                 0.952655262     -51.9754186
9.161                0.952560691     -52.0449612
9.162                0.952465817     -52.1146584
9.163                0.952370638     -52.1845105
9.164                0.952275154     -52.2545182
9.165                0.952179363     -52.3246819
9.166                0.952083265     -52.3950021
9.167                0.951986858     -52.4654793
9.168                0.951890141      -52.536114
9.169                0.951793113     -52.6069067
9.17                 0.951695773      -52.677858
9.171                 0.95159812     -52.7489683
9.172                0.951500152     -52.8202381
9.173                0.951401869      -52.891668
9.174                 0.95130327     -52.9632585
9.175                0.951204353       -53.03501
9.176                0.951105117     -53.1069231
9.177                0.951005561     -53.1789984
9.178                0.950905684     -53.2512363
9.179                0.950805485     -53.3236373
9.18                 0.950704962     -53.3962021
9.181                0.950604115      -53.468931
9.182                0.950502942     -53.5418247
9.183                0.950401442     -53.6148837
9.184                0.950299615     -53.6881085
9.185                0.950197458     -53.7614997
9.186                 0.95009497     -53.8350577
9.187                0.949992152     -53.9087831
9.188                   0.949889     -53.9826765
9.189                0.949785515     -54.0567385
9.19                 0.949681694     -54.1309694
9.191                0.949577537       -54.20537
9.192                0.949473043     -54.2799407
9.193                 0.94936821     -54.3546822
9.194                0.949263037     -54.4295949
9.195                0.949157523     -54.5046794
9.196                0.949051667     -54.5799362
9.197                0.948945467     -54.6553661
9.198                0.948838922     -54.7309694
9.199                0.948732031     -54.8067467
9.2                  0.948624793     -54.8826987
9.201                0.948517207     -54.9588259
9.202                0.948409271     -55.0351288
9.203                0.948300984     -55.1116081
9.204                0.948192345     -55.1882643
9.205                0.948083352      -55.265098
9.206                0.947974005     -55.3421098
9.207                0.947864301     -55.4193002
9.208                0.947754241     -55.4966699
9.209                0.947643822     -55.5742194
9.21                 0.947533043     -55.6519493
9.211                0.947421903     -55.7298602
9.212                0.947310401     -55.8079527
9.213                0.947198535     -55.8862274
9.214                0.947086304     -55.9646849
9.215                0.946973707     -56.0433257
9.216                0.946860743     -56.1221506
9.217                 0.94674741     -56.2011601
9.218                0.946633707     -56.2803547
9.219                0.946519632     -56.3597352
9.22                 0.946405184     -56.4393021
9.221                0.946290363     -56.5190561
9.222                0.946175166     -56.5989977
9.223                0.946059593     -56.6791276
9.224                0.945943641     -56.7594464
9.225                 0.94582731     -56.8399546
9.226                0.945710599     -56.9206531
9.227                0.945593505     -57.0015423
9.228                0.945476028     -57.0826229
9.229                0.945358167     -57.1638955
9.23                 0.945239919     -57.2453608
9.231                0.945121283     -57.3270194
9.232                0.945002259      -57.408872
9.233                0.944882845     -57.4909192
9.234                0.944763039     -57.5731615
9.235                0.944642841     -57.6555998
9.236                0.944522248     -57.7382346
9.237                0.944401259     -57.8210666
9.238                0.944279873     -57.9040964
9.239                0.944158089     -57.9873247
9.24                 0.944035905     -58.0707521
9.241                0.943913319     -58.1543794
9.242                0.943790331     -58.2382071
9.243                0.943666939      -58.322236
9.244                0.943543141     -58.4064667
9.245                0.943418936     -58.4908999
9.246                0.943294323     -58.5755363
9.247                0.943169301     -58.6603765
9.248                0.943043867     -58.7454212
9.249                 0.94291802     -58.8306711
9.25                 0.942791759     -58.9161269
9.251                0.942665083     -59.0017893
9.252                 0.94253799      -59.087659
9.253                0.942410478     -59.1737366
9.254                0.942282547     -59.2600228
9.255                0.942154194     -59.3465184
9.256                0.942025419     -59.4332241
9.257                0.941896219     -59.5201405
9.258                0.941766594     -59.6072683
9.259                0.941636541     -59.6946083
9.26                  0.94150606     -59.7821613
9.261                0.941375148     -59.8699278
9.262                0.941243805     -59.9579086
9.263                0.941112029     -60.0461044
9.264                0.940979818      -60.134516
9.265                0.940847171      -60.223144
9.266                0.940714086     -60.3119893
9.267                0.940580563     -60.4010525
9.268                0.940446598     -60.4903343
9.269                0.940312192     -60.5798356
9.27                 0.940177342      -60.669557
9.271                0.940042046     -60.7594992
9.272                0.939906304     -60.8496631
9.273                0.939770114     -60.9400494
9.274                0.939633474     -61.0306588
9.275                0.939496383      -61.121492
9.276                0.939358839     -61.2125499
9.277                 0.93922084     -61.3038331
9.278                0.939082386     -61.3953425
9.279                0.938943474     -61.4870788
9.28                 0.938804103     -61.5790428
9.281                0.938664272     -61.6712352
9.282                0.938523978     -61.7636568
9.283                0.938383221     -61.8563085
9.284                0.938241998     -61.9491908
9.285                0.938100309     -62.0423048
9.286                0.937958151      -62.135651
9.287                0.937815523     -62.2292304
9.288                0.937672424     -62.3230437
9.289                0.937528851     -62.4170917
9.29                 0.937384804     -62.5113751
9.291                 0.93724028     -62.6058949
9.292                0.937095279     -62.7006517
9.293                0.936949798     -62.7956465
9.294                0.936803836     -62.8908799
9.295                0.936657391     -62.9863529
9.296                0.936510462     -63.0820662
9.297                0.936363047     -63.1780206
9.298                0.936215144      -63.274217
9.299                0.936066752     -63.3706561
9.3                  0.935917869     -63.4673389
9.301                0.935768494     -63.5642661
9.302                0.935618625     -63.6614385
9.303                 0.93546826     -63.7588571
9.304                0.935317398     -63.8565226
9.305                0.935166037     -63.9544359
9.306                0.935014176     -64.0525978
9.307                0.934861812     -64.1510091
9.308                0.934708945     -64.2496708
9.309                0.934555571     -64.3485836
9.31                 0.934401691     -64.4477485
9.311                0.934247302     -64.5471662
9.312                0.934092403     -64.6468377
9.313                0.933936992     -64.7467638
9.314                0.933781066     -64.8469453
9.315                0.933624626     -64.9473832
9.316                0.933467668     -65.0480783
9.317                0.933310192     -65.1490315
9.318                0.933152195     -65.2502437
9.319                0.932993676     -65.3517158
9.32                 0.932834634     -65.4534486
9.321                0.932675066      -65.555443
9.322                0.932514971     -65.6576999
9.323                0.932354347     -65.7602203
9.324                0.932193193      -65.863005
9.325                0.932031507      -65.966055
9.326                0.931869287      -66.069371
9.327                0.931706531     -66.1729541
9.328                0.931543239     -66.2768052
9.329                0.931379407     -66.3809251
9.33                 0.931215035     -66.4853149
9.331                0.931050121     -66.5899753
9.332                0.930884663     -66.6949074
9.333                0.930718659      -66.800112
9.334                0.930552108     -66.9055901
9.335                0.930385008     -67.0113427
9.336                0.930217358     -67.1173706
9.337                0.930049155     -67.2236749
9.338                0.929880398     -67.3302564
9.339                0.929711085     -67.4371161
9.34                 0.929541215      -67.544255
9.341                0.929370785     -67.6516739
9.342                0.929199795      -67.759374
9.343                0.929028242     -67.8673561
9.344                0.928856125     -67.9756211
9.345                0.928683442     -68.0841702
9.346                0.928510191     -68.1930042
9.347                0.928336371      -68.302124
9.348                 0.92816198     -68.4115308
9.349                0.927987016     -68.5212255
9.35                 0.927811478      -68.631209
9.351                0.927635363     -68.7414823
9.352                0.927458671     -68.8520465
9.353                0.927281399     -68.9629025
9.354                0.927103545     -69.0740513
9.355                0.926925109      -69.185494
9.356                0.926746088     -69.2972315
9.357                0.926566481     -69.4092648
9.358                0.926386285      -69.521595
9.359                  0.9262055     -69.6342231
9.36                 0.926024123     -69.7471501
9.361                0.925842153      -69.860377
9.362                0.925659589     -69.9739048
9.363                0.925476427     -70.0877346
9.364                0.925292668     -70.2018674
9.365                0.925108308     -70.3163042
9.366                0.924923347     -70.4310461
9.367                0.924737782     -70.5460941
9.368                0.924551613     -70.6614493
9.369                0.924364837     -70.7771127
9.37                 0.924177452     -70.8930853
9.371                0.923989457     -71.0093683
9.372                0.923800851     -71.1259627
9.373                0.923611631     -71.2428695
9.374                0.923421796     -71.3600898
9.375                0.923231345     -71.4776247
9.376                0.923040275     -71.5954753
9.377                0.922848585     -71.7136426
9.378                0.922656273     -71.8321277
9.379                0.922463337     -71.9509317
9.38                 0.922269777     -72.0700557
9.381                 0.92207559     -72.1895008
9.382                0.921880775      -72.309268
9.383                0.921685329     -72.4293585
9.384                0.921489252     -72.5497734
9.385                0.921292542     -72.6705138
9.386                0.921095197     -72.7915807
9.387                0.920897215     -72.9129754
9.388                0.920698595     -73.0346988
9.389                0.920499336     -73.1567522
9.39                 0.920299435     -73.2791366
9.391                0.920098891     -73.4018532
9.392                0.919897702     -73.5249031
9.393                0.919695867     -73.6482875
9.394                0.919493385     -73.7720074
9.395                0.919290253      -73.896064
9.396                 0.91908647     -74.0204585
