! TOUCHSTONE file generated by CST DESIGN STUDIO
! Date and time: Tue Feb  4 18:44:00 2025
! Project name: C:\Work\MatlabApps\UnitCellOptimizationMatlab\CST\unitcell.cst
! Tree item: Tasks\Sweep1\SPara1\S-Parameters
! Header version: 2024
! Port assignment regex: !\s*Touchstone port\s*([0-9]+)\s*=\s*(CST MWS port|CST DES external port|CST DES block port)\s*(.+)\s* \(\"(.*)\"\)(\s*mode\s*([0-9]+))?.*
! Touchstone port assignment:
! Touchstone port 1 = CST DES external port 1 ("")
# GHz S MA R 50
9                    0.959931544     -46.3911988
9.001                0.959860768     -46.4476834
9.002                 0.95978977     -46.5042825
9.003                0.959718547     -46.5609964
9.004                  0.9596471     -46.6178253
9.005                0.959575426     -46.6747698
9.006                0.959503526       -46.73183
9.007                0.959431399     -46.7890064
9.008                0.959359044     -46.8462994
9.009                 0.95928646     -46.9037091
9.01                 0.959213646     -46.9612361
9.011                0.959140601     -47.0188806
9.012                0.959067326     -47.0766431
9.013                0.958993818     -47.1345238
9.014                0.958920078     -47.1925231
9.015                0.958846103     -47.2506414
9.016                0.958771895      -47.308879
9.017                0.958697451     -47.3672363
9.018                0.958622771     -47.4257137
9.019                0.958547853     -47.4843115
9.02                 0.958472699       -47.54303
9.021                0.958397305     -47.6018697
9.022                0.958321672     -47.6608309
9.023                0.958245799     -47.7199139
9.024                0.958169685     -47.7791193
9.025                0.958093329     -47.8384472
9.026                 0.95801673     -47.8978981
9.027                0.957939888     -47.9574723
9.028                0.957862801     -48.0171703
9.029                0.957785469     -48.0769924
9.03                  0.95770789     -48.1369389
9.031                0.957630065     -48.1970104
9.032                0.957551991      -48.257207
9.033                0.957473669     -48.3175293
9.034                0.957395098     -48.3779776
9.035                0.957316276     -48.4385522
9.036                0.957237202     -48.4992537
9.037                0.957157876     -48.5600822
9.038                0.957078297     -48.6210384
9.039                0.956998464     -48.6821224
9.04                 0.956918376     -48.7433348
9.041                0.956838033     -48.8046759
9.042                0.956757432     -48.8661461
9.043                0.956676575     -48.9277459
9.044                0.956595458     -48.9894755
9.045                0.956514082     -49.0513354
9.046                0.956432446      -49.113326
9.047                0.956350549     -49.1754477
9.048                0.956268389     -49.2377009
9.049                0.956185967     -49.3000861
9.05                  0.95610328     -49.3626035
9.051                0.956020329     -49.4252537
9.052                0.955937112      -49.488037
9.053                0.955853628     -49.5509538
9.054                0.955769876     -49.6140046
9.055                0.955685856     -49.6771897
9.056                0.955601566     -49.7405096
9.057                0.955517005     -49.8039647
9.058                0.955432173     -49.8675555
9.059                0.955347069     -49.9312822
9.06                 0.955261691     -49.9951454
9.061                0.955176039     -50.0591455
9.062                0.955090111     -50.1232829
9.063                0.955003908      -50.187558
9.064                0.954917427     -50.2519713
9.065                0.954830667     -50.3165231
9.066                0.954743629      -50.381214
9.067                 0.95465631     -50.4460443
9.068                 0.95456871     -50.5110145
9.069                0.954480828      -50.576125
9.07                 0.954392663     -50.6413762
9.071                0.954304213     -50.7067687
9.072                0.954215479     -50.7723027
9.073                0.954126458     -50.8379789
9.074                 0.95403715     -50.9037975
9.075                0.953947553     -50.9697591
9.076                0.953857668     -51.0358641
9.077                0.953767492      -51.102113
9.078                0.953677025     -51.1685062
9.079                0.953586266     -51.2350441
9.08                 0.953495213     -51.3017272
9.081                0.953403866      -51.368556
9.082                0.953312224      -51.435531
9.083                0.953220285     -51.5026525
9.084                0.953128048      -51.569921
9.085                0.953035513     -51.6373371
9.086                0.952942679     -51.7049011
9.087                0.952849544     -51.7726136
9.088                0.952756107      -51.840475
9.089                0.952662367     -51.9084857
9.09                 0.952568323     -51.9766463
9.091                0.952473975     -52.0449572
9.092                 0.95237932     -52.1134189
9.093                0.952284358     -52.1820318
9.094                0.952189088     -52.2507965
9.095                0.952093509     -52.3197134
9.096                 0.95199762     -52.3887831
9.097                0.951901419     -52.4580059
9.098                0.951804905     -52.5273824
9.099                0.951708078      -52.596913
9.1                  0.951610936     -52.6665983
9.101                0.951513478     -52.7364388
9.102                0.951415703     -52.8064349
9.103                0.951317609     -52.8765871
9.104                0.951219197     -52.9468959
9.105                0.951120464     -53.0173619
9.106                 0.95102141     -53.0879854
9.107                0.950922033     -53.1587671
9.108                0.950822332     -53.2297075
9.109                0.950722306      -53.300807
9.11                 0.950621954     -53.3720661
9.111                0.950521275     -53.4434853
9.112                0.950420267     -53.5150653
9.113                 0.95031893     -53.5868064
9.114                0.950217262     -53.6587092
9.115                0.950115262     -53.7307742
9.116                0.950012929      -53.803002
9.117                0.949910262      -53.875393
9.118                0.949807259     -53.9479478
9.119                 0.94970392     -54.0206669
9.12                 0.949600242     -54.0935508
9.121                0.949496226        -54.1666
9.122                0.949391869     -54.2398152
9.123                0.949287171     -54.3131968
9.124                0.949182131     -54.3867453
9.125                0.949076746     -54.4604614
9.126                0.948971017     -54.5343454
9.127                0.948864941     -54.6083981
9.128                0.948758517     -54.6826198
9.129                0.948651745     -54.7570113
9.13                 0.948544623     -54.8315729
9.131                 0.94843715     -54.9063053
9.132                0.948329324      -54.981209
9.133                0.948221145     -55.0562846
9.134                 0.94811261     -55.1315326
9.135                0.948003719     -55.2069536
9.136                0.947894471     -55.2825482
9.137                0.947784864     -55.3583168
9.138                0.947674898     -55.4342601
9.139                0.947564569     -55.5103786
9.14                 0.947453879      -55.586673
9.141                0.947342824     -55.6631437
9.142                0.947231405     -55.7397914
9.143                0.947119619     -55.8166166
9.144                0.947007465     -55.8936199
9.145                0.946894942     -55.9708018
9.146                0.946782049     -56.0481631
9.147                0.946668785     -56.1257041
9.148                0.946555147     -56.2034257
9.149                0.946441136     -56.2813282
9.15                 0.946326748     -56.3594123
9.151                0.946211984     -56.4376787
9.152                0.946096842     -56.5161278
9.153                0.945981321     -56.5947603
9.154                0.945865418     -56.6735769
9.155                0.945749133      -56.752578
9.156                0.945632465     -56.8317643
9.157                0.945515412     -56.9111365
9.158                0.945397973      -56.990695
9.159                0.945280146     -57.0704406
9.16                  0.94516193     -57.1503738
9.161                0.945043324     -57.2304953
9.162                0.944924326     -57.3108056
9.163                0.944804935     -57.3913054
9.164                 0.94468515     -57.4719954
9.165                0.944564969     -57.5528761
9.166                0.944444391     -57.6339482
9.167                0.944323414     -57.7152122
9.168                0.944202037     -57.7966689
9.169                0.944080259     -57.8783189
9.17                 0.943958078     -57.9601627
9.171                0.943835493     -58.0422011
9.172                0.943712503     -58.1244347
9.173                0.943589105     -58.2068641
9.174                0.943465299       -58.28949
9.175                0.943341083      -58.372313
9.176                0.943216456     -58.4553338
9.177                0.943091416     -58.5385529
9.178                0.942965962     -58.6219712
9.179                0.942840092     -58.7055892
9.18                 0.942713806     -58.7894077
9.181                0.942587101     -58.8734272
9.182                0.942459976     -58.9576484
9.183                0.942332429      -59.042072
9.184                 0.94220446     -59.1266987
9.185                0.942076066     -59.2115291
9.186                0.941947247      -59.296564
9.187                0.941818001      -59.381804
9.188                0.941688325     -59.4672497
9.189                 0.94155822     -59.5529019
9.19                 0.941427683     -59.6387613
9.191                0.941296712     -59.7248285
9.192                0.941165307     -59.8111042
9.193                0.941033466     -59.8975892
9.194                0.940901187     -59.9842841
9.195                0.940768469     -60.0711896
9.196                 0.94063531     -60.1583065
9.197                0.940501709     -60.2456353
9.198                0.940367664     -60.3331769
9.199                0.940233174      -60.420932
9.2                  0.940098237     -60.5089012
9.201                0.939962852     -60.5970853
9.202                0.939827017      -60.685485
9.203                0.939690731      -60.774101
9.204                0.939553992      -60.862934
9.205                0.939416798     -60.9519848
9.206                0.939279148     -61.0412541
9.207                0.939141041     -61.1307426
9.208                0.939002475     -61.2204511
9.209                0.938863448     -61.3103803
9.21                 0.938723958     -61.4005309
9.211                0.938584005     -61.4909036
9.212                0.938443587     -61.5814993
9.213                0.938302701     -61.6723187
9.214                0.938161347     -61.7633625
9.215                0.938019523     -61.8546315
9.216                0.937877227     -61.9461263
9.217                0.937734457     -62.0378479
9.218                0.937591213     -62.1297969
9.219                0.937447492     -62.2219742
9.22                 0.937303294     -62.3143804
9.221                0.937158615     -62.4070164
9.222                0.937013455     -62.4998829
9.223                0.936867812     -62.5929807
9.224                0.936721685     -62.6863106
9.225                0.936575071     -62.7798733
9.226                 0.93642797     -62.8736697
9.227                0.936280379     -62.9677005
9.228                0.936132298     -63.0619666
9.229                0.935983723     -63.1564686
9.23                 0.935834654     -63.2512075
9.231                 0.93568509      -63.346184
9.232                0.935535027     -63.4413989
9.233                0.935384466      -63.536853
9.234                0.935233403     -63.6325472
9.235                0.935081838     -63.7284822
9.236                0.934929769     -63.8246588
9.237                0.934777194     -63.9210779
9.238                0.934624111     -64.0177403
9.239                0.934470519     -64.1146468
9.24                 0.934316416     -64.2117983
9.241                0.934161801     -64.3091955
9.242                0.934006672     -64.4068393
9.243                0.933851026     -64.5047305
9.244                0.933694864       -64.60287
9.245                0.933538182     -64.7012587
9.246                0.933380979     -64.7998972
9.247                0.933223253     -64.8987866
9.248                0.933065003     -64.9979276
9.249                0.932906227     -65.0973212
9.25                 0.932746924     -65.1969681
9.251                0.932587091     -65.2968692
9.252                0.932426727     -65.3970254
9.253                 0.93226583     -65.4974375
9.254                0.932104398     -65.5981065
9.255                0.931942431     -65.6990331
9.256                0.931779926     -65.8002183
9.257                0.931616881     -65.9016629
9.258                0.931453294     -66.0033679
9.259                0.931289165     -66.1053341
9.26                 0.931124491     -66.2075623
9.261                 0.93095927     -66.3100536
9.262                0.930793502     -66.4128087
9.263                0.930627183     -66.5158285
9.264                0.930460313     -66.6191141
9.265                0.930292889     -66.7226662
9.266                0.930124911     -66.8264858
9.267                0.929956375     -66.9305738
9.268                0.929787281     -67.0349311
9.269                0.929617627     -67.1395586
9.27                  0.92944741     -67.2444573
9.271                 0.92927663      -67.349628
9.272                0.929105285     -67.4550717
9.273                0.928933372     -67.5607893
9.274                 0.92876089     -67.6667817
9.275                0.928587838     -67.7730499
9.276                0.928414213     -67.8795949
9.277                0.928240014     -67.9864175
9.278                0.928065239     -68.0935187
9.279                0.927889886     -68.2008995
9.28                 0.927713954     -68.3085607
9.281                0.927537441     -68.4165034
9.282                0.927360345     -68.5247286
9.283                0.927182665     -68.6332371
9.284                0.927004398       -68.74203
9.285                0.926825543     -68.8511081
9.286                0.926646098     -68.9604726
9.287                0.926466061     -69.0701243
9.288                0.926285431     -69.1800642
9.289                0.926104206     -69.2902934
9.29                 0.925922384     -69.4008127
9.291                0.925739964     -69.5116232
9.292                0.925556943      -69.622726
9.293                0.925373321     -69.7341218
9.294                0.925189094     -69.8458119
9.295                0.925004262     -69.9577971
9.296                0.924818822     -70.0700785
9.297                0.924632774     -70.1826571
9.298                0.924446115     -70.2955339
9.299                0.924258843     -70.4087099
9.3                  0.924070957     -70.5221861
9.301                0.923882455     -70.6359635
9.302                0.923693336     -70.7500433
9.303                0.923503597     -70.8644263
9.304                0.923313237     -70.9791136
9.305                0.923122254     -71.0941064
9.306                0.922930646     -71.2094055
9.307                0.922738412     -71.3250121
9.308                 0.92254555     -71.4409271
9.309                0.922352058     -71.5571517
9.31                 0.922157935     -71.6736869
9.311                0.921963178     -71.7905338
9.312                0.921767787     -71.9076933
9.313                0.921571759     -72.0251666
9.314                0.921375092     -72.1429547
9.315                0.921177786     -72.2610588
9.316                0.920979838     -72.3794798
9.317                0.920781246     -72.4982188
9.318                0.920582009      -72.617277
9.319                0.920382126     -72.7366553
9.32                 0.920181594      -72.856355
9.321                0.919980412     -72.9763771
9.322                0.919778578     -73.0967226
9.323                 0.91957609     -73.2173927
9.324                0.919372948     -73.3383884
9.325                0.919169148      -73.459711
9.326                 0.91896469     -73.5813614
9.327                0.918759572     -73.7033408
9.328                0.918553792     -73.8256502
9.329                0.918347348     -73.9482909
9.33                  0.91814024      -74.071264
9.331                0.917932464     -74.1945705
9.332                0.917724021     -74.3182115
9.333                0.917514907     -74.4421883
9.334                0.917305122      -74.566502
9.335                0.917094663     -74.6911536
9.336                 0.91688353     -74.8161443
9.337                0.916671721     -74.9414753
9.338                0.916459233     -75.0671477
9.339                0.916246066     -75.1931627
9.34                 0.916032218     -75.3195214
9.341                0.915817687     -75.4462249
9.342                0.915602471     -75.5732745
9.343                 0.91538657     -75.7006713
9.344                0.915169982     -75.8284164
9.345                0.914952705     -75.9565111
9.346                0.914734737     -76.0849564
9.347                0.914516077     -76.2137537
9.348                0.914296724      -76.342904
9.349                0.914076676     -76.4724085
9.35                 0.913855932     -76.6022685
9.351                0.913634489     -76.7324851
9.352                0.913412348     -76.8630594
9.353                0.913189505     -76.9939928
9.354                 0.91296596     -77.1252865
9.355                0.912741711     -77.2569415
9.356                0.912516757     -77.3889591
9.357                0.912291097     -77.5213405
9.358                0.912064728      -77.654087
9.359                 0.91183765     -77.7871997
9.36                 0.911609861       -77.92068
9.361                 0.91138136     -78.0545288
9.362                0.911152146     -78.1887477
9.363                0.910922216     -78.3233376
9.364                0.910691571     -78.4582999
9.365                0.910460208     -78.5936359
9.366                0.910228125     -78.7293467
9.367                0.909995323     -78.8654335
9.368                0.909761799     -79.0018977
9.369                0.909527553     -79.1387405
9.37                 0.909292582     -79.2759631
9.371                0.909056887     -79.4135668
9.372                0.908820464     -79.5515529
9.373                0.908583314     -79.6899225
9.374                0.908345436      -79.828677
9.375                0.908106827     -79.9678176
9.376                0.907867486     -80.1073456
9.377                0.907627414     -80.2472623
9.378                0.907386608     -80.3875689
9.379                0.907145067     -80.5282668
9.38                  0.90690279     -80.6693571
9.381                0.906659777     -80.8108412
9.382                0.906416026     -80.9527204
9.383                0.906171535     -81.0949959
9.384                0.905926305      -81.237669
9.385                0.905680333     -81.3807411
9.386                 0.90543362     -81.5242135
9.387                0.905186164     -81.6680873
9.388                0.904937963      -81.812364
9.389                0.904689018     -81.9570449
9.39                 0.904439327     -82.1021311
9.391                0.904188889     -82.2476242
9.392                0.903937704     -82.3935253
9.393                 0.90368577     -82.5398358
9.394                0.903433087      -82.686557
9.395                0.903179653     -82.8336902
9.396                0.902925469     -82.9812368
