! TOUCHSTONE file generated by CST DESIGN STUDIO
! Date and time: Tue Feb  4 18:43:53 2025
! Project name: C:\Work\MatlabApps\UnitCellOptimizationMatlab\CST\unitcell.cst
! Tree item: Tasks\Sweep1\SPara1\S-Parameters
! Header version: 2024
! Port assignment regex: !\s*Touchstone port\s*([0-9]+)\s*=\s*(CST MWS port|CST DES external port|CST DES block port)\s*(.+)\s* \(\"(.*)\"\)(\s*mode\s*([0-9]+))?.*
! Touchstone port assignment:
! Touchstone port 1 = CST DES external port 1 ("")
# GHz S MA R 50
9                    0.933329127      -66.560728
9.001                0.933162752     -66.6606526
9.002                0.932995819     -66.7608333
9.003                0.932828325     -66.8612713
9.004                 0.93266027     -66.9619672
9.005                 0.93249165     -67.0629221
9.006                0.932322464     -67.1641366
9.007                0.932152711     -67.2656119
9.008                0.931982388     -67.3673486
9.009                0.931811494     -67.4693478
9.01                 0.931640026     -67.5716102
9.011                0.931467984     -67.6741369
9.012                0.931295364     -67.7769286
9.013                0.931122165     -67.8799863
9.014                0.930948385     -67.9833109
9.015                0.930774023     -68.0869032
9.016                0.930599076     -68.1907643
9.017                0.930423543     -68.2948949
9.018                0.930247421     -68.3992961
9.019                0.930070709     -68.5039687
9.02                 0.929893405     -68.6089136
9.021                0.929715507     -68.7141318
9.022                0.929537014     -68.8196242
9.023                0.929357922     -68.9253918
9.024                0.929178231     -69.0314354
9.025                0.928997938      -69.137756
9.026                0.928817041     -69.2443545
9.027                 0.92863554     -69.3512319
9.028                0.928453431     -69.4583892
9.029                0.928270712     -69.5658272
9.03                 0.928087383      -69.673547
9.031                0.927903441     -69.7815494
9.032                0.927718884     -69.8898355
9.033                 0.92753371     -69.9984062
9.034                0.927347917     -70.1072624
9.035                0.927161504     -70.2164052
9.036                0.926974468     -70.3258355
9.037                0.926786808     -70.4355543
9.038                0.926598522     -70.5455625
9.039                0.926409607     -70.6558612
9.04                 0.926220062     -70.7664513
9.041                0.926029886     -70.8773338
9.042                0.925839075     -70.9885098
9.043                0.925647628     -71.0999801
9.044                0.925455544     -71.2117459
9.045                0.925262819      -71.323808
9.046                0.925069454     -71.4361676
9.047                0.924875444     -71.5488256
9.048                 0.92468079      -71.661783
9.049                0.924485488     -71.7750409
9.05                 0.924289537     -71.8886002
9.051                0.924092934      -72.002462
9.052                0.923895679     -72.1166273
9.053                0.923697769     -72.2310972
9.054                0.923499202     -72.3458726
9.055                0.923299976     -72.4609546
9.056                0.923100089     -72.5763443
9.057                 0.92289954     -72.6920427
9.058                0.922698327     -72.8080508
9.059                0.922496447     -72.9243697
9.06                   0.9222939     -73.0410004
9.061                0.922090682      -73.157944
9.062                0.921886792     -73.2752015
9.063                0.921682228     -73.3927741
9.064                0.921476988     -73.5106627
9.065                0.921271071     -73.6288685
9.066                0.921064475     -73.7473925
9.067                0.920857197     -73.8662357
9.068                0.920649236     -73.9853994
9.069                0.920440589     -74.1048845
9.07                 0.920231256     -74.2246921
9.071                0.920021234     -74.3448234
9.072                0.919810521     -74.4652794
9.073                0.919599116     -74.5860612
9.074                0.919387016     -74.7071699
9.075                0.919174221     -74.8286066
9.076                0.918960727     -74.9503724
9.077                0.918746533     -75.0724685
9.078                0.918531637     -75.1948959
9.079                0.918316038     -75.3176558
9.08                 0.918099734     -75.4407493
9.081                0.917882723     -75.5641775
9.082                0.917665002     -75.6879415
9.083                0.917446571     -75.8120424
9.084                0.917227427     -75.9364815
9.085                0.917007569     -76.0612597
9.086                0.916786994     -76.1863784
9.087                0.916565702     -76.3118385
9.088                 0.91634369     -76.4376413
9.089                0.916120957     -76.5637879
9.09                   0.9158975     -76.6902795
9.091                0.915673318     -76.8171172
9.092                 0.91544841     -76.9443022
9.093                0.915222773     -77.0718356
9.094                0.914996406     -77.1997185
9.095                0.914769307     -77.3279523
9.096                0.914541475      -77.456538
9.097                0.914312907     -77.5854769
9.098                0.914083602       -77.71477
9.099                0.913853558     -77.8444186
9.1                  0.913622774     -77.9744239
9.101                0.913391248      -78.104787
9.102                0.913158978     -78.2355092
9.103                0.912925963     -78.3665917
9.104                0.912692201     -78.4980355
9.105                0.912457691     -78.6298421
9.106                 0.91222243     -78.7620124
9.107                0.911986417     -78.8945479
9.108                0.911749651     -79.0274496
9.109                0.911512129     -79.1607188
9.11                 0.911273851     -79.2943567
9.111                0.911034815     -79.4283645
9.112                0.910795019     -79.5627434
9.113                0.910554462     -79.6974948
9.114                0.910313142     -79.8326197
9.115                0.910071058     -79.9681195
9.116                0.909828208     -80.1039954
9.117                0.909584591     -80.2402485
9.118                0.909340205     -80.3768803
9.119                0.909095048     -80.5138918
9.12                  0.90884912     -80.6512844
9.121                0.908602419     -80.7890593
9.122                0.908354943     -80.9272178
9.123                0.908106692     -81.0657611
9.124                0.907857663     -81.2046904
9.125                0.907607855     -81.3440071
9.126                0.907357268     -81.4837124
9.127                0.907105898     -81.6238076
9.128                0.906853747     -81.7642939
9.129                0.906600811     -81.9051727
9.13                  0.90634709     -82.0464452
9.131                0.906092582     -82.1881126
9.132                0.905837286     -82.3301764
9.133                0.905581202     -82.4726376
9.134                0.905324327     -82.6154978
9.135                 0.90506666      -82.758758
9.136                0.904808201     -82.9024198
9.137                0.904548948     -83.0464842
9.138                  0.9042889     -83.1909527
9.139                0.904028056     -83.3358265
9.14                 0.903766415     -83.4811069
9.141                0.903503975     -83.6267953
9.142                0.903240736      -83.772893
9.143                0.902976697     -83.9194012
9.144                0.902711856     -84.0663213
9.145                0.902446213     -84.2136546
9.146                0.902179767     -84.3614025
9.147                0.901912516     -84.5095662
9.148                 0.90164446     -84.6581471
9.149                0.901375598     -84.8071465
9.15                 0.901105928     -84.9565657
9.151                0.900835451     -85.1064061
9.152                0.900564165      -85.256669
9.153                 0.90029207     -85.4073558
9.154                0.900019164     -85.5584677
9.155                0.899745448     -85.7100062
9.156                0.899470919     -85.8619725
9.157                0.899195578     -86.0143681
9.158                0.898919424     -86.1671942
9.159                0.898642456     -86.3204522
9.16                 0.898364674     -86.4741435
9.161                0.898086077     -86.6282694
9.162                0.897806664     -86.7828313
9.163                0.897526435     -86.9378306
9.164                 0.89724539     -87.0932685
9.165                0.896963527     -87.2491465
9.166                0.896680847      -87.405466
9.167                0.896397349     -87.5622282
9.168                0.896113033     -87.7194345
9.169                0.895827898     -87.8770864
9.17                 0.895541945     -88.0351852
9.171                0.895255172     -88.1937323
9.172                 0.89496758      -88.352729
9.173                0.894679168     -88.5121767
9.174                0.894389936     -88.6720769
9.175                0.894099884     -88.8324307
9.176                0.893809013     -88.9932398
9.177                0.893517321     -89.1545054
9.178                0.893224809     -89.3162289
9.179                0.892931477     -89.4784117
9.18                 0.892637324     -89.6410552
9.181                0.892342352     -89.8041607
9.182                 0.89204656     -89.9677297
9.183                0.891749948     -90.1317636
9.184                0.891452516     -90.2962637
9.185                0.891154266     -90.4612314
9.186                0.890855196     -90.6266681
9.187                0.890555307     -90.7925752
9.188                  0.8902546     -90.9589541
9.189                0.889953075     -91.1258062
9.19                 0.889650733     -91.2931329
9.191                0.889347574     -91.4609355
9.192                0.889043598     -91.6292155
9.193                0.888738806     -91.7979743
9.194                0.888433199     -91.9672132
9.195                0.888126777     -92.1369337
9.196                0.887819542     -92.3071371
9.197                0.887511493     -92.4778249
9.198                0.887202632     -92.6489984
9.199                0.886892959      -92.820659
9.2                  0.886582476     -92.9928081
9.201                0.886271184     -93.1654472
9.202                0.885959082     -93.3385775
9.203                0.885646174     -93.5122006
9.204                0.885332458     -93.6863178
9.205                0.885017938     -93.8609305
9.206                0.884702613       -94.03604
9.207                0.884386485     -94.2116479
9.208                0.884069557     -94.3877554
9.209                0.883751827      -94.564364
9.21                   0.8834333      -94.741475
9.211                0.883113974     -94.9190899
9.212                0.882793854       -95.09721
9.213                0.882472939     -95.2758367
9.214                0.882151231     -95.4549714
9.215                0.881828733     -95.6346155
9.216                0.881505446     -95.8147704
9.217                0.881181372     -95.9954374
9.218                0.880856512     -96.1766179
9.219                0.880530869     -96.3583134
9.22                 0.880204445     -96.5405251
9.221                0.879877241     -96.7232545
9.222                 0.87954926      -96.906503
9.223                0.879220505     -97.0902718
9.224                0.878890976     -97.2745624
9.225                0.878560677     -97.4593762
9.226                 0.87822961     -97.6447144
9.227                0.877897778     -97.8305785
9.228                0.877565182     -98.0169698
9.229                0.877231826     -98.2038898
9.23                 0.876897712     -98.3913396
9.231                0.876562843     -98.5793207
9.232                0.876227222     -98.7678345
9.233                0.875890851     -98.9568822
9.234                0.875553734     -99.1464653
9.235                0.875215873      -99.336585
9.236                0.874877271     -99.5272427
9.237                0.874537932     -99.7184397
9.238                0.874197859     -99.9101774
9.239                0.873857056     -100.102457
9.24                 0.873515524      -100.29528
9.241                0.873173269     -100.488647
9.242                0.872830293     -100.682561
9.243                  0.8724866     -100.877022
9.244                0.872142194     -101.072031
9.245                0.871797078      -101.26759
9.246                0.871451257       -101.4637
9.247                0.871104734     -101.660363
9.248                0.870757512     -101.857579
9.249                0.870409598      -102.05535
9.25                 0.870060993     -102.253678
9.251                0.869711703     -102.452563
9.252                0.869361732     -102.652007
9.253                0.869011084     -102.852011
9.254                0.868659765     -103.052576
9.255                0.868307777     -103.253703
9.256                0.867955126     -103.455395
9.257                0.867601817     -103.657651
9.258                0.867247855     -103.860474
9.259                0.866893244     -104.063864
9.26                  0.86653799     -104.267823
9.261                0.866182097     -104.472352
9.262                 0.86582557     -104.677452
9.263                0.865468416     -104.883124
9.264                0.865110639     -105.089369
9.265                0.864752245      -105.29619
9.266                0.864393239     -105.503586
9.267                0.864033627     -105.711559
9.268                0.863673415      -105.92011
9.269                0.863312608      -106.12924
9.27                 0.862951213     -106.338951
9.271                0.862589235     -106.549243
9.272                0.862226681     -106.760118
9.273                0.861863556     -106.971577
9.274                0.861499868     -107.183621
9.275                0.861135622     -107.396251
9.276                0.860770825     -107.609468
9.277                0.860405484     -107.823273
9.278                0.860039605     -108.037667
9.279                0.859673195     -108.252651
9.28                 0.859306261     -108.468227
9.281                 0.85893881     -108.684395
9.282                 0.85857085     -108.901157
9.283                0.858202386     -109.118513
9.284                0.857833428     -109.336464
9.285                0.857463981     -109.555012
9.286                0.857094055     -109.774157
9.287                0.856723655     -109.993901
9.288                0.856352791     -110.214244
9.289                0.855981469     -110.435187
9.29                 0.855609698     -110.656731
9.291                0.855237487     -110.878878
9.292                0.854864842     -111.101627
9.293                0.854491773     -111.324981
9.294                0.854118287     -111.548939
9.295                0.853744394     -111.773503
9.296                0.853370102     -111.998674
9.297                0.852995419     -112.224452
9.298                0.852620355     -112.450838
9.299                0.852244919     -112.677834
9.3                  0.851869119     -112.905439
9.301                0.851492964     -113.133655
9.302                0.851116465     -113.362483
9.303                 0.85073963     -113.591923
9.304                0.850362469     -113.821975
9.305                0.849984992     -114.052642
9.306                0.849607208     -114.283923
9.307                0.849229128     -114.515819
9.308                 0.84885076     -114.748331
9.309                0.848472116     -114.981459
9.31                 0.848093205     -115.215205
9.311                0.847714039     -115.449568
9.312                0.847334626      -115.68455
9.313                0.846954979     -115.920151
9.314                0.846575107     -116.156371
9.315                0.846195022     -116.393212
9.316                0.845814734     -116.630673
9.317                0.845434254     -116.868756
9.318                0.845053594      -117.10746
9.319                0.844672765     -117.346787
9.32                 0.844291779     -117.586736
9.321                0.843910646     -117.827309
9.322                0.843529378     -118.068506
9.323                0.843147988     -118.310326
9.324                0.842766487     -118.552771
9.325                0.842384888     -118.795841
9.326                0.842003201     -119.039537
9.327                 0.84162144     -119.283858
9.328                0.841239618     -119.528804
9.329                0.840857745     -119.774377
9.33                 0.840475836     -120.020577
9.331                0.840093902     -120.267403
9.332                0.839711957     -120.514857
9.333                0.839330014     -120.762937
9.334                0.838948086     -121.011646
9.335                0.838566185     -121.260981
9.336                0.838184326     -121.510945
9.337                0.837802522     -121.761536
9.338                0.837420786     -122.012756
9.339                0.837039132     -122.264603
9.34                 0.836657574     -122.517079
9.341                0.836276126     -122.770183
9.342                0.835894802     -123.023915
9.343                0.835513616     -123.278275
9.344                0.835132583     -123.533263
9.345                0.834751716     -123.788879
9.346                0.834371031     -124.045124
9.347                0.833990541     -124.301996
9.348                0.833610263     -124.559496
9.349                 0.83323021     -124.817624
9.35                 0.832850398     -125.076379
9.351                0.832470842     -125.335761
9.352                0.832091557      -125.59577
9.353                0.831712559     -125.856406
9.354                0.831333862     -126.117668
9.355                0.830955483     -126.379556
9.356                0.830577437      -126.64207
9.357                 0.83019974     -126.905209
9.358                0.829822408     -127.168973
9.359                0.829445457     -127.433362
9.36                 0.829068903     -127.698374
9.361                0.828692763      -127.96401
9.362                0.828317052     -128.230269
9.363                0.827941788      -128.49715
9.364                0.827566986     -128.764654
9.365                0.827192664     -129.032778
9.366                0.826818838     -129.301523
9.367                0.826445525     -129.570888
9.368                0.826072743     -129.840872
9.369                0.825700508     -130.111475
9.37                 0.825328837     -130.382695
9.371                0.824957748     -130.654532
9.372                0.824587259     -130.926986
9.373                0.824217386     -131.200054
9.374                0.823848147     -131.473737
9.375                0.823479561     -131.748033
9.376                0.823111644     -132.022942
9.377                0.822744415     -132.298462
9.378                0.822377892     -132.574593
9.379                0.822012092     -132.851333
9.38                 0.821647035     -133.128681
9.381                0.821282737     -133.406636
9.382                0.820919218     -133.685197
9.383                0.820556496     -133.964364
9.384                0.820194589     -134.244133
9.385                0.819833516     -134.524505
9.386                0.819473296     -134.805478
9.387                0.819113948     -135.087051
9.388                0.818755489     -135.369222
9.389                 0.81839794      -135.65199
9.39                 0.818041318     -135.935353
9.391                0.817685644      -136.21931
9.392                0.817330936      -136.50386
9.393                0.816977213     -136.789001
9.394                0.816624495     -137.074731
9.395                0.816272801     -137.361048
9.396                0.815922151     -137.647952
