! TOUCHSTONE file generated by CST DESIGN STUDIO
! Date and time: Tue Feb  4 17:22:45 2025
! Project name: C:\Work\MatlabApps\UnitCellOptimizationMatlab\CST\unitcell.cst
! Tree item: Tasks\Sweep1\SPara1\S-Parameters
! Header version: 2024
! Port assignment regex: !\s*Touchstone port\s*([0-9]+)\s*=\s*(CST MWS port|CST DES external port|CST DES block port)\s*(.+)\s* \(\"(.*)\"\)(\s*mode\s*([0-9]+))?.*
! Touchstone port assignment:
! Touchstone port 1 = CST DES external port 1 ("")
# GHz S MA R 50
9                    0.977636605     -88.6069177
9.001                0.977576996     -88.7664648
9.002                0.977516843     -88.9264506
9.003                0.977456147     -89.0868763
9.004                0.977394904     -89.2477431
9.005                0.977333112      -89.409052
9.006                0.977270771     -89.5708043
9.007                0.977207877     -89.7330011
9.008                 0.97714443     -89.8956435
9.009                0.977080427     -90.0587329
9.01                 0.977015867     -90.2222702
9.011                0.976950747     -90.3862566
9.012                0.976885066     -90.5506934
9.013                0.976818822     -90.7155816
9.014                0.976752013     -90.8809225
9.015                0.976684638     -91.0467171
9.016                0.976616694     -91.2129667
9.017                0.976548181     -91.3796723
9.018                0.976479095     -91.5468352
9.019                0.976409436     -91.7144564
9.02                 0.976339202     -91.8825372
9.021                0.976268391     -92.0510787
9.022                0.976197001      -92.220082
9.023                0.976125031     -92.3895483
9.024                0.976052479     -92.5594787
9.025                0.975979343     -92.7298743
9.026                0.975905621     -92.9007364
9.027                0.975831313     -93.0720659
9.028                0.975756416     -93.2438642
9.029                0.975680929     -93.4161323
9.03                 0.975604851     -93.5888713
9.031                0.975528179     -93.7620824
9.032                0.975450912     -93.9357666
9.033                0.975373049     -94.1099253
9.034                0.975294588     -94.2845593
9.035                0.975215528       -94.45967
9.036                0.975135866     -94.6352583
9.037                0.975055603     -94.8113255
9.038                0.974974735     -94.9878726
9.039                0.974893263     -95.1649007
9.04                 0.974811184      -95.342411
9.041                0.974728496     -95.5204045
9.042                  0.9746452     -95.6988824
9.043                0.974561293     -95.8778458
9.044                0.974476773     -96.0572957
9.045                0.974391641     -96.2372333
9.046                0.974305894     -96.4176597
9.047                 0.97421953     -96.5985758
9.048                 0.97413255     -96.7799829
9.049                0.974044951      -96.961882
9.05                 0.973956733     -97.1442742
9.051                0.973867894     -97.3271605
9.052                0.973778433     -97.5105421
9.053                0.973688349       -97.69442
9.054                0.973597641     -97.8787952
9.055                0.973506307     -98.0636688
9.056                0.973414347     -98.2490419
9.057                 0.97332176     -98.4349155
9.058                0.973228545     -98.6212907
9.059                  0.9731347     -98.8081684
9.06                 0.973040224     -98.9955499
9.061                0.972945118     -99.1834359
9.062                0.972849379     -99.3718277
9.063                0.972753007     -99.5607263
9.064                0.972656002     -99.7501325
9.065                0.972558361     -99.9400475
9.066                0.972460086     -100.130472
9.067                0.972361173     -100.321408
9.068                0.972261624     -100.512855
9.069                0.972161437     -100.704815
9.07                 0.972060612     -100.897289
9.071                0.971959147     -101.090277
9.072                0.971857043     -101.283782
9.073                0.971754298     -101.477802
9.074                0.971650913     -101.672341
9.075                0.971546886     -101.867398
9.076                0.971442217     -102.062974
9.077                0.971336906     -102.259071
9.078                0.971230952      -102.45569
9.079                0.971124355     -102.652831
9.08                 0.971017114     -102.850495
9.081                 0.97090923     -103.048683
9.082                0.970800701     -103.247396
9.083                0.970691528     -103.446635
9.084                 0.97058171     -103.646401
9.085                0.970471247     -103.846695
9.086                0.970360139     -104.047518
9.087                0.970248386     -104.248869
9.088                0.970135988     -104.450752
9.089                0.970022945     -104.653165
9.09                 0.969909257     -104.856111
9.091                0.969794923      -105.05959
9.092                0.969679944     -105.263602
9.093                0.969564321     -105.468149
9.094                0.969448052     -105.673231
9.095                0.969331139     -105.878849
9.096                0.969213581     -106.085005
9.097                0.969095379     -106.291698
9.098                0.968976534      -106.49893
9.099                0.968857045     -106.706701
9.1                  0.968736913     -106.915012
9.101                0.968616138     -107.123864
9.102                0.968494721     -107.333257
9.103                0.968372663     -107.543193
9.104                0.968249964     -107.753672
9.105                0.968126624     -107.964694
9.106                0.968002645     -108.176261
9.107                0.967878027     -108.388373
9.108                0.967752771     -108.601031
9.109                0.967626877     -108.814236
9.11                 0.967500347     -109.027987
9.111                0.967373181     -109.242286
9.112                0.967245381     -109.457134
9.113                0.967116947      -109.67253
9.114                 0.96698788     -109.888476
9.115                0.966858182     -110.104973
9.116                0.966727854      -110.32202
9.117                0.966596896     -110.539619
9.118                0.966465311     -110.757769
9.119                0.966333099     -110.976472
9.12                 0.966200262     -111.195728
9.121                0.966066801     -111.415538
9.122                0.965932718     -111.635902
9.123                0.965798014      -111.85682
9.124                0.965662691     -112.078293
9.125                 0.96552675     -112.300322
9.126                0.965390193     -112.522907
9.127                0.965253022     -112.746049
9.128                0.965115239     -112.969747
9.129                0.964976846     -113.194002
9.13                 0.964837843     -113.418816
9.131                0.964698234     -113.644187
9.132                0.964558021     -113.870117
9.133                0.964417204     -114.096605
9.134                0.964275788     -114.323653
9.135                0.964133773      -114.55126
9.136                0.963991162     -114.779428
9.137                0.963847957     -115.008155
9.138                0.963704161     -115.237442
9.139                0.963559777     -115.467291
9.14                 0.963414806       -115.6977
9.141                0.963269251     -115.928671
9.142                0.963123115     -116.160202
9.143                  0.9629764     -116.392296
9.144                 0.96282911     -116.624951
9.145                0.962681246     -116.858168
9.146                0.962532813     -117.091948
9.147                0.962383812     -117.326289
9.148                0.962234247     -117.561193
9.149                0.962084121      -117.79666
9.15                 0.961933437     -118.032689
9.151                0.961782198      -118.26928
9.152                0.961630407     -118.506435
9.153                0.961478068     -118.744152
9.154                0.961325185     -118.982431
9.155                0.961171759     -119.221274
9.156                0.961017796     -119.460679
9.157                0.960863299     -119.700647
9.158                0.960708271     -119.941177
9.159                0.960552716      -120.18227
9.16                 0.960396638     -120.423926
9.161                 0.96024004     -120.666144
9.162                0.960082927     -120.908924
9.163                0.959925303     -121.152265
9.164                0.959767171     -121.396169
9.165                0.959608536     -121.640635
9.166                0.959449402     -121.885661
9.167                0.959289773     -122.131249
9.168                0.959129654     -122.377398
9.169                0.958969048     -122.624108
9.17                 0.958807962     -122.871378
9.171                0.958646398     -123.119208
9.172                0.958484361     -123.367597
9.173                0.958321858     -123.616546
9.174                0.958158891     -123.866054
9.175                0.957995466      -124.11612
9.176                0.957831588     -124.366745
9.177                0.957667261     -124.617927
9.178                0.957502492     -124.869666
9.179                0.957337284     -125.121961
9.18                 0.957171644     -125.374813
9.181                0.957005576     -125.628221
9.182                0.956839086     -125.882183
9.183                0.956672178       -126.1367
9.184                 0.95650486     -126.391771
9.185                0.956337136     -126.647395
9.186                0.956169011     -126.903571
9.187                0.956000492     -127.160299
9.188                0.955831584     -127.417579
9.189                0.955662294     -127.675408
9.19                 0.955492626     -127.933788
9.191                0.955322588     -128.192716
9.192                0.955152184     -128.452192
9.193                0.954981422     -128.712215
9.194                0.954810307     -128.972785
9.195                0.954638846       -129.2339
9.196                0.954467045     -129.495559
9.197                0.954294911     -129.757763
9.198                0.954122449     -130.020508
9.199                0.953949667     -130.283796
9.2                  0.953776571     -130.547624
9.201                0.953603169     -130.811992
9.202                0.953429465     -131.076898
9.203                0.953255469     -131.342342
9.204                0.953081185     -131.608322
9.205                0.952906623     -131.874837
9.206                0.952731788     -132.141887
9.207                0.952556687     -132.409469
9.208                0.952381328     -132.677583
9.209                0.952205719     -132.946227
9.21                 0.952029866       -133.2154
9.211                0.951853777     -133.485101
9.212                0.951677459     -133.755328
9.213                 0.95150092     -134.026081
9.214                0.951324168     -134.297357
9.215                0.951147211     -134.569155
9.216                0.950970055     -134.841475
9.217                0.950792709     -135.114313
9.218                0.950615181      -135.38767
9.219                0.950437479     -135.661542
9.22                  0.95025961      -135.93593
9.221                0.950081583     -136.210831
9.222                0.949903407     -136.486243
9.223                0.949725088     -136.762165
9.224                0.949546636     -137.038595
9.225                0.949368059     -137.315532
9.226                0.949189366     -137.592974
9.227                0.949010564     -137.870919
9.228                0.948831662     -138.149365
9.229                0.948652669     -138.428311
9.23                 0.948473594     -138.707754
9.231                0.948294445     -138.987693
9.232                0.948115232     -139.268126
9.233                0.947935962     -139.549051
9.234                0.947756645     -139.830465
9.235                 0.94757729     -140.112368
9.236                0.947397905     -140.394756
9.237                0.947218501     -140.677628
9.238                0.947039085     -140.960982
9.239                0.946859668     -141.244816
9.24                 0.946680257     -141.529127
9.241                0.946500864     -141.813914
9.242                0.946321497     -142.099174
9.243                0.946142165     -142.384904
9.244                0.945962877     -142.671104
9.245                0.945783644      -142.95777
9.246                0.945604475     -143.244899
9.247                 0.94542538     -143.532491
9.248                0.945246367     -143.820541
9.249                0.945067447     -144.109049
9.25                  0.94488863     -144.398011
9.251                0.944709925     -144.687425
9.252                0.944531342     -144.977289
9.253                 0.94435289     -145.267599
9.254                0.944174581     -145.558354
9.255                0.943996423     -145.849551
9.256                0.943818427     -146.141186
9.257                0.943640602     -146.433259
9.258                0.943462959     -146.725765
9.259                0.943285508     -147.018702
9.26                 0.943108258     -147.312068
9.261                0.942931221     -147.605859
9.262                0.942754406     -147.900073
9.263                0.942577823     -148.194708
9.264                0.942401483     -148.489759
9.265                0.942225395     -148.785224
9.266                0.942049571     -149.081101
9.267                 0.94187402     -149.377386
9.268                0.941698753     -149.674077
9.269                0.941523781      -149.97117
9.27                 0.941349112     -150.268662
9.271                0.941174759     -150.566551
9.272                0.941000731     -150.864833
9.273                0.940827039     -151.163504
9.274                0.940653693     -151.462563
9.275                0.940480704     -151.762006
9.276                0.940308082     -152.061829
9.277                0.940135837     -152.362029
9.278                0.939963981     -152.662604
9.279                0.939792524     -152.963549
9.28                 0.939621475     -153.264862
9.281                0.939450847     -153.566538
9.282                0.939280649     -153.868576
9.283                0.939110892      -154.17097
9.284                0.938941586     -154.473719
9.285                0.938772742     -154.776818
9.286                 0.93860437     -155.080264
9.287                0.938436482     -155.384053
9.288                0.938269087     -155.688182
9.289                0.938102196     -155.992648
9.29                  0.93793582     -156.297446
9.291                0.937769969     -156.602573
9.292                0.937604653     -156.908026
9.293                0.937439884       -157.2138
9.294                0.937275671     -157.519893
9.295                0.937112025       -157.8263
9.296                0.936948957     -158.133017
9.297                0.936786477     -158.440042
9.298                0.936624595     -158.747369
9.299                0.936463322     -159.054996
9.3                  0.936302668     -159.362918
9.301                0.936142643     -159.671132
9.302                0.935983259     -159.979633
9.303                0.935824524     -160.288418
9.304                 0.93566645     -160.597482
9.305                0.935509047     -160.906823
9.306                0.935352324     -161.216435
9.307                0.935196292     -161.526316
9.308                0.935040962      -161.83646
9.309                0.934886343     -162.146863
9.31                 0.934732445     -162.457523
9.311                0.934579278     -162.768434
9.312                0.934426853     -163.079592
9.313                0.934275179     -163.390994
9.314                0.934124267     -163.702635
9.315                0.933974125      -164.01451
9.316                0.933824764     -164.326617
9.317                0.933676194      -164.63895
9.318                0.933528424     -164.951506
9.319                0.933381464     -165.264279
9.32                 0.933235324     -165.577267
9.321                0.933090013     -165.890464
9.322                 0.93294554     -166.203866
9.323                0.932801915     -166.517469
9.324                0.932659148     -166.831268
9.325                0.932517248      -167.14526
9.326                0.932376223      -167.45944
9.327                0.932236084     -167.773803
9.328                0.932096839     -168.088344
9.329                0.931958497     -168.403061
9.33                 0.931821068     -168.717947
9.331                 0.93168456        -169.033
9.332                0.931548982     -169.348213
9.333                0.931414342     -169.663583
9.334                0.931280651     -169.979105
9.335                0.931147915     -170.294775
9.336                0.931016144     -170.610588
9.337                0.930885346      -170.92654
9.338                 0.93075553     -171.242626
9.339                0.930626704     -171.558841
9.34                 0.930498876     -171.875181
9.341                0.930372054     -172.191642
9.342                0.930246246     -172.508218
9.343                 0.93012146     -172.824905
9.344                0.929997705     -173.141699
9.345                0.929874987     -173.458595
9.346                0.929753316     -173.775588
9.347                0.929632697     -174.092674
9.348                0.929513139     -174.409847
9.349                0.929394649     -174.727104
9.35                 0.929277234      -175.04444
9.351                0.929160903     -175.361849
9.352                0.929045661     -175.679328
9.353                0.928931516     -175.996872
9.354                0.928818475     -176.314475
9.355                0.928706544     -176.632133
9.356                0.928595731     -176.949842
9.357                0.928486041     -177.267597
9.358                0.928377483     -177.585393
9.359                0.928270061     -177.903225
9.36                 0.928163783     -178.221089
9.361                0.928058654     -178.538979
9.362                 0.92795468     -178.856892
9.363                0.927851868     -179.174823
9.364                0.927750224     -179.492766
9.365                0.927649753     -179.810717
9.366                0.927550461      179.871329
9.367                0.927452353      179.553376
9.368                0.927355435       179.23543
9.369                0.927259713      178.917494
9.37                 0.927165191      178.599574
9.371                0.927071874      178.281675
9.372                0.926979768        177.9638
9.373                0.926888878      177.645956
9.374                0.926799207      177.328146
9.375                0.926710762      177.010375
9.376                0.926623546      176.692648
9.377                0.926537563       176.37497
9.378                0.926452819      176.057346
9.379                0.926369317      175.739779
9.38                 0.926287061      175.422276
9.381                0.926206055       175.10484
9.382                0.926126303      174.787476
9.383                0.926047809      174.470189
9.384                0.925970576      174.152983
9.385                0.925894608      173.835864
9.386                0.925819908      173.518836
9.387                0.925746479      173.201903
9.388                0.925674325      172.885071
9.389                0.925603447      172.568343
9.39                  0.92553385      172.251725
9.391                0.925465536       171.93522
9.392                0.925398507      171.618835
9.393                0.925332765      171.302572
9.394                0.925268314      170.986438
9.395                0.925205156      170.670436
9.396                0.925143292      170.354571
