! TOUCHSTONE file generated by CST DESIGN STUDIO
! Date and time: Tue Feb  4 17:22:54 2025
! Project name: C:\Work\MatlabApps\UnitCellOptimizationMatlab\CST\unitcell.cst
! Tree item: Tasks\Sweep1\SPara1\S-Parameters
! Header version: 2024
! Port assignment regex: !\s*Touchstone port\s*([0-9]+)\s*=\s*(CST MWS port|CST DES external port|CST DES block port)\s*(.+)\s* \(\"(.*)\"\)(\s*mode\s*([0-9]+))?.*
! Touchstone port assignment:
! Touchstone port 1 = CST DES external port 1 ("")
# GHz S MA R 50
9                    0.980969658     -74.7022217
9.001                0.980911235     -74.8235836
9.002                0.980852363     -74.9452609
9.003                0.980793039     -75.0672545
9.004                0.980733262     -75.1895653
9.005                0.980673031     -75.3121944
9.006                0.980612344     -75.4351426
9.007                  0.9805512      -75.558411
9.008                0.980489598     -75.6820005
9.009                0.980427536      -75.805912
9.01                 0.980365013     -75.9301466
9.011                0.980302028     -76.0547052
9.012                0.980238579     -76.1795888
9.013                0.980174665     -76.3047983
9.014                0.980110284     -76.4303348
9.015                0.980045436     -76.5561992
9.016                0.979980119     -76.6823926
9.017                0.979914331     -76.8089158
9.018                0.979848071     -76.9357699
9.019                0.979781338     -77.0629558
9.02                 0.979714131     -77.1904747
9.021                0.979646449     -77.3183274
9.022                0.979578289     -77.4465149
9.023                0.979509651     -77.5750383
9.024                0.979440533     -77.7038986
9.025                0.979370935     -77.8330968
9.026                0.979300854     -77.9626338
9.027                0.979230289     -78.0925107
9.028                 0.97915924     -78.2227285
9.029                0.979087705     -78.3532882
9.03                 0.979015683     -78.4841908
9.031                0.978943171     -78.6154373
9.032                 0.97887017     -78.7470288
9.033                0.978796678     -78.8789663
9.034                0.978722694     -79.0112509
9.035                0.978648215     -79.1438834
9.036                0.978573242      -79.276865
9.037                0.978497773     -79.4101967
9.038                0.978421806     -79.5438795
9.039                0.978345341     -79.6779145
9.04                 0.978268375     -79.8123026
9.041                0.978190909      -79.947045
9.042                0.978112941     -80.0821427
9.043                0.978034469     -80.2175967
9.044                0.977955492      -80.353408
9.045                0.977876009     -80.4895778
9.046                 0.97779602      -80.626107
9.047                0.977715522     -80.7629967
9.048                0.977634514      -80.900248
9.049                0.977552997     -81.0378619
9.05                 0.977470967     -81.1758395
9.051                0.977388424     -81.3141818
9.052                0.977305368     -81.4528899
9.053                0.977221796     -81.5919648
9.054                0.977137707     -81.7314076
9.055                0.977053102     -81.8712195
9.056                0.976967978     -82.0114013
9.057                0.976882334     -82.1519543
9.058                0.976796169     -82.2928795
9.059                0.976709482     -82.4341779
9.06                 0.976622273     -82.5758506
9.061                0.976534539     -82.7178988
9.062                 0.97644628     -82.8603234
9.063                0.976357496     -83.0031256
9.064                0.976268183     -83.1463065
9.065                0.976178343      -83.289867
9.066                0.976087973     -83.4338084
9.067                0.975997073     -83.5781316
9.068                0.975905642     -83.7228379
9.069                0.975813679     -83.8679282
9.07                 0.975721182     -84.0134036
9.071                 0.97562815     -84.1592653
9.072                0.975534584     -84.3055143
9.073                0.975440481     -84.4521517
9.074                0.975345841     -84.5991787
9.075                0.975250663     -84.7465963
9.076                0.975154946     -84.8944056
9.077                0.975058689     -85.0426077
9.078                0.974961891     -85.1912037
9.079                0.974864552     -85.3401947
9.08                 0.974766669     -85.4895818
9.081                0.974668243     -85.6393661
9.082                0.974569273     -85.7895488
9.083                0.974469758     -85.9401308
9.084                0.974369696     -86.0911134
9.085                0.974269087     -86.2424976
9.086                0.974167931     -86.3942846
9.087                0.974066227     -86.5464754
9.088                0.973963973     -86.6990711
9.089                0.973861169     -86.8520729
9.09                 0.973757814     -87.0054819
9.091                0.973653907     -87.1592991
9.092                0.973549449     -87.3135258
9.093                0.973444437     -87.4681629
9.094                0.973338872     -87.6232117
9.095                0.973232752     -87.7786732
9.096                0.973126077     -87.9345485
9.097                0.973018847     -88.0908388
9.098                 0.97291106     -88.2475452
9.099                0.972802716     -88.4046687
9.1                  0.972693814     -88.5622106
9.101                0.972584355     -88.7201718
9.102                0.972474337     -88.8785536
9.103                0.972363759     -89.0373571
9.104                0.972252621     -89.1965833
9.105                0.972140923     -89.3562334
9.106                0.972028665     -89.5163084
9.107                0.971915845     -89.6768096
9.108                0.971802463      -89.837738
9.109                0.971688518     -89.9990947
9.11                 0.971574011     -90.1608809
9.111                0.971458941     -90.3230977
9.112                0.971343307     -90.4857462
9.113                0.971227109     -90.6488274
9.114                0.971110347     -90.8123426
9.115                 0.97099302     -90.9762928
9.116                0.970875128     -91.1406791
9.117                0.970756671     -91.3055027
9.118                0.970637649     -91.4707646
9.119                 0.97051806      -91.636466
9.12                 0.970397905      -91.802608
9.121                0.970277184     -91.9691917
9.122                0.970155897     -92.1362182
9.123                0.970034043     -92.3036886
9.124                0.969911622     -92.4716041
9.125                0.969788633     -92.6399656
9.126                0.969665078     -92.8087744
9.127                0.969540956     -92.9780315
9.128                0.969416266     -93.1477381
9.129                0.969291009     -93.3178952
9.13                 0.969165184     -93.4885039
9.131                0.969038793     -93.6595653
9.132                0.968911833     -93.8310806
9.133                0.968784307     -94.0030508
9.134                0.968656213     -94.1754771
9.135                0.968527552     -94.3483604
9.136                0.968398325      -94.521702
9.137                 0.96826853     -94.6955028
9.138                0.968138168      -94.869764
9.139                0.968007241     -95.0444867
9.14                 0.967875746     -95.2196719
9.141                0.967743686     -95.3953208
9.142                 0.96761106     -95.5714343
9.143                0.967477869     -95.7480137
9.144                0.967344112     -95.9250598
9.145                0.967209791     -96.1025739
9.146                0.967074905      -96.280557
9.147                0.966939456     -96.4590102
9.148                0.966803442     -96.6379344
9.149                0.966666866     -96.8173309
9.15                 0.966529727     -96.9972005
9.151                0.966392027     -97.1775445
9.152                0.966253764     -97.3583638
9.153                0.966114941     -97.5396595
9.154                0.965975558     -97.7214326
9.155                0.965835615     -97.9036843
9.156                0.965695113     -98.0864154
9.157                0.965554053     -98.2696271
9.158                0.965412436     -98.4533203
9.159                0.965270261     -98.6374962
9.16                 0.965127531     -98.8221557
9.161                0.964984246     -99.0072998
9.162                0.964840407     -99.1929297
9.163                0.964696014     -99.3790462
9.164                 0.96455107     -99.5656504
9.165                0.964405574     -99.7527433
9.166                0.964259527     -99.9403258
9.167                0.964112931     -100.128399
9.168                0.963965788     -100.316964
9.169                0.963818097     -100.506022
9.17                  0.96366986     -100.695573
9.171                0.963521078     -100.885619
9.172                0.963371753      -101.07616
9.173                0.963221886     -101.267198
9.174                0.963071478     -101.458734
9.175                 0.96292053     -101.650768
9.176                0.962769044     -101.843301
9.177                0.962617021     -102.036335
9.178                0.962464462      -102.22987
9.179                 0.96231137     -102.423908
9.18                 0.962157745     -102.618448
9.181                 0.96200359     -102.813493
9.182                0.961848905     -103.009043
9.183                0.961693693     -103.205098
9.184                0.961537955     -103.401661
9.185                0.961381693     -103.598731
9.186                0.961224909      -103.79631
9.187                0.961067604     -103.994398
9.188                 0.96090978     -104.192997
9.189                 0.96075144     -104.392107
9.19                 0.960592584     -104.591729
9.191                0.960433216     -104.791864
9.192                0.960273337     -104.992513
9.193                0.960112949     -105.193676
9.194                0.959952054     -105.395355
9.195                0.959790655      -105.59755
9.196                0.959628754     -105.800263
9.197                0.959466352     -106.003493
9.198                0.959303453     -106.207242
9.199                0.959140058     -106.411511
9.2                  0.958976171       -106.6163
9.201                0.958811792     -106.821611
9.202                0.958646926     -107.027443
9.203                0.958481573     -107.233797
9.204                0.958315738     -107.440676
9.205                0.958149422     -107.648078
9.206                0.957982629     -107.856005
9.207                 0.95781536     -108.064458
9.208                0.957647619     -108.273437
9.209                0.957479408     -108.482943
9.21                 0.957310731     -108.692977
9.211                 0.95714159      -108.90354
9.212                0.956971989     -109.114631
9.213                0.956801929     -109.326252
9.214                0.956631415     -109.538404
9.215                0.956460449     -109.751087
9.216                0.956289035     -109.964301
9.217                0.956117176     -110.178048
9.218                0.955944874     -110.392328
9.219                0.955772134     -110.607141
9.22                 0.955598959     -110.822489
9.221                0.955425352     -111.038371
9.222                0.955251317     -111.254788
9.223                0.955076856     -111.471742
9.224                0.954901975     -111.689231
9.225                0.954726675     -111.907258
9.226                0.954550962     -112.125822
9.227                0.954374839     -112.344925
9.228                0.954198309     -112.564565
9.229                0.954021377     -112.784745
9.23                 0.953844046     -113.005464
9.231                0.953666321     -113.226723
9.232                0.953488205     -113.448523
9.233                0.953309702     -113.670863
9.234                0.953130817     -113.893744
9.235                0.952951553     -114.117167
9.236                0.952771916     -114.341133
9.237                0.952591909      -114.56564
9.238                0.952411537      -114.79069
9.239                0.952230804     -115.016284
9.24                 0.952049714     -115.242421
9.241                0.951868272     -115.469102
9.242                0.951686483     -115.696326
9.243                0.951504352     -115.924096
9.244                0.951321882      -116.15241
9.245                 0.95113908     -116.381269
9.246                0.950955949     -116.610673
9.247                0.950772494     -116.840622
9.248                0.950588721     -117.071117
9.249                0.950404635     -117.302159
9.25                  0.95022024     -117.533746
9.251                0.950035542     -117.765879
9.252                0.949850545     -117.998559
9.253                0.949665256     -118.231785
9.254                0.949479679     -118.465558
9.255                 0.94929382     -118.699878
9.256                0.949107683     -118.934745
9.257                0.948921276     -119.170158
9.258                0.948734603     -119.406119
9.259                0.948547669     -119.642626
9.26                 0.948360481     -119.879681
9.261                0.948173045     -120.117283
9.262                0.947985365     -120.355431
9.263                0.947797448     -120.594127
9.264                  0.9476093      -120.83337
9.265                0.947420926     -121.073159
9.266                0.947232334     -121.313496
9.267                0.947043528     -121.554379
9.268                0.946854515     -121.795809
9.269                0.946665301     -122.037785
9.27                 0.946475892     -122.280307
9.271                0.946286296     -122.523375
9.272                0.946096517      -122.76699
9.273                0.945906564      -123.01115
9.274                0.945716441     -123.255855
9.275                0.945526156     -123.501106
9.276                0.945335716     -123.746901
9.277                0.945145126     -123.993241
9.278                0.944954395     -124.240125
9.279                0.944763528     -124.487553
9.28                 0.944572532     -124.735525
9.281                0.944381415      -124.98404
9.282                0.944190184     -125.233097
9.283                0.943998845     -125.482697
9.284                0.943807406     -125.732839
9.285                0.943615873     -125.983522
9.286                0.943424255     -126.234746
9.287                0.943232558      -126.48651
9.288                0.943040789     -126.738814
9.289                0.942848957     -126.991658
9.29                 0.942657069      -127.24504
9.291                0.942465131      -127.49896
9.292                0.942273152     -127.753418
9.293                 0.94208114     -128.008412
9.294                0.941889102     -128.263943
9.295                0.941697045     -128.520009
9.296                0.941504979      -128.77661
9.297                0.941312909     -129.033745
9.298                0.941120846     -129.291413
9.299                0.940928795     -129.549613
9.3                  0.940736767     -129.808345
9.301                0.940544768     -130.067608
9.302                0.940352806       -130.3274
9.303                0.940160891     -130.587722
9.304                 0.93996903     -130.848571
9.305                0.939777231     -131.109948
9.306                0.939585503     -131.371851
9.307                0.939393855     -131.634279
9.308                0.939202294     -131.897231
9.309                 0.93901083     -132.160706
9.31                 0.938819471     -132.424703
9.311                0.938628225     -132.689221
9.312                0.938437101     -132.954259
9.313                0.938246109     -133.219816
9.314                0.938055256      -133.48589
9.315                0.937864551     -133.752481
9.316                0.937674004     -134.019586
9.317                0.937483623     -134.287206
9.318                0.937293418     -134.555338
9.319                0.937103397     -134.823981
9.32                 0.936913569     -135.093134
9.321                0.936723943     -135.362796
9.322                0.936534529     -135.632965
9.323                0.936345336      -135.90364
9.324                0.936156373     -136.174819
9.325                 0.93596765       -136.4465
9.326                0.935779174     -136.718684
9.327                0.935590957     -136.991367
9.328                0.935403007     -137.264548
9.329                0.935215334     -137.538226
9.33                 0.935027947     -137.812399
9.331                0.934840856     -138.087066
9.332                 0.93465407     -138.362224
9.333                0.934467598     -138.637873
9.334                0.934281452      -138.91401
9.335                0.934095639     -139.190634
9.336                 0.93391017     -139.467743
9.337                0.933725055     -139.745334
9.338                0.933540302     -140.023407
9.339                0.933355923      -140.30196
9.34                 0.933171927      -140.58099
9.341                0.932988323     -140.860495
9.342                0.932805121     -141.140474
9.343                0.932622332     -141.420925
9.344                0.932439965     -141.701846
9.345                0.932258031     -141.983234
9.346                0.932076538     -142.265088
9.347                0.931895497     -142.547405
9.348                0.931714919     -142.830184
9.349                0.931534812     -143.113421
9.35                 0.931355188     -143.397116
9.351                0.931176056     -143.681266
9.352                0.930997426     -143.965869
9.353                0.930819308     -144.250921
9.354                0.930641713     -144.536422
9.355                 0.93046465     -144.822369
9.356                0.930288129     -145.108759
9.357                0.930112162      -145.39559
9.358                0.929936757      -145.68286
9.359                0.929761926     -145.970565
9.36                 0.929587677     -146.258705
9.361                0.929414022     -146.547275
9.362                 0.92924097     -146.836275
9.363                0.929068532       -147.1257
9.364                0.928896717     -147.415549
9.365                0.928725537     -147.705819
9.366                0.928555001     -147.996507
9.367                0.928385118     -148.287611
9.368                0.928215901     -148.579128
9.369                0.928047358     -148.871055
9.37                   0.9278795     -149.163389
9.371                0.927712336     -149.456128
9.372                0.927545878     -149.749269
9.373                0.927380134     -150.042809
9.374                0.927215116     -150.336745
9.375                0.927050833     -150.631074
9.376                0.926887296     -150.925794
9.377                0.926724514       -151.2209
9.378                0.926562498     -151.516392
9.379                0.926401257     -151.812264
9.38                 0.926240801     -152.108515
9.381                0.926081142     -152.405141
9.382                0.925922287     -152.702139
9.383                0.925764249     -152.999506
9.384                0.925607035     -153.297239
9.385                0.925450657     -153.595335
9.386                0.925295123      -153.89379
9.387                0.925140445     -154.192602
9.388                0.924986632     -154.491766
9.389                0.924833692      -154.79128
9.39                 0.924681637     -155.091141
9.391                0.924530476     -155.391344
9.392                0.924380219     -155.691887
9.393                0.924230875     -155.992767
9.394                0.924082453     -156.293979
9.395                0.923934964     -156.595521
9.396                0.923788416     -156.897389
