! TOUCHSTONE file generated by CST DESIGN STUDIO
! Date and time: Tue Feb  4 17:21:30 2025
! Project name: C:\Work\MatlabApps\UnitCellOptimizationMatlab\CST\unitcell.cst
! Tree item: Tasks\Sweep1\SPara1\S-Parameters
! Header version: 2024
! Port assignment regex: !\s*Touchstone port\s*([0-9]+)\s*=\s*(CST MWS port|CST DES external port|CST DES block port)\s*(.+)\s* \(\"(.*)\"\)(\s*mode\s*([0-9]+))?.*
! Touchstone port assignment:
! Touchstone port 1 = CST DES external port 1 ("")
# GHz S MA R 50
9                    0.990075488     -72.1169986
9.001                0.990053367     -72.2216807
9.002                0.990031181     -72.3266124
9.003                0.990008928     -72.4317946
9.004                0.989986608     -72.5372278
9.005                0.989964222     -72.6429129
9.006                 0.98994177     -72.7488506
9.007                 0.98991925     -72.8550417
9.008                0.989896663     -72.9614869
9.009                 0.98987401      -73.068187
9.01                 0.989851288     -73.1751427
9.011                  0.9898285     -73.2823549
9.012                0.989805643     -73.3898241
9.013                0.989782719     -73.4975513
9.014                0.989759727     -73.6055371
9.015                0.989736666     -73.7137824
9.016                0.989713538     -73.8222879
9.017                 0.98969034     -73.9310544
9.018                0.989667075     -74.0400826
9.019                 0.98964374     -74.1493734
9.02                 0.989620336     -74.2589274
9.021                0.989596864     -74.3687455
9.022                0.989573321     -74.4788285
9.023                 0.98954971     -74.5891772
9.024                0.989526029     -74.6997922
9.025                0.989502278     -74.8106745
9.026                0.989478457     -74.9218248
9.027                0.989454567     -75.0332439
9.028                0.989430606     -75.1449325
9.029                0.989406574     -75.2568915
9.03                 0.989382472     -75.3691217
9.031                  0.9893583     -75.4816238
9.032                0.989334056     -75.5943988
9.033                0.989309742     -75.7074472
9.034                0.989285356     -75.8207701
9.035                0.989260899     -75.9343681
9.036                0.989236371     -76.0482421
9.037                0.989211771     -76.1623929
9.038                  0.9891871     -76.2768213
9.039                0.989162356     -76.3915281
9.04                 0.989137541     -76.5065141
9.041                0.989112653     -76.6217802
9.042                0.989087693     -76.7373271
9.043                0.989062661     -76.8531557
9.044                0.989037555     -76.9692668
9.045                0.989012378     -77.0856613
9.046                0.988987127     -77.2023398
9.047                0.988961803     -77.3193034
9.048                0.988936406     -77.4365528
9.049                0.988910935     -77.5540887
9.05                 0.988885392     -77.6719122
9.051                0.988859774      -77.790024
9.052                0.988834083     -77.9084249
9.053                0.988808318     -78.0271157
9.054                0.988782479     -78.1460974
9.055                0.988756565     -78.2653708
9.056                0.988730578     -78.3849366
9.057                0.988704515     -78.5047958
9.058                0.988678379     -78.6249492
9.059                0.988652167     -78.7453976
9.06                 0.988625881     -78.8661419
9.061                 0.98859952     -78.9871829
9.062                0.988573084     -79.1085215
9.063                0.988546572     -79.2301586
9.064                0.988519985      -79.352095
9.065                0.988493323     -79.4743315
9.066                0.988466585     -79.5968691
9.067                0.988439771     -79.7197085
9.068                0.988412882     -79.8428507
9.069                0.988385916     -79.9662965
9.07                 0.988358874     -80.0900467
9.071                0.988331757     -80.2141024
9.072                0.988304562     -80.3384642
9.073                0.988277292     -80.4631331
9.074                0.988249944       -80.58811
9.075                 0.98822252     -80.7133956
9.076                 0.98819502     -80.8389911
9.077                0.988167442      -80.964897
9.078                0.988139787     -81.0911145
9.079                0.988112055     -81.2176443
9.08                 0.988084246     -81.3444873
9.081                 0.98805636     -81.4716444
9.082                0.988028396     -81.5991165
9.083                0.988000354     -81.7269045
9.084                0.987972235     -81.8550092
9.085                0.987944038     -81.9834316
9.086                0.987915764     -82.1121726
9.087                0.987887411      -82.241233
9.088                 0.98785898     -82.3706137
9.089                0.987830471     -82.5003156
9.09                 0.987801884     -82.6303396
9.091                0.987773219     -82.7606867
9.092                0.987744475     -82.8913576
9.093                0.987715652     -83.0223534
9.094                0.987686751     -83.1536749
9.095                0.987657771      -83.285323
9.096                0.987628713     -83.4172985
9.097                0.987599576     -83.5496026
9.098                0.987570359     -83.6822359
9.099                0.987541064     -83.8151995
9.1                   0.98751169     -83.9484942
9.101                0.987482236     -84.0821209
9.102                0.987452703     -84.2160806
9.103                0.987423091     -84.3503742
9.104                  0.9873934     -84.4850025
9.105                0.987363629     -84.6199665
9.106                0.987333779     -84.7552671
9.107                0.987303849     -84.8909053
9.108                 0.98727384     -85.0268819
9.109                0.987243751     -85.1631978
9.11                 0.987213582      -85.299854
9.111                0.987183334     -85.4368513
9.112                0.987153005     -85.5741908
9.113                0.987122597     -85.7118733
9.114                0.987092109     -85.8498998
9.115                0.987061541     -85.9882711
9.116                0.987030893     -86.1269881
9.117                0.987000165     -86.2660519
9.118                0.986969357     -86.4054634
9.119                0.986938469     -86.5452234
9.12                   0.9869075     -86.6853329
9.121                0.986876452     -86.8257927
9.122                0.986845323      -86.966604
9.123                0.986814114     -87.1077674
9.124                0.986782825     -87.2492841
9.125                0.986751456     -87.3911549
9.126                0.986720006     -87.5333807
9.127                0.986688477     -87.6759625
9.128                0.986656867     -87.8189012
9.129                0.986625176     -87.9621978
9.13                 0.986593406     -88.1058531
9.131                0.986561555     -88.2498681
9.132                0.986529624     -88.3942437
9.133                0.986497613     -88.5389809
9.134                0.986465521     -88.6840805
9.135                0.986433349     -88.8295436
9.136                0.986401097      -88.975371
9.137                0.986368765     -89.1215637
9.138                0.986336352     -89.2681226
9.139                 0.98630386     -89.4150486
9.14                 0.986271287     -89.5623428
9.141                0.986238634     -89.7100059
9.142                0.986205901     -89.8580389
9.143                0.986173088     -90.0064429
9.144                0.986140196     -90.1552186
9.145                0.986107223     -90.3043671
9.146                 0.98607417     -90.4538892
9.147                0.986041038     -90.6037859
9.148                0.986007825     -90.7540581
9.149                0.985974533     -90.9047068
9.15                 0.985941162     -91.0557329
9.151                 0.98590771     -91.2071372
9.152                 0.98587418     -91.3589209
9.153                0.985840569     -91.5110846
9.154                 0.98580688     -91.6636295
9.155                0.985773111     -91.8165564
9.156                0.985739263     -91.9698663
9.157                0.985705336       -92.12356
9.158                 0.98567133     -92.2776386
9.159                0.985637245     -92.4321028
9.16                 0.985603081     -92.5869537
9.161                0.985568839     -92.7421922
9.162                0.985534518     -92.8978192
9.163                0.985500118     -93.0538356
9.164                0.985465641     -93.2102423
9.165                0.985431085     -93.3670403
9.166                 0.98539645     -93.5242305
9.167                0.985361738     -93.6818138
9.168                0.985326948      -93.839791
9.169                0.985292081     -93.9981632
9.17                 0.985257136     -94.1569313
9.171                0.985222113      -94.316096
9.172                0.985187014     -94.4756585
9.173                0.985151837     -94.6356195
9.174                0.985116583     -94.7959799
9.175                0.985081253     -94.9567408
9.176                0.985045846     -95.1179029
9.177                0.985010363     -95.2794673
9.178                0.984974803     -95.4414347
9.179                0.984939168     -95.6038061
9.18                 0.984903457     -95.7665824
9.181                 0.98486767     -95.9297645
9.182                0.984831808     -96.0933533
9.183                 0.98479587     -96.2573496
9.184                0.984759858     -96.4217544
9.185                0.984723771     -96.5865686
9.186                 0.98468761     -96.7517929
9.187                0.984651374     -96.9174284
9.188                0.984615064     -97.0834759
9.189                 0.98457868     -97.2499363
9.19                 0.984542223     -97.4168104
9.191                0.984505693     -97.5840992
9.192                0.984469089     -97.7518035
9.193                0.984432413     -97.9199241
9.194                0.984395665      -98.088462
9.195                0.984358844     -98.2574179
9.196                0.984321951     -98.4267928
9.197                0.984284987     -98.5965876
9.198                0.984247951      -98.766803
9.199                0.984210844     -98.9374399
9.2                  0.984173667     -99.1084993
9.201                0.984136419     -99.2799818
9.202                0.984099101     -99.4518884
9.203                0.984061713     -99.6242199
9.204                0.984024256     -99.7969771
9.205                 0.98398673      -99.970161
9.206                0.983949135     -100.143772
9.207                0.983911471     -100.317812
9.208                 0.98387374      -100.49228
9.209                0.983835941     -100.667178
9.21                 0.983798075     -100.842508
9.211                0.983760141     -101.018268
9.212                0.983722142     -101.194461
9.213                0.983684076     -101.371087
9.214                0.983645944     -101.548147
9.215                0.983607748     -101.725641
9.216                0.983569486     -101.903571
9.217                 0.98353116     -102.081937
9.218                0.983492769     -102.260741
9.219                0.983454315     -102.439982
9.22                 0.983415798     -102.619662
9.221                0.983377219     -102.799781
9.222                0.983338577      -102.98034
9.223                0.983299873      -103.16134
9.224                0.983261108     -103.342782
9.225                0.983222282     -103.524666
9.226                0.983183395     -103.706994
9.227                0.983144449     -103.889765
9.228                0.983105443     -104.072981
9.229                0.983066379     -104.256642
9.23                 0.983027256     -104.440749
9.231                0.982988076     -104.625303
9.232                0.982948838     -104.810305
9.233                0.982909543     -104.995755
9.234                0.982870193     -105.181653
9.235                0.982830786     -105.368002
9.236                0.982791325       -105.5548
9.237                0.982751809      -105.74205
9.238                0.982712239     -105.929751
9.239                0.982672616     -106.117904
9.24                  0.98263294      -106.30651
9.241                0.982593212     -106.495571
9.242                0.982553433     -106.685085
9.243                0.982513603     -106.875054
9.244                0.982473722     -107.065479
9.245                0.982433792      -107.25636
9.246                0.982393813     -107.447698
9.247                0.982353786     -107.639493
9.248                0.982313711     -107.831746
9.249                0.982273589     -108.024458
9.25                 0.982233421     -108.217629
9.251                0.982193208      -108.41126
9.252                0.982152949     -108.605352
9.253                0.982112647     -108.799904
9.254                0.982072301     -108.994918
9.255                0.982031912     -109.190394
9.256                0.981991481     -109.386333
9.257                0.981951009     -109.582735
9.258                0.981910497       -109.7796
9.259                0.981869945      -109.97693
9.26                 0.981829354     -110.174725
9.261                0.981788725     -110.372985
9.262                0.981748059      -110.57171
9.263                0.981707356     -110.770902
9.264                0.981666617     -110.970561
9.265                0.981625843     -111.170687
9.266                0.981585036     -111.371281
9.267                0.981544195     -111.572343
9.268                0.981503322     -111.773873
9.269                0.981462417     -111.975872
9.27                 0.981421482     -112.178341
9.271                0.981380517      -112.38128
9.272                0.981339523     -112.584689
9.273                0.981298501     -112.788569
9.274                0.981257452      -112.99292
9.275                0.981216377     -113.197742
9.276                0.981175276     -113.403036
9.277                0.981134151     -113.608802
9.278                0.981093003     -113.815041
9.279                0.981051833     -114.021753
9.28                 0.981010641     -114.228938
9.281                0.980969429     -114.436596
9.282                0.980928197     -114.644728
9.283                0.980886947     -114.853335
9.284                 0.98084568     -115.062415
9.285                0.980804396     -115.271971
9.286                0.980763097     -115.482001
9.287                0.980721783     -115.692507
9.288                0.980680456     -115.903488
9.289                0.980639117     -116.114944
9.29                 0.980597767     -116.326877
9.291                0.980556406     -116.539285
9.292                0.980515037      -116.75217
9.293                0.980473659     -116.965531
9.294                0.980432275     -117.179369
9.295                0.980390886     -117.393683
9.296                0.980349491     -117.608475
9.297                0.980308094     -117.823744
9.298                0.980266694     -118.039489
9.299                0.980225293     -118.255712
9.3                  0.980183892     -118.472413
9.301                0.980142492      -118.68959
9.302                0.980101095     -118.907245
9.303                0.980059701     -119.125378
9.304                0.980018313     -119.343989
9.305                 0.97997693     -119.563077
9.306                0.979935555     -119.782642
9.307                0.979894188     -120.002686
9.308                0.979852832     -120.223206
9.309                0.979811486     -120.444205
9.31                 0.979770153     -120.665681
9.311                0.979728833     -120.887634
9.312                0.979687528     -121.110065
9.313                 0.97964624     -121.332973
9.314                0.979604969     -121.556359
9.315                0.979563717     -121.780221
9.316                0.979522486     -122.004561
9.317                0.979481276     -122.229377
9.318                0.979440089      -122.45467
9.319                0.979398926      -122.68044
9.32                 0.979357789     -122.906686
9.321                0.979316679     -123.133407
9.322                0.979275597     -123.360605
9.323                0.979234546     -123.588279
9.324                0.979193525     -123.816427
9.325                0.979152538     -124.045051
9.326                0.979111584      -124.27415
9.327                0.979070667     -124.503723
9.328                0.979029786     -124.733771
9.329                0.978988944     -124.964292
9.33                 0.978948142     -125.195287
9.331                0.978907381     -125.426755
9.332                0.978866663     -125.658695
9.333                 0.97882599     -125.891108
9.334                0.978785363     -126.123993
9.335                0.978744784      -126.35735
9.336                0.978704253     -126.591178
9.337                0.978663773     -126.825476
9.338                0.978623346     -127.060244
9.339                0.978582972     -127.295482
9.34                 0.978542653     -127.531189
9.341                0.978502391     -127.767364
9.342                0.978462188     -128.004008
9.343                0.978422045     -128.241119
9.344                0.978381963     -128.478696
9.345                0.978341945      -128.71674
9.346                0.978301992     -128.955249
9.347                0.978262105     -129.194224
9.348                0.978222286     -129.433662
9.349                0.978182537     -129.673564
9.35                  0.97814286     -129.913929
9.351                0.978103256     -130.154756
9.352                0.978063727     -130.396045
9.353                0.978024274     -130.637794
9.354                  0.9779849     -130.880003
9.355                0.977945605     -131.122671
9.356                0.977906392     -131.365797
9.357                0.977867262     -131.609381
9.358                0.977828218     -131.853421
9.359                 0.97778926     -132.097917
9.36                 0.977750391     -132.342867
9.361                0.977711612     -132.588271
9.362                0.977672925     -132.834129
9.363                0.977634331     -133.080438
9.364                0.977595834     -133.327198
9.365                0.977557433     -133.574408
9.366                0.977519132     -133.822067
9.367                0.977480931     -134.070174
9.368                0.977442833     -134.318728
9.369                 0.97740484     -134.567728
9.37                 0.977366953     -134.817172
9.371                0.977329174      -135.06706
9.372                0.977291504      -135.31739
9.373                0.977253947     -135.568162
9.374                0.977216503     -135.819373
9.375                0.977179174     -136.071024
9.376                0.977141963     -136.323112
9.377                 0.97710487     -136.575637
9.378                0.977067899     -136.828596
9.379                 0.97703105      -137.08199
9.38                 0.976994325     -137.335816
9.381                0.976957728     -137.590073
9.382                0.976921258     -137.844761
9.383                0.976884919     -138.099876
9.384                0.976848711     -138.355419
9.385                0.976812638     -138.611387
9.386                  0.9767767      -138.86778
9.387                  0.9767409     -139.124596
9.388                0.976705239     -139.381833
9.389                 0.97666972     -139.639489
9.39                 0.976634345     -139.897564
9.391                0.976599114     -140.156056
9.392                0.976564031     -140.414963
9.393                0.976529096     -140.674283
9.394                0.976494313     -140.934016
9.395                0.976459682     -141.194158
9.396                0.976425206      -141.45471
