! TOUCHSTONE file generated by CST DESIGN STUDIO
! Date and time: Tue Feb  4 17:21:26 2025
! Project name: C:\Work\MatlabApps\UnitCellOptimizationMatlab\CST\unitcell.cst
! Tree item: Tasks\Sweep1\SPara1\S-Parameters
! Header version: 2024
! Port assignment regex: !\s*Touchstone port\s*([0-9]+)\s*=\s*(CST MWS port|CST DES external port|CST DES block port)\s*(.+)\s* \(\"(.*)\"\)(\s*mode\s*([0-9]+))?.*
! Touchstone port assignment:
! Touchstone port 1 = CST DES external port 1 ("")
# GHz S MA R 50
9                    0.989733995     -73.9403916
9.001                0.989710412     -74.0490343
9.002                 0.98968676     -74.1579379
9.003                0.989663037     -74.2671031
9.004                0.989639243     -74.3765308
9.005                0.989615379     -74.4862216
9.006                0.989591445     -74.5961764
9.007                0.989567439     -74.7063959
9.008                0.989543363      -74.816881
9.009                0.989519215     -74.9276323
9.01                 0.989494996     -75.0386508
9.011                0.989470706     -75.1499371
9.012                0.989446343      -75.261492
9.013                0.989421909     -75.3733164
9.014                0.989397403     -75.4854111
9.015                0.989372825     -75.5977767
9.016                0.989348175     -75.7104142
9.017                0.989323452     -75.8233243
9.018                0.989298656     -75.9365078
9.019                0.989273788     -76.0499655
9.02                 0.989248847     -76.1636982
9.021                0.989223833     -76.2777068
9.022                0.989198745     -76.3919919
9.023                0.989173584     -76.5065545
9.024                0.989148349     -76.6213954
9.025                0.989123041     -76.7365152
9.026                0.989097659      -76.851915
9.027                0.989072203     -76.9675954
9.028                0.989046672     -77.0835573
9.029                0.989021068     -77.1998014
9.03                 0.988995389     -77.3163288
9.031                0.988969635       -77.43314
9.032                0.988943806     -77.5502361
9.033                0.988917903     -77.6676177
9.034                0.988891924     -77.7852858
9.035                 0.98886587     -77.9032411
9.036                0.988839741     -78.0214845
9.037                0.988813536     -78.1400168
9.038                0.988787256     -78.2588388
9.039                  0.9887609     -78.3779514
9.04                 0.988734468     -78.4973555
9.041                 0.98870796     -78.6170518
9.042                0.988681375     -78.7370412
9.043                0.988654714     -78.8573245
9.044                0.988627977     -78.9779026
9.045                0.988601163     -79.0987763
9.046                0.988574272     -79.2199466
9.047                0.988547305     -79.3414141
9.048                 0.98852026     -79.4631798
9.049                0.988493138     -79.5852446
9.05                 0.988465939     -79.7076092
9.051                0.988438662     -79.8302746
9.052                0.988411308     -79.9532415
9.053                0.988383876     -80.0765109
9.054                0.988356366     -80.2000836
9.055                0.988328778     -80.3239605
9.056                0.988301112     -80.4481424
9.057                0.988273368     -80.5726303
9.058                0.988245546     -80.6974249
9.059                0.988217645     -80.8225271
9.06                 0.988189665     -80.9479378
9.061                0.988161607     -81.0736579
9.062                 0.98813347     -81.1996883
9.063                0.988105254     -81.3260297
9.064                0.988076959     -81.4526832
9.065                0.988048585     -81.5796495
9.066                0.988020131     -81.7069296
9.067                0.987991598     -81.8345243
9.068                0.987962986     -81.9624345
9.069                0.987934293     -82.0906612
9.07                 0.987905522      -82.219205
9.071                 0.98787667     -82.3480671
9.072                0.987847738     -82.4772482
9.073                0.987818727     -82.6067492
9.074                0.987789635     -82.7365711
9.075                0.987760463     -82.8667146
9.076                0.987731211     -82.9971808
9.077                0.987701878     -83.1279704
9.078                0.987672465     -83.2590845
9.079                0.987642971     -83.3905238
9.08                 0.987613396     -83.5222893
9.081                0.987583741     -83.6543819
9.082                0.987554004     -83.7868024
9.083                0.987524187     -83.9195518
9.084                0.987494289      -84.052631
9.085                 0.98746431     -84.1860409
9.086                0.987434249     -84.3197823
9.087                0.987404107     -84.4538563
9.088                0.987373884     -84.5882636
9.089                0.987343579     -84.7230052
9.09                 0.987313193      -84.858082
9.091                0.987282725     -84.9934949
9.092                0.987252176     -85.1292448
9.093                0.987221545     -85.2653327
9.094                0.987190832     -85.4017594
9.095                0.987160037     -85.5385258
9.096                0.987129161     -85.6756329
9.097                0.987098202     -85.8130815
9.098                0.987067162     -85.9508727
9.099                0.987036039     -86.0890072
9.1                  0.987004835      -86.227486
9.101                0.986973548     -86.3663101
9.102                0.986942179     -86.5054803
9.103                0.986910728     -86.6449976
9.104                0.986879195     -86.7848629
9.105                0.986847579      -86.925077
9.106                0.986815881      -87.065641
9.107                0.986784101     -87.2065557
9.108                0.986752238      -87.347822
9.109                0.986720293      -87.489441
9.11                 0.986688265     -87.6314134
9.111                0.986656156     -87.7737402
9.112                0.986623963     -87.9164224
9.113                0.986591688     -88.0594609
9.114                0.986559331     -88.2028565
9.115                0.986526891     -88.3466102
9.116                0.986494369      -88.490723
9.117                0.986461764     -88.6351957
9.118                0.986429077     -88.7800293
9.119                0.986396307     -88.9252247
9.12                 0.986363454     -89.0707828
9.121                 0.98633052     -89.2167046
9.122                0.986297502     -89.3629909
9.123                0.986264403     -89.5096428
9.124                0.986231221      -89.656661
9.125                0.986197956     -89.8040466
9.126                0.986164609     -89.9518005
9.127                 0.98613118     -90.0999235
9.128                0.986097669     -90.2484167
9.129                0.986064075     -90.3972809
9.13                 0.986030399     -90.5465171
9.131                0.985996641     -90.6961261
9.132                  0.9859628      -90.846109
9.133                0.985928878     -90.9964665
9.134                0.985894873     -91.1471998
9.135                0.985860787     -91.2983096
9.136                0.985826619     -91.4497969
9.137                0.985792369     -91.6016626
9.138                0.985758037     -91.7539077
9.139                0.985723623      -91.906533
9.14                 0.985689128     -92.0595394
9.141                0.985654551      -92.212928
9.142                0.985619893     -92.3666996
9.143                0.985585153     -92.5208551
9.144                0.985550333     -92.6753954
9.145                0.985515431     -92.8303215
9.146                0.985480448     -92.9856343
9.147                0.985445384     -93.1413347
9.148                0.985410239     -93.2974235
9.149                0.985375013     -93.4539018
9.15                 0.985339707     -93.6107704
9.151                0.985304321     -93.7680302
9.152                0.985268854     -93.9256821
9.153                0.985233307     -94.0837271
9.154                0.985197679     -94.2421661
9.155                0.985161972     -94.4009998
9.156                0.985126185     -94.5602294
9.157                0.985090319     -94.7198556
9.158                0.985054373     -94.8798794
9.159                0.985018348     -95.0403016
9.16                 0.984982243     -95.2011231
9.161                 0.98494606     -95.3623449
9.162                0.984909798     -95.5239679
9.163                0.984873457     -95.6859929
9.164                0.984837038     -95.8484208
9.165                 0.98480054     -96.0112525
9.166                0.984763965     -96.1744889
9.167                0.984727312     -96.3381309
9.168                0.984690581     -96.5021794
9.169                0.984653772     -96.6666352
9.17                 0.984616887     -96.8314992
9.171                0.984579925     -96.9967723
9.172                0.984542886     -97.1624554
9.173                 0.98450577     -97.3285494
9.174                0.984468578      -97.495055
9.175                 0.98443131     -97.6619732
9.176                0.984393967     -97.8293049
9.177                0.984356548     -97.9970509
9.178                0.984319053      -98.165212
9.179                0.984281484     -98.3337891
9.18                  0.98424384     -98.5027831
9.181                0.984206122     -98.6721949
9.182                 0.98416833     -98.8420252
9.183                0.984130464     -99.0122749
9.184                0.984092524     -99.1829449
9.185                0.984054511     -99.3540359
9.186                0.984016425     -99.5255489
9.187                0.983978267     -99.6974847
9.188                0.983940036      -99.869844
9.189                0.983901734     -100.042628
9.19                  0.98386336     -100.215837
9.191                0.983824915     -100.389472
9.192                0.983786399     -100.563534
9.193                0.983747812     -100.738023
9.194                0.983709155     -100.912941
9.195                0.983670429     -101.088289
9.196                0.983631633     -101.264066
9.197                0.983592768     -101.440274
9.198                0.983553834     -101.616914
9.199                0.983514833     -101.793987
9.2                  0.983475763     -101.971493
9.201                0.983436626     -102.149432
9.202                0.983397422     -102.327807
9.203                0.983358152     -102.506617
9.204                0.983318816     -102.685864
9.205                0.983279413     -102.865547
9.206                0.983239946     -103.045668
9.207                0.983200414     -103.226228
9.208                0.983160818     -103.407228
9.209                0.983121157     -103.588667
9.21                 0.983081434     -103.770548
9.211                0.983041647     -103.952869
9.212                0.983001799     -104.135634
9.213                0.982961888     -104.318841
9.214                0.982921916     -104.502492
9.215                0.982881884     -104.686587
9.216                0.982841791     -104.871127
9.217                0.982801638     -105.056114
9.218                0.982761426     -105.241547
9.219                0.982721156     -105.427427
9.22                 0.982680827     -105.613755
9.221                0.982640441     -105.800531
9.222                0.982599998     -105.987757
9.223                0.982559498     -106.175433
9.224                0.982518943     -106.363559
9.225                0.982478333     -106.552137
9.226                0.982437668     -106.741166
9.227                0.982396949     -106.930648
9.228                0.982356177     -107.120583
9.229                0.982315352     -107.310972
9.23                 0.982274475     -107.501815
9.231                0.982233546     -107.693113
9.232                0.982192567     -107.884867
9.233                0.982151538     -108.077077
9.234                 0.98211046     -108.269744
9.235                0.982069333     -108.462868
9.236                0.982028158      -108.65645
9.237                0.981986936      -108.85049
9.238                0.981945667      -109.04499
9.239                0.981904352     -109.239949
9.24                 0.981862992     -109.435369
9.241                0.981821588     -109.631249
9.242                 0.98178014      -109.82759
9.243                 0.98173865     -110.024393
9.244                0.981697117     -110.221659
9.245                0.981655543     -110.419387
9.246                0.981613928     -110.617578
9.247                0.981572274     -110.816234
9.248                0.981530581     -111.015353
9.249                 0.98148885     -111.214937
9.25                 0.981447082     -111.414986
9.251                0.981405277     -111.615501
9.252                0.981363437     -111.816482
9.253                0.981321561      -112.01793
9.254                0.981279653     -112.219844
9.255                0.981237711     -112.422226
9.256                0.981195737     -112.625075
9.257                0.981153732     -112.828393
9.258                0.981111696     -113.032179
9.259                0.981069632     -113.236434
9.26                 0.981027538     -113.441158
9.261                0.980985418     -113.646351
9.262                 0.98094327     -113.852015
9.263                0.980901098     -114.058149
9.264                  0.9808589     -114.264754
9.265                0.980816679      -114.47183
9.266                0.980774435     -114.679376
9.267                 0.98073217     -114.887395
9.268                0.980689884     -115.095885
9.269                0.980647578     -115.304847
9.27                 0.980605254     -115.514282
9.271                0.980562912     -115.724189
9.272                0.980520554     -115.934569
9.273                 0.98047818     -116.145422
9.274                0.980435791     -116.356748
9.275                 0.98039339     -116.568548
9.276                0.980350976     -116.780822
9.277                0.980308551     -116.993569
9.278                0.980266116      -117.20679
9.279                0.980223672     -117.420486
9.28                  0.98018122     -117.634655
9.281                0.980138762       -117.8493
9.282                0.980096298     -118.064418
9.283                 0.98005383     -118.280012
9.284                0.980011359      -118.49608
9.285                0.979968886     -118.712623
9.286                0.979926412     -118.929641
9.287                0.979883938     -119.147134
9.288                0.979841467     -119.365101
9.289                0.979798998     -119.583544
9.29                 0.979756533     -119.802462
9.291                0.979714073     -120.021855
9.292                0.979671621     -120.241723
9.293                0.979629176     -120.462066
9.294                 0.97958674     -120.682884
9.295                0.979544314     -120.904176
9.296                0.979501901     -121.125944
9.297                  0.9794595     -121.348186
9.298                0.979417114     -121.570903
9.299                0.979374744     -121.794094
9.3                  0.979332391      -122.01776
9.301                0.979290056       -122.2419
9.302                 0.97924774     -122.466514
9.303                0.979205446     -122.691603
9.304                0.979163175     -122.917164
9.305                0.979120927       -123.1432
9.306                0.979078705     -123.369708
9.307                 0.97903651      -123.59669
9.308                0.978994342     -123.824145
9.309                0.978952204     -124.052072
9.31                 0.978910098     -124.280471
9.311                0.978868023     -124.509342
9.312                0.978825983     -124.738685
9.313                0.978783978       -124.9685
9.314                 0.97874201     -125.198785
9.315                 0.97870008     -125.429541
9.316                0.978658191     -125.660767
9.317                0.978616342     -125.892463
9.318                0.978574537     -126.124629
9.319                0.978532776     -126.357263
9.32                 0.978491061     -126.590366
9.321                0.978449394     -126.823937
9.322                0.978407775     -127.057976
9.323                0.978366208     -127.292482
9.324                0.978324693     -127.527455
9.325                0.978283231     -127.762893
9.326                0.978241825     -127.998797
9.327                0.978200476     -128.235166
9.328                0.978159186        -128.472
9.329                0.978117956     -128.709297
9.33                 0.978076788     -128.947058
9.331                0.978035684      -129.18528
9.332                0.977994645     -129.423965
9.333                0.977953673     -129.663111
9.334                0.977912769     -129.902717
9.335                0.977871936     -130.142783
9.336                0.977831174     -130.383309
9.337                0.977790486     -130.624292
9.338                0.977749874     -130.865733
9.339                0.977709338     -131.107631
9.34                 0.977668882     -131.349984
9.341                0.977628505     -131.592793
9.342                0.977588212     -131.836056
9.343                0.977548002     -132.079772
9.344                0.977507877     -132.323941
9.345                 0.97746784     -132.568561
9.346                0.977427893     -132.813632
9.347                0.977388036     -133.059152
9.348                0.977348273     -133.305122
9.349                0.977308604     -133.551539
9.35                 0.977269031     -133.798403
9.351                0.977229556     -134.045712
9.352                0.977190182     -134.293467
9.353                0.977150909     -134.541665
9.354                 0.97711174     -134.790305
9.355                0.977072676     -135.039387
9.356                 0.97703372     -135.288909
9.357                0.976994872     -135.538871
9.358                0.976956136      -135.78927
9.359                0.976917513     -136.040106
9.36                 0.976879004     -136.291378
9.361                0.976840611     -136.543084
9.362                0.976802337     -136.795223
9.363                0.976764184     -137.047795
9.364                0.976726152     -137.300796
9.365                0.976688245     -137.554227
9.366                0.976650463     -137.808086
9.367                0.976612809     -138.062372
9.368                0.976575285     -138.317082
9.369                0.976537893     -138.572217
9.37                 0.976500634     -138.827773
9.371                 0.97646351     -139.083751
9.372                0.976426524     -139.340148
9.373                0.976389677     -139.596963
9.374                0.976352971     -139.854195
9.375                0.976316408     -140.111841
9.376                 0.97627999     -140.369901
9.377                0.976243718     -140.628373
9.378                0.976207596     -140.887255
9.379                0.976171625     -141.146546
9.38                 0.976135806     -141.406244
9.381                0.976100141     -141.666347
9.382                0.976064634     -141.926854
9.383                0.976029284     -142.187763
9.384                0.975994095     -142.449072
9.385                0.975959069     -142.710779
9.386                0.975924207     -142.972884
9.387                 0.97588951     -143.235383
9.388                0.975854982     -143.498275
9.389                0.975820625     -143.761559
9.39                 0.975786439     -144.025232
9.391                0.975752427     -144.289293
9.392                0.975718591      -144.55374
9.393                0.975684933      -144.81857
9.394                0.975651454     -145.083782
9.395                0.975618158     -145.349374
9.396                0.975585044     -145.615345
