! TOUCHSTONE file generated by CST DESIGN STUDIO
! Date and time: Tue Feb  4 18:24:23 2025
! Project name: C:\Work\MatlabApps\UnitCellOptimizationMatlab\CST\unitcell.cst
! Tree item: Tasks\Sweep1\SPara1\S-Parameters
! Header version: 2024
! Port assignment regex: !\s*Touchstone port\s*([0-9]+)\s*=\s*(CST MWS port|CST DES external port|CST DES block port)\s*(.+)\s* \(\"(.*)\"\)(\s*mode\s*([0-9]+))?.*
! Touchstone port assignment:
! Touchstone port 1 = CST DES external port 1 ("")
# GHz S MA R 50
9                    0.945810136     -60.3555635
9.001                0.945685594     -60.4397529
9.002                0.945560654     -60.5241426
9.003                0.945435316     -60.6087331
9.004                0.945309577     -60.6935252
9.005                0.945183436     -60.7785195
9.006                0.945056893     -60.8637166
9.007                0.944929945     -60.9491172
9.008                0.944802592      -61.034722
9.009                0.944674831     -61.1205317
9.01                 0.944546662     -61.2065468
9.011                0.944418083     -61.2927681
9.012                0.944289093     -61.3791962
9.013                 0.94415969     -61.4658319
9.014                0.944029873     -61.5526758
9.015                 0.94389964     -61.6397285
9.016                0.943768991     -61.7269909
9.017                0.943637924     -61.8144634
9.018                0.943506436     -61.9021469
9.019                0.943374528     -61.9900421
9.02                 0.943242197     -62.0781495
9.021                0.943109442       -62.16647
9.022                0.942976262     -62.2550042
9.023                0.942842655     -62.3437527
9.024                 0.94270862     -62.4327164
9.025                0.942574155      -62.521896
9.026                0.942439259      -62.611292
9.027                 0.94230393     -62.7009053
9.028                0.942168168     -62.7907366
9.029                 0.94203197     -62.8807865
9.03                 0.941895335     -62.9710558
9.031                0.941758262     -63.0615452
9.032                0.941620749     -63.1522554
9.033                0.941482794     -63.2431872
9.034                0.941344397     -63.3343413
9.035                0.941205556     -63.4257183
9.036                0.941066269     -63.5173192
9.037                0.940926535     -63.6091445
9.038                0.940786352      -63.701195
9.039                0.940645719     -63.7934715
9.04                 0.940504635     -63.8859748
9.041                0.940363097     -63.9787054
9.042                0.940221105     -64.0716643
9.043                0.940078657     -64.1648522
9.044                0.939935751     -64.2582697
9.045                0.939792386     -64.3519178
9.046                0.939648561      -64.445797
9.047                0.939504274     -64.5399083
9.048                0.939359523     -64.6342523
9.049                0.939214307     -64.7288298
9.05                 0.939068624     -64.8236417
9.051                0.938922474     -64.9186886
9.052                0.938775853     -65.0139714
9.053                0.938628762     -65.1094908
9.054                0.938481198     -65.2052476
9.055                 0.93833316     -65.3012426
9.056                0.938184646     -65.3974766
9.057                0.938035654     -65.4939504
9.058                0.937886184     -65.5906647
9.059                0.937736234     -65.6876205
9.06                 0.937585802     -65.7848183
9.061                0.937434887     -65.8822592
9.062                0.937283486     -65.9799438
9.063                0.937131599      -66.077873
9.064                0.936979225     -66.1760475
9.065                 0.93682636     -66.2744683
9.066                0.936673005     -66.3731361
9.067                0.936519156     -66.4720517
9.068                0.936364814      -66.571216
9.069                0.936209976     -66.6706297
9.07                  0.93605464     -66.7702938
9.071                0.935898806      -66.870209
9.072                0.935742471     -66.9703762
9.073                0.935585634     -67.0707961
9.074                0.935428294     -67.1714698
9.075                0.935270448     -67.2723979
9.076                0.935112096     -67.3735813
9.077                0.934953236     -67.4750209
9.078                0.934793865     -67.5767175
9.079                0.934633984      -67.678672
9.08                 0.934473589     -67.7808853
9.081                 0.93431268     -67.8833581
9.082                0.934151254     -67.9860914
9.083                0.933989311      -68.089086
9.084                0.933826848     -68.1923428
9.085                0.933663865     -68.2958627
9.086                0.933500359     -68.3996465
9.087                0.933336329     -68.5036951
9.088                0.933171774     -68.6080094
9.089                0.933006691     -68.7125903
9.09                  0.93284108     -68.8174386
9.091                0.932674938     -68.9225552
9.092                0.932508264     -69.0279411
9.093                0.932341057     -69.1335972
9.094                0.932173314     -69.2395242
9.095                0.932005035     -69.3457232
9.096                0.931836218      -69.452195
9.097                 0.93166686     -69.5589406
9.098                0.931496961     -69.6659608
9.099                0.931326519     -69.7732565
9.1                  0.931155533     -69.8808287
9.101                   0.930984     -69.9886784
9.102                0.930811919     -70.0968063
9.103                0.930639289     -70.2052134
9.104                0.930466108     -70.3139008
9.105                0.930292374     -70.4228692
9.106                0.930118086     -70.5321197
9.107                0.929943243     -70.6416531
9.108                0.929767842     -70.7514704
9.109                0.929591882     -70.8615726
9.11                 0.929415362     -70.9719605
9.111                0.929238279     -71.0826352
9.112                0.929060633     -71.1935976
9.113                0.928882422     -71.3048487
9.114                0.928703643     -71.4163893
9.115                0.928524297     -71.5282205
9.116                 0.92834438     -71.6403433
9.117                0.928163892     -71.7527585
9.118                 0.92798283     -71.8654672
9.119                0.927801194     -71.9784704
9.12                 0.927618982     -72.0917689
9.121                0.927436192     -72.2053639
9.122                0.927252822     -72.3192562
9.123                0.927068872     -72.4334469
9.124                0.926884338     -72.5479369
9.125                0.926699221     -72.6627273
9.126                0.926513518      -72.777819
9.127                0.926327228     -72.8932131
9.128                 0.92614035     -73.0089105
9.129                 0.92595288     -73.1249122
9.13                 0.925764819     -73.2412193
9.131                0.925576165     -73.3578327
9.132                0.925386916     -73.4747535
9.133                 0.92519707     -73.5919827
9.134                0.925006626     -73.7095213
9.135                0.924815583     -73.8273703
9.136                0.924623939     -73.9455307
9.137                0.924431692     -74.0640037
9.138                0.924238841     -74.1827901
9.139                0.924045384     -74.3018911
9.14                 0.923851321     -74.4213077
9.141                0.923656648     -74.5410409
9.142                0.923461366     -74.6610917
9.143                0.923265472     -74.7814613
9.144                0.923068965     -74.9021506
9.145                0.922871843     -75.0231608
9.146                0.922674105     -75.1444928
9.147                 0.92247575     -75.2661478
9.148                0.922276775     -75.3881267
9.149                0.922077181     -75.5104307
9.15                 0.921876964     -75.6330609
9.151                0.921676124     -75.7560182
9.152                0.921474659     -75.8793038
9.153                0.921272567     -76.0029188
9.154                0.921069848     -76.1268641
9.155                  0.9208665      -76.251141
9.156                0.920662521     -76.3757505
9.157                0.920457911     -76.5006937
9.158                0.920252667     -76.6259716
9.159                0.920046788     -76.7515854
9.16                 0.919840273     -76.8775362
9.161                 0.91963312     -77.0038251
9.162                0.919425329     -77.1304531
9.163                0.919216897     -77.2574214
9.164                0.919007823     -77.3847312
9.165                0.918798107     -77.5123834
9.166                0.918587746     -77.6403792
9.167                0.918376739     -77.7687198
9.168                0.918165086     -77.8974063
9.169                0.917952784     -78.0264397
9.17                 0.917739832     -78.1558212
9.171                 0.91752623      -78.285552
9.172                0.917311975     -78.4156332
9.173                0.917097067     -78.5460659
9.174                0.916881504     -78.6768512
9.175                0.916665284     -78.8079904
9.176                0.916448408     -78.9394844
9.177                0.916230873     -79.0713346
9.178                0.916012678      -79.203542
9.179                0.915793823     -79.3361078
9.18                 0.915574305     -79.4690331
9.181                0.915354123     -79.6023192
9.182                0.915133277     -79.7359671
9.183                0.914911766      -79.869978
9.184                0.914689587     -80.0043532
9.185                0.914466741     -80.1390937
9.186                0.914243225     -80.2742007
9.187                0.914019039     -80.4096755
9.188                0.913794182     -80.5455192
9.189                0.913568652     -80.6817329
9.19                 0.913342449     -80.8183179
9.191                0.913115571     -80.9552753
9.192                0.912888017     -81.0926064
9.193                0.912659787     -81.2303123
9.194                0.912430879     -81.3683942
9.195                0.912201292     -81.5068533
9.196                0.911971026     -81.6456908
9.197                0.911740079      -81.784908
9.198                 0.91150845     -81.9245059
9.199                0.911276139     -82.0644859
9.2                  0.911043144     -82.2048491
9.201                0.910809464     -82.3455968
9.202                  0.9105751     -82.4867301
9.203                0.910340049     -82.6282502
9.204                0.910104311     -82.7701585
9.205                0.909867885     -82.9124561
9.206                0.909630771     -83.0551442
9.207                0.909392967     -83.1982241
9.208                0.909154473     -83.3416969
9.209                0.908915287      -83.485564
9.21                  0.90867541     -83.6298265
9.211                 0.90843484     -83.7744857
9.212                0.908193578     -83.9195428
9.213                0.907951621     -84.0649991
9.214                0.907708969     -84.2108558
9.215                0.907465623     -84.3571141
9.216                 0.90722158     -84.5037753
9.217                0.906976841     -84.6508406
9.218                0.906731405     -84.7983113
9.219                0.906485271     -84.9461887
9.22                  0.90623844     -85.0944739
9.221                0.905990909     -85.2431683
9.222                 0.90574268     -85.3922731
9.223                 0.90549375     -85.5417895
9.224                0.905244121     -85.6917188
9.225                0.904993792     -85.8420624
9.226                0.904742761     -85.9928213
9.227                0.904491029      -86.143997
9.228                0.904238596     -86.2955906
9.229                0.903985461     -86.4476035
9.23                 0.903731623     -86.6000369
9.231                0.903477084     -86.7528921
9.232                0.903221841     -86.9061704
9.233                0.902965896      -87.059873
9.234                0.902709247     -87.2140012
9.235                0.902451896     -87.3685563
9.236                0.902193841     -87.5235395
9.237                0.901935082     -87.6789522
9.238                 0.90167562     -87.8347957
9.239                0.901415455     -87.9910711
9.24                 0.901154586     -88.1477799
9.241                0.900893013     -88.3049233
9.242                0.900630737     -88.4625025
9.243                0.900367758     -88.6205189
9.244                0.900104075     -88.7789737
9.245                0.899839689     -88.9378683
9.246                  0.8995746     -89.0972039
9.247                0.899308809     -89.2569818
9.248                0.899042314     -89.4172034
9.249                0.898775118     -89.5778698
9.25                  0.89850722     -89.7389825
9.251                 0.89823862     -89.9005426
9.252                0.897969319     -90.0625516
9.253                0.897699317     -90.2250106
9.254                0.897428615      -90.387921
9.255                0.897157214     -90.5512841
9.256                0.896885112     -90.7151012
9.257                0.896612313     -90.8793736
9.258                0.896338815     -91.0441025
9.259                0.896064619     -91.2092893
9.26                 0.895789727     -91.3749353
9.261                0.895514139     -91.5410418
9.262                0.895237855       -91.70761
9.263                0.894960877     -91.8746413
9.264                0.894683205     -92.0421369
9.265                 0.89440484     -92.2100983
9.266                0.894125784     -92.3785265
9.267                0.893846036     -92.5474231
9.268                0.893565599     -92.7167892
9.269                0.893284472     -92.8866261
9.27                 0.893002658     -93.0569352
9.271                0.892720158     -93.2277178
9.272                0.892436971     -93.3989751
9.273                0.892153101     -93.5707084
9.274                0.891868548     -93.7429191
9.275                0.891583312     -93.9156084
9.276                0.891297397     -94.0887776
9.277                0.891010803      -94.262428
9.278                0.890723531      -94.436561
9.279                0.890435584     -94.6111777
9.28                 0.890146962     -94.7862795
9.281                0.889857667     -94.9618676
9.282                0.889567701     -95.1379434
9.283                0.889277066     -95.3145081
9.284                0.888985763     -95.4915631
9.285                0.888693794     -95.6691095
9.286                0.888401162     -95.8471488
9.287                0.888107867      -96.025682
9.288                0.887813912     -96.2047106
9.289                0.887519299     -96.3842358
9.29                  0.88722403     -96.5642589
9.291                0.886928107     -96.7447811
9.292                0.886631532     -96.9258038
9.293                0.886334308     -97.1073281
9.294                0.886036436     -97.2893553
9.295                 0.88573792     -97.4718867
9.296                0.885438761     -97.6549236
9.297                0.885138962     -97.8384672
9.298                0.884838526     -98.0225187
9.299                0.884537455     -98.2070795
9.3                  0.884235751     -98.3921507
9.301                0.883933418     -98.5777336
9.302                0.883630458     -98.7638294
9.303                0.883326874     -98.9504394
9.304                0.883022669     -99.1375648
9.305                0.882717845     -99.3252069
9.306                0.882412407     -99.5133668
9.307                0.882106356     -99.7020458
9.308                0.881799697      -99.891245
9.309                0.881492431     -100.080966
9.31                 0.881184564     -100.271209
9.311                0.880876096     -100.461977
9.312                0.880567034     -100.653269
9.313                0.880257378     -100.845088
9.314                0.879947134     -101.037435
9.315                0.879636305      -101.23031
9.316                0.879324894     -101.423715
9.317                0.879012906     -101.617651
9.318                0.878700343     -101.812119
9.319                 0.87838721     -102.007121
9.32                 0.878073512     -102.202657
9.321                 0.87775925     -102.398729
9.322                0.877444431     -102.595338
9.323                0.877129058     -102.792485
9.324                0.876813135     -102.990171
9.325                0.876496667     -103.188397
9.326                0.876179658     -103.387165
9.327                0.875862112     -103.586475
9.328                0.875544034     -103.786329
9.329                0.875225429     -103.986728
9.33                 0.874906301     -104.187673
9.331                0.874586656     -104.389164
9.332                0.874266497     -104.591204
9.333                0.873945829     -104.793793
9.334                0.873624659     -104.996932
9.335                0.873302991     -105.200622
9.336                0.872980829     -105.404865
9.337                 0.87265818     -105.609661
9.338                0.872335048     -105.815011
9.339                 0.87201144     -106.020917
9.34                 0.871687359      -106.22738
9.341                0.871362813       -106.4344
9.342                0.871037807     -106.641978
9.343                0.870712346     -106.850116
9.344                0.870386436     -107.058815
9.345                0.870060083     -107.268075
9.346                0.869733293     -107.477898
9.347                0.869406073     -107.688284
9.348                0.869078428     -107.899234
9.349                0.868750364      -108.11075
9.35                 0.868421889     -108.322832
9.351                0.868093007     -108.535481
9.352                0.867763727     -108.748699
9.353                0.867434053     -108.962486
9.354                0.867103994     -109.176842
9.355                0.866773556      -109.39177
9.356                0.866442746     -109.607269
9.357                 0.86611157      -109.82334
9.358                0.865780036     -110.039986
9.359                0.865448151     -110.257205
9.36                 0.865115922        -110.475
9.361                0.864783356      -110.69337
9.362                0.864450462     -110.912317
9.363                0.864117245     -111.131842
9.364                0.863783715     -111.351945
9.365                0.863449878     -111.572628
9.366                0.863115743      -111.79389
9.367                0.862781317     -112.015732
9.368                0.862446608     -112.238157
9.369                0.862111624     -112.461163
9.37                 0.861776375     -112.684752
9.371                0.861440867     -112.908924
9.372                0.861105109     -113.133681
9.373                 0.86076911     -113.359022
9.374                0.860432878     -113.584949
9.375                0.860096422     -113.811462
9.376                 0.85975975     -114.038562
9.377                0.859422872     -114.266249
9.378                0.859085797     -114.494524
9.379                0.858748532     -114.723387
9.38                 0.858411089      -114.95284
9.381                0.858073475     -115.182882
9.382                0.857735701     -115.413514
9.383                0.857397775     -115.644737
9.384                0.857059707     -115.876551
9.385                0.856721508     -116.108957
9.386                0.856383186     -116.341955
9.387                0.856044751     -116.575546
9.388                0.855706214      -116.80973
9.389                0.855367584     -117.044507
9.39                 0.855028872     -117.279877
9.391                0.854690087     -117.515843
9.392                0.854351241     -117.752402
9.393                0.854012343     -117.989557
9.394                0.853673405     -118.227307
9.395                0.853334437     -118.465652
9.396                0.852995449     -118.704594
