! TOUCHSTONE file generated by CST DESIGN STUDIO
! Date and time: Tue Feb  4 18:24:21 2025
! Project name: C:\Work\MatlabApps\UnitCellOptimizationMatlab\CST\unitcell.cst
! Tree item: Tasks\Sweep1\SPara1\S-Parameters
! Header version: 2024
! Port assignment regex: !\s*Touchstone port\s*([0-9]+)\s*=\s*(CST MWS port|CST DES external port|CST DES block port)\s*(.+)\s* \(\"(.*)\"\)(\s*mode\s*([0-9]+))?.*
! Touchstone port assignment:
! Touchstone port 1 = CST DES external port 1 ("")
# GHz S MA R 50
9                    0.939911407     -65.7267612
9.001                0.939763715     -65.8234871
9.002                0.939615546     -65.9204544
9.003                0.939466897     -66.0176639
9.004                0.939317767     -66.1151162
9.005                0.939168154     -66.2128124
9.006                0.939018058      -66.310753
9.007                0.938867475      -66.408939
9.008                0.938716406     -66.5073712
9.009                0.938564847     -66.6060504
9.01                 0.938412798     -66.7049773
9.011                0.938260257     -66.8041529
9.012                0.938107223     -66.9035779
9.013                0.937953693     -67.0032532
9.014                0.937799667     -67.1031796
9.015                0.937645143     -67.2033579
9.016                0.937490119     -67.3037889
9.017                0.937334593     -67.4044736
9.018                0.937178565     -67.5054127
9.019                0.937022032     -67.6066071
9.02                 0.936864993     -67.7080576
9.021                0.936707446     -67.8097651
9.022                 0.93654939     -67.9117304
9.023                0.936390823     -68.0139545
9.024                0.936231744      -68.116438
9.025                 0.93607215     -68.2191819
9.026                0.935912042     -68.3221872
9.027                0.935751415     -68.4254545
9.028                0.935590271     -68.5289848
9.029                0.935428605     -68.6327791
9.03                 0.935266418      -68.736838
9.031                0.935103707     -68.8411626
9.032                0.934940471     -68.9457537
9.033                0.934776709     -69.0506122
9.034                0.934612418      -69.155739
9.035                0.934447597     -69.2611349
9.036                0.934282244     -69.3668009
9.037                0.934116358     -69.4727378
9.038                0.933949938     -69.5789466
9.039                0.933782981     -69.6854282
9.04                 0.933615486     -69.7921834
9.041                0.933447452     -69.8992132
9.042                0.933278877     -70.0065184
9.043                0.933109759     -70.1141001
9.044                0.932940096      -70.221959
9.045                0.932769888     -70.3300962
9.046                0.932599132     -70.4385126
9.047                0.932427826      -70.547209
9.048                0.932255971     -70.6561864
9.049                0.932083562     -70.7654458
9.05                   0.9319106      -70.874988
9.051                0.931737082     -70.9848141
9.052                0.931563008     -71.0949249
9.053                0.931388374     -71.2053214
9.054                 0.93121318     -71.3160045
9.055                0.931037424     -71.4269752
9.056                0.930861105     -71.5382345
9.057                 0.93068422     -71.6497833
9.058                0.930506769     -71.7616225
9.059                0.930328749     -71.8737532
9.06                 0.930150159     -71.9861762
9.061                0.929970998     -72.0988926
9.062                0.929791264     -72.2119033
9.063                0.929610956     -72.3252093
9.064                 0.92943007     -72.4388116
9.065                0.929248608     -72.5527112
9.066                0.929066565      -72.666909
9.067                0.928883942      -72.781406
9.068                0.928700736     -72.8962033
9.069                0.928516946     -73.0113017
9.07                  0.92833257     -73.1267024
9.071                0.928147607     -73.2424063
9.072                0.927962055     -73.3584143
9.073                0.927775912     -73.4747276
9.074                0.927589178     -73.5913471
9.075                 0.92740185     -73.7082738
9.076                0.927213927     -73.8255088
9.077                0.927025407      -73.943053
9.078                0.926836289     -74.0609076
9.079                0.926646571     -74.1790734
9.08                 0.926456252     -74.2975515
9.081                 0.92626533      -74.416343
9.082                0.926073804     -74.5354489
9.083                0.925881672     -74.6548703
9.084                0.925688932      -74.774608
9.085                0.925495584     -74.8946633
9.086                0.925301625     -75.0150372
9.087                0.925107054     -75.1357306
9.088                0.924911869     -75.2567447
9.089                0.924716069     -75.3780805
9.09                 0.924519653     -75.4997391
9.091                0.924322619     -75.6217215
9.092                0.924124966     -75.7440287
9.093                0.923926691     -75.8666619
9.094                0.923727794     -75.9896221
9.095                0.923528273     -76.1129104
9.096                0.923328127     -76.2365279
9.097                0.923127354     -76.3604756
9.098                0.922925952     -76.4847546
9.099                0.922723921     -76.6093661
9.1                  0.922521259      -76.734311
9.101                0.922317964     -76.8595905
9.102                0.922114035     -76.9852056
9.103                 0.92190947     -77.1111576
9.104                0.921704268     -77.2374474
9.105                0.921498429     -77.3640762
9.106                0.921291949      -77.491045
9.107                0.921084829      -77.618355
9.108                0.920877066     -77.7460073
9.109                0.920668659     -77.8740031
9.11                 0.920459607     -78.0023433
9.111                0.920249908     -78.1310292
9.112                0.920039562     -78.2600618
9.113                0.919828566     -78.3894423
9.114                0.919616919     -78.5191718
9.115                0.919404621     -78.6492515
9.116                 0.91919167     -78.7796824
9.117                0.918978063     -78.9104658
9.118                0.918763802     -79.0416027
9.119                0.918548883     -79.1730943
9.12                 0.918333305     -79.3049417
9.121                0.918117068     -79.4371461
9.122                0.917900171     -79.5697087
9.123                0.917682611     -79.7026305
9.124                0.917464387     -79.8359128
9.125                  0.9172455     -79.9695567
9.126                0.917025946     -80.1035634
9.127                0.916805725     -80.2379339
9.128                0.916584837     -80.3726696
9.129                0.916363279     -80.5077715
9.13                  0.91614105     -80.6432409
9.131                 0.91591815     -80.7790789
9.132                0.915694577     -80.9152866
9.133                0.915470331     -81.0518653
9.134                0.915245409     -81.1888162
9.135                0.915019811     -81.3261404
9.136                0.914793537     -81.4638391
9.137                0.914566584     -81.6019136
9.138                0.914338951     -81.7403649
9.139                0.914110639     -81.8791944
9.14                 0.913881645     -82.0184031
9.141                0.913651969     -82.1579923
9.142                 0.91342161     -82.2979633
9.143                0.913190567     -82.4383171
9.144                0.912958838     -82.5790551
9.145                0.912726423     -82.7201783
9.146                0.912493322     -82.8616881
9.147                0.912259532     -83.0035857
9.148                0.912025053     -83.1458722
9.149                0.911789885      -83.288549
9.15                 0.911554027     -83.4316171
9.151                0.911317476     -83.5750778
9.152                0.911080234     -83.7189324
9.153                0.910842299     -83.8631821
9.154                 0.91060367     -84.0078281
9.155                0.910364347     -84.1528717
9.156                0.910124328     -84.2983141
9.157                0.909883613     -84.4441564
9.158                0.909642202        -84.5904
9.159                0.909400094     -84.7370462
9.16                 0.909157287      -84.884096
9.161                0.908913782     -85.0315509
9.162                0.908669578      -85.179412
9.163                0.908424674     -85.3276806
9.164                0.908179069     -85.4763579
9.165                0.907932764     -85.6254452
9.166                0.907685757     -85.7749437
9.167                0.907438049     -85.9248548
9.168                0.907189638     -86.0751796
9.169                0.906940524     -86.2259194
9.17                 0.906690707     -86.3770755
9.171                0.906440186     -86.5286491
9.172                0.906188961     -86.6806415
9.173                0.905937032     -86.8330541
9.174                0.905684399     -86.9858879
9.175                 0.90543106     -87.1391444
9.176                0.905177016     -87.2928247
9.177                0.904922266     -87.4469302
9.178                0.904666811     -87.6014621
9.179                 0.90441065     -87.7564217
9.18                 0.904153783     -87.9118103
9.181                 0.90389621     -88.0676291
9.182                 0.90363793     -88.2238795
9.183                0.903378944     -88.3805627
9.184                0.903119252       -88.53768
9.185                0.902858853     -88.6952326
9.186                0.902597748      -88.853222
9.187                0.902335937     -89.0116492
9.188                0.902073419     -89.1705157
9.189                0.901810196     -89.3298227
9.19                 0.901546266     -89.4895715
9.191                 0.90128163     -89.6497634
9.192                0.901016289     -89.8103997
9.193                0.900750243     -89.9714816
9.194                0.900483491     -90.1330105
9.195                0.900216035     -90.2949877
9.196                0.899947874     -90.4574144
9.197                 0.89967901     -90.6202919
9.198                0.899409441     -90.7836215
9.199                 0.89913917     -90.9474045
9.2                  0.898868196     -91.1116423
9.201                 0.89859652     -91.2763361
9.202                0.898324142     -91.4414871
9.203                0.898051064     -91.6070967
9.204                0.897777285     -91.7731662
9.205                0.897502806     -91.9396969
9.206                0.897227629     -92.1066901
9.207                0.896951753      -92.274147
9.208                0.896675181     -92.4420689
9.209                0.896397911     -92.6104572
9.21                 0.896119946     -92.7793131
9.211                0.895841287      -92.948638
9.212                0.895561934     -93.1184331
9.213                0.895281888     -93.2886997
9.214                 0.89500115     -93.4594391
9.215                0.894719722     -93.6306526
9.216                0.894437604     -93.8023414
9.217                0.894154799      -93.974507
9.218                0.893871306     -94.1471505
9.219                0.893587128     -94.3202732
9.22                 0.893302265     -94.4938765
9.221                 0.89301672     -94.6679616
9.222                0.892730492     -94.8425298
9.223                0.892443585     -95.0175823
9.224                0.892155999     -95.1931206
9.225                0.891867736     -95.3691457
9.226                0.891578798     -95.5456591
9.227                0.891289186      -95.722662
9.228                0.890998902     -95.9001557
9.229                0.890707948     -96.0781414
9.23                 0.890416325     -96.2566204
9.231                0.890124036      -96.435594
9.232                0.889831082     -96.6150634
9.233                0.889537465       -96.79503
9.234                0.889243188     -96.9754949
9.235                0.888948252     -97.1564595
9.236                 0.88865266      -97.337925
9.237                0.888356414     -97.5198926
9.238                0.888059515     -97.7023637
9.239                0.887761967     -97.8853394
9.24                 0.887463772      -98.068821
9.241                0.887164932     -98.2528098
9.242                0.886865449     -98.4373069
9.243                0.886565326     -98.6223138
9.244                0.886264567     -98.8078314
9.245                0.885963172     -98.9938612
9.246                0.885661146     -99.1804043
9.247                0.885358491      -99.367462
9.248                0.885055209     -99.5550355
9.249                0.884751304     -99.7431259
9.25                 0.884446778     -99.9317346
9.251                0.884141636     -100.120863
9.252                0.883835879     -100.310511
9.253                 0.88352951     -100.500682
9.254                0.883222534     -100.691376
9.255                0.882914953     -100.882594
9.256                0.882606771     -101.074337
9.257                0.882297991     -101.266607
9.258                0.881988617     -101.459404
9.259                0.881678652     -101.652731
9.26                   0.8813681     -101.846588
9.261                0.881056964     -102.040976
9.262                0.880745249     -102.235897
9.263                0.880432957     -102.431351
9.264                0.880120094      -102.62734
9.265                0.879806662     -102.823865
9.266                0.879492667     -103.020926
9.267                0.879178112     -103.218527
9.268                0.878863001     -103.416666
9.269                0.878547338     -103.615346
9.27                 0.878231129     -103.814567
9.271                0.877914377     -104.014331
9.272                0.877597087     -104.214639
9.273                0.877279263     -104.415492
9.274                 0.87696091     -104.616891
9.275                0.876642033     -104.818836
9.276                0.876322636      -105.02133
9.277                0.876002725     -105.224373
9.278                0.875682304     -105.427966
9.279                0.875361379     -105.632111
9.28                 0.875039954     -105.836808
9.281                0.874718035     -106.042058
9.282                0.874395627     -106.247863
9.283                0.874072735     -106.454223
9.284                0.873749365     -106.661139
9.285                0.873425523     -106.868613
9.286                0.873101213     -107.076645
9.287                0.872776442     -107.285237
9.288                0.872451215     -107.494389
9.289                0.872125538     -107.704103
9.29                 0.871799417     -107.914379
9.291                0.871472859     -108.125218
9.292                0.871145869     -108.336621
9.293                0.870818453      -108.54859
9.294                0.870490618     -108.761124
9.295                 0.87016237     -108.974226
9.296                0.869833716     -109.187896
9.297                0.869504662     -109.402134
9.298                0.869175215     -109.616942
9.299                0.868845381      -109.83232
9.3                  0.868515167      -110.04827
9.301                0.868184581     -110.264792
9.302                0.867853629     -110.481888
9.303                0.867522318     -110.699557
9.304                0.867190655     -110.917801
9.305                0.866858649      -111.13662
9.306                0.866526305     -111.356016
9.307                0.866193632     -111.575988
9.308                0.865860637     -111.796539
9.309                0.865527328     -112.017668
9.31                 0.865193713     -112.239377
9.311                0.864859798     -112.461666
9.312                0.864525593     -112.684535
9.313                0.864191106     -112.907986
9.314                0.863856344     -113.132019
9.315                0.863521315     -113.356635
9.316                0.863186028     -113.581835
9.317                0.862850492     -113.807619
9.318                0.862514715     -114.033987
9.319                0.862178705     -114.260941
9.32                 0.861842471     -114.488481
9.321                0.861506022     -114.716608
9.322                0.861169367     -114.945321
9.323                0.860832515     -115.174623
9.324                0.860495475     -115.404513
9.325                0.860158256     -115.634991
9.326                0.859820868     -115.866059
9.327                0.859483319     -116.097717
9.328                 0.85914562     -116.329965
9.329                 0.85880778     -116.562804
9.33                 0.858469808     -116.796234
9.331                0.858131715     -117.030255
9.332                 0.85779351     -117.264869
9.333                0.857455203     -117.500075
9.334                0.857116805     -117.735874
9.335                0.856778325     -117.972266
9.336                0.856439774     -118.209252
9.337                0.856101163     -118.446831
9.338                0.855762501     -118.685005
9.339                  0.8554238     -118.923773
9.34                  0.85508507     -119.163135
9.341                0.854746322     -119.403093
9.342                0.854407566     -119.643646
9.343                0.854068814     -119.884794
9.344                0.853730078     -120.126538
9.345                0.853391367     -120.368877
9.346                0.853052694     -120.611813
9.347                0.852714069     -120.855344
9.348                0.852375505     -121.099472
9.349                0.852037013     -121.344195
9.35                 0.851698605     -121.589515
9.351                0.851360291     -121.835432
9.352                0.851022086     -122.081944
9.353                   0.850684     -122.329053
9.354                0.850346045     -122.576759
9.355                0.850008234      -122.82506
9.356                0.849670579     -123.073958
9.357                0.849333092     -123.323452
9.358                0.848995786     -123.573542
9.359                0.848658674     -123.824228
9.36                 0.848321768      -124.07551
9.361                0.847985081     -124.327387
9.362                0.847648626      -124.57986
9.363                0.847312416     -124.832927
9.364                0.846976464      -125.08659
9.365                0.846640783     -125.340847
9.366                0.846305386     -125.595698
9.367                0.845970288     -125.851144
9.368                  0.8456355     -126.107183
9.369                0.845301038     -126.363815
9.37                 0.844966914      -126.62104
9.371                0.844633142     -126.878858
9.372                0.844299737     -127.137267
9.373                0.843966712     -127.396268
9.374                0.843634081      -127.65586
9.375                0.843301858     -127.916043
9.376                0.842970057     -128.176815
9.377                0.842638693     -128.438177
9.378                0.842307781     -128.700127
9.379                0.841977333     -128.962665
9.38                 0.841647366     -129.225791
9.381                0.841317894     -129.489503
9.382                0.840988932     -129.753801
9.383                0.840660493     -130.018685
9.384                0.840332594     -130.284153
9.385                0.840005249     -130.550204
9.386                0.839678473     -130.816838
9.387                0.839352282     -131.084055
9.388                0.839026691     -131.351852
9.389                0.838701714     -131.620229
9.39                 0.838377367     -131.889185
9.391                0.838053667      -132.15872
9.392                0.837730627     -132.428831
9.393                0.837408264     -132.699519
9.394                0.837086594     -132.970782
9.395                0.836765632     -133.242618
9.396                0.836445395     -133.515027
