! TOUCHSTONE file generated by CST DESIGN STUDIO
! Date and time: Tue Feb  4 18:24:15 2025
! Project name: C:\Work\MatlabApps\UnitCellOptimizationMatlab\CST\unitcell.cst
! Tree item: Tasks\Sweep1\SPara1\S-Parameters
! Header version: 2024
! Port assignment regex: !\s*Touchstone port\s*([0-9]+)\s*=\s*(CST MWS port|CST DES external port|CST DES block port)\s*(.+)\s* \(\"(.*)\"\)(\s*mode\s*([0-9]+))?.*
! Touchstone port assignment:
! Touchstone port 1 = CST DES external port 1 ("")
# GHz S MA R 50
9                    0.913385199      -90.233613
9.001                0.913134208     -90.3967092
9.002                0.912882505     -90.5602639
9.003                0.912630089     -90.7242785
9.004                 0.91237696     -90.8887543
9.005                0.912123118     -91.0536927
9.006                0.911868563      -91.219095
9.007                0.911613296     -91.3849625
9.008                0.911357316     -91.5512965
9.009                0.911100623     -91.7180985
9.01                 0.910843219     -91.8853697
9.011                0.910585102     -92.0531115
9.012                0.910326275     -92.2213252
9.013                0.910066735     -92.3900122
9.014                0.909806485     -92.5591738
9.015                0.909545525     -92.7288113
9.016                0.909283854     -92.8989261
9.017                0.909021474     -93.0695195
9.018                0.908758385     -93.2405929
9.019                0.908494587     -93.4121475
9.02                 0.908230081     -93.5841848
9.021                0.907964868      -93.756706
9.022                0.907698949     -93.9297125
9.023                0.907432324     -94.1032056
9.024                0.907164993     -94.2771867
9.025                0.906896959     -94.4516571
9.026                0.906628221     -94.6266181
9.027                 0.90635878      -94.802071
9.028                0.906088638     -94.9780172
9.029                0.905817795     -95.1544581
9.03                 0.905546253     -95.3313949
9.031                0.905274012     -95.5088289
9.032                0.905001074     -95.6867615
9.033                 0.90472744      -95.865194
9.034                0.904453111     -96.0441278
9.035                0.904178088     -96.2235641
9.036                0.903902373     -96.4035043
9.037                0.903625966     -96.5839496
9.038                 0.90334887     -96.7649014
9.039                0.903071086      -96.946361
9.04                 0.902792615     -97.1283298
9.041                 0.90251346     -97.3108089
9.042                 0.90223362     -97.4937998
9.043                0.901953099     -97.6773037
9.044                0.901671898     -97.8613219
9.045                0.901390019     -98.0458557
9.046                0.901107463     -98.2309065
9.047                0.900824233     -98.4164754
9.048                 0.90054033     -98.6025638
9.049                0.900255756      -98.789173
9.05                 0.899970514     -98.9763043
9.051                0.899684606     -99.1639588
9.052                0.899398033      -99.352138
9.053                0.899110798     -99.5408431
9.054                0.898822904     -99.7300753
9.055                0.898534352     -99.9198359
9.056                0.898245145     -100.110126
9.057                0.897955285     -100.300947
9.058                0.897664776     -100.492301
9.059                0.897373619     -100.684187
9.06                 0.897081817     -100.876609
9.061                0.896789373     -101.069566
9.062                 0.89649629     -101.263061
9.063                0.896202571     -101.457093
9.064                0.895908218     -101.651666
9.065                0.895613235     -101.846779
9.066                0.895317624     -102.042434
9.067                0.895021389     -102.238633
9.068                0.894724532     -102.435376
9.069                0.894427058     -102.632664
9.07                 0.894128968       -102.8305
9.071                0.893830268     -103.028883
9.072                 0.89353096     -103.227816
9.073                0.893231047     -103.427298
9.074                0.892930534     -103.627333
9.075                0.892629424      -103.82792
9.076                 0.89232772     -104.029061
9.077                0.892025427     -104.230757
9.078                0.891722549     -104.433009
9.079                0.891419088     -104.635819
9.08                  0.89111505     -104.839186
9.081                0.890810439     -105.043114
9.082                0.890505258     -105.247602
9.083                0.890199512     -105.452652
9.084                0.889893206     -105.658264
9.085                0.889586343     -105.864441
9.086                0.889278928     -106.071182
9.087                0.888970966      -106.27849
9.088                0.888662461     -106.486365
9.089                0.888353418     -106.694808
9.09                 0.888043842      -106.90382
9.091                0.887733738     -107.113403
9.092                0.887423111     -107.323557
9.093                0.887111965     -107.534283
9.094                0.886800307     -107.745583
9.095                0.886488141     -107.957457
9.096                0.886175472     -108.169907
9.097                0.885862306     -108.382933
9.098                0.885548648     -108.596536
9.099                0.885234504     -108.810717
9.1                   0.88491988     -109.025478
9.101                0.884604781     -109.240819
9.102                0.884289213     -109.456741
9.103                0.883973182     -109.673246
9.104                0.883656694     -109.890333
9.105                0.883339755     -110.108004
9.106                0.883022372      -110.32626
9.107                 0.88270455     -110.545101
9.108                0.882386295      -110.76453
9.109                0.882067615     -110.984545
9.11                 0.881748516     -111.205149
9.111                0.881429004     -111.426341
9.112                0.881109087     -111.648124
9.113                 0.88078877     -111.870497
9.114                0.880468061     -112.093462
9.115                0.880146968     -112.317019
9.116                0.879825496     -112.541169
9.117                0.879503653     -112.765912
9.118                0.879181447      -112.99125
9.119                0.878858884     -113.217184
9.12                 0.878535973     -113.443713
9.121                0.878212721     -113.670839
9.122                0.877889135     -113.898562
9.123                0.877565224     -114.126884
9.124                0.877240995     -114.355804
9.125                0.876916456     -114.585323
9.126                0.876591615     -114.815442
9.127                 0.87626648     -115.046161
9.128                 0.87594106     -115.277482
9.129                0.875615363     -115.509404
9.13                 0.875289397     -115.741929
9.131                0.874963171     -115.975056
9.132                0.874636694     -116.208787
9.133                0.874309975     -116.443121
9.134                0.873983021      -116.67806
9.135                0.873655843     -116.913603
9.136                0.873328448     -117.149752
9.137                0.873000848     -117.386507
9.138                 0.87267305     -117.623867
9.139                0.872345063     -117.861834
9.14                 0.872016899     -118.100408
9.141                0.871688565     -118.339589
9.142                0.871360072     -118.579378
9.143                 0.87103143     -118.819774
9.144                0.870702648     -119.060779
9.145                0.870373736     -119.302392
9.146                0.870044705     -119.544615
9.147                0.869715564     -119.787446
9.148                0.869386324     -120.030886
9.149                0.869056996     -120.274936
9.15                 0.868727589     -120.519596
9.151                0.868398115     -120.764866
9.152                0.868068583     -121.010745
9.153                0.867739006     -121.257235
9.154                0.867409393     -121.504335
9.155                0.867079756     -121.752045
9.156                0.866750106     -122.000365
9.157                0.866420455     -122.249296
9.158                0.866090812     -122.498838
9.159                0.865761191      -122.74899
9.16                 0.865431602     -122.999752
9.161                0.865102057     -123.251124
9.162                0.864772567     -123.503107
9.163                0.864443146       -123.7557
9.164                0.864113803     -124.008903
9.165                0.863784553     -124.262716
9.166                0.863455406     -124.517139
9.167                0.863126375     -124.772171
9.168                0.862797472     -125.027812
9.169                 0.86246871     -125.284063
9.17                 0.862140101     -125.540922
9.171                0.861811658      -125.79839
9.172                0.861483394     -126.056466
9.173                0.861155321      -126.31515
9.174                0.860827453     -126.574441
9.175                0.860499802      -126.83434
9.176                0.860172382     -127.094845
9.177                0.859845205     -127.355956
9.178                0.859518286     -127.617673
9.179                0.859191637     -127.879994
9.18                 0.858865272     -128.142921
9.181                0.858539205     -128.406452
9.182                 0.85821345     -128.670586
9.183                0.857888019     -128.935323
9.184                0.857562928     -129.200662
9.185                 0.85723819     -129.466603
9.186                0.856913819     -129.733144
9.187                0.856589829     -130.000286
9.188                0.856266235     -130.268027
9.189                0.855943051     -130.536366
9.19                 0.855620291     -130.805304
9.191                 0.85529797     -131.074838
9.192                0.854976103     -131.344968
9.193                0.854654703     -131.615692
9.194                0.854333787     -131.887012
9.195                0.854013369     -132.158924
9.196                0.853693463     -132.431428
9.197                0.853374085     -132.704523
9.198                0.853055251     -132.978209
9.199                0.852736974     -133.252483
9.2                   0.85241927     -133.527345
9.201                0.852102156     -133.802794
9.202                0.851785645     -134.078828
9.203                0.851469754     -134.355446
9.204                0.851154499     -134.632647
9.205                0.850839894     -134.910429
9.206                0.850525955     -135.188792
9.207                0.850212699     -135.467734
9.208                0.849900141     -135.747253
9.209                0.849588297     -136.027349
9.21                 0.849277184     -136.308018
9.211                0.848966816     -136.589261
9.212                 0.84865721     -136.871076
9.213                0.848348383     -137.153461
9.214                0.848040351     -137.436414
9.215                0.847733129     -137.719933
9.216                0.847426734     -138.004018
9.217                0.847121183     -138.288666
9.218                0.846816493     -138.573876
9.219                0.846512678     -138.859646
9.22                 0.846209757     -139.145974
9.221                0.845907745     -139.432858
9.222                 0.84560666     -139.720296
9.223                0.845306518     -140.008287
9.224                0.845007335     -140.296828
9.225                0.844709129     -140.585918
9.226                0.844411917     -140.875554
9.227                0.844115714     -141.165734
9.228                0.843820539     -141.456457
9.229                0.843526407      -141.74772
9.23                 0.843233337     -142.039521
9.231                0.842941344     -142.331857
9.232                0.842650446     -142.624727
9.233                 0.84236066     -142.918129
9.234                0.842072003     -143.212059
9.235                0.841784492     -143.506516
9.236                0.841498144     -143.801497
9.237                0.841212977     -144.096999
9.238                0.840929006     -144.393021
9.239                 0.84064625      -144.68956
9.24                 0.840364726     -144.986613
9.241                0.840084451     -145.284177
9.242                0.839805441     -145.582251
9.243                0.839527714     -145.880831
9.244                0.839251288     -146.179914
9.245                0.838976179     -146.479499
9.246                0.838702405     -146.779582
9.247                0.838429982      -147.08016
9.248                0.838158928      -147.38123
9.249                 0.83788926     -147.682791
9.25                 0.837620995     -147.984838
9.251                0.837354151     -148.287368
9.252                0.837088743      -148.59038
9.253                 0.83682479     -148.893869
9.254                0.836562308     -149.197833
9.255                0.836301315     -149.502269
9.256                0.836041826     -149.807173
9.257                 0.83578386     -150.112542
9.258                0.835527434     -150.418374
9.259                0.835272563     -150.724664
9.26                 0.835019265      -151.03141
9.261                0.834767557     -151.338607
9.262                0.834517455     -151.646254
9.263                0.834268977     -151.954346
9.264                0.834022138      -152.26288
9.265                0.833776956     -152.571853
9.266                0.833533446     -152.881261
9.267                0.833291626       -153.1911
9.268                0.833051512     -153.501367
9.269                 0.83281312     -153.812058
9.27                 0.832576467     -154.123169
9.271                0.832341569     -154.434698
9.272                0.832108441      -154.74664
9.273                0.831877101     -155.058991
9.274                0.831647563     -155.371748
9.275                0.831419845     -155.684906
9.276                0.831193961     -155.998463
9.277                0.830969928     -156.312413
9.278                0.830747761     -156.626754
9.279                0.830527476     -156.941481
9.28                 0.830309088     -157.256589
9.281                0.830092613     -157.572076
9.282                0.829878067     -157.887937
9.283                0.829665463     -158.204167
9.284                0.829454818     -158.520764
9.285                0.829246146     -158.837721
9.286                0.829039462     -159.155036
9.287                0.828834781     -159.472705
9.288                0.828632118     -159.790722
9.289                0.828431487     -160.109083
9.29                 0.828232902     -160.427785
9.291                0.828036379     -160.746822
9.292                 0.82784193     -161.066191
9.293                 0.82764957     -161.385887
9.294                0.827459313     -161.705905
9.295                0.827271173     -162.026241
9.296                0.827085164     -162.346891
9.297                0.826901298     -162.667849
9.298                0.826719589     -162.989112
9.299                0.826540051     -163.310675
9.3                  0.826362696     -163.632533
9.301                0.826187537     -163.954681
9.302                0.826014588     -164.277115
9.303                 0.82584386     -164.599829
9.304                0.825675367     -164.922821
9.305                0.825509119     -165.246083
9.306                0.825345131     -165.569612
9.307                0.825183413     -165.893403
9.308                0.825023978     -166.217451
9.309                0.824866836     -166.541751
9.31                    0.824712     -166.866298
9.311                 0.82455948     -167.191088
9.312                0.824409289     -167.516114
9.313                0.824261436     -167.841373
9.314                0.824115933     -168.166859
9.315                 0.82397279     -168.492568
9.316                0.823832017     -168.818493
9.317                0.823693625     -169.144631
9.318                0.823557624     -169.470976
9.319                0.823424023     -169.797523
9.32                 0.823292833     -170.124267
9.321                0.823164062     -170.451202
9.322                 0.82303772     -170.778323
9.323                0.822913815     -171.105626
9.324                0.822792358     -171.433105
9.325                0.822673356     -171.760755
9.326                0.822556818     -172.088571
9.327                0.822442751     -172.416547
9.328                0.822331165     -172.744677
9.329                0.822222067     -173.072958
9.33                 0.822115464     -173.401383
9.331                0.822011364     -173.729947
9.332                0.821909774     -174.058645
9.333                0.821810701     -174.387471
9.334                0.821714152     -174.716421
9.335                0.821620134     -175.045487
9.336                0.821528652     -175.374667
9.337                0.821439713     -175.703953
9.338                0.821353322      -176.03334
9.339                0.821269486     -176.362824
9.34                 0.821188209     -176.692398
9.341                0.821109497     -177.022057
9.342                0.821033355     -177.351796
9.343                0.820959788     -177.681609
9.344                  0.8208888      -178.01149
9.345                0.820820396     -178.341435
9.346                0.820754579     -178.671438
9.347                0.820691353     -179.001493
9.348                0.820630723     -179.331595
9.349                0.820572691     -179.661738
9.35                  0.82051726     -179.991916
9.351                0.820464434      179.677875
9.352                0.820414215      179.347641
9.353                0.820366605      179.017388
9.354                0.820321608      178.687122
9.355                0.820279224      178.356847
9.356                0.820239456       178.02657
9.357                0.820202304      177.696296
9.358                0.820167771       177.36603
9.359                0.820135857      177.035778
9.36                 0.820106564      176.705546
9.361                0.820079891      176.375339
9.362                0.820055839      176.045162
9.363                0.820034409      175.715021
9.364                0.820015599      175.384922
9.365                 0.81999941       175.05487
9.366                0.819985841      174.724871
9.367                0.819974892      174.394929
9.368                 0.81996656      174.065052
9.369                0.819960845      173.735243
9.37                 0.819957746      173.405509
9.371                 0.81995726      173.075854
9.372                0.819959386      172.746286
9.373                0.819964121      172.416808
9.374                0.819971462      172.087427
9.375                0.819981408      171.758147
9.376                0.819993955      171.428975
9.377                  0.8200091      171.099916
9.378                 0.82002684      170.770974
9.379                0.820047171      170.442156
9.38                 0.820070089      170.113467
9.381                 0.82009559      169.784912
9.382                 0.82012367      169.456497
9.383                0.820154324      169.128226
9.384                0.820187548      168.800106
9.385                0.820223337      168.472142
9.386                0.820261685      168.144338
9.387                0.820302587        167.8167
9.388                0.820346038      167.489234
9.389                0.820392031      167.161944
9.39                 0.820440561      166.834836
9.391                0.820491622      166.507916
9.392                0.820545206      166.181187
9.393                0.820601308      165.854656
9.394                 0.82065992      165.528328
9.395                0.820721036      165.202207
9.396                0.820784647      164.876299
