! TOUCHSTONE file generated by CST DESIGN STUDIO
! Date and time: Tue Feb  4 18:21:06 2025
! Project name: C:\Work\MatlabApps\UnitCellOptimizationMatlab\CST\unitcell.cst
! Tree item: Tasks\Sweep1\SPara1\S-Parameters
! Header version: 2024
! Port assignment regex: !\s*Touchstone port\s*([0-9]+)\s*=\s*(CST MWS port|CST DES external port|CST DES block port)\s*(.+)\s* \(\"(.*)\"\)(\s*mode\s*([0-9]+))?.*
! Touchstone port assignment:
! Touchstone port 1 = CST DES external port 1 ("")
# GHz S MA R 50
9                    0.620330045     -158.782128
9.001                0.619713357     -159.232786
9.002                 0.61910375     -159.684549
9.003                0.618501309     -160.137405
9.004                0.617906119     -160.591344
9.005                0.617318266     -161.046354
9.006                0.616737835     -161.502424
9.007                0.616164909     -161.959541
9.008                0.615599573     -162.417694
9.009                0.615041908     -162.876869
9.01                 0.614491998     -163.337055
9.011                0.613949923     -163.798239
9.012                0.613415764     -164.260408
9.013                0.612889601     -164.723548
9.014                0.612371515     -165.187646
9.015                0.611861582     -165.652688
9.016                0.611359881      -166.11866
9.017                0.610866488     -166.585548
9.018                 0.61038148     -167.053338
9.019                0.609904931     -167.522014
9.02                 0.609436916     -167.991563
9.021                0.608977507     -168.461969
9.022                0.608526776     -168.933217
9.023                0.608084795     -169.405291
9.024                0.607651633     -169.878176
9.025                 0.60722736     -170.351856
9.026                0.606812043     -170.826314
9.027                0.606405748     -171.301535
9.028                0.606008542     -171.777502
9.029                0.605620488     -172.254198
9.03                  0.60524165     -172.731607
9.031                0.604872089     -173.209711
9.032                0.604511866     -173.688493
9.033                 0.60416104     -174.167935
9.034                 0.60381967     -174.648021
9.035                0.603487811     -175.128732
9.036                 0.60316552      -175.61005
9.037                0.602852849     -176.091958
9.038                0.602549852     -176.574436
9.039                0.602256579     -177.057467
9.04                  0.60197308     -177.541032
9.041                0.601699404     -178.025112
9.042                0.601435596     -178.509689
9.043                0.601181702     -178.994743
9.044                0.600937766     -179.480255
9.045                0.600703829     -179.966206
9.046                0.600479932      179.547424
9.047                0.600266114      179.060653
9.048                0.600062413      178.573502
9.049                0.599868863       178.08599
9.05                   0.5996855      177.598138
9.051                0.599512354      177.109964
9.052                0.599349458       176.62149
9.053                 0.59919684      176.132734
9.054                0.599054528      175.643718
9.055                0.598922547      175.154462
9.056                0.598800922      174.664986
9.057                0.598689674      174.175309
9.058                0.598588824      173.685454
9.059                0.598498392       173.19544
9.06                 0.598418393      172.705287
9.061                0.598348845      172.215017
9.062                0.598289759      171.724649
9.063                0.598241148      171.234205
9.064                0.598203023      170.743705
9.065                 0.59817539       170.25317
9.066                0.598158258       169.76262
9.067                0.598151631      169.272076
9.068                0.598155511      168.781559
9.069                  0.5981699      168.291089
9.07                 0.598194798      167.800687
9.071                0.598230202      167.310373
9.072                0.598276108      166.820168
9.073                 0.59833251      166.330093
9.074                0.598399401      165.840167
9.075                0.598476772      165.350412
9.076                 0.59856461      164.860847
9.077                0.598662904      164.371493
9.078                0.598771638      163.882371
9.079                0.598890797      163.393499
9.08                 0.599020362      162.904899
9.081                0.599160314       162.41659
9.082                0.599310631      161.928592
9.083                0.599471289      161.440924
9.084                0.599642264      160.953608
9.085                0.599823529      160.466661
9.086                0.600015057      159.980104
9.087                0.600216816      159.493955
9.088                0.600428776      159.008234
9.089                0.600650904      158.522961
9.09                 0.600883164      158.038153
9.091                 0.60112552      157.553829
9.092                0.601377934      157.070009
9.093                0.601640366       156.58671
9.094                0.601912776      156.103952
9.095                 0.60219512      155.621751
9.096                0.602487355      155.140126
9.097                0.602789434      154.659095
9.098                0.603101311      154.178676
9.099                0.603422937      153.698885
9.1                  0.603754261      153.219741
9.101                0.604095233      152.741259
9.102                0.604445798      152.263458
9.103                0.604805903      151.786353
9.104                0.605175492      151.309962
9.105                0.605554508        150.8343
9.106                0.605942892      150.359383
9.107                0.606340584      149.885228
9.108                0.606747524      149.411849
9.109                0.607163649      148.939263
9.11                 0.607588895      148.467485
9.111                0.608023198       147.99653
9.112                0.608466491      147.526412
9.113                0.608918708      147.057146
9.114                 0.60937978      146.588746
9.115                0.609849637      146.121226
9.116                0.610328209      145.654601
9.117                0.610815424      145.188884
9.118                0.611311209      144.724089
9.119                0.611815491      144.260228
9.12                 0.612328194      143.797314
9.121                0.612849243      143.335361
9.122                0.613378561       142.87438
9.123                 0.61391607      142.414385
9.124                0.614461692      141.955386
9.125                0.615015346      141.497396
9.126                0.615576953      141.040427
9.127                 0.61614643      140.584489
9.128                0.616723697      140.129594
9.129                0.617308669      139.675753
9.13                 0.617901264      139.222976
9.131                0.618501396      138.771274
9.132                0.619108982      138.320656
9.133                0.619723933      137.871133
9.134                0.620346165      137.422714
9.135                 0.62097559      136.975409
9.136                0.621612121      136.529227
9.137                0.622255668      136.084177
9.138                0.622906143      135.640267
9.139                0.623563456      135.197507
9.14                 0.624227518      134.755905
9.141                0.624898237      134.315468
9.142                0.625575524      133.876205
9.143                0.626259286      133.438123
9.144                0.626949432      133.001229
9.145                0.627645869      132.565532
9.146                0.628348505      132.131037
9.147                0.629057248      131.697752
9.148                0.629772003      131.265683
9.149                0.630492678      130.834837
9.15                 0.631219179      130.405219
9.151                0.631951412      129.976836
9.152                0.632689283      129.549694
9.153                0.633432697      129.123797
9.154                 0.63418156      128.699152
9.155                0.634935778      128.275764
9.156                0.635695256      127.853637
9.157                  0.6364599      127.432777
9.158                0.637229613      127.013187
9.159                0.638004303      126.594873
9.16                 0.638783874      126.177839
9.161                0.639568231      125.762088
9.162                0.640357279      125.347625
9.163                0.641150925      124.934453
9.164                0.641949074      124.522576
9.165                 0.64275163      124.111997
9.166                0.643558501      123.702719
9.167                0.644369592      123.294746
9.168                 0.64518481       122.88808
9.169                 0.64600406      122.482725
9.17                  0.64682725      122.078681
9.171                0.647654287      121.675953
9.172                0.648485078      121.274542
9.173                 0.64931953      120.874451
9.174                0.650157551       120.47568
9.175                 0.65099905      120.078233
9.176                0.651843935      119.682111
9.177                0.652692116      119.287315
9.178                0.653543502      118.893847
9.179                0.654398004      118.501708
9.18                  0.65525553      118.110899
9.181                0.656115993      117.721421
9.182                0.656979304      117.333275
9.183                0.657845374      116.946462
9.184                0.658714117      116.560982
9.185                0.659585445      116.176836
9.186                0.660459271      115.794025
9.187                0.661335511      115.412548
9.188                0.662214079      115.032406
9.189                 0.66309489      114.653598
9.19                  0.66397786      114.276125
9.191                0.664862907      113.899987
9.192                0.665749947      113.525183
9.193                0.666638899      113.151713
9.194                 0.66752968      112.779576
9.195                0.668422212      112.408772
9.196                0.669316413        112.0393
9.197                0.670212205      111.671159
9.198                 0.67110951      111.304349
9.199                0.672008249      110.938868
9.2                  0.672908346      110.574715
9.201                0.673809724       110.21189
9.202                0.674712309       109.85039
9.203                0.675616026      109.490215
9.204                0.676520801      109.131364
9.205                0.677426561      108.773834
9.206                0.678333233      108.417624
9.207                0.679240747      108.062732
9.208                0.680149032      107.709158
9.209                0.681058018      107.356898
9.21                 0.681967636      107.005951
9.211                0.682877818      106.656316
9.212                0.683788497      106.307989
9.213                0.684699607      105.960969
9.214                0.685611081      105.615254
9.215                0.686522855      105.270841
9.216                0.687434866      104.927729
9.217                0.688347049      104.585914
9.218                0.689259344      104.245395
9.219                0.690171687      103.906168
9.22                  0.69108402      103.568232
9.221                0.691996282      103.231584
9.222                0.692908414       102.89622
9.223                0.693820359      102.562139
9.224                0.694732059      102.229337
9.225                0.695643457      101.897812
9.226                  0.6965545       101.56756
9.227                0.697465131      101.238579
9.228                0.698375296      100.910866
9.229                0.699284944      100.584418
9.23                 0.700194022      100.259231
9.231                0.701102478      99.9353025
9.232                0.702010262      99.6126293
9.233                0.702917325       99.291208
9.234                0.703823617      98.9710355
9.235                 0.70472909      98.6521083
9.236                0.705633698      98.3344232
9.237                0.706537394      98.0179766
9.238                0.707440131      97.7027651
9.239                0.708341866      97.3887853
9.24                 0.709242554      97.0760337
9.241                0.710142152      96.7645065
9.242                0.711040618      96.4542004
9.243                0.711937909      96.1451115
9.244                0.712833985      95.8372364
9.245                0.713728805      95.5305712
9.246                0.714622331      95.2251122
9.247                0.715514522      94.9208557
9.248                0.716405343      94.6177979
9.249                0.717294754       94.315935
9.25                  0.71818272      94.0152631
9.251                0.719069204      93.7157783
9.252                0.719954173      93.4174768
9.253                0.720837591      93.1203547
9.254                0.721719424      92.8244079
9.255                0.722599641      92.5296325
9.256                0.723478207      92.2360246
9.257                0.724355093        91.94358
9.258                0.725230266      91.6522949
9.259                0.726103697       91.362165
9.26                 0.726975356      91.0731864
9.261                0.727845214       90.785355
9.262                0.728713242      90.4986666
9.263                0.729579414      90.2131171
9.264                0.730443701      89.9287024
9.265                0.731306078      89.6454184
9.266                0.732166518      89.3632608
9.267                0.733024997      89.0822254
9.268                 0.73388149      88.8023082
9.269                0.734735972      88.5235048
9.27                  0.73558842       88.245811
9.271                0.736438812      87.9692226
9.272                0.737287125      87.6937355
9.273                0.738133337      87.4193452
9.274                0.738977427      87.1460476
9.275                0.739819375      86.8738383
9.276                 0.74065916      86.6027132
9.277                0.741496762      86.3326679
9.278                0.742332164      86.0636981
9.279                0.743165345      85.7957995
9.28                 0.743996289      85.5289679
9.281                0.744824977      85.2631989
9.282                0.745651393      84.9984883
9.283                 0.74647552      84.7348316
9.284                0.747297342      84.4722246
9.285                0.748116844       84.210663
9.286                 0.74893401      83.9501424
9.287                0.749748826      83.6906585
9.288                0.750561277       83.432207
9.289                 0.75137135      83.1747836
9.29                 0.752179031       82.918384
9.291                0.752984309      82.6630037
9.292                0.753787169      82.4086386
9.293                0.754587601      82.1552842
9.294                0.755385592      81.9029363
9.295                0.756181132      81.6515905
9.296                0.756974209      81.4012425
9.297                0.757764814       81.151888
9.298                0.758552936      80.9035228
9.299                0.759338566      80.6561424
9.3                  0.760121695      80.4097426
9.301                0.760902313       80.164319
9.302                0.761680412      79.9198675
9.303                0.762455984      79.6763837
9.304                0.763229022      79.4338633
9.305                0.763999518       79.192302
9.306                0.764767464      78.9516956
9.307                0.765532855      78.7120399
9.308                0.766295683      78.4733305
9.309                0.767055943      78.2355632
9.31                 0.767813629      77.9987338
9.311                0.768568735       77.762838
9.312                0.769321257      77.5278717
9.313                0.770071189      77.2938305
9.314                0.770818527      77.0607104
9.315                0.771563267       76.828507
9.316                0.772305404      76.5972162
9.317                0.773044936      76.3668338
9.318                0.773781858      76.1373557
9.319                0.774516169      75.9087777
9.32                 0.775247864      75.6810956
9.321                0.775976941      75.4543053
9.322                0.776703399      75.2284026
9.323                0.777427234      75.0033835
9.324                0.778148445      74.7792438
9.325                0.778867032      74.5559795
9.326                0.779582991      74.3335864
9.327                0.780296322      74.1120605
9.328                0.781007025      73.8913977
9.329                0.781715099       73.671594
9.33                 0.782420543      73.4526453
9.331                0.783123358      73.2345476
9.332                0.783823542      73.0172969
9.333                0.784521097      72.8008891
9.334                0.785216023      72.5853204
9.335                0.785908321      72.3705867
9.336                0.786597991       72.156684
9.337                0.787285035      71.9436084
9.338                0.787969454       71.731356
9.339                0.788651249      71.5199228
9.34                 0.789330422       71.309305
9.341                0.790006974      71.0994985
9.342                0.790680909      70.8904997
9.343                0.791352227      70.6823045
9.344                0.792020931      70.4749091
9.345                0.792687024      70.2683098
9.346                0.793350509      70.0625026
9.347                0.794011387      69.8574837
9.348                0.794669663      69.6532493
9.349                0.795325339      69.4497958
9.35                 0.795978418      69.2471192
9.351                0.796628904      69.0452158
9.352                0.797276801      68.8440819
9.353                0.797922112      68.6437138
9.354                0.798564841      68.4441078
9.355                0.799204992      68.2452601
9.356                0.799842569       68.047167
9.357                0.800477576       67.849825
9.358                0.801110018      67.6532303
9.359                0.801739899      67.4573793
9.36                 0.802367224      67.2622683
9.361                0.802991997      67.0678939
9.362                0.803614224      66.8742523
9.363                0.804233909      66.6813401
9.364                0.804851057      66.4891535
9.365                0.805465673      66.2976892
9.366                0.806077763      66.1069435
9.367                0.806687332       65.916913
9.368                0.807294385       65.727594
9.369                0.807898929      65.5389833
9.37                 0.808500968      65.3510772
9.371                0.809100508      65.1638723
9.372                0.809697555      64.9773652
9.373                0.810292116      64.7915524
9.374                0.810884195      64.6064305
9.375                  0.8114738      64.4219962
9.376                0.812060935       64.238246
9.377                0.812645609      64.0551767
9.378                0.813227826      63.8727847
9.379                0.813807593      63.6910669
9.38                 0.814384917      63.5100198
9.381                0.814959804      63.3296402
9.382                 0.81553226      63.1499247
9.383                0.816102293      62.9708702
9.384                0.816669909      62.7924733
9.385                0.817235114      62.6147309
9.386                0.817797917      62.4376396
9.387                0.818358323      62.2611962
9.388                0.818916339      62.0853976
9.389                0.819471972      61.9102406
9.39                 0.820025231      61.7357219
9.391                 0.82057612      61.5618386
9.392                0.821124649      61.3885873
9.393                0.821670823       61.215965
9.394                0.822214651      61.0439686
9.395                0.822756139      60.8725949
9.396                0.823295295       60.701841
