! TOUCHSTONE file generated by CST DESIGN STUDIO
! Date and time: Tue Feb  4 18:21:20 2025
! Project name: C:\Work\MatlabApps\UnitCellOptimizationMatlab\CST\unitcell.cst
! Tree item: Tasks\Sweep1\SPara1\S-Parameters
! Header version: 2024
! Port assignment regex: !\s*Touchstone port\s*([0-9]+)\s*=\s*(CST MWS port|CST DES external port|CST DES block port)\s*(.+)\s* \(\"(.*)\"\)(\s*mode\s*([0-9]+))?.*
! Touchstone port assignment:
! Touchstone port 1 = CST DES external port 1 ("")
# GHz S MA R 50
9                    0.963519289     -48.4227764
9.001                0.963424152     -48.4850438
9.002                0.963328707     -48.5474463
9.003                0.963232953     -48.6099843
9.004                0.963136888     -48.6726583
9.005                0.963040511     -48.7354687
9.006                0.962943821     -48.7984159
9.007                0.962846818     -48.8615004
9.008                0.962749499     -48.9247228
9.009                0.962651863     -48.9880833
9.01                  0.96255391     -49.0515825
9.011                0.962455637     -49.1152208
9.012                0.962357045     -49.1789988
9.013                0.962258131     -49.2429167
9.014                0.962158894     -49.3069752
9.015                0.962059333     -49.3711747
9.016                0.961959447     -49.4355156
9.017                0.961859235     -49.4999985
9.018                0.961758695     -49.5646237
9.019                0.961657825     -49.6293918
9.02                 0.961556626     -49.6943032
9.021                0.961455095     -49.7593584
9.022                 0.96135323     -49.8245579
9.023                0.961251032     -49.8899022
9.024                0.961148498     -49.9553917
9.025                0.961045628      -50.021027
9.026                0.960942419     -50.0868085
9.027                0.960838871     -50.1527367
9.028                0.960734982     -50.2188121
9.029                 0.96063075     -50.2850352
9.03                 0.960526176     -50.3514065
9.031                0.960421256     -50.4179264
9.032                0.960315991     -50.4845956
9.033                0.960210377     -50.5514144
9.034                0.960104415     -50.6183834
9.035                0.959998103     -50.6855031
9.036                0.959891439     -50.7527739
9.037                0.959784422     -50.8201965
9.038                0.959677051     -50.8877713
9.039                0.959569323     -50.9554988
9.04                 0.959461239     -51.0233796
9.041                0.959352796     -51.0914141
9.042                0.959243993     -51.1596029
9.043                0.959134828     -51.2279465
9.044                  0.9590253     -51.2964454
9.045                0.958915409     -51.3651001
9.046                0.958805151     -51.4339113
9.047                0.958694526     -51.5028793
9.048                0.958583532     -51.5720047
9.049                0.958472169     -51.6412881
9.05                 0.958360433     -51.7107301
9.051                0.958248325      -51.780331
9.052                0.958135842     -51.8500916
9.053                0.958022983     -51.9200122
9.054                0.957909746     -51.9900936
9.055                0.957796131     -52.0603361
9.056                0.957682135     -52.1307404
9.057                0.957567756     -52.2013071
9.058                0.957452995     -52.2720366
9.059                0.957337848     -52.3429295
9.06                 0.957222314     -52.4139864
9.061                0.957106392     -52.4852079
9.062                 0.95699008     -52.5565945
9.063                0.956873378     -52.6281467
9.064                0.956756282     -52.6998652
9.065                0.956638792     -52.7717505
9.066                0.956520905     -52.8438032
9.067                0.956402622     -52.9160239
9.068                0.956283939     -52.9884131
9.069                0.956164855     -53.0609714
9.07                 0.956045369     -53.1336994
9.071                0.955925478     -53.2065977
9.072                0.955805183     -53.2796669
9.073                0.955684479     -53.3529075
9.074                0.955563368     -53.4263202
9.075                0.955441845     -53.4999055
9.076                 0.95531991     -53.5736641
9.077                0.955197562     -53.6475965
9.078                0.955074798     -53.7217033
9.079                0.954951617     -53.7959852
9.08                 0.954828017     -53.8704428
9.081                0.954703997     -53.9450766
9.082                0.954579554     -54.0198873
9.083                0.954454687     -54.0948755
9.084                0.954329395     -54.1700418
9.085                0.954203676     -54.2453868
9.086                0.954077527     -54.3209111
9.087                0.953950948     -54.3966154
9.088                0.953823936     -54.4725003
9.089                 0.95369649     -54.5485665
9.09                 0.953568608     -54.6248145
9.091                0.953440288      -54.701245
9.092                0.953311528     -54.7778586
9.093                0.953182327      -54.854656
9.094                0.953052684     -54.9316378
9.095                0.952922595     -55.0088047
9.096                0.952792059     -55.0861573
9.097                0.952661076     -55.1636962
9.098                0.952529641     -55.2414222
9.099                0.952397755     -55.3193358
9.1                  0.952265415     -55.3974377
9.101                0.952132619     -55.4757287
9.102                0.951999365     -55.5542093
9.103                0.951865652     -55.6328802
9.104                0.951731478     -55.7117421
9.105                 0.95159684     -55.7907956
9.106                0.951461737     -55.8700415
9.107                0.951326167     -55.9494804
9.108                0.951190129      -56.029113
9.109                0.951053619       -56.10894
9.11                 0.950916637     -56.1889621
9.111                0.950779181     -56.2691799
9.112                0.950641248     -56.3495942
9.113                0.950502836     -56.4302056
9.114                0.950363944     -56.5110149
9.115                 0.95022457     -56.5920227
9.116                0.950084711     -56.6732297
9.117                0.949944367     -56.7546368
9.118                0.949803534     -56.8362444
9.119                 0.94966221     -56.9180535
9.12                 0.949520395     -57.0000647
9.121                0.949378085     -57.0822787
9.122                 0.94923528     -57.1646962
9.123                0.949091976      -57.247318
9.124                0.948948172     -57.3301448
9.125                0.948803865     -57.4131773
9.126                0.948659054     -57.4964162
9.127                0.948513737     -57.5798624
9.128                0.948367912     -57.6635165
9.129                0.948221576     -57.7473793
9.13                 0.948074727     -57.8314515
9.131                0.947927364     -57.9157339
9.132                0.947779484     -58.0002272
9.133                0.947631086     -58.0849322
9.134                0.947482166     -58.1698496
9.135                0.947332723     -58.2549802
9.136                0.947182756     -58.3403248
9.137                0.947032261     -58.4258842
9.138                0.946881236     -58.5116591
9.139                 0.94672968     -58.5976502
9.14                  0.94657759     -58.6838584
9.141                0.946424965     -58.7702845
9.142                0.946271801     -58.8569292
9.143                0.946118097     -58.9437933
9.144                0.945963851     -59.0308777
9.145                0.945809059      -59.118183
9.146                0.945653722     -59.2057102
9.147                0.945497835     -59.2934599
9.148                0.945341396     -59.3814331
9.149                0.945184404     -59.4696305
9.15                 0.945026857     -59.5580529
9.151                0.944868751     -59.6467012
9.152                0.944710085     -59.7355761
9.153                0.944550857     -59.8246785
9.154                0.944391063     -59.9140093
9.155                0.944230703     -60.0035691
9.156                0.944069773      -60.093359
9.157                0.943908271     -60.1833796
9.158                0.943746195     -60.2736319
9.159                0.943583543     -60.3641167
9.16                 0.943420312     -60.4548349
9.161                  0.9432565     -60.5457872
9.162                0.943092105     -60.6369746
9.163                0.942927124     -60.7283978
9.164                0.942761555     -60.8200578
9.165                0.942595395     -60.9119555
9.166                0.942428643     -61.0040916
9.167                0.942261295     -61.0964671
9.168                 0.94209335     -61.1890828
9.169                0.941924804     -61.2819396
9.17                 0.941755656     -61.3750385
9.171                0.941585903     -61.4683802
9.172                0.941415543     -61.5619656
9.173                0.941244573     -61.6557958
9.174                 0.94107299     -61.7498715
9.175                0.940900793     -61.8441937
9.176                0.940727979     -61.9387632
9.177                0.940554545      -62.033581
9.178                0.940380488      -62.128648
9.179                0.940205807     -62.2239651
9.18                 0.940030499     -62.3195332
9.181                0.939854562     -62.4153532
9.182                0.939677992     -62.5114262
9.183                0.939500787     -62.6077529
9.184                0.939322945     -62.7043344
9.185                0.939144463     -62.8011715
9.186                0.938965338     -62.8982653
9.187                0.938785569     -62.9956166
9.188                0.938605152     -63.0932264
9.189                0.938424085     -63.1910958
9.19                 0.938242365     -63.2892255
9.191                 0.93805999     -63.3876166
9.192                0.937876957     -63.4862701
9.193                0.937693264     -63.5851869
9.194                0.937508907     -63.6843681
9.195                0.937323884     -63.7838145
9.196                0.937138193     -63.8835271
9.197                0.936951831      -63.983507
9.198                0.936764794     -64.0837552
9.199                0.936577082     -64.1842726
9.2                   0.93638869     -64.2850602
9.201                0.936199616      -64.386119
9.202                0.936009858     -64.4874501
9.203                0.935819413     -64.5890545
9.204                0.935628278     -64.6909331
9.205                 0.93543645      -64.793087
9.206                0.935243926     -64.8955172
9.207                0.935050705     -64.9982248
9.208                0.934856782     -65.1012107
9.209                0.934662156     -65.2044761
9.21                 0.934466823     -65.3080218
9.211                0.934270782     -65.4118491
9.212                0.934074028     -65.5159589
9.213                 0.93387656     -65.6203523
9.214                0.933678374     -65.7250304
9.215                0.933479467     -65.8299942
9.216                0.933279838     -65.9352447
9.217                0.933079482     -66.0407832
9.218                0.932878398     -66.1466105
9.219                0.932676582     -66.2527278
9.22                 0.932474032     -66.3591363
9.221                0.932270744     -66.4658369
9.222                0.932066716     -66.5728308
9.223                0.931861945      -66.680119
9.224                0.931656428     -66.7877027
9.225                0.931450163      -66.895583
9.226                0.931243145      -67.003761
9.227                0.931035373     -67.1122377
9.228                0.930826844     -67.2210144
9.229                0.930617554     -67.3300921
9.23                 0.930407501      -67.439472
9.231                0.930196681     -67.5491552
9.232                0.929985093     -67.6591428
9.233                0.929772732     -67.7694361
9.234                0.929559596      -67.880036
9.235                0.929345683     -67.9909438
9.236                0.929130988     -68.1021607
9.237                0.928915509     -68.2136877
9.238                0.928699244     -68.3255261
9.239                0.928482189     -68.4376771
9.24                 0.928264341     -68.5501417
9.241                0.928045697     -68.6629213
9.242                0.927826254     -68.7760169
9.243                0.927606009     -68.8894297
9.244                 0.92738496      -69.003161
9.245                0.927163102     -69.1172119
9.246                0.926940434     -69.2315837
9.247                0.926716952     -69.3462776
9.248                0.926492653     -69.4612947
9.249                0.926267534     -69.5766363
9.25                 0.926041592     -69.6923036
9.251                0.925814824     -69.8082978
9.252                0.925587227     -69.9246202
9.253                0.925358798      -70.041272
9.254                0.925129533     -70.1582544
9.255                 0.92489943     -70.2755687
9.256                0.924668486     -70.3932161
9.257                0.924436698      -70.511198
9.258                0.924204062     -70.6295155
9.259                0.923970575     -70.7481699
9.26                 0.923736235     -70.8671624
9.261                0.923501038     -70.9864945
9.262                0.923264981     -71.1061673
9.263                0.923028061     -71.2261821
9.264                0.922790274     -71.3465402
9.265                0.922551619     -71.4672429
9.266                0.922312092     -71.5882916
9.267                0.922071689     -71.7096874
9.268                0.921830407     -71.8314318
9.269                0.921588244      -71.953526
9.27                 0.921345196     -72.0759714
9.271                 0.92110126     -72.1987692
9.272                0.920856433     -72.3219209
9.273                0.920610712     -72.4454277
9.274                0.920364094     -72.5692909
9.275                0.920116575      -72.693512
9.276                0.919868153     -72.8180923
9.277                0.919618824     -72.9430331
9.278                0.919368585     -73.0683359
9.279                0.919117433     -73.1940018
9.28                 0.918865365     -73.3200324
9.281                0.918612378      -73.446429
9.282                0.918358468      -73.573193
9.283                0.918103633     -73.7003257
9.284                0.917847869     -73.8278286
9.285                0.917591173     -73.9557031
9.286                0.917333542     -74.0839505
9.287                0.917074974     -74.2125722
9.288                0.916815463     -74.3415698
9.289                0.916555009     -74.4709445
9.29                 0.916293607     -74.6006978
9.291                0.916031254     -74.7308312
9.292                0.915767947      -74.861346
9.293                0.915503683     -74.9922437
9.294                 0.91523846     -75.1235257
9.295                0.914972273     -75.2551936
9.296                0.914705119     -75.3872487
9.297                0.914436996     -75.5196924
9.298                0.914167901     -75.6525264
9.299                0.913897829     -75.7857519
9.3                  0.913626779     -75.9193706
9.301                0.913354747     -76.0533838
9.302                 0.91308173     -76.1877931
9.303                0.912807725        -76.3226
9.304                0.912532728     -76.4578058
9.305                0.912256737     -76.5934123
9.306                0.911979748     -76.7294207
9.307                0.911701759     -76.8658327
9.308                0.911422766     -77.0026498
9.309                0.911142767     -77.1398734
9.31                 0.910861758     -77.2775052
9.311                0.910579736     -77.4155466
9.312                0.910296698     -77.5539992
9.313                0.910012641     -77.6928645
9.314                0.909727562      -77.832144
9.315                0.909441458     -77.9718393
9.316                0.909154326      -78.111952
9.317                0.908866163     -78.2524837
9.318                0.908576966     -78.3934358
9.319                0.908286731     -78.5348099
9.32                 0.907995457     -78.6766077
9.321                 0.90770314     -78.8188308
9.322                0.907409777     -78.9614806
9.323                0.907115365     -79.1045588
9.324                0.906819901     -79.2480669
9.325                0.906523382     -79.3920067
9.326                0.906225806     -79.5363797
9.327                0.905927169     -79.6811875
9.328                0.905627468     -79.8264317
9.329                0.905326701     -79.9721139
9.33                 0.905024865     -80.1182358
9.331                0.904721956      -80.264799
9.332                0.904417973     -80.4118051
9.333                0.904112912     -80.5592558
9.334                 0.90380677     -80.7071528
9.335                0.903499545     -80.8554976
9.336                0.903191234      -81.004292
9.337                0.902881834     -81.1535375
9.338                0.902571342     -81.3032359
9.339                0.902259756     -81.4533888
9.34                 0.901947072      -81.603998
9.341                0.901633289      -81.755065
9.342                0.901318404     -81.9065916
9.343                0.901002413     -82.0585795
9.344                0.900685315     -82.2110303
9.345                0.900367106     -82.3639458
9.346                0.900047785     -82.5173276
9.347                0.899727348     -82.6711775
9.348                0.899405793     -82.8254972
9.349                0.899083117     -82.9802885
9.35                 0.898759319     -83.1355529
9.351                0.898434395     -83.2912923
9.352                0.898108342     -83.4475084
9.353                 0.89778116     -83.6042029
9.354                0.897452845     -83.7613777
9.355                0.897123394     -83.9190343
9.356                0.896792806     -84.0771746
9.357                0.896461079     -84.2358003
9.358                0.896128209     -84.3949132
9.359                0.895794195     -84.5545151
9.36                 0.895459034     -84.7146076
9.361                0.895122724     -84.8751927
9.362                0.894785264      -85.036272
9.363                 0.89444665     -85.1978474
9.364                0.894106881     -85.3599207
9.365                0.893765955     -85.5224935
9.366                0.893423869     -85.6855678
9.367                0.893080622     -85.8491453
9.368                0.892736212     -86.0132279
9.369                0.892390637     -86.1778173
9.37                 0.892043894     -86.3429153
9.371                0.891695982     -86.5085238
9.372                0.891346899     -86.6746445
9.373                0.890996644     -86.8412794
9.374                0.890645214     -87.0084301
9.375                0.890292608     -87.1760987
9.376                0.889938824     -87.3442868
9.377                0.889583861     -87.5129964
9.378                0.889227716     -87.6822292
9.379                0.888870389     -87.8519871
9.38                 0.888511878      -88.022272
9.381                0.888152181     -88.1930857
9.382                0.887791298     -88.3644301
9.383                0.887429226     -88.5363071
9.384                0.887065964     -88.7087184
9.385                0.886701511     -88.8816659
9.386                0.886335866     -89.0551516
9.387                0.885969027     -89.2291773
9.388                0.885600994     -89.4037449
9.389                0.885231765     -89.5788562
9.39                  0.88486134     -89.7545131
9.391                0.884489717     -89.9307175
9.392                0.884116895     -90.1074714
9.393                0.883742874     -90.2847765
9.394                0.883367652     -90.4626348
9.395                 0.88299123     -90.6410482
9.396                0.882613605     -90.8200185
