! TOUCHSTONE file generated by CST DESIGN STUDIO
! Date and time: Tue Feb  4 12:32:10 2025
! Project name: C:\Work\MatlabApps\UnitCellOptimizationMatlab\CST\unitcell.cst
! Tree item: Tasks\Sweep1\SPara1\S-Parameters
! Header version: 2024
! Port assignment regex: !\s*Touchstone port\s*([0-9]+)\s*=\s*(CST MWS port|CST DES external port|CST DES block port)\s*(.+)\s* \(\"(.*)\"\)(\s*mode\s*([0-9]+))?.*
! Touchstone port assignment:
! Touchstone port 1 = CST DES external port 1 ("")
# GHz S MA R 50
9                    0.989614805     -75.0855969
9.001                0.989590431     -75.1969105
9.002                0.989565985     -75.3084927
9.003                0.989541465     -75.4203444
9.004                0.989516873     -75.5324663
9.005                0.989492208     -75.6448592
9.006                0.989467469     -75.7575239
9.007                0.989442657     -75.8704612
9.008                0.989417771      -75.983672
9.009                0.989392812     -76.0971569
9.01                 0.989367778     -76.2109169
9.011                 0.98934267     -76.3249526
9.012                0.989317488      -76.439265
9.013                0.989292232     -76.5538548
9.014                0.989266901     -76.6687228
9.015                0.989241495     -76.7838698
9.016                0.989216014     -76.8992967
9.017                0.989190458     -77.0150043
9.018                0.989164827     -77.1309933
9.019                0.989139121     -77.2472646
9.02                 0.989113338     -77.3638191
9.021                0.989087481     -77.4806575
9.022                0.989061547     -77.5977806
9.023                0.989035537     -77.7151893
9.024                0.989009451     -77.8328844
9.025                0.988983289     -77.9508668
9.026                 0.98895705     -78.0691372
9.027                0.988930735     -78.1876965
9.028                0.988904343     -78.3065456
9.029                0.988877874     -78.4256852
9.03                 0.988851327     -78.5451162
9.031                0.988824704     -78.6648395
9.032                0.988798003     -78.7848558
9.033                0.988771225      -78.905166
9.034                0.988744369      -79.025771
9.035                0.988717435     -79.1466716
9.036                0.988690423     -79.2678687
9.037                0.988663333     -79.3893631
9.038                0.988636165     -79.5111556
9.039                0.988608919     -79.6332471
9.04                 0.988581594     -79.7556385
9.041                 0.98855419     -79.8783306
9.042                0.988526708     -80.0013243
9.043                0.988499147     -80.1246203
9.044                0.988471506     -80.2482197
9.045                0.988443787     -80.3721232
9.046                0.988415988     -80.4963317
9.047                 0.98838811     -80.6208461
9.048                0.988360152     -80.7456673
9.049                0.988332114      -80.870796
9.05                 0.988303997     -80.9962332
9.051                0.988275799     -81.1219797
9.052                0.988247522     -81.2480365
9.053                0.988219164     -81.3744044
9.054                0.988190726     -81.5010842
9.055                0.988162208     -81.6280768
9.056                0.988133609     -81.7553832
9.057                0.988104929     -81.8830041
9.058                0.988076168     -82.0109405
9.059                0.988047327     -82.1391933
9.06                 0.988018405     -82.2677633
9.061                0.987989401     -82.3966514
9.062                0.987960316     -82.5258586
9.063                 0.98793115     -82.6553856
9.064                0.987901903     -82.7852334
9.065                0.987872573     -82.9154029
9.066                0.987843163     -83.0458949
9.067                 0.98781367     -83.1767104
9.068                0.987784095     -83.3078502
9.069                0.987754439     -83.4393153
9.07                 0.987724701     -83.5711065
9.071                 0.98769488     -83.7032247
9.072                0.987664977     -83.8356708
9.073                0.987634992     -83.9684458
9.074                0.987604924     -84.1015505
9.075                0.987574774     -84.2349858
9.076                0.987544541     -84.3687526
9.077                0.987514226     -84.5028519
9.078                0.987483828     -84.6372845
9.079                0.987453347     -84.7720513
9.08                 0.987422783     -84.9071533
9.081                0.987392136     -85.0425913
9.082                0.987361406     -85.1783663
9.083                0.987330593     -85.3144792
9.084                0.987299696     -85.4509308
9.085                0.987268717     -85.5877221
9.086                0.987237654      -85.724854
9.087                0.987206507     -85.8623274
9.088                0.987175278     -86.0001432
9.089                0.987143965     -86.1383024
9.09                 0.987112568     -86.2768058
9.091                0.987081087     -86.4156544
9.092                0.987049523      -86.554849
9.093                0.987017875     -86.6943907
9.094                0.986986144     -86.8342802
9.095                0.986954329     -86.9745186
9.096                 0.98692243     -87.1151067
9.097                0.986890447     -87.2560455
9.098                 0.98685838     -87.3973359
9.099                0.986826229     -87.5389787
9.1                  0.986793994      -87.680975
9.101                0.986761675     -87.8233256
9.102                0.986729272     -87.9660315
9.103                0.986696786     -88.1090936
9.104                0.986664215     -88.2525128
9.105                 0.98663156       -88.39629
9.106                0.986598821     -88.5404261
9.107                0.986565998     -88.6849221
9.108                0.986533091      -88.829779
9.109                  0.9865001     -88.9749975
9.11                 0.986467024     -89.1205786
9.111                0.986433865     -89.2665234
9.112                0.986400622     -89.4128326
9.113                0.986367294     -89.5595072
9.114                0.986333883     -89.7065481
9.115                0.986300387     -89.8539563
9.116                0.986266808     -90.0017327
9.117                0.986233144     -90.1498781
9.118                0.986199397     -90.2983936
9.119                0.986165565       -90.44728
9.12                  0.98613165     -90.5965383
9.121                0.986097651     -90.7461694
9.122                0.986063568     -90.8961742
9.123                0.986029401     -91.0465536
9.124                0.985995151     -91.1973085
9.125                0.985960817     -91.3484399
9.126                0.985926399     -91.4999487
9.127                0.985891898     -91.6518359
9.128                0.985857313     -91.8041022
9.129                0.985822645     -91.9567487
9.13                 0.985787894     -92.1097762
9.131                0.985753059     -92.2631858
9.132                0.985718141     -92.4169782
9.133                 0.98568314     -92.5711544
9.134                0.985648056     -92.7257154
9.135                 0.98561289      -92.880662
9.136                 0.98557764     -93.0359951
9.137                0.985542308     -93.1917158
9.138                0.985506893     -93.3478248
9.139                0.985471395      -93.504323
9.14                 0.985435815     -93.6612115
9.141                0.985400153     -93.8184911
9.142                0.985364409     -93.9761627
9.143                0.985328583     -94.1342272
9.144                0.985292674     -94.2926855
9.145                0.985256685     -94.4515386
9.146                0.985220613     -94.6107872
9.147                 0.98518446     -94.7704324
9.148                0.985148226      -94.930475
9.149                0.985111911      -95.090916
9.15                 0.985075514     -95.2517561
9.151                0.985039037     -95.4129964
9.152                0.985002479     -95.5746376
9.153                0.984965841     -95.7366808
9.154                0.984929122     -95.8991267
9.155                0.984892324     -96.0619763
9.156                0.984855445     -96.2252304
9.157                0.984818487       -96.38889
9.158                0.984781449     -96.5529559
9.159                0.984744332     -96.7174289
9.16                 0.984707136     -96.8823101
9.161                0.984669861     -97.0476002
9.162                0.984632507     -97.2133001
9.163                0.984595075     -97.3794106
9.164                0.984557565     -97.5459328
9.165                0.984519977     -97.7128673
9.166                0.984482311     -97.8802152
9.167                0.984444567     -98.0479771
9.168                0.984406747     -98.2161541
9.169                 0.98436885     -98.3847469
9.17                 0.984330876     -98.5537564
9.171                0.984292825     -98.7231835
9.172                0.984254699      -98.893029
9.173                0.984216497     -99.0632937
9.174                0.984178219     -99.2339784
9.175                0.984139866     -99.4050841
9.176                0.984101438     -99.5766116
9.177                0.984062936     -99.7485616
9.178                0.984024359      -99.920935
9.179                0.983985709     -100.093733
9.18                 0.983946984     -100.266955
9.181                0.983908187     -100.440604
9.182                0.983869317     -100.614679
9.183                0.983830374     -100.789182
9.184                0.983791359     -100.964113
9.185                0.983752272     -101.139473
9.186                0.983713114     -101.315263
9.187                0.983673885     -101.491484
9.188                0.983634584     -101.668136
9.189                0.983595214     -101.845221
9.19                 0.983555774     -102.022738
9.191                0.983516264     -102.200689
9.192                0.983476686     -102.379075
9.193                0.983437038     -102.557897
9.194                0.983397323     -102.737154
9.195                 0.98335754     -102.916848
9.196                0.983317689      -103.09698
9.197                0.983277772      -103.27755
9.198                0.983237788      -103.45856
9.199                0.983197738     -103.640009
9.2                  0.983157623     -103.821899
9.201                0.983117442      -104.00423
9.202                0.983077198     -104.187004
9.203                0.983036889      -104.37022
9.204                0.982996517      -104.55388
9.205                0.982956082     -104.737983
9.206                0.982915584     -104.922532
9.207                0.982875025     -105.107527
9.208                0.982834404     -105.292967
9.209                0.982793722     -105.478855
9.21                  0.98275298      -105.66519
9.211                0.982712179     -105.851974
9.212                0.982671318     -106.039206
9.213                0.982630399     -106.226889
9.214                0.982589421     -106.415021
9.215                0.982548387     -106.603605
9.216                0.982507295      -106.79264
9.217                0.982466148     -106.982128
9.218                0.982424945     -107.172068
9.219                0.982383687     -107.362462
9.22                 0.982342375      -107.55331
9.221                0.982301009     -107.744613
9.222                 0.98225959     -107.936371
9.223                0.982218119     -108.128585
9.224                0.982176597     -108.321255
9.225                0.982135023     -108.514383
9.226                0.982093399     -108.707968
9.227                0.982051726     -108.902012
9.228                0.982010004     -109.096514
9.229                0.981968234     -109.291476
9.23                 0.981926417     -109.486898
9.231                0.981884553     -109.682779
9.232                0.981842643     -109.879122
9.233                0.981800688     -110.075927
9.234                0.981758688     -110.273193
9.235                0.981716645     -110.470922
9.236                 0.98167456     -110.669114
9.237                0.981632432     -110.867769
9.238                0.981590263     -111.066888
9.239                0.981548054     -111.266472
9.24                 0.981505805     -111.466521
9.241                0.981463518     -111.667034
9.242                0.981421193     -111.868014
9.243                0.981378831      -112.06946
9.244                0.981336432     -112.271372
9.245                0.981293999     -112.473751
9.246                0.981251531     -112.676598
9.247                0.981209029     -112.879913
9.248                0.981166495     -113.083695
9.249                 0.98112393     -113.287947
9.25                 0.981081333     -113.492667
9.251                0.981038707     -113.697857
9.252                0.980996052     -113.903516
9.253                0.980953369     -114.109645
9.254                0.980910659     -114.316244
9.255                0.980867924     -114.523314
9.256                0.980825163     -114.730855
9.257                0.980782378     -114.938868
9.258                 0.98073957     -115.147351
9.259                0.980696741     -115.356306
9.26                  0.98065389     -115.565734
9.261                 0.98061102     -115.775633
9.262                0.980568131     -115.986005
9.263                0.980525224      -116.19685
9.264                  0.9804823     -116.408168
9.265                0.980439361     -116.619959
9.266                0.980396407     -116.832223
9.267                0.980353439      -117.04496
9.268                 0.98031046     -117.258172
9.269                0.980267469     -117.471857
9.27                 0.980224468     -117.686016
9.271                0.980181458     -117.900649
9.272                 0.98013844     -118.115756
9.273                0.980095416     -118.331338
9.274                0.980052386     -118.547394
9.275                0.980009352     -118.763924
9.276                0.979966315     -118.980929
9.277                0.979923276     -119.198408
9.278                0.979880237     -119.416362
9.279                0.979837198     -119.634791
9.28                 0.979794161     -119.853694
9.281                0.979751127     -120.073072
9.282                0.979708097     -120.292925
9.283                0.979665073     -120.513252
9.284                0.979622056     -120.734054
9.285                0.979579047      -120.95533
9.286                0.979536047     -121.177081
9.287                0.979493059     -121.399306
9.288                0.979450082     -121.622005
9.289                0.979407119     -121.845178
9.29                 0.979364171     -122.068826
9.291                0.979321238     -122.292947
9.292                0.979278324     -122.517542
9.293                0.979235428      -122.74261
9.294                0.979192552     -122.968152
9.295                0.979149698     -123.194166
9.296                0.979106868     -123.420654
9.297                0.979064061     -123.647614
9.298                0.979021281     -123.875047
9.299                0.978978528     -124.102952
9.3                  0.978935804     -124.331329
9.301                 0.97889311     -124.560177
9.302                0.978850448     -124.789496
9.303                0.978807819     -125.019287
9.304                0.978765224     -125.249548
9.305                0.978722666     -125.480279
9.306                0.978680146      -125.71148
9.307                0.978637665      -125.94315
9.308                0.978595224      -126.17529
9.309                0.978552826     -126.407898
9.31                 0.978510472     -126.640974
9.311                0.978468163     -126.874518
9.312                0.978425901     -127.108528
9.313                0.978383688     -127.343006
9.314                0.978341525      -127.57795
9.315                0.978299413     -127.813359
9.316                0.978257355     -128.049234
9.317                0.978215352     -128.285572
9.318                0.978173405     -128.522375
9.319                0.978131517     -128.759641
9.32                 0.978089689      -128.99737
9.321                0.978047922     -129.235561
9.322                0.978006218     -129.474213
9.323                0.977964579     -129.713326
9.324                0.977923006     -129.952899
9.325                0.977881502     -130.192932
9.326                0.977840068     -130.433422
9.327                0.977798705     -130.674371
9.328                0.977757415     -130.915777
9.329                0.977716201     -131.157639
9.33                 0.977675063     -131.399956
9.331                0.977634004     -131.642728
9.332                0.977593025     -131.885953
9.333                0.977552128     -132.129632
9.334                0.977511315     -132.373763
9.335                0.977470588     -132.618344
9.336                0.977429947     -132.863376
9.337                0.977389396     -133.108857
9.338                0.977348936     -133.354786
9.339                0.977308568     -133.601163
9.34                 0.977268295     -133.847986
9.341                0.977228118     -134.095254
9.342                 0.97718804     -134.342966
9.343                0.977148061     -134.591121
9.344                0.977108184     -134.839719
9.345                0.977068411     -135.088757
9.346                0.977028743     -135.338235
9.347                0.976989182     -135.588152
9.348                0.976949731     -135.838507
9.349                 0.97691039     -136.089297
9.35                 0.976871163     -136.340523
9.351                 0.97683205     -136.592182
9.352                0.976793054     -136.844275
9.353                0.976754177     -137.096798
9.354                 0.97671542     -137.349752
9.355                0.976676785     -137.603134
9.356                0.976638275     -137.856944
9.357                0.976599891      -138.11118
9.358                0.976561635      -138.36584
9.359                0.976523508     -138.620924
9.36                 0.976485514      -138.87643
9.361                0.976447653     -139.132356
9.362                0.976409929     -139.388701
9.363                0.976372341     -139.645463
9.364                0.976334894     -139.902642
9.365                0.976297588     -140.160235
9.366                0.976260425      -140.41824
9.367                0.976223408     -140.676657
9.368                0.976186538     -140.935484
9.369                0.976149817     -141.194719
9.37                 0.976113248     -141.454361
9.371                0.976076831     -141.714407
9.372                 0.97604057     -141.974856
9.373                0.976004466     -142.235707
9.374                0.975968521     -142.496958
9.375                0.975932737     -142.758607
9.376                0.975897116     -143.020652
9.377                 0.97586166     -143.283091
9.378                 0.97582637     -143.545923
9.379                 0.97579125     -143.809146
9.38                   0.9757563     -144.072758
9.381                0.975721523     -144.336756
9.382                 0.97568692      -144.60114
9.383                0.975652495     -144.865908
9.384                0.975618247     -145.131056
9.385                0.975584181     -145.396584
9.386                0.975550296      -145.66249
9.387                0.975516597     -145.928771
9.388                0.975483083     -146.195425
9.389                0.975449758     -146.462451
9.39                 0.975416624     -146.729845
9.391                0.975383681     -146.997607
9.392                0.975350933     -147.265734
9.393                 0.97531838     -147.534224
9.394                0.975286026     -147.803075
9.395                0.975253872     -148.072284
9.396                0.975221919      -148.34185
