! TOUCHSTONE file generated by CST DESIGN STUDIO
! Date and time: Tue Feb  4 12:32:13 2025
! Project name: C:\Work\MatlabApps\UnitCellOptimizationMatlab\CST\unitcell.cst
! Tree item: Tasks\Sweep1\SPara1\S-Parameters
! Header version: 2024
! Port assignment regex: !\s*Touchstone port\s*([0-9]+)\s*=\s*(CST MWS port|CST DES external port|CST DES block port)\s*(.+)\s* \(\"(.*)\"\)(\s*mode\s*([0-9]+))?.*
! Touchstone port assignment:
! Touchstone port 1 = CST DES external port 1 ("")
# GHz S MA R 50
9                    0.989971863      -73.286033
9.001                0.989948982     -73.3933601
9.002                0.989926032     -73.5009446
9.003                0.989903013     -73.6087872
9.004                0.989879925     -73.7168887
9.005                0.989856769     -73.8252498
9.006                0.989833543     -73.9338712
9.007                0.989810247     -74.0427539
9.008                0.989786883     -74.1518985
9.009                0.989763448     -74.2613058
9.01                 0.989739944     -74.3709766
9.011                 0.98971637     -74.4809117
9.012                0.989692725     -74.5911118
9.013                0.989669011     -74.7015777
9.014                0.989645225     -74.8123103
9.015                0.989621369     -74.9233102
9.016                0.989597443     -75.0345784
9.017                0.989573445     -75.1461155
9.018                0.989549376     -75.2579224
9.019                0.989525236     -75.3699998
9.02                 0.989501024     -75.4823486
9.021                0.989476741     -75.5949696
9.022                0.989452386     -75.7078634
9.023                 0.98942796     -75.8210311
9.024                0.989403461     -75.9344733
9.025                 0.98937889     -76.0481908
9.026                0.989354246     -76.1621845
9.027                 0.98932953     -76.2764552
9.028                0.989304741     -76.3910036
9.029                 0.98927988     -76.5058307
9.03                 0.989254945     -76.6209371
9.031                0.989229938     -76.7363238
9.032                0.989204857     -76.8519915
9.033                0.989179702      -76.967941
9.034                0.989154474     -77.0841732
9.035                0.989129172      -77.200689
9.036                0.989103797      -77.317489
9.037                0.989078347     -77.4345742
9.038                0.989052823     -77.5519454
9.039                0.989027225     -77.6696034
9.04                 0.989001552      -77.787549
9.041                0.988975804     -77.9057831
9.042                0.988949982     -78.0243065
9.043                0.988924085       -78.14312
9.044                0.988898113     -78.2622245
9.045                0.988872066     -78.3816209
9.046                0.988845943     -78.5013099
9.047                0.988819745     -78.6212924
9.048                0.988793471     -78.7415693
9.049                0.988767122     -78.8621414
9.05                 0.988740696     -78.9830095
9.051                0.988714195     -79.1041746
9.052                0.988687617     -79.2256374
9.053                0.988660964     -79.3473987
9.054                0.988634233     -79.4694596
9.055                0.988607426     -79.5918208
9.056                0.988580543     -79.7144831
9.057                0.988553583     -79.8374475
9.058                0.988526545     -79.9607148
9.059                0.988499431     -80.0842859
9.06                 0.988472239     -80.2081616
9.061                0.988444971     -80.3323428
9.062                0.988417624     -80.4568304
9.063                  0.9883902     -80.5816251
9.064                0.988362699      -80.706728
9.065                0.988335119     -80.8321399
9.066                0.988307462     -80.9578617
9.067                0.988279727     -81.0838941
9.068                0.988251913     -81.2102382
9.069                0.988224022     -81.3368948
9.07                 0.988196051     -81.4638647
9.071                0.988168003     -81.5911489
9.072                0.988139876     -81.7187482
9.073                 0.98811167     -81.8466635
9.074                0.988083385     -81.9748957
9.075                0.988055021     -82.1034458
9.076                0.988026578     -82.2323145
9.077                0.987998056     -82.3615027
9.078                0.987969455     -82.4910115
9.079                0.987940775     -82.6208415
9.08                 0.987912015     -82.7509939
9.081                0.987883176     -82.8814693
9.082                0.987854257     -83.0122688
9.083                0.987825258     -83.1433933
9.084                0.987796179     -83.2748436
9.085                0.987767021     -83.4066206
9.086                0.987737783     -83.5387252
9.087                0.987708464     -83.6711584
9.088                0.987679066     -83.8039211
9.089                0.987649587      -83.937014
9.09                 0.987620028     -84.0704383
9.091                0.987590388     -84.2041947
9.092                0.987560668     -84.3382841
9.093                0.987530868     -84.4727076
9.094                0.987500987     -84.6074659
9.095                0.987471025       -84.74256
9.096                0.987440982     -84.8779909
9.097                0.987410859     -85.0137593
9.098                0.987380655     -85.1498663
9.099                 0.98735037     -85.2863128
9.1                  0.987320003     -85.4230996
9.101                0.987289556     -85.5602277
9.102                0.987259028      -85.697698
9.103                0.987228419     -85.8355114
9.104                0.987197728     -85.9736689
9.105                0.987166956     -86.1121713
9.106                0.987136103     -86.2510196
9.107                0.987105168     -86.3902147
9.108                0.987074152     -86.5297575
9.109                0.987043055      -86.669649
9.11                 0.987011876       -86.80989
9.111                0.986980616     -86.9504815
9.112                0.986949274     -87.0914245
9.113                0.986917851     -87.2327198
9.114                0.986886346     -87.3743683
9.115                 0.98685476      -87.516371
9.116                0.986823092     -87.6587289
9.117                0.986791342     -87.8014428
9.118                0.986759511     -87.9445137
9.119                0.986727598     -88.0879424
9.12                 0.986695604       -88.23173
9.121                0.986663528     -88.3758774
9.122                 0.98663137     -88.5203854
9.123                 0.98659913      -88.665255
9.124                0.986566809     -88.8104872
9.125                0.986534406     -88.9560829
9.126                0.986501922     -89.1020429
9.127                0.986469356     -89.2483683
9.128                0.986436709     -89.3950599
9.129                0.986403979     -89.5421188
9.13                 0.986371169     -89.6895457
9.131                0.986338276     -89.8373417
9.132                0.986305303     -89.9855076
9.133                0.986272248     -90.1340445
9.134                0.986239111     -90.2829532
9.135                0.986205893     -90.4322346
9.136                0.986172594     -90.5818898
9.137                0.986139213     -90.7319195
9.138                0.986105751     -90.8823248
9.139                0.986072208     -91.0331066
9.14                 0.986038584     -91.1842657
9.141                0.986004879     -91.3358032
9.142                0.985971093       -91.48772
9.143                0.985937226     -91.6400169
9.144                0.985903278     -91.7926949
9.145                0.985869249      -91.945755
9.146                 0.98583514      -92.099198
9.147                 0.98580095     -92.2530249
9.148                 0.98576668     -92.4072366
9.149                0.985732329      -92.561834
9.15                 0.985697898      -92.716818
9.151                0.985663386     -92.8721896
9.152                0.985628795     -93.0279497
9.153                0.985594123     -93.1840992
9.154                0.985559372      -93.340639
9.155                0.985524541       -93.49757
9.156                 0.98548963     -93.6548932
9.157                 0.98545464     -93.8126094
9.158                0.985419571     -93.9707196
9.159                0.985384422     -94.1292247
9.16                 0.985349194     -94.2881256
9.161                0.985313887     -94.4474232
9.162                0.985278501     -94.6071184
9.163                0.985243037     -94.7672121
9.164                0.985207494     -94.9277053
9.165                0.985171873     -95.0885987
9.166                0.985136174     -95.2498934
9.167                0.985100397     -95.4115903
9.168                0.985064542     -95.5736901
9.169                 0.98502861     -95.7361939
9.17                   0.9849926     -95.8991024
9.171                0.984956513     -96.0624167
9.172                0.984920349     -96.2261376
9.173                0.984884108      -96.390266
9.174                0.984847791     -96.5548027
9.175                0.984811397     -96.7197487
9.176                0.984774927     -96.8851049
9.177                0.984738382      -97.050872
9.178                 0.98470176     -97.2170511
9.179                0.984665063     -97.3836429
9.18                 0.984628291     -97.5506484
9.181                0.984591444     -97.7180684
9.182                0.984554523     -97.8859037
9.183                0.984517527     -98.0541554
9.184                0.984480457     -98.2228241
9.185                0.984443313     -98.3919108
9.186                0.984406095     -98.5614163
9.187                0.984368804     -98.7313415
9.188                 0.98433144     -98.9016872
9.189                0.984294004     -99.0724543
9.19                 0.984256495     -99.2436437
9.191                0.984218914     -99.4152561
9.192                0.984181261     -99.5872924
9.193                0.984143536     -99.7597534
9.194                0.984105741     -99.9326401
9.195                0.984067875     -100.105953
9.196                0.984029938     -100.279693
9.197                0.983991931     -100.453862
9.198                0.983953855     -100.628459
9.199                0.983915709     -100.803486
9.2                  0.983877494     -100.978943
9.201                0.983839211     -101.154832
9.202                0.983800859     -101.331152
9.203                 0.98376244     -101.507906
9.204                0.983723953     -101.685093
9.205                0.983685399     -101.862715
9.206                0.983646778     -102.040772
9.207                0.983608091     -102.219265
9.208                0.983569339     -102.398195
9.209                0.983530521     -102.577563
9.21                 0.983491638     -102.757368
9.211                 0.98345269     -102.937613
9.212                0.983413679     -103.118298
9.213                0.983374604     -103.299424
9.214                0.983335466     -103.480991
9.215                0.983296266        -103.663
9.216                0.983257003     -103.845452
9.217                0.983217679     -104.028347
9.218                0.983178293     -104.211687
9.219                0.983138847     -104.395472
9.22                 0.983099341     -104.579703
9.221                0.983059775      -104.76438
9.222                 0.98302015     -104.949504
9.223                0.982980467     -105.135077
9.224                0.982940726     -105.321098
9.225                0.982900927     -105.507568
9.226                0.982861071     -105.694488
9.227                 0.98282116     -105.881858
9.228                0.982781192      -106.06968
9.229                 0.98274117     -106.257954
9.23                 0.982701093     -106.446681
9.231                0.982660962     -106.635861
9.232                0.982620778     -106.825495
9.233                0.982580541     -107.015583
9.234                0.982540252     -107.206127
9.235                0.982499911     -107.397126
9.236                 0.98245952     -107.588582
9.237                0.982419079     -107.780495
9.238                0.982378589     -107.972866
9.239                 0.98233805     -108.165694
9.24                 0.982297462     -108.358982
9.241                0.982256828     -108.552729
9.242                0.982216146     -108.746936
9.243                0.982175419     -108.941604
9.244                0.982134646     -109.136732
9.245                0.982093829     -109.332323
9.246                0.982052968     -109.528376
9.247                0.982012065     -109.724891
9.248                0.981971119      -109.92187
9.249                0.981930131     -110.119312
9.25                 0.981889103     -110.317219
9.251                0.981848034      -110.51559
9.252                0.981806927     -110.714427
9.253                0.981765781      -110.91373
9.254                0.981724598     -111.113499
9.255                0.981683378     -111.313735
9.256                0.981642122     -111.514438
9.257                0.981600831     -111.715608
9.258                0.981559506     -111.917247
9.259                0.981518148     -112.119354
9.26                 0.981476757      -112.32193
9.261                0.981435334     -112.524975
9.262                0.981393881      -112.72849
9.263                0.981352398     -112.932476
9.264                0.981310887     -113.136931
9.265                0.981269347     -113.341858
9.266                 0.98122778     -113.547256
9.267                0.981186187     -113.753126
9.268                0.981144569     -113.959467
9.269                0.981102927     -114.166281
9.27                 0.981061261     -114.373567
9.271                0.981019574     -114.581326
9.272                0.980977865     -114.789559
9.273                0.980936136     -114.998265
9.274                0.980894388     -115.207445
9.275                0.980852621     -115.417099
9.276                0.980810837     -115.627227
9.277                0.980769037     -115.837829
9.278                0.980727222     -116.048907
9.279                0.980685393     -116.260459
9.28                 0.980643551     -116.472487
9.281                0.980601698      -116.68499
9.282                0.980559833     -116.897968
9.283                0.980517959     -117.111423
9.284                0.980476076     -117.325353
9.285                0.980434186     -117.539759
9.286                0.980392289     -117.754642
9.287                0.980350387         -117.97
9.288                0.980308481     -118.185836
9.289                0.980266573     -118.402147
9.29                 0.980224662     -118.618936
9.291                0.980182752     -118.836201
9.292                0.980140842     -119.053943
9.293                0.980098933     -119.272161
9.294                0.980057028     -119.490857
9.295                0.980015128     -119.710029
9.296                0.979973233     -119.929678
9.297                0.979931344     -120.149804
9.298                0.979889464     -120.370407
9.299                0.979847593     -120.591486
9.3                  0.979805733     -120.813043
9.301                0.979763885     -121.035076
9.302                 0.97972205     -121.257585
9.303                 0.97968023     -121.480571
9.304                0.979638425     -121.704033
9.305                0.979596638     -121.927972
9.306                0.979554869     -122.152387
9.307                0.979513121     -122.377277
9.308                0.979471393     -122.602644
9.309                0.979429688     -122.828486
9.31                 0.979388007     -123.054803
9.311                0.979346352     -123.281596
9.312                0.979304723     -123.508863
9.313                0.979263123     -123.736606
9.314                0.979221552     -123.964822
9.315                0.979180012     -124.193513
9.316                0.979138505     -124.422678
9.317                0.979097031     -124.652316
9.318                0.979055594     -124.882428
9.319                0.979014193     -125.113013
9.32                  0.97897283      -125.34407
9.321                0.978931508     -125.575599
9.322                0.978890226       -125.8076
9.323                0.978848988     -126.040072
9.324                0.978807794     -126.273016
9.325                0.978766646     -126.506429
9.326                0.978725546     -126.740313
9.327                0.978684494     -126.974667
9.328                0.978643494     -127.209489
9.329                0.978602545      -127.44478
9.33                  0.97856165     -127.680539
9.331                0.978520811     -127.916765
9.332                0.978480028     -128.153459
9.333                0.978439304     -128.390618
9.334                 0.97839864     -128.628244
9.335                0.978358038     -128.866334
9.336                0.978317499     -129.104889
9.337                0.978277026     -129.343908
9.338                0.978236619      -129.58339
9.339                 0.97819628     -129.823334
9.34                 0.978156012      -130.06374
9.341                0.978115815     -130.304607
9.342                0.978075691     -130.545934
9.343                0.978035643     -130.787721
9.344                0.977995671     -131.029967
9.345                0.977955778      -131.27267
9.346                0.977915965      -131.51583
9.347                0.977876234     -131.759447
9.348                0.977836587     -132.003518
9.349                0.977797025     -132.248045
9.35                  0.97775755     -132.493024
9.351                0.977718164     -132.738457
9.352                0.977678869     -132.984341
9.353                0.977639666     -133.230676
9.354                0.977600558      -133.47746
9.355                0.977561545     -133.724693
9.356                 0.97752263     -133.972374
9.357                0.977483815     -134.220502
9.358                0.977445101     -134.469075
9.359                 0.97740649     -134.718093
9.36                 0.977367984     -134.967554
9.361                0.977329585     -135.217457
9.362                0.977291295     -135.467801
9.363                0.977253115     -135.718586
9.364                0.977215047     -135.969809
9.365                0.977177094     -136.221469
9.366                0.977139256     -136.473566
9.367                0.977101536     -136.726098
9.368                0.977063936     -136.979064
9.369                0.977026458     -137.232462
9.37                 0.976989103     -137.486292
9.371                0.976951873     -137.740551
9.372                0.976914771     -137.995239
9.373                0.976877797     -138.250354
9.374                0.976840954     -138.505894
9.375                0.976804245     -138.761859
9.376                 0.97676767     -139.018247
9.377                0.976731231     -139.275056
9.378                0.976694931     -139.532285
9.379                0.976658772     -139.789933
9.38                 0.976622754     -140.047997
9.381                0.976586881     -140.306476
9.382                0.976551154      -140.56537
9.383                0.976515575     -140.824675
9.384                0.976480146     -141.084391
9.385                0.976444869     -141.344516
9.386                0.976409746     -141.605048
9.387                0.976374778     -141.865986
9.388                0.976339969     -142.127327
9.389                0.976305318     -142.389071
9.39                 0.976270829     -142.651214
9.391                0.976236503     -142.913757
9.392                0.976202343     -143.176696
9.393                 0.97616835     -143.440031
9.394                0.976134526     -143.703758
9.395                0.976100873     -143.967877
9.396                0.976067393     -144.232385
