! TOUCHSTONE file generated by CST DESIGN STUDIO
! Date and time: Tue Feb  4 12:32:04 2025
! Project name: C:\Work\MatlabApps\UnitCellOptimizationMatlab\CST\unitcell.cst
! Tree item: Tasks\Sweep1\SPara1\S-Parameters
! Header version: 2024
! Port assignment regex: !\s*Touchstone port\s*([0-9]+)\s*=\s*(CST MWS port|CST DES external port|CST DES block port)\s*(.+)\s* \(\"(.*)\"\)(\s*mode\s*([0-9]+))?.*
! Touchstone port assignment:
! Touchstone port 1 = CST DES external port 1 ("")
# GHz S MA R 50
9                    0.988926478     -78.4203199
9.001                0.988899246     -78.5393298
9.002                0.988871932     -78.6586302
9.003                0.988844538     -78.7782219
9.004                0.988817063     -78.8981056
9.005                0.988789507     -79.0182823
9.006                0.988761869     -79.1387528
9.007                0.988734149     -79.2595178
9.008                0.988706349     -79.3805783
9.009                0.988678466     -79.5019351
9.01                 0.988650501     -79.6235891
9.011                0.988622454      -79.745541
9.012                0.988594325     -79.8677917
9.013                0.988566113     -79.9903421
9.014                0.988537819     -80.1131931
9.015                0.988509442     -80.2363454
9.016                0.988480982     -80.3597999
9.017                0.988452439     -80.4835576
9.018                0.988423812     -80.6076192
9.019                0.988395103     -80.7319856
9.02                  0.98836631     -80.8566576
9.021                0.988337433     -80.9816362
9.022                0.988308472     -81.1069221
9.023                0.988279428     -81.2325163
9.024                  0.9882503     -81.3584196
9.025                0.988221087     -81.4846329
9.026                 0.98819179     -81.6111571
9.027                0.988162408      -81.737993
9.028                0.988132942     -81.8651414
9.029                0.988103392     -81.9926033
9.03                 0.988073756     -82.1203796
9.031                0.988044035      -82.248471
9.032                0.988014229     -82.3768786
9.033                0.987984338     -82.5056031
9.034                0.987954362     -82.6346455
9.035                  0.9879243     -82.7640066
9.036                0.987894152     -82.8936873
9.037                0.987863919     -83.0236884
9.038                  0.9878336      -83.154011
9.039                0.987803195     -83.2846558
9.04                 0.987772703     -83.4156238
9.041                0.987742126     -83.5469157
9.042                0.987711462     -83.6785327
9.043                0.987680712     -83.8104754
9.044                0.987649875     -83.9427448
9.045                0.987618952     -84.0753418
9.046                0.987587942     -84.2082673
9.047                0.987556844     -84.3415222
9.048                 0.98752566     -84.4751073
9.049                0.987494389     -84.6090236
9.05                 0.987463031      -84.743272
9.051                0.987431586     -84.8778534
9.052                0.987400053     -85.0127686
9.053                0.987368433     -85.1480186
9.054                0.987336725     -85.2836043
9.055                 0.98730493     -85.4195265
9.056                0.987273046     -85.5557862
9.057                0.987241076     -85.6923842
9.058                0.987209017     -85.8293216
9.059                 0.98717687     -85.9665991
9.06                 0.987144636     -86.1042177
9.061                0.987112313     -86.2421783
9.062                0.987079902     -86.3804818
9.063                0.987047403     -86.5191291
9.064                0.987014816     -86.6581212
9.065                 0.98698214     -86.7974588
9.066                0.986949376      -86.937143
9.067                0.986916523     -87.0771747
9.068                0.986883582     -87.2175547
9.069                0.986850552      -87.358284
9.07                 0.986817434     -87.4993634
9.071                0.986784227      -87.640794
9.072                0.986750931     -87.7825765
9.073                0.986717547      -87.924712
9.074                0.986684073     -88.0672013
9.075                0.986650511     -88.2100454
9.076                 0.98661686     -88.3532451
9.077                 0.98658312     -88.4968014
9.078                0.986549292     -88.6407152
9.079                0.986515374     -88.7849874
9.08                 0.986481367     -88.9296189
9.081                0.986447271     -89.0746106
9.082                0.986413087     -89.2199635
9.083                0.986378813     -89.3656785
9.084                 0.98634445     -89.5117564
9.085                0.986309998     -89.6581983
9.086                0.986275457     -89.8050049
9.087                0.986240827     -89.9521773
9.088                0.986206108     -90.0997164
9.089                  0.9861713     -90.2476229
9.09                 0.986136403      -90.395898
9.091                0.986101417     -90.5445424
9.092                0.986066342     -90.6935572
9.093                0.986031178     -90.8429432
9.094                0.985995926     -90.9927013
9.095                0.985960584     -91.1428324
9.096                0.985925153     -91.2933375
9.097                0.985889634     -91.4442175
9.098                0.985854025     -91.5954733
9.099                0.985818328     -91.7471057
9.1                  0.985782543     -91.8991158
9.101                0.985746668     -92.0515044
9.102                0.985710705     -92.2042724
9.103                0.985674654     -92.3574208
9.104                0.985638514     -92.5109504
9.105                0.985602285     -92.6648621
9.106                0.985565969      -92.819157
9.107                0.985529564     -92.9738357
9.108                 0.98549307     -93.1288994
9.109                0.985456489     -93.2843488
9.11                  0.98541982      -93.440185
9.111                0.985383063     -93.5964087
9.112                0.985346218     -93.7530209
9.113                0.985309285     -93.9100224
9.114                0.985272265     -94.0674143
9.115                0.985235157     -94.2251973
9.116                0.985197962     -94.3833725
9.117                 0.98516068     -94.5419406
9.118                 0.98512331     -94.7009025
9.119                0.985085854     -94.8602593
9.12                 0.985048311     -95.0200116
9.121                0.985010681     -95.1801606
9.122                0.984972964     -95.3407069
9.123                0.984935161     -95.5016516
9.124                0.984897272     -95.6629954
9.125                0.984859296     -95.8247394
9.126                0.984821235     -95.9868843
9.127                0.984783088      -96.149431
9.128                0.984744856     -96.3123805
9.129                0.984706538     -96.4757336
9.13                 0.984668134     -96.6394911
9.131                0.984629646      -96.803654
9.132                0.984591073      -96.968223
9.133                0.984552415     -97.1331992
9.134                0.984513673     -97.2985833
9.135                0.984474847     -97.4643761
9.136                0.984435937     -97.6305787
9.137                0.984396943     -97.7971917
9.138                0.984357865     -97.9642162
9.139                0.984318705     -98.1316528
9.14                 0.984279461     -98.2995026
9.141                0.984240134     -98.4677662
9.142                0.984200725     -98.6364446
9.143                0.984161234     -98.8055386
9.144                0.984121661     -98.9750491
9.145                0.984082006     -99.1449768
9.146                0.984042269     -99.3153227
9.147                0.984002452     -99.4860875
9.148                0.983962553      -99.657272
9.149                0.983922574     -99.8288772
9.15                 0.983882515     -100.000904
9.151                0.983842376     -100.173353
9.152                0.983802157     -100.346224
9.153                0.983761859      -100.51952
9.154                0.983721482      -100.69324
9.155                0.983681027     -100.867386
9.156                0.983640493     -101.041958
9.157                0.983599881     -101.216957
9.158                0.983559192     -101.392384
9.159                0.983518426      -101.56824
9.16                 0.983477583     -101.744525
9.161                0.983436663      -101.92124
9.162                0.983395667     -102.098386
9.163                0.983354596     -102.275964
9.164                 0.98331345     -102.453974
9.165                0.983272228     -102.632417
9.166                0.983230933     -102.811295
9.167                0.983189563     -102.990607
9.168                 0.98314812     -103.170355
9.169                0.983106604     -103.350539
9.17                 0.983065015     -103.531161
9.171                0.983023354     -103.712219
9.172                0.982981621     -103.893717
9.173                0.982939817     -104.075653
9.174                0.982897943     -104.258029
9.175                0.982855998     -104.440846
9.176                0.982813983     -104.624105
9.177                0.982771899     -104.807805
9.178                0.982729746     -104.991948
9.179                0.982687525     -105.176535
9.18                 0.982645236     -105.361565
9.181                0.982602881      -105.54704
9.182                0.982560458     -105.732961
9.183                 0.98251797     -105.919328
9.184                0.982475416     -106.106142
9.185                0.982432797     -106.293403
9.186                0.982390114     -106.481112
9.187                0.982347367      -106.66927
9.188                0.982304557     -106.857877
9.189                0.982261684     -107.046934
9.19                 0.982218749     -107.236442
9.191                0.982175754     -107.426401
9.192                0.982132697     -107.616812
9.193                 0.98208958     -107.807675
9.194                0.982046405     -107.998992
9.195                 0.98200317     -108.190762
9.196                0.981959877     -108.382986
9.197                0.981916527     -108.575665
9.198                0.981873121     -108.768799
9.199                0.981829658      -108.96239
9.2                   0.98178614     -109.156436
9.201                0.981742567      -109.35094
9.202                0.981698941     -109.545901
9.203                0.981655262     -109.741321
9.204                 0.98161153     -109.937199
9.205                0.981567747     -110.133536
9.206                0.981523913     -110.330332
9.207                0.981480028     -110.527589
9.208                0.981436095     -110.725307
9.209                0.981392113     -110.923485
9.21                 0.981348084     -111.122125
9.211                0.981304007     -111.321227
9.212                0.981259885     -111.520792
9.213                0.981215717     -111.720819
9.214                0.981171505      -111.92131
9.215                 0.98112725     -112.122265
9.216                0.981082952     -112.323684
9.217                0.981038612     -112.525567
9.218                0.980994231     -112.727916
9.219                0.980949811     -112.930729
9.22                 0.980905351     -113.134009
9.221                0.980860853     -113.337755
9.222                0.980816318     -113.541967
9.223                0.980771747     -113.746646
9.224                 0.98072714     -113.951792
9.225                0.980682499     -114.157406
9.226                0.980637824     -114.363488
9.227                0.980593117     -114.570038
9.228                0.980548379     -114.777056
9.229                 0.98050361     -114.984543
9.23                 0.980458812     -115.192499
9.231                0.980413985     -115.400924
9.232                0.980369131     -115.609819
9.233                0.980324251     -115.819184
9.234                0.980279345     -116.029018
9.235                0.980234415     -116.239323
9.236                0.980189462     -116.450098
9.237                0.980144487     -116.661344
9.238                0.980099491     -116.873061
9.239                0.980054475     -117.085249
9.24                 0.980009441     -117.297908
9.241                0.979964388     -117.511038
9.242                 0.97991932      -117.72464
9.243                0.979874236     -117.938714
9.244                0.979829137     -118.153259
9.245                0.979784026     -118.368275
9.246                0.979738903     -118.583764
9.247                 0.97969377     -118.799725
9.248                0.979648627     -119.016158
9.249                0.979603476     -119.233063
9.25                 0.979558318      -119.45044
9.251                0.979513154     -119.668289
9.252                0.979467986      -119.88661
9.253                0.979422815     -120.105403
9.254                0.979377641     -120.324669
9.255                0.979332467     -120.544407
9.256                0.979287294     -120.764616
9.257                0.979242123     -120.985298
9.258                0.979196955     -121.206452
9.259                0.979151791     -121.428077
9.26                 0.979106634     -121.650175
9.261                0.979061484     -121.872744
9.262                0.979016342     -122.095784
9.263                0.978971211     -122.319296
9.264                0.978926091     -122.543279
9.265                0.978880984     -122.767733
9.266                0.978835891     -122.992658
9.267                0.978790813     -123.218053
9.268                0.978745753     -123.443919
9.269                0.978700711     -123.670255
9.27                  0.97865569     -123.897061
9.271                0.978610689     -124.124337
9.272                0.978565712     -124.352082
9.273                0.978520759     -124.580297
9.274                0.978475831      -124.80898
9.275                0.978430931     -125.038131
9.276                 0.97838606     -125.267751
9.277                 0.97834122     -125.497838
9.278                0.978296411     -125.728393
9.279                0.978251636     -125.959415
9.28                 0.978206895     -126.190903
9.281                0.978162192     -126.422857
9.282                0.978117526     -126.655277
9.283                  0.9780729     -126.888163
9.284                0.978028316     -127.121513
9.285                0.977983775     -127.355327
9.286                0.977939278     -127.589606
9.287                0.977894827     -127.824347
9.288                0.977850424     -128.059551
9.289                0.977806071     -128.295218
9.29                 0.977761769     -128.531345
9.291                0.977717519     -128.767934
9.292                0.977673324     -129.004983
9.293                0.977629186     -129.242492
9.294                0.977585105      -129.48046
9.295                0.977541084     -129.718886
9.296                0.977497124      -129.95777
9.297                0.977453227     -130.197111
9.298                0.977409394     -130.436908
9.299                0.977365628      -130.67716
9.3                  0.977321931     -130.917868
9.301                0.977278303     -131.159029
9.302                0.977234748     -131.400643
9.303                0.977191265      -131.64271
9.304                0.977147858     -131.885228
9.305                0.977104528     -132.128197
9.306                0.977061278     -132.371616
9.307                0.977018107     -132.615483
9.308                 0.97697502     -132.859799
9.309                0.976932016     -133.104561
9.31                 0.976889099      -133.34977
9.311                 0.97684627     -133.595423
9.312                0.976803531     -133.841521
9.313                0.976760884     -134.088062
9.314                 0.97671833     -134.335045
9.315                0.976675872     -134.582469
9.316                0.976633511     -134.830332
9.317                 0.97659125     -135.078635
9.318                0.976549089     -135.327375
9.319                0.976507032     -135.576552
9.32                  0.97646508     -135.826164
9.321                0.976423234     -136.076211
9.322                0.976381498      -136.32669
9.323                0.976339872     -136.577601
9.324                0.976298358     -136.828943
9.325                 0.97625696     -137.080715
9.326                0.976215678     -137.332914
9.327                0.976174514      -137.58554
9.328                0.976133471     -137.838591
9.329                 0.97609255     -138.092067
9.33                 0.976051754     -138.345965
9.331                0.976011083     -138.600285
9.332                0.975970542     -138.855025
9.333                 0.97593013     -139.110183
9.334                0.975889851     -139.365758
9.335                0.975849706     -139.621749
9.336                0.975809698     -139.878154
9.337                0.975769827     -140.134972
9.338                0.975730097       -140.3922
9.339                0.975690509     -140.649839
9.34                 0.975651065     -140.907885
9.341                0.975611768     -141.166338
9.342                0.975572619     -141.425195
9.343                 0.97553362     -141.684455
9.344                0.975494774     -141.944117
9.345                0.975456081     -142.204179
9.346                0.975417546     -142.464639
9.347                0.975379168     -142.725495
9.348                0.975340951     -142.986746
9.349                0.975302896     -143.248389
9.35                 0.975265006     -143.510424
9.351                0.975227282     -143.772848
9.352                0.975189727     -144.035659
9.353                0.975152342     -144.298856
9.354                 0.97511513     -144.562436
9.355                0.975078092     -144.826399
9.356                0.975041231     -145.090741
9.357                0.975004548     -145.355461
9.358                0.974968046     -145.620557
9.359                0.974931727     -145.886027
9.36                 0.974895592      -146.15187
9.361                0.974859645     -146.418082
9.362                0.974823885     -146.684662
9.363                0.974788317     -146.951608
9.364                0.974752942     -147.218917
9.365                0.974717761     -147.486589
9.366                0.974682777     -147.754619
9.367                0.974647991     -148.023008
9.368                0.974613407     -148.291751
9.369                0.974579025     -148.560847
9.37                 0.974544848     -148.830295
9.371                0.974510878      -149.10009
9.372                0.974477117     -149.370233
9.373                0.974443567     -149.640719
9.374                0.974410229     -149.911546
9.375                0.974377106     -150.182714
9.376                0.974344199     -150.454218
9.377                0.974311512     -150.726057
9.378                0.974279044     -150.998228
9.379                  0.9742468     -151.270729
9.38                  0.97421478     -151.543558
9.381                0.974182986     -151.816711
9.382                0.974151421     -152.090188
9.383                0.974120086     -152.363984
9.384                0.974088983     -152.638098
9.385                0.974058114     -152.912526
9.386                0.974027482     -153.187268
9.387                0.973997087     -153.462319
9.388                0.973966932     -153.737678
9.389                0.973937019     -154.013341
9.39                 0.973907349     -154.289306
9.391                0.973877925     -154.565571
9.392                0.973848748     -154.842133
9.393                 0.97381982     -155.118989
9.394                0.973791143     -155.396136
9.395                0.973762719     -155.673572
9.396                0.973734549     -155.951293
