! TOUCHSTONE file generated by CST DESIGN STUDIO
! Date and time: Tue Feb  4 12:32:18 2025
! Project name: C:\Work\MatlabApps\UnitCellOptimizationMatlab\CST\unitcell.cst
! Tree item: Tasks\Sweep1\SPara1\S-Parameters
! Header version: 2024
! Port assignment regex: !\s*Touchstone port\s*([0-9]+)\s*=\s*(CST MWS port|CST DES external port|CST DES block port)\s*(.+)\s* \(\"(.*)\"\)(\s*mode\s*([0-9]+))?.*
! Touchstone port assignment:
! Touchstone port 1 = CST DES external port 1 ("")
# GHz S MA R 50
9                    0.990493858     -70.5528129
9.001                0.990473185      -70.654328
9.002                0.990452448     -70.7560839
9.003                0.990431649     -70.8580812
9.004                0.990410787     -70.9603208
9.005                0.990389861     -71.0628033
9.006                0.990368872     -71.1655294
9.007                0.990347819     -71.2684999
9.008                0.990326703     -71.3717156
9.009                0.990305522     -71.4751771
9.01                 0.990284278     -71.5788852
9.011                0.990262969     -71.6828406
9.012                0.990241596     -71.7870441
9.013                0.990220159     -71.8914964
9.014                0.990198656     -71.9961982
9.015                0.990177089     -72.1011504
9.016                0.990155457     -72.2063536
9.017                 0.99013376     -72.3118086
9.018                0.990111997     -72.4175161
9.019                0.990090169      -72.523477
9.02                 0.990068275     -72.6296919
9.021                0.990046316     -72.7361616
9.022                 0.99002429     -72.8428869
9.023                0.990002198     -72.9498685
9.024                 0.98998004     -73.0571072
9.025                0.989957816     -73.1646038
9.026                0.989935525     -73.2723591
9.027                0.989913168     -73.3803737
9.028                0.989890743     -73.4886486
9.029                0.989868252     -73.5971843
9.03                 0.989845693     -73.7059818
9.031                0.989823067     -73.8150418
9.032                0.989800373     -73.9243651
9.033                0.989777612     -74.0339525
9.034                0.989754783     -74.1438047
9.035                0.989731886     -74.2539226
9.036                0.989708921     -74.3643068
9.037                0.989685887     -74.4749583
9.038                0.989662786     -74.5858778
9.039                0.989639615     -74.6970661
9.04                 0.989616376      -74.808524
9.041                0.989593068     -74.9202523
9.042                0.989569691     -75.0322517
9.043                0.989546245     -75.1445232
9.044                 0.98952273     -75.2570675
9.045                0.989499145     -75.3698853
9.046                0.989475491     -75.4829776
9.047                0.989451767     -75.5963451
9.048                0.989427972     -75.7099886
9.049                0.989404108      -75.823909
9.05                 0.989380174      -75.938107
9.051                 0.98935617     -76.0525836
9.052                0.989332094     -76.1673394
9.053                0.989307949     -76.2823753
9.054                0.989283732     -76.3976921
9.055                0.989259445     -76.5132907
9.056                0.989235087     -76.6291719
9.057                0.989210657     -76.7453366
9.058                0.989186156     -76.8617854
9.059                0.989161584     -76.9785194
9.06                  0.98913694     -77.0955392
9.061                0.989112225     -77.2128458
9.062                0.989087437       -77.33044
9.063                0.989062578     -77.4483226
9.064                0.989037646     -77.5664945
9.065                0.989012642     -77.6849565
9.066                0.988987566     -77.8037094
9.067                0.988962417     -77.9227542
9.068                0.988937196     -78.0420916
9.069                0.988911902     -78.1617225
9.07                 0.988886535     -78.2816477
9.071                0.988861094     -78.4018681
9.072                0.988835581     -78.5223846
9.073                0.988809994     -78.6431981
9.074                0.988784334     -78.7643093
9.075                0.988758601     -78.8857191
9.076                0.988732793     -79.0074284
9.077                0.988706912     -79.1294381
9.078                0.988680957      -79.251749
9.079                0.988654928     -79.3743621
9.08                 0.988628825      -79.497278
9.081                0.988602647     -79.6204978
9.082                0.988576395     -79.7440224
9.083                0.988550069     -79.8678525
9.084                0.988523668      -79.991989
9.085                0.988497192     -80.1164329
9.086                0.988470641      -80.241185
9.087                0.988444016     -80.3662462
9.088                0.988417315     -80.4916174
9.089                0.988390539     -80.6172995
9.09                 0.988363688     -80.7432932
9.091                0.988336762     -80.8695997
9.092                 0.98830976     -80.9962196
9.093                0.988282682     -81.1231539
9.094                0.988255529     -81.2504036
9.095                  0.9882283     -81.3779694
9.096                0.988200995     -81.5058523
9.097                0.988173614     -81.6340532
9.098                0.988146157      -81.762573
9.099                0.988118623     -81.8914126
9.1                  0.988091014     -82.0205728
9.101                0.988063328     -82.1500546
9.102                0.988035565     -82.2798589
9.103                0.988007726     -82.4099866
9.104                0.987979811     -82.5404386
9.105                0.987951819     -82.6712158
9.106                 0.98792375      -82.802319
9.107                0.987895604     -82.9337493
9.108                0.987867381     -83.0655075
9.109                0.987839081     -83.1975946
9.11                 0.987810704     -83.3300114
9.111                 0.98778225     -83.4627588
9.112                0.987753718     -83.5958379
9.113                0.987725109     -83.7292494
9.114                0.987696423     -83.8629944
9.115                 0.98766766     -83.9970736
9.116                0.987638819     -84.1314882
9.117                  0.9876099     -84.2662389
9.118                0.987580903     -84.4013267
9.119                0.987551829     -84.5367525
9.12                 0.987522678     -84.6725172
9.121                0.987493448     -84.8086218
9.122                 0.98746414     -84.9450672
9.123                0.987434755     -85.0818543
9.124                0.987405292     -85.2189841
9.125                 0.98737575     -85.3564574
9.126                0.987346131     -85.4942753
9.127                0.987316433     -85.6324386
9.128                0.987286658     -85.7709482
9.129                0.987256804     -85.9098052
9.13                 0.987226872     -86.0490103
9.131                0.987196862     -86.1885647
9.132                0.987166774     -86.3284691
9.133                0.987136607     -86.4687245
9.134                0.987106362      -86.609332
9.135                0.987076039     -86.7502923
9.136                0.987045637     -86.8916065
9.137                0.987015157     -87.0332754
9.138                0.986984599     -87.1753001
9.139                0.986953962     -87.3176814
9.14                 0.986923247     -87.4604204
9.141                0.986892454     -87.6035178
9.142                0.986861582     -87.7469747
9.143                0.986830632     -87.8907921
9.144                0.986799603     -88.0349708
9.145                0.986768497     -88.1795118
9.146                0.986737311      -88.324416
9.147                0.986706048     -88.4696844
9.148                0.986674706     -88.6153179
9.149                0.986643286     -88.7613175
9.15                 0.986611787     -88.9076841
9.151                 0.98658021     -89.0544186
9.152                0.986548555      -89.201522
9.153                0.986516822     -89.3489953
9.154                0.986485011     -89.4968393
9.155                0.986453121      -89.645055
9.156                0.986421154     -89.7936434
9.157                0.986389108     -89.9426054
9.158                0.986356985      -90.091942
9.159                0.986324784      -90.241654
9.16                 0.986292504     -90.3917424
9.161                0.986260147     -90.5422083
9.162                0.986227712     -90.6930524
9.163                  0.9861952     -90.8442757
9.164                 0.98616261     -90.9958793
9.165                0.986129942      -91.147864
9.166                0.986097197     -91.3002308
9.167                0.986064374     -91.4529805
9.168                0.986031475     -91.6061143
9.169                0.985998498     -91.7596329
9.17                 0.985965444     -91.9135373
9.171                0.985932313     -92.0678285
9.172                0.985899105     -92.2225074
9.173                 0.98586582     -92.3775749
9.174                0.985832458      -92.533032
9.175                0.985799021     -92.6888796
9.176                0.985765506     -92.8451186
9.177                0.985731915       -93.00175
9.178                0.985698248     -93.1587746
9.179                0.985664505     -93.3161936
9.18                 0.985630686     -93.4740076
9.181                0.985596792     -93.6322178
9.182                0.985562821     -93.7908249
9.183                0.985528775       -93.94983
9.184                0.985494654      -94.109234
9.185                0.985460458     -94.2690377
9.186                0.985426186     -94.4292421
9.187                 0.98539184     -94.5898482
9.188                0.985357419     -94.7508568
9.189                0.985322924     -94.9122688
9.19                 0.985288354     -95.0740852
9.191                 0.98525371      -95.236307
9.192                0.985218992     -95.3989349
9.193                0.985184201     -95.5619699
9.194                0.985149336     -95.7254129
9.195                0.985114397     -95.8892649
9.196                0.985079386     -96.0535267
9.197                0.985044302     -96.2181992
9.198                0.985009144     -96.3832833
9.199                0.984973915       -96.54878
9.2                  0.984938613     -96.7146901
9.201                 0.98490324     -96.8810145
9.202                0.984867794     -97.0477541
9.203                0.984832277     -97.2149098
9.204                0.984796689     -97.3824825
9.205                 0.98476103     -97.5504731
9.206                0.984725301     -97.7188824
9.207                0.984689501     -97.8877114
9.208                 0.98465363     -98.0569608
9.209                 0.98461769     -98.2266316
9.21                 0.984581681     -98.3967247
9.211                0.984545602     -98.5672409
9.212                0.984509454     -98.7381811
9.213                0.984473238     -98.9095461
9.214                0.984436953     -99.0813369
9.215                  0.9844006     -99.2535541
9.216                 0.98436418     -99.4261988
9.217                0.984327692     -99.5992718
9.218                0.984291137     -99.7727738
9.219                0.984254515     -99.9467058
9.22                 0.984217828     -100.121069
9.221                0.984181074     -100.295863
9.222                0.984144255      -100.47109
9.223                 0.98410737      -100.64675
9.224                0.984070421     -100.822844
9.225                0.984033407     -100.999373
9.226                0.983996329     -101.176338
9.227                0.983959188      -101.35374
9.228                0.983921983     -101.531578
9.229                0.983884716     -101.709855
9.23                 0.983847386     -101.888571
9.231                0.983809994     -102.067727
9.232                0.983772541     -102.247323
9.233                0.983735026     -102.427361
9.234                0.983697451      -102.60784
9.235                0.983659816     -102.788763
9.236                0.983622121     -102.970129
9.237                0.983584366      -103.15194
9.238                0.983546553     -103.334195
9.239                0.983508682     -103.516897
9.24                 0.983470753     -103.700046
9.241                0.983432766     -103.883641
9.242                0.983394723     -104.067686
9.243                0.983356623     -104.252178
9.244                0.983318468     -104.437121
9.245                0.983280257     -104.622514
9.246                0.983241992     -104.808358
9.247                0.983203673     -104.994654
9.248                  0.9831653     -105.181402
9.249                0.983126874     -105.368604
9.25                 0.983088395     -105.556259
9.251                0.983049865     -105.744369
9.252                0.983011284     -105.932935
9.253                0.982972651     -106.121956
9.254                0.982933969     -106.311434
9.255                0.982895237     -106.501369
9.256                0.982856457     -106.691762
9.257                0.982817628     -106.882614
9.258                0.982778751     -107.073925
9.259                0.982739828     -107.265696
9.26                 0.982700858     -107.457927
9.261                0.982661843     -107.650619
9.262                0.982622783     -107.843773
9.263                0.982583678      -108.03739
9.264                 0.98254453     -108.231469
9.265                 0.98250534     -108.426012
9.266                0.982466106     -108.621019
9.267                0.982426832     -108.816491
9.268                0.982387517     -109.012428
9.269                0.982348161     -109.208831
9.27                 0.982308767       -109.4057
9.271                0.982269334     -109.603037
9.272                0.982229863      -109.80084
9.273                0.982190355     -109.999112
9.274                0.982150811     -110.197852
9.275                0.982111232     -110.397061
9.276                0.982071618      -110.59674
9.277                 0.98203197     -110.796889
9.278                 0.98199229     -110.997508
9.279                0.981952577     -111.198598
9.28                 0.981912832      -111.40016
9.281                0.981873058     -111.602193
9.282                0.981833253     -111.804699
9.283                 0.98179342     -112.007678
9.284                0.981753559      -112.21113
9.285                0.981713671     -112.415055
9.286                0.981673757     -112.619455
9.287                0.981633818     -112.824329
9.288                0.981593854     -113.029678
9.289                0.981553867     -113.235502
9.29                 0.981513858     -113.441801
9.291                0.981473827     -113.648577
9.292                0.981433775     -113.855829
9.293                0.981393704     -114.063557
9.294                0.981353614     -114.271763
9.295                0.981313507     -114.480446
9.296                0.981273382     -114.689606
9.297                0.981233243     -114.899244
9.298                0.981193088     -115.109361
9.299                 0.98115292     -115.319956
9.3                  0.981112739     -115.531029
9.301                0.981072547     -115.742581
9.302                0.981032344     -115.954613
9.303                0.980992132     -116.167124
9.304                0.980951911     -116.380115
9.305                0.980911683     -116.593585
9.306                0.980871449     -116.807536
9.307                 0.98083121     -117.021966
9.308                0.980790967     -117.236877
9.309                 0.98075072     -117.452269
9.31                 0.980710472     -117.668141
9.311                0.980670224     -117.884494
9.312                0.980629976     -118.101327
9.313                 0.98058973     -118.318642
9.314                0.980549486     -118.536438
9.315                0.980509247     -118.754715
9.316                0.980469013     -118.973473
9.317                0.980428785     -119.192712
9.318                0.980388565     -119.412432
9.319                0.980348354     -119.632634
9.32                 0.980308152     -119.853317
9.321                0.980267963     -120.074482
9.322                0.980227786     -120.296128
9.323                0.980187622     -120.518254
9.324                0.980147474     -120.740863
9.325                0.980107342     -120.963952
9.326                0.980067228     -121.187522
9.327                0.980027133     -121.411573
9.328                0.979987059     -121.636105
9.329                0.979947006     -121.861118
9.33                 0.979906976     -122.086611
9.331                 0.97986697     -122.312585
9.332                 0.97982699     -122.539038
9.333                0.979787037     -122.765972
9.334                0.979747113     -122.993386
9.335                0.979707218     -123.221279
9.336                0.979667354     -123.449652
9.337                0.979627523     -123.678504
9.338                0.979587726     -123.907835
9.339                0.979547965     -124.137644
9.34                  0.97950824     -124.367931
9.341                0.979468554     -124.598697
9.342                0.979428907      -124.82994
9.343                0.979389302     -125.061661
9.344                0.979349739     -125.293858
9.345                 0.97931022     -125.526532
9.346                0.979270747     -125.759682
9.347                0.979231321     -125.993308
9.348                0.979191944     -126.227409
9.349                0.979152617     -126.461985
9.35                 0.979113342     -126.697035
9.351                 0.97907412      -126.93256
9.352                0.979034953     -127.168557
9.353                0.978995842     -127.405028
9.354                0.978956789     -127.641971
9.355                0.978917795     -127.879385
9.356                0.978878862     -128.117271
9.357                0.978839992     -128.355627
9.358                0.978801187     -128.594453
9.359                0.978762447     -128.833749
9.36                 0.978723774     -129.073513
9.361                0.978685171     -129.313746
9.362                0.978646638     -129.554446
9.363                0.978608178     -129.795612
9.364                0.978569791     -130.037244
9.365                 0.97853148     -130.279342
9.366                0.978493247     -130.521903
9.367                0.978455092     -130.764929
9.368                0.978417018     -131.008417
9.369                0.978379027     -131.252367
9.37                 0.978341119     -131.496779
9.371                0.978303297      -131.74165
9.372                0.978265563     -131.986981
9.373                0.978227917     -132.232771
9.374                0.978190363     -132.479018
9.375                0.978152901     -132.725722
9.376                0.978115533     -132.972881
9.377                0.978078262     -133.220495
9.378                0.978041088     -133.468563
9.379                0.978004014     -133.717083
9.38                 0.977967041     -133.966055
9.381                0.977930171     -134.215478
9.382                0.977893407      -134.46535
9.383                0.977856748     -134.715671
9.384                0.977820198     -134.966438
9.385                0.977783759     -135.217652
9.386                0.977747431     -135.469311
9.387                0.977711217     -135.721413
9.388                0.977675119     -135.973958
9.389                0.977639138     -136.226944
9.39                 0.977603277      -136.48037
9.391                0.977567536     -136.734235
9.392                0.977531919     -136.988538
9.393                0.977496426     -137.243276
9.394                0.977461059      -137.49845
9.395                0.977425821     -137.754056
9.396                0.977390714     -138.010095
