! TOUCHSTONE file generated by CST DESIGN STUDIO
! Date and time: Wed Feb  5 13:37:20 2025
! Project name: C:\Work\MatlabApps\UnitCellOptimizationMatlab\CST\unitcell.cst
! Tree item: Tasks\Sweep1\SPara1\S-Parameters
! Header version: 2024
! Port assignment regex: !\s*Touchstone port\s*([0-9]+)\s*=\s*(CST MWS port|CST DES external port|CST DES block port)\s*(.+)\s* \(\"(.*)\"\)(\s*mode\s*([0-9]+))?.*
! Touchstone port assignment:
! Touchstone port 1 = CST DES external port 1 ("")
# GHz S MA R 50
9                    0.979621343     -74.5456535
9.001                0.979572155     -74.6581806
9.002                0.979522819     -74.7709859
9.003                0.979473335     -74.8840701
9.004                0.979423701     -74.9974342
9.005                0.979373919      -75.111079
9.006                0.979323988     -75.2250053
9.007                0.979273906     -75.3392139
9.008                0.979223674     -75.4537058
9.009                0.979173292     -75.5684818
9.01                 0.979122759     -75.6835427
9.011                0.979072075     -75.7988894
9.012                0.979021239     -75.9145228
9.013                0.978970251     -76.0304437
9.014                0.978919111     -76.1466529
9.015                0.978867818     -76.2631515
9.016                0.978816373     -76.3799401
9.017                0.978764774     -76.4970197
9.018                0.978713021     -76.6143912
9.019                0.978661114     -76.7320555
9.02                 0.978609053     -76.8500133
9.021                0.978556837     -76.9682657
9.022                0.978504467     -77.0868134
9.023                 0.97845194     -77.2056574
9.024                0.978399259     -77.3247985
9.025                0.978346421     -77.4442377
9.026                0.978293426     -77.5639758
9.027                0.978240275     -77.6840137
9.028                0.978186967     -77.8043523
9.029                0.978133502     -77.9249926
9.03                 0.978079879     -78.0459353
9.031                0.978026097     -78.1671814
9.032                0.977972158     -78.2887318
9.033                 0.97791806     -78.4105874
9.034                0.977863803     -78.5327492
9.035                0.977809386     -78.6552179
9.036                 0.97775481     -78.7779946
9.037                0.977700074     -78.9010801
9.038                0.977645178     -79.0244754
9.039                0.977590121     -79.1481813
9.04                 0.977534903     -79.2721988
9.041                0.977479524     -79.3965288
9.042                0.977423984     -79.5211722
9.043                0.977368282       -79.64613
9.044                0.977312418      -79.771403
9.045                0.977256391     -79.8969923
9.046                0.977200202     -80.0228986
9.047                 0.97714385      -80.149123
9.048                0.977087334     -80.2756664
9.049                0.977030655     -80.4025296
9.05                 0.976973813     -80.5297138
9.051                0.976916806     -80.6572197
9.052                0.976859635     -80.7850483
9.053                0.976802299     -80.9132006
9.054                0.976744798     -81.0416775
9.055                0.976687132     -81.1704799
9.056                  0.9766293     -81.2996089
9.057                0.976571303     -81.4290652
9.058                 0.97651314       -81.55885
9.059                0.976454811     -81.6889641
9.06                 0.976396315     -81.8194085
9.061                0.976337652     -81.9501841
9.062                0.976278822     -82.0812919
9.063                0.976219826     -82.2127329
9.064                0.976160661     -82.3445079
9.065                0.976101329     -82.4766181
9.066                0.976041829     -82.6090642
9.067                0.975982161     -82.7418474
9.068                0.975922324     -82.8749685
9.069                0.975862319     -83.0084285
9.07                 0.975802144     -83.1422284
9.071                0.975741801     -83.2763692
9.072                0.975681288     -83.4108518
9.073                0.975620606     -83.5456772
9.074                0.975559754     -83.6808463
9.075                0.975498733     -83.8163602
9.076                0.975437541     -83.9522198
9.077                0.975376178     -84.0884261
9.078                0.975314646       -84.22498
9.079                0.975252942     -84.3618826
9.08                 0.975191068     -84.4991348
9.081                0.975129023     -84.6367376
9.082                0.975066806     -84.7746921
9.083                0.975004418      -84.912999
9.084                0.974941858     -85.0516595
9.085                0.974879127     -85.1906746
9.086                0.974816224     -85.3300452
9.087                0.974753149     -85.4697723
9.088                0.974689902     -85.6098569
9.089                0.974626482        -85.7503
9.09                  0.97456289     -85.8911025
9.091                0.974499125     -86.0322656
9.092                0.974435188     -86.1737901
9.093                0.974371078      -86.315677
9.094                0.974306795     -86.4579274
9.095                0.974242339     -86.6005422
9.096                 0.97417771     -86.7435225
9.097                0.974112907     -86.8868692
9.098                0.974047932     -87.0305834
9.099                0.973982782     -87.1746659
9.1                   0.97391746     -87.3191179
9.101                0.973851963     -87.4639403
9.102                0.973786294     -87.6091342
9.103                 0.97372045     -87.7547005
9.104                0.973654433     -87.9006401
9.105                0.973588241     -88.0469543
9.106                0.973521876     -88.1936438
9.107                0.973455337     -88.3407098
9.108                0.973388624     -88.4881532
9.109                0.973321738      -88.635975
9.11                 0.973254677     -88.7841763
9.111                0.973187442      -88.932758
9.112                0.973120033     -89.0817211
9.113                 0.97305245     -89.2310667
9.114                0.972984694     -89.3807958
9.115                0.972916763     -89.5309093
9.116                0.972848658     -89.6814082
9.117                 0.97278038     -89.8322936
9.118                0.972711927     -89.9835665
9.119                0.972643301     -90.1352278
9.12                 0.972574501     -90.2872787
9.121                0.972505527     -90.4397199
9.122                0.972436379     -90.5925527
9.123                0.972367058      -90.745778
9.124                0.972297563     -90.8993967
9.125                0.972227895     -91.0534099
9.126                0.972158054     -91.2078187
9.127                0.972088039     -91.3626239
9.128                0.972017852     -91.5178266
9.129                0.971947491     -91.6734278
9.13                 0.971876957     -91.8294285
9.131                0.971806251     -91.9858297
9.132                0.971735372     -92.1426324
9.133                0.971664321     -92.2998376
9.134                0.971593098     -92.4574462
9.135                0.971521702     -92.6154594
9.136                0.971450135     -92.7738781
9.137                0.971378395     -92.9327032
9.138                0.971306485     -93.0919358
9.139                0.971234403     -93.2515769
9.14                  0.97116215     -93.4116275
9.141                0.971089726     -93.5720885
9.142                0.971017132     -93.7329609
9.143                0.970944367     -93.8942458
9.144                0.970871432     -94.0559441
9.145                0.970798327     -94.2180569
9.146                0.970725053      -94.380585
9.147                 0.97065161     -94.5435295
9.148                0.970577997     -94.7068914
9.149                0.970504216     -94.8706716
9.15                 0.970430267     -95.0348711
9.151                0.970356149     -95.1994909
9.152                0.970281864      -95.364532
9.153                0.970207412     -95.5299954
9.154                0.970132793      -95.695882
9.155                0.970058007     -95.8621928
9.156                0.969983055     -96.0289287
9.157                0.969907937     -96.1960908
9.158                0.969832654       -96.36368
9.159                0.969757206     -96.5316972
9.16                 0.969681593     -96.7001435
9.161                0.969605816     -96.8690197
9.162                0.969529876     -97.0383268
9.163                0.969453773     -97.2080659
9.164                0.969377506     -97.3782378
9.165                0.969301078     -97.5488434
9.166                0.969224488     -97.7198838
9.167                0.969147737     -97.8913599
9.168                0.969070825     -98.0632726
9.169                0.968993753     -98.2356228
9.17                 0.968916521     -98.4084115
9.171                0.968839131     -98.5816396
9.172                0.968761582     -98.7553081
9.173                0.968683875     -98.9294179
9.174                0.968606011     -99.1039698
9.175                0.968527991     -99.2789648
9.176                0.968449814     -99.4544039
9.177                0.968371482     -99.6302879
9.178                0.968292996     -99.8066178
9.179                0.968214356     -99.9833944
9.18                 0.968135562     -100.160619
9.181                0.968056616     -100.338291
9.182                0.967977518     -100.516414
9.183                0.967898268     -100.694986
9.184                0.967818869      -100.87401
9.185                 0.96773932     -101.053486
9.186                0.967659622     -101.233415
9.187                0.967579775     -101.413798
9.188                0.967499782     -101.594635
9.189                0.967419642     -101.775928
9.19                 0.967339357     -101.957678
9.191                0.967258927     -102.139884
9.192                0.967178353     -102.322549
9.193                0.967097636     -102.505673
9.194                0.967016777     -102.689257
9.195                0.966935776     -102.873301
9.196                0.966854636     -103.057807
9.197                0.966773356     -103.242775
9.198                0.966691938     -103.428207
9.199                0.966610382     -103.614102
9.2                   0.96652869     -103.800462
9.201                0.966446863     -103.987288
9.202                0.966364901      -104.17458
9.203                0.966282807     -104.362339
9.204                0.966200579     -104.550567
9.205                0.966118221     -104.739263
9.206                0.966035733     -104.928428
9.207                0.965953116     -105.118064
9.208                0.965870371     -105.308171
9.209                0.965787499     -105.498749
9.21                 0.965704502       -105.6898
9.211                0.965621381     -105.881325
9.212                0.965538136     -106.073323
9.213                 0.96545477     -106.265796
9.214                0.965371283     -106.458745
9.215                0.965287676      -106.65217
9.216                0.965203952     -106.846072
9.217                0.965120111     -107.040451
9.218                0.965036154     -107.235309
9.219                0.964952083     -107.430645
9.22                 0.964867899     -107.626462
9.221                0.964783604     -107.822758
9.222                0.964699199     -108.019536
9.223                0.964614685     -108.216795
9.224                0.964530064     -108.414537
9.225                0.964445337     -108.612762
9.226                0.964360506      -108.81147
9.227                0.964275572     -109.010662
9.228                0.964190537     -109.210339
9.229                0.964105402     -109.410502
9.23                 0.964020169     -109.611151
9.231                0.963934839     -109.812286
9.232                0.963849415     -110.013908
9.233                0.963763896     -110.216019
9.234                0.963678286     -110.418617
9.235                0.963592586     -110.621705
9.236                0.963506797     -110.825282
9.237                0.963420921     -111.029349
9.238                0.963334961     -111.233906
9.239                0.963248916     -111.438954
9.24                 0.963162791     -111.644494
9.241                0.963076585     -111.850526
9.242                0.962990301      -112.05705
9.243                0.962903942     -112.264068
9.244                0.962817507     -112.471578
9.245                0.962731001     -112.679583
9.246                0.962644423     -112.888082
9.247                0.962557777     -113.097076
9.248                0.962471064     -113.306565
9.249                0.962384286     -113.516549
9.25                 0.962297445      -113.72703
9.251                0.962210543     -113.938007
9.252                0.962123583      -114.14948
9.253                0.962036565     -114.361451
9.254                0.961949493     -114.573919
9.255                0.961862367     -114.786885
9.256                0.961775192      -115.00035
9.257                0.961687967     -115.214312
9.258                0.961600697     -115.428774
9.259                0.961513382     -115.643734
9.26                 0.961426025     -115.859194
9.261                0.961338628     -116.075154
9.262                0.961251194     -116.291613
9.263                0.961163725     -116.508573
9.264                0.961076222     -116.726033
9.265                0.960988689     -116.943993
9.266                0.960901127     -117.162454
9.267                 0.96081354     -117.381417
9.268                0.960725928      -117.60088
9.269                0.960638296     -117.820845
9.27                 0.960550644     -118.041311
9.271                0.960462976     -118.262278
9.272                0.960375294     -118.483748
9.273                0.960287601     -118.705719
9.274                0.960199899     -118.928192
9.275                 0.96011219     -119.151168
9.276                0.960024478     -119.374645
9.277                0.959936764     -119.598624
9.278                0.959849051     -119.823106
9.279                0.959761343     -120.048089
9.28                 0.959673641     -120.273575
9.281                0.959585948     -120.499563
9.282                0.959498267     -120.726053
9.283                0.959410601     -120.953045
9.284                0.959322953      -121.18054
9.285                0.959235324     -121.408536
9.286                0.959147719     -121.637034
9.287                0.959060139     -121.866034
9.288                0.958972588     -122.095535
9.289                0.958885069     -122.325538
9.29                 0.958797583     -122.556043
9.291                0.958710135     -122.787048
9.292                0.958622727     -123.018555
9.293                0.958535363     -123.250562
9.294                0.958448044      -123.48307
9.295                0.958360774     -123.716078
9.296                0.958273557     -123.949586
9.297                0.958186395     -124.183594
9.298                 0.95809929     -124.418102
9.299                0.958012247     -124.653109
9.3                  0.957925269     -124.888614
9.301                0.957838358     -125.124618
9.302                0.957751517     -125.361121
9.303                0.957664751     -125.598121
9.304                0.957578061     -125.835618
9.305                0.957491451     -126.073613
9.306                0.957404925     -126.312104
9.307                0.957318486     -126.551091
9.308                0.957232137     -126.790573
9.309                0.957145881     -127.030551
9.31                 0.957059721     -127.271023
9.311                0.956973661      -127.51199
9.312                0.956887705      -127.75345
9.313                0.956801855     -127.995402
9.314                0.956716115     -128.237848
9.315                0.956630489     -128.480784
9.316                 0.95654498     -128.724212
9.317                0.956459591     -128.968131
9.318                0.956374326     -129.212539
9.319                0.956289188     -129.457436
9.32                 0.956204181     -129.702822
9.321                0.956119309     -129.948695
9.322                0.956034574     -130.195055
9.323                0.955949981     -130.441901
9.324                0.955865533     -130.689233
9.325                0.955781234     -130.937049
9.326                0.955697088     -131.185348
9.327                0.955613097     -131.434131
9.328                0.955529266     -131.683395
9.329                0.955445598     -131.933141
9.33                 0.955362098     -132.183366
9.331                0.955278768     -132.434071
9.332                0.955195613     -132.685254
9.333                0.955112636     -132.936914
9.334                0.955029841      -133.18905
9.335                0.954947232     -133.441662
9.336                0.954864813     -133.694747
9.337                0.954782587     -133.948306
9.338                0.954700558     -134.202336
9.339                 0.95461873     -134.456837
9.34                 0.954537108     -134.711808
9.341                0.954455694     -134.967248
9.342                0.954374493     -135.223155
9.343                0.954293509     -135.479527
9.344                0.954212745     -135.736365
9.345                0.954132206     -135.993666
9.346                0.954051895      -136.25143
9.347                0.953971817     -136.509655
9.348                0.953891974     -136.768339
9.349                0.953812373     -137.027482
9.35                 0.953733015     -137.287081
9.351                0.953653906     -137.547136
9.352                0.953575049     -137.807646
9.353                0.953496449     -138.068608
9.354                0.953418108     -138.330021
9.355                0.953340033     -138.591884
9.356                0.953262225     -138.854195
9.357                0.953184691     -139.116953
9.358                0.953107432     -139.380156
9.359                0.953030455     -139.643803
9.36                 0.952953762     -139.907892
9.361                0.952877358      -140.17242
9.362                0.952801247     -140.437388
9.363                0.952725432     -140.702792
9.364                0.952649919     -140.968632
9.365                0.952574712     -141.234905
9.366                0.952499813      -141.50161
9.367                0.952425228     -141.768745
9.368                 0.95235096     -142.036308
9.369                0.952277015     -142.304297
9.37                 0.952203395     -142.572711
9.371                0.952130105     -142.841548
9.372                0.952057149     -143.110805
9.373                0.951984531     -143.380481
9.374                0.951912256     -143.650574
9.375                0.951840327     -143.921081
9.376                0.951768749     -144.192002
9.377                0.951697526     -144.463333
9.378                0.951626661     -144.735073
9.379                 0.95155616      -145.00722
9.38                 0.951486026     -145.279772
9.381                0.951416263     -145.552726
9.382                0.951346876      -145.82608
9.383                0.951277868     -146.099832
9.384                0.951209244     -146.373981
9.385                0.951141008     -146.648523
9.386                0.951073163     -146.923457
9.387                0.951005715      -147.19878
9.388                0.950938667      -147.47449
9.389                0.950872023     -147.750584
9.39                 0.950805788     -148.027061
9.391                0.950739965     -148.303918
9.392                0.950674558     -148.581153
9.393                0.950609572     -148.858762
9.394                0.950545011     -149.136744
9.395                0.950480878     -149.415097
9.396                0.950417178     -149.693817
