! TOUCHSTONE file generated by CST DESIGN STUDIO
! Date and time: Tue Feb  4 14:00:19 2025
! Project name: C:\Work\MatlabApps\UnitCellOptimizationMatlab\CST\unitcell.cst
! Tree item: Tasks\Sweep1\SPara1\S-Parameters
! Header version: 2024
! Port assignment regex: !\s*Touchstone port\s*([0-9]+)\s*=\s*(CST MWS port|CST DES external port|CST DES block port)\s*(.+)\s* \(\"(.*)\"\)(\s*mode\s*([0-9]+))?.*
! Touchstone port assignment:
! Touchstone port 1 = CST DES external port 1 ("")
# GHz S MA R 50
9                    0.960542404     -55.1223298
9.001                0.960463854      -55.194933
9.002                0.960385059     -55.2676975
9.003                0.960306018     -55.3406239
9.004                0.960226731     -55.4137126
9.005                0.960147196     -55.4869641
9.006                0.960067413      -55.560379
9.007                0.959987382     -55.6339577
9.008                  0.9599071     -55.7077008
9.009                0.959826569     -55.7816088
9.01                 0.959745785     -55.8556822
9.011                0.959664749     -55.9299215
9.012                0.959583461     -56.0043273
9.013                0.959501918        -56.0789
9.014                 0.95942012     -56.1536401
9.015                0.959338067     -56.2285483
9.016                0.959255757     -56.3036251
9.017                0.959173189     -56.3788709
9.018                0.959090364     -56.4542863
9.019                0.959007279     -56.5298718
9.02                 0.958923934      -56.605628
9.021                0.958840328     -56.6815554
9.022                 0.95875646     -56.7576546
9.023                 0.95867233      -56.833926
9.024                0.958587936     -56.9103703
9.025                0.958503278      -56.986988
9.026                0.958418355     -57.0637795
9.027                0.958333165     -57.1407456
9.028                0.958247708     -57.2178867
9.029                0.958161983     -57.2952033
9.03                 0.958075989     -57.3726961
9.031                0.957989726     -57.4503656
9.032                0.957903192     -57.5282123
9.033                0.957816386     -57.6062368
9.034                0.957729308     -57.6844397
9.035                0.957641956     -57.7628216
9.036                 0.95755433     -57.8413829
9.037                0.957466429     -57.9201244
9.038                0.957378251     -57.9990465
9.039                0.957289797     -58.0781498
9.04                 0.957201064     -58.1574349
9.041                0.957112053     -58.2369023
9.042                0.957022762     -58.3165528
9.043                 0.95693319     -58.3963867
9.044                0.956843336     -58.4764048
9.045                0.956753199     -58.5566076
9.046                0.956662779     -58.6369957
9.047                0.956572075     -58.7175697
9.048                0.956481085     -58.7983301
9.049                0.956389808     -58.8792777
9.05                 0.956298244     -58.9604129
9.051                0.956206392     -59.0417363
9.052                 0.95611425     -59.1232487
9.053                0.956021819     -59.2049505
9.054                0.955929096     -59.2868424
9.055                0.955836081      -59.368925
9.056                0.955742772     -59.4511988
9.057                 0.95564917     -59.5336646
9.058                0.955555272     -59.6163229
9.059                0.955461079     -59.6991744
9.06                 0.955366588     -59.7822196
9.061                  0.9552718     -59.8654592
9.062                0.955176712     -59.9488938
9.063                0.955081325      -60.032524
9.064                0.954985636     -60.1163504
9.065                0.954889646     -60.2003738
9.066                0.954793353     -60.2845947
9.067                0.954696755     -60.3690137
9.068                0.954599853     -60.4536315
9.069                0.954502645     -60.5384487
9.07                  0.95440513      -60.623466
9.071                0.954307307     -60.7086841
9.072                0.954209175     -60.7941034
9.073                0.954110734     -60.8797248
9.074                0.954011981     -60.9655488
9.075                0.953912916     -61.0515762
9.076                0.953813539     -61.1378075
9.077                0.953713847     -61.2242434
9.078                 0.95361384     -61.3108846
9.079                0.953513518     -61.3977318
9.08                 0.953412878     -61.4847855
9.081                 0.95331192     -61.5720466
9.082                0.953210643     -61.6595155
9.083                0.953109046     -61.7471931
9.084                0.953007128       -61.83508
9.085                0.952904887     -61.9231768
9.086                0.952802323     -62.0114843
9.087                0.952699435     -62.1000031
9.088                0.952596222     -62.1887339
9.089                0.952492682     -62.2776774
9.09                 0.952388815     -62.3668343
9.091                0.952284619     -62.4562053
9.092                0.952180094      -62.545791
9.093                0.952075238     -62.6355922
9.094                 0.95197005     -62.7256095
9.095                 0.95186453     -62.8158437
9.096                0.951758676     -62.9062955
9.097                0.951652487     -62.9969655
9.098                0.951545963     -63.0878545
9.099                0.951439101     -63.1789632
9.1                  0.951331901     -63.2702923
9.101                0.951224362     -63.3618425
9.102                0.951116483     -63.4536145
9.103                0.951008263     -63.5456091
9.104                0.950899701      -63.637827
9.105                0.950790795     -63.7302688
9.106                0.950681544     -63.8229354
9.107                0.950571948     -63.9158275
9.108                0.950462005     -64.0089457
9.109                0.950351715     -64.1022909
9.11                 0.950241076     -64.1958637
9.111                0.950130087      -64.289665
9.112                0.950018747     -64.3836954
9.113                0.949907054     -64.4779557
9.114                0.949795009     -64.5724466
9.115                0.949682609     -64.6671689
9.116                0.949569854     -64.7621234
9.117                0.949456742     -64.8573108
9.118                0.949343273     -64.9527318
9.119                0.949229445     -65.0483873
9.12                 0.949115258     -65.1442779
9.121                0.949000709     -65.2404045
9.122                0.948885798     -65.3367678
9.123                0.948770525     -65.4333687
9.124                0.948654887     -65.5302078
9.125                0.948538883     -65.6272859
9.126                0.948422513     -65.7246039
9.127                0.948305776     -65.8221624
9.128                 0.94818867     -65.9199624
9.129                0.948071194     -66.0180046
9.13                 0.947953348     -66.1162897
9.131                0.947835129     -66.2148186
9.132                0.947716537      -66.313592
9.133                0.947597571     -66.4126108
9.134                0.947478229     -66.5118758
9.135                0.947358511     -66.6113877
9.136                0.947238415     -66.7111475
9.137                 0.94711794     -66.8111557
9.138                0.946997086     -66.9114134
9.139                 0.94687585     -67.0119213
9.14                 0.946754232     -67.1126802
9.141                0.946632231      -67.213691
9.142                0.946509846     -67.3149544
9.143                0.946387075     -67.4164713
9.144                0.946263917     -67.5182425
9.145                0.946140372     -67.6202689
9.146                0.946016437     -67.7225513
9.147                0.945892113     -67.8250904
9.148                0.945767397     -67.9278873
9.149                0.945642289     -68.0309426
9.15                 0.945516788     -68.1342573
9.151                0.945390891     -68.2378322
9.152                  0.9452646     -68.3416682
9.153                0.945137911      -68.445766
9.154                0.945010824     -68.5501266
9.155                0.944883338     -68.6547508
9.156                0.944755452     -68.7596395
9.157                0.944627164     -68.8647935
9.158                0.944498474     -68.9702137
9.159                 0.94436938      -69.075901
9.16                 0.944239881     -69.1818563
9.161                0.944109976     -69.2880804
9.162                0.943979664     -69.3945741
9.163                0.943848944     -69.5013385
9.164                0.943717815     -69.6083743
9.165                0.943586275     -69.7156825
9.166                0.943454323     -69.8232639
9.167                0.943321959     -69.9311195
9.168                0.943189181     -70.0392501
9.169                0.943055988     -70.1476566
9.17                 0.942922378     -70.2563399
9.171                0.942788351      -70.365301
9.172                0.942653906     -70.4745407
9.173                0.942519042       -70.58406
9.174                0.942383756     -70.6938597
9.175                0.942248049     -70.8039409
9.176                0.942111919     -70.9143043
9.177                0.941975365     -71.0249509
9.178                0.941838386     -71.1358816
9.179                 0.94170098     -71.2470974
9.18                 0.941563147     -71.3585993
9.181                0.941424886      -71.470388
9.182                0.941286195     -71.5824646
9.183                0.941147073       -71.69483
9.184                0.941007519     -71.8074851
9.185                0.940867532      -71.920431
9.186                0.940727112     -72.0336684
9.187                0.940586256     -72.1471984
9.188                0.940444963      -72.261022
9.189                0.940303234       -72.37514
9.19                 0.940161066     -72.4895535
9.191                0.940018458     -72.6042634
9.192                0.939875409     -72.7192707
9.193                0.939731919     -72.8345762
9.194                0.939587986     -72.9501811
9.195                0.939443609     -73.0660863
9.196                0.939298787     -73.1822927
9.197                0.939153519     -73.2988013
9.198                0.939007804     -73.4156132
9.199                 0.93886164     -73.5327292
9.2                  0.938715027     -73.6501504
9.201                0.938567964     -73.7678778
9.202                0.938420449     -73.8859123
9.203                0.938272482      -74.004255
9.204                0.938124061     -74.1229068
9.205                0.937975186     -74.2418688
9.206                0.937825854     -74.3611419
9.207                0.937676066     -74.4807272
9.208                0.937525821     -74.6006256
9.209                0.937375116     -74.7208382
9.21                 0.937223952      -74.841366
9.211                0.937072326     -74.9622101
9.212                0.936920239     -75.0833713
9.213                0.936767689     -75.2048508
9.214                0.936614675     -75.3266496
9.215                0.936461196     -75.4487686
9.216                0.936307251      -75.571209
9.217                0.936152839     -75.6939718
9.218                0.935997959      -75.817058
9.219                 0.93584261     -75.9404686
9.22                 0.935686792     -76.0642047
9.221                0.935530502     -76.1882674
9.222                0.935373741     -76.3126576
9.223                0.935216506     -76.4373764
9.224                0.935058798      -76.562425
9.225                0.934900615     -76.6878042
9.226                0.934741957     -76.8135153
9.227                0.934582821     -76.9395592
9.228                0.934423209      -77.065937
9.229                0.934263117     -77.1926499
9.23                 0.934102547     -77.3196987
9.231                0.933941495     -77.4470847
9.232                0.933779963     -77.5748089
9.233                0.933617949     -77.7028724
9.234                0.933455451     -77.8312762
9.235                0.933292469     -77.9600215
9.236                0.933129003     -78.0891093
9.237                0.932965051     -78.2185407
9.238                0.932800613     -78.3483168
9.239                0.932635687     -78.4784387
9.24                 0.932470273     -78.6089075
9.241                0.932304369     -78.7397242
9.242                0.932137976     -78.8708901
9.243                0.931971092     -79.0024061
9.244                0.931803717     -79.1342735
9.245                0.931635849     -79.2664932
9.246                0.931467488     -79.3990665
9.247                0.931298633     -79.5319943
9.248                0.931129284     -79.6652779
9.249                0.930959439     -79.7989184
9.25                 0.930789098     -79.9329169
9.251                 0.93061826     -80.0672744
9.252                0.930446924     -80.2019922
9.253                 0.93027509     -80.3370713
9.254                0.930102757     -80.4725129
9.255                0.929929924     -80.6083181
9.256                 0.92975659      -80.744488
9.257                0.929582756     -80.8810238
9.258                0.929408419     -81.0179267
9.259                 0.92923358     -81.1551977
9.26                 0.929058238      -81.292838
9.261                0.928882392     -81.4308488
9.262                0.928706042     -81.5692311
9.263                0.928529187     -81.7079862
9.264                0.928351826     -81.8471152
9.265                0.928173959     -81.9866193
9.266                0.927995585     -82.1264995
9.267                0.927816704     -82.2667572
9.268                0.927637315     -82.4073933
9.269                0.927457418     -82.5484092
9.27                 0.927277012     -82.6898059
9.271                0.927096097     -82.8315846
9.272                0.926914672     -82.9737465
9.273                0.926732736     -83.1162928
9.274                 0.92655029     -83.2592245
9.275                0.926367333      -83.402543
9.276                0.926183864     -83.5462494
9.277                0.925999883     -83.6903448
9.278                0.925815389     -83.8348305
9.279                0.925630383     -83.9797076
9.28                 0.925444864     -84.1249773
9.281                0.925258831     -84.2706408
9.282                0.925072284     -84.4166992
9.283                0.924885224     -84.5631538
9.284                0.924697649     -84.7100058
9.285                0.924509559     -84.8572563
9.286                0.924320954     -85.0049066
9.287                0.924131834     -85.1529577
9.288                0.923942199      -85.301411
9.289                0.923752048     -85.4502677
9.29                 0.923561381     -85.5995288
9.291                0.923370199     -85.7491957
9.292                  0.9231785     -85.8992695
9.293                0.922986285     -86.0497514
9.294                0.922793554     -86.2006426
9.295                0.922600306     -86.3519444
9.296                0.922406542      -86.503658
9.297                0.922212262     -86.6557845
9.298                0.922017465     -86.8083251
9.299                0.921822151     -86.9612811
9.3                  0.921626321     -87.1146538
9.301                0.921429975     -87.2684442
9.302                0.921233112     -87.4226536
9.303                0.921035733     -87.5772832
9.304                0.920837837     -87.7323343
9.305                0.920639426      -87.887808
9.306                0.920440499     -88.0437056
9.307                0.920241056     -88.2000283
9.308                0.920041097     -88.3567773
9.309                0.919840623     -88.5139538
9.31                 0.919639635     -88.6715591
9.311                0.919438131     -88.8295943
9.312                0.919236113     -88.9880608
9.313                0.919033581     -89.1469596
9.314                0.918830535     -89.3062921
9.315                0.918626976     -89.4660594
9.316                0.918422904     -89.6262628
9.317                0.918218319     -89.7869034
9.318                0.918013222     -89.9479826
9.319                0.917807614     -90.1095016
9.32                 0.917601494     -90.2714615
9.321                0.917394864     -90.4338636
9.322                0.917187724     -90.5967091
9.323                0.916980075     -90.7599992
9.324                0.916771917     -90.9237352
9.325                0.916563251     -91.0879183
9.326                0.916354078     -91.2525497
9.327                0.916144398     -91.4176306
9.328                0.915934212     -91.5831622
9.329                0.915723521     -91.7491458
9.33                 0.915512326     -91.9155826
9.331                0.915300627     -92.0824739
9.332                0.915088425     -92.2498207
9.333                0.914875723     -92.4176244
9.334                0.914662519     -92.5858861
9.335                0.914448815     -92.7546072
9.336                0.914234613     -92.9237887
9.337                0.914019913      -93.093432
9.338                0.913804717     -93.2635381
9.339                0.913589025     -93.4341085
9.34                 0.913372839     -93.6051442
9.341                0.913156159     -93.7766464
9.342                0.912938988     -93.9486164
9.343                0.912721325     -94.1210555
9.344                0.912503174     -94.2939647
9.345                0.912284534     -94.4673453
9.346                0.912065408     -94.6411985
9.347                0.911845796     -94.8155255
9.348                  0.9116257     -94.9903275
9.349                0.911405122     -95.1656057
9.35                 0.911184063     -95.3413614
9.351                0.910962525     -95.5175956
9.352                0.910740509     -95.6943096
9.353                0.910518016     -95.8715046
9.354                 0.91029505     -96.0491817
9.355                 0.91007161     -96.2273423
9.356                  0.9098477     -96.4059873
9.357                 0.90962332     -96.5851181
9.358                0.909398473     -96.7647357
9.359                0.909173161     -96.9448415
9.36                 0.908947385     -97.1254364
9.361                0.908721148     -97.3065218
9.362                0.908494451     -97.4880988
9.363                0.908267296     -97.6701685
9.364                0.908039686     -97.8527321
9.365                0.907811623     -98.0357908
9.366                0.907583109     -98.2193457
9.367                0.907354145      -98.403398
9.368                0.907124736     -98.5879488
9.369                0.906894882     -98.7729992
9.37                 0.906664586     -98.9585505
9.371                0.906433851     -99.1446036
9.372                0.906202679     -99.3311599
9.373                0.905971072     -99.5182203
9.374                0.905739033     -99.7057861
9.375                0.905506565     -99.8938583
9.376                0.905273671     -100.082438
9.377                0.905040353     -100.271526
9.378                0.904806613     -100.461125
9.379                0.904572455     -100.651234
9.38                 0.904337882     -100.841855
9.381                0.904102896     -101.032989
9.382                  0.9038675     -101.224637
9.383                0.903631698       -101.4168
9.384                0.903395493      -101.60948
9.385                0.903158887     -101.802677
9.386                0.902921884     -101.996393
9.387                0.902684487     -102.190628
9.388                0.902446699     -102.385383
9.389                0.902208524     -102.580661
9.39                 0.901969965      -102.77646
9.391                0.901731025     -102.972784
9.392                0.901491709     -103.169632
9.393                0.901252019     -103.367006
9.394                0.901011959     -103.564907
9.395                0.900771534     -103.763335
9.396                0.900530745     -103.962292
