! TOUCHSTONE file generated by CST DESIGN STUDIO
! Date and time: Tue Feb  4 14:00:18 2025
! Project name: C:\Work\MatlabApps\UnitCellOptimizationMatlab\CST\unitcell.cst
! Tree item: Tasks\Sweep1\SPara1\S-Parameters
! Header version: 2024
! Port assignment regex: !\s*Touchstone port\s*([0-9]+)\s*=\s*(CST MWS port|CST DES external port|CST DES block port)\s*(.+)\s* \(\"(.*)\"\)(\s*mode\s*([0-9]+))?.*
! Touchstone port assignment:
! Touchstone port 1 = CST DES external port 1 ("")
# GHz S MA R 50
9                    0.958192892     -59.1633626
9.001                0.958103823     -59.2440763
9.002                0.958014474     -59.3249764
9.003                0.957924844     -59.4060636
9.004                0.957834932     -59.4873383
9.005                0.957744736     -59.5688013
9.006                0.957654256     -59.6504531
9.007                0.957563491     -59.7322943
9.008                0.957472441     -59.8143255
9.009                0.957381103     -59.8965473
9.01                 0.957289477     -59.9789603
9.011                0.957197562     -60.0615651
9.012                0.957105358     -60.1443624
9.013                0.957012863     -60.2273528
9.014                0.956920075     -60.3105368
9.015                0.956826996     -60.3939151
9.016                0.956733622     -60.4774883
9.017                0.956639954     -60.5612571
9.018                0.956545991     -60.6452219
9.019                 0.95645173     -60.7293836
9.02                 0.956357173     -60.8137427
9.021                0.956262316     -60.8982998
9.022                 0.95616716     -60.9830555
9.023                0.956071704     -61.0680106
9.024                0.955975946     -61.1531656
9.025                0.955879886     -61.2385212
9.026                0.955783522      -61.324078
9.027                0.955686854     -61.4098367
9.028                 0.95558988     -61.4957978
9.029                  0.9554926     -61.5819622
9.03                 0.955395013     -61.6683303
9.031                0.955297117     -61.7549029
9.032                0.955198911     -61.8416807
9.033                0.955100396     -61.9286642
9.034                0.955001568     -62.0158541
9.035                0.954902429     -62.1032512
9.036                0.954802975      -62.190856
9.037                0.954703208     -62.2786692
9.038                0.954603124     -62.3666915
9.039                0.954502725     -62.4549236
9.04                 0.954402008     -62.5433662
9.041                0.954300972     -62.6320199
9.042                0.954199616     -62.7208853
9.043                 0.95409794     -62.8099633
9.044                0.953995943     -62.8992544
9.045                0.953893622     -62.9887594
9.046                0.953790978     -63.0784789
9.047                0.953688009     -63.1684137
9.048                0.953584715     -63.2585643
9.049                0.953481093     -63.3489316
9.05                 0.953377144     -63.4395162
9.051                0.953272866     -63.5303188
9.052                0.953168258     -63.6213402
9.053                0.953063318     -63.7125809
9.054                0.952958047     -63.8040418
9.055                0.952852443     -63.8957236
9.056                0.952746504     -63.9876269
9.057                0.952640231     -64.0797524
9.058                 0.95253362      -64.172101
9.059                0.952426673     -64.2646733
9.06                 0.952319387       -64.35747
9.061                0.952211762     -64.4504918
9.062                0.952103796     -64.5437395
9.063                0.951995489     -64.6372139
9.064                0.951886839     -64.7309156
9.065                0.951777845     -64.8248454
9.066                0.951668506      -64.919004
9.067                0.951558822     -65.0133921
9.068                 0.95144879     -65.1080106
9.069                0.951338411     -65.2028601
9.07                 0.951227682     -65.2979414
9.071                0.951116603     -65.3932552
9.072                0.951005173     -65.4888023
9.073                 0.95089339     -65.5845835
9.074                0.950781254     -65.6805995
9.075                0.950668764     -65.7768511
9.076                0.950555918      -65.873339
9.077                0.950442715      -65.970064
9.078                0.950329154     -66.0670269
9.079                0.950215234     -66.1642284
9.08                 0.950100955     -66.2616693
9.081                0.949986314     -66.3593504
9.082                0.949871311     -66.4572725
9.083                0.949755945     -66.5554363
9.084                0.949640214     -66.6538426
9.085                0.949524118     -66.7524923
9.086                0.949407656     -66.8513861
9.087                0.949290825     -66.9505247
9.088                0.949173626     -67.0499091
9.089                0.949056057     -67.1495399
9.09                 0.948938117     -67.2494181
9.091                0.948819805     -67.3495443
9.092                 0.94870112     -67.4499194
9.093                 0.94858206     -67.5505442
9.094                0.948462625     -67.6514196
9.095                0.948342813     -67.7525462
9.096                0.948222624      -67.853925
9.097                0.948102056     -67.9555568
9.098                0.947981108     -68.0574423
9.099                0.947859779     -68.1595825
9.1                  0.947738068     -68.2619781
9.101                0.947615974     -68.3646299
9.102                0.947493495     -68.4675388
9.103                0.947370631     -68.5707057
9.104                 0.94724738     -68.6741313
9.105                0.947123742     -68.7778165
9.106                0.946999715     -68.8817622
9.107                0.946875298     -68.9859691
9.108                 0.94675049     -69.0904382
9.109                 0.94662529     -69.1951703
9.11                 0.946499697     -69.3001662
9.111                0.946373709     -69.4054268
9.112                0.946247326      -69.510953
9.113                0.946120546     -69.6167456
9.114                0.945993369     -69.7228054
9.115                0.945865792     -69.8291335
9.116                0.945737816     -69.9357305
9.117                0.945609439     -70.0425974
9.118                 0.94548066     -70.1497351
9.119                0.945351477     -70.2571445
9.12                  0.94522189     -70.3648263
9.121                0.945091897     -70.4727816
9.122                0.944961498     -70.5810112
9.123                0.944830691     -70.6895159
9.124                0.944699475     -70.7982968
9.125                 0.94456785     -70.9073546
9.126                0.944435813     -71.0166902
9.127                0.944303364     -71.1263047
9.128                0.944170502     -71.2361988
9.129                0.944037225     -71.3463735
9.13                 0.943903533     -71.4568296
9.131                0.943769424     -71.5675682
9.132                0.943634898     -71.6785901
9.133                0.943499953     -71.7898961
9.134                0.943364588     -71.9014874
9.135                0.943228802     -72.0133647
9.136                0.943092594      -72.125529
9.137                0.942955963     -72.2379812
9.138                0.942818908     -72.3507223
9.139                0.942681427     -72.4637531
9.14                  0.94254352     -72.5770747
9.141                0.942405185     -72.6906879
9.142                0.942266421     -72.8045938
9.143                0.942127228     -72.9187931
9.144                0.941987605      -73.033287
9.145                0.941847549     -73.1480763
9.146                 0.94170706      -73.263162
9.147                0.941566138      -73.378545
9.148                 0.94142478     -73.4942264
9.149                0.941282986      -73.610207
9.15                 0.941140755     -73.7264879
9.151                0.940998086     -73.8430699
9.152                0.940854978     -73.9599541
9.153                0.940711429     -74.0771415
9.154                0.940567438      -74.194633
9.155                0.940423005     -74.3124295
9.156                0.940278129     -74.4305322
9.157                0.940132808     -74.5489419
9.158                0.939987042     -74.6676596
9.159                0.939840828     -74.7866863
9.16                 0.939694168     -74.9060231
9.161                0.939547058     -75.0256709
9.162                0.939399499     -75.1456307
9.163                0.939251489     -75.2659035
9.164                0.939103027     -75.3864903
9.165                0.938954113     -75.5073922
9.166                0.938804744       -75.62861
9.167                0.938654921     -75.7501449
9.168                0.938504642     -75.8719978
9.169                0.938353907     -75.9941698
9.17                 0.938202713     -76.1166619
9.171                0.938051061      -76.239475
9.172                0.937898949     -76.3626103
9.173                0.937746377     -76.4860688
9.174                0.937593343     -76.6098514
9.175                0.937439846     -76.7339592
9.176                0.937285886     -76.8583933
9.177                0.937131461     -76.9831546
9.178                0.936976571     -77.1082443
9.179                0.936821214     -77.2336633
9.18                  0.93666539     -77.3594127
9.181                0.936509098     -77.4854936
9.182                0.936352336      -77.611907
9.183                0.936195104     -77.7386539
9.184                0.936037402     -77.8657355
9.185                0.935879227     -77.9931527
9.186                 0.93572058     -78.1209066
9.187                0.935561459     -78.2489983
9.188                0.935401864     -78.3774289
9.189                0.935241793     -78.5061994
9.19                 0.935081246     -78.6353108
9.191                0.934920221     -78.7647644
9.192                0.934758719     -78.8945611
9.193                0.934596738      -79.024702
9.194                0.934434277     -79.1551881
9.195                0.934271336     -79.2860207
9.196                0.934107913     -79.4172007
9.197                0.933944009     -79.5487293
9.198                0.933779621     -79.6806075
9.199                 0.93361475     -79.8128364
9.2                  0.933449394     -79.9454172
9.201                0.933283553     -80.0783509
9.202                0.933117226     -80.2116386
9.203                0.932950412     -80.3452814
9.204                0.932783111     -80.4792804
9.205                0.932615322     -80.6136368
9.206                0.932447043     -80.7483516
9.207                0.932278275      -80.883426
9.208                0.932109017      -81.018861
9.209                0.931939268     -81.1546578
9.21                 0.931769027     -81.2908174
9.211                0.931598293     -81.4273411
9.212                0.931427067       -81.56423
9.213                0.931255347      -81.701485
9.214                0.931083132     -81.8391075
9.215                0.930910423     -81.9770985
9.216                0.930737218     -82.1154591
9.217                0.930563517     -82.2541905
9.218                0.930389319     -82.3932937
9.219                0.930214624     -82.5327701
9.22                 0.930039431     -82.6726206
9.221                0.929863739     -82.8128464
9.222                0.929687549     -82.9534487
9.223                0.929510859     -83.0944286
9.224                 0.92933367     -83.2357872
9.225                 0.92915598     -83.3775257
9.226                0.928977789     -83.5196453
9.227                0.928799096     -83.6621471
9.228                0.928619902     -83.8050322
9.229                0.928440205     -83.9483019
9.23                 0.928260006     -84.0919572
9.231                0.928079304     -84.2359993
9.232                0.927898098     -84.3804294
9.233                0.927716389     -84.5252486
9.234                0.927534175     -84.6704582
9.235                0.927351457     -84.8160592
9.236                0.927168233     -84.9620528
9.237                0.926984505     -85.1084403
9.238                0.926800271     -85.2552227
9.239                0.926615532     -85.4024013
9.24                 0.926430286     -85.5499772
9.241                0.926244535     -85.6979516
9.242                0.926058276     -85.8463256
9.243                0.925871512     -85.9951005
9.244                 0.92568424     -86.1442774
9.245                0.925496461     -86.2938576
9.246                0.925308175      -86.443842
9.247                0.925119382     -86.5942321
9.248                0.924930082     -86.7450289
9.249                0.924740274     -86.8962336
9.25                 0.924549959     -87.0478475
9.251                0.924359136     -87.1998716
9.252                0.924167805     -87.3523072
9.253                0.923975967     -87.5051555
9.254                0.923783621     -87.6584177
9.255                0.923590768     -87.8120949
9.256                0.923397407     -87.9661883
9.257                0.923203539     -88.1206992
9.258                0.923009163     -88.2756287
9.259                 0.92281428     -88.4309781
9.26                  0.92261889     -88.5867484
9.261                0.922422994      -88.742941
9.262                 0.92222659     -88.8995569
9.263                 0.92202968     -89.0565975
9.264                0.921832264     -89.2140639
9.265                0.921634342     -89.3719572
9.266                0.921435915     -89.5302787
9.267                0.921236981     -89.6890296
9.268                0.921037543     -89.8482111
9.269                0.920837601     -90.0078244
9.27                 0.920637154     -90.1678706
9.271                0.920436203     -90.3283511
9.272                0.920234748     -90.4892668
9.273                0.920032791     -90.6506192
9.274                0.919830332     -90.8124093
9.275                 0.91962737     -90.9746384
9.276                0.919423907     -91.1373077
9.277                0.919219944     -91.3004183
9.278                 0.91901548     -91.4639715
9.279                0.918810516     -91.6279684
9.28                 0.918605054     -91.7924103
9.281                0.918399094     -91.9572983
9.282                0.918192636     -92.1226337
9.283                0.917985681     -92.2884176
9.284                0.917778231     -92.4546513
9.285                0.917570285     -92.6213358
9.286                0.917361846     -92.7884725
9.287                0.917152912     -92.9560625
9.288                0.916943487     -93.1241071
9.289                 0.91673357     -93.2926073
9.29                 0.916523162     -93.4615644
9.291                0.916312265     -93.6309795
9.292                0.916100879      -93.800854
9.293                0.915889006     -93.9711888
9.294                0.915676647     -94.1419853
9.295                0.915463802     -94.3132447
9.296                0.915250474      -94.484968
9.297                0.915036663     -94.6571565
9.298                 0.91482237     -94.8298113
9.299                0.914607597     -95.0029337
9.3                  0.914392345     -95.1765248
9.301                0.914176615     -95.3505858
9.302                 0.91396041     -95.5251178
9.303                0.913743729     -95.7001221
9.304                0.913526576     -95.8755998
9.305                 0.91330895      -96.051552
9.306                0.913090855     -96.2279799
9.307                 0.91287229     -96.4048847
9.308                0.912653259     -96.5822676
9.309                0.912433762     -96.7601297
9.31                 0.912213802     -96.9384721
9.311                 0.91199338      -97.117296
9.312                0.911772497     -97.2966026
9.313                0.911551157      -97.476393
9.314                 0.91132936     -97.6566683
9.315                0.911107108     -97.8374297
9.316                0.910884404     -98.0186783
9.317                0.910661249     -98.2004153
9.318                0.910437645     -98.3826417
9.319                0.910213595     -98.5653588
9.32                 0.909989101     -98.7485676
9.321                0.909764165     -98.9322693
9.322                0.909538788     -99.1164649
9.323                0.909312974     -99.3011556
9.324                0.909086724     -99.4863425
9.325                0.908860041     -99.6720267
9.326                0.908632928     -99.8582093
9.327                0.908405386     -100.044891
9.328                0.908177419     -100.232074
9.329                0.907949028     -100.419758
9.33                 0.907720217     -100.607945
9.331                0.907490987     -100.796636
9.332                0.907261343     -100.985832
9.333                0.907031285     -101.175534
9.334                0.906800818     -101.365743
9.335                0.906569944      -101.55646
9.336                0.906338666     -101.747686
9.337                0.906106986     -101.939422
9.338                0.905874908      -102.13167
9.339                0.905642435      -102.32443
9.34                  0.90540957     -102.517703
9.341                0.905176316     -102.711491
9.342                0.904942676     -102.905794
9.343                0.904708653     -103.100613
9.344                0.904474252      -103.29595
9.345                0.904239474     -103.491805
9.346                0.904004324     -103.688179
9.347                0.903768804     -103.885074
9.348                0.903532919      -104.08249
9.349                0.903296673     -104.280429
9.35                 0.903060067     -104.478891
9.351                0.902823107     -104.677877
9.352                0.902585796     -104.877388
9.353                0.902348138     -105.077426
9.354                0.902110137     -105.277991
9.355                0.901871796     -105.479083
9.356                 0.90163312     -105.680705
9.357                0.901394112     -105.882857
9.358                0.901154777     -106.085539
9.359                0.900915119     -106.288753
9.36                 0.900675141       -106.4925
9.361                0.900434849      -106.69678
9.362                0.900194247     -106.901595
9.363                0.899953338     -107.106945
9.364                0.899712128     -107.312831
9.365                0.899470621     -107.519254
9.366                0.899228821     -107.726214
9.367                0.898986733     -107.933714
9.368                0.898744363     -108.141752
9.369                0.898501713     -108.350331
9.37                  0.89825879     -108.559451
9.371                0.898015598     -108.769113
9.372                0.897772143     -108.979318
9.373                0.897528428     -109.190066
9.374                 0.89728446     -109.401358
9.375                0.897040243     -109.613195
9.376                0.896795783     -109.825578
9.377                0.896551084     -110.038507
9.378                0.896306153     -110.251984
9.379                0.896060994     -110.466008
9.38                 0.895815613     -110.680581
9.381                0.895570016     -110.895702
9.382                0.895324208     -111.111374
9.383                0.895078195     -111.327597
9.384                0.894831983      -111.54437
9.385                0.894585576     -111.761696
9.386                0.894338982     -111.979574
9.387                0.894092206     -112.198005
9.388                0.893845255      -112.41699
9.389                0.893598133     -112.636529
9.39                 0.893350848     -112.856623
9.391                0.893103406     -113.077272
9.392                0.892855812     -113.298478
9.393                0.892608074      -113.52024
9.394                0.892360197     -113.742559
9.395                0.892112188     -113.965436
9.396                0.891864054      -114.18887
