! TOUCHSTONE file generated by CST DESIGN STUDIO
! Date and time: Tue Feb  4 14:00:08 2025
! Project name: C:\Work\MatlabApps\UnitCellOptimizationMatlab\CST\unitcell.cst
! Tree item: Tasks\Sweep1\SPara1\S-Parameters
! Header version: 2024
! Port assignment regex: !\s*Touchstone port\s*([0-9]+)\s*=\s*(CST MWS port|CST DES external port|CST DES block port)\s*(.+)\s* \(\"(.*)\"\)(\s*mode\s*([0-9]+))?.*
! Touchstone port assignment:
! Touchstone port 1 = CST DES external port 1 ("")
# GHz S MA R 50
9                      0.9443663     -84.6808161
9.001                0.944213733     -84.8238319
9.002                0.944060712     -84.9672305
9.003                0.943907236      -85.111013
9.004                0.943753305     -85.2551805
9.005                0.943598917     -85.3997341
9.006                0.943444074     -85.5446751
9.007                0.943288773     -85.6900044
9.008                0.943133015     -85.8357234
9.009                0.942976799      -85.981833
9.01                 0.942820124     -86.1283346
9.011                0.942662991     -86.2752291
9.012                0.942505398     -86.4225177
9.013                0.942347345     -86.5702017
9.014                0.942188832     -86.7182821
9.015                0.942029858     -86.8667601
9.016                0.941870423     -87.0156369
9.017                0.941710527     -87.1649135
9.018                0.941550169     -87.3145912
9.019                0.941389349     -87.4646711
9.02                 0.941228066     -87.6151543
9.021                0.941066321     -87.7660421
9.022                0.940904112     -87.9173355
9.023                 0.94074144     -88.0690357
9.024                0.940578304      -88.221144
9.025                0.940414704     -88.3736613
9.026                 0.94025064      -88.526589
9.027                0.940086112     -88.6799282
9.028                0.939921119     -88.8336799
9.029                0.939755661     -88.9878455
9.03                 0.939589737      -89.142426
9.031                0.939423349     -89.2974226
9.032                0.939256496     -89.4528365
9.033                0.939089177     -89.6086689
9.034                0.938921392     -89.7649208
9.035                0.938753142     -89.9215935
9.036                0.938584426     -90.0786882
9.037                0.938415244      -90.236206
9.038                0.938245597      -90.394148
9.039                0.938075484     -90.5525154
9.04                 0.937904905     -90.7113095
9.041                 0.93773386     -90.8705313
9.042                 0.93756235     -91.0301821
9.043                0.937390374     -91.1902629
9.044                0.937217933      -91.350775
9.045                0.937045026     -91.5117196
9.046                0.936871654     -91.6730977
9.047                0.936697817     -91.8349106
9.048                0.936523515     -91.9971594
9.049                0.936348748     -92.1598454
9.05                 0.936173517     -92.3229695
9.051                0.935997822     -92.4865331
9.052                0.935821662     -92.6505373
9.053                0.935645039     -92.8149832
9.054                0.935467953      -92.979872
9.055                0.935290404     -93.1452049
9.056                0.935112393      -93.310983
9.057                0.934933919     -93.4772075
9.058                0.934754983     -93.6438795
9.059                0.934575586     -93.8110003
9.06                 0.934395728     -93.9785709
9.061                 0.93421541     -94.1465925
9.062                0.934034632     -94.3150663
9.063                0.933853395     -94.4839935
9.064                0.933671699     -94.6533751
9.065                0.933489545     -94.8232123
9.066                0.933306934     -94.9935063
9.067                0.933123866     -95.1642582
9.068                0.932940342     -95.3354692
9.069                0.932756362     -95.5071404
9.07                 0.932571928      -95.679273
9.071                 0.93238704     -95.8518681
9.072                0.932201699     -96.0249268
9.073                0.932015906     -96.1984503
9.074                0.931829662     -96.3724397
9.075                0.931642967     -96.5468961
9.076                0.931455823     -96.7218207
9.077                 0.93126823     -96.8972146
9.078                0.931080189     -97.0730789
9.079                0.930891702     -97.2494148
9.08                  0.93070277     -97.4262234
9.081                0.930513393     -97.6035057
9.082                0.930323573      -97.781263
9.083                0.930133311     -97.9594963
9.084                0.929942608     -98.1382067
9.085                0.929751466     -98.3173953
9.086                0.929559885     -98.4970633
9.087                0.929367867     -98.6772117
9.088                0.929175413     -98.8578417
9.089                0.928982524     -99.0389543
9.09                 0.928789203     -99.2205506
9.091                 0.92859545     -99.4026318
9.092                0.928401267     -99.5851988
9.093                0.928206655     -99.7682528
9.094                0.928011616     -99.9517949
9.095                0.927816152     -100.135826
9.096                0.927620263     -100.320348
9.097                0.927423953      -100.50536
9.098                0.927227222     -100.690865
9.099                0.927030072     -100.876864
9.1                  0.926832505     -101.063356
9.101                0.926634523     -101.250345
9.102                0.926436127     -101.437829
9.103                 0.92623732     -101.625812
9.104                0.926038104     -101.814293
9.105                 0.92583848     -102.003273
9.106                 0.92563845     -102.192755
9.107                0.925438017     -102.382737
9.108                0.925237182     -102.573223
9.109                0.925035949     -102.764212
9.11                 0.924834318     -102.955706
9.111                0.924632292     -103.147706
9.112                0.924429874     -103.340212
9.113                0.924227065     -103.533226
9.114                0.924023869     -103.726749
9.115                0.923820287     -103.920781
9.116                0.923616322     -104.115324
9.117                0.923411976     -104.310378
9.118                0.923207253     -104.505945
9.119                0.923002154     -104.702025
9.12                 0.922796682      -104.89862
9.121                 0.92259084      -105.09573
9.122                0.922384631     -105.293356
9.123                0.922178057     -105.491499
9.124                0.921971122     -105.690161
9.125                0.921763827     -105.889341
9.126                0.921556176     -106.089042
9.127                0.921348173     -106.289263
9.128                0.921139819     -106.490006
9.129                0.920931118     -106.691271
9.13                 0.920722074      -106.89306
9.131                0.920512689     -107.095373
9.132                0.920302966     -107.298211
9.133                0.920092909     -107.501575
9.134                0.919882522     -107.705466
9.135                0.919671807     -107.909885
9.136                0.919460767     -108.114832
9.137                0.919249407     -108.320308
9.138                 0.91903773     -108.526314
9.139                 0.91882574     -108.732851
9.14                  0.91861344      -108.93992
9.141                0.918400833     -109.147521
9.142                0.918187924     -109.355656
9.143                0.917974717     -109.564324
9.144                0.917761214     -109.773527
9.145                0.917547421     -109.983265
9.146                0.917333341     -110.193539
9.147                0.917118978     -110.404351
9.148                0.916904336     -110.615699
9.149                0.916689419     -110.827586
9.15                 0.916474232     -111.040012
9.151                0.916258778     -111.252978
9.152                0.916043063     -111.466483
9.153                 0.91582709      -111.68053
9.154                0.915610863     -111.895118
9.155                0.915394388     -112.110248
9.156                0.915177669     -112.325921
9.157                 0.91496071     -112.542137
9.158                0.914743516     -112.758898
9.159                0.914526092     -112.976202
9.16                 0.914308442     -113.194052
9.161                0.914090571     -113.412448
9.162                0.913872485     -113.631389
9.163                0.913654188     -113.850877
9.164                0.913435684     -114.070913
9.165                0.913216981     -114.291496
9.166                0.912998081     -114.512627
9.167                0.912778991     -114.734307
9.168                0.912559715     -114.956537
9.169                 0.91234026     -115.179315
9.17                  0.91212063     -115.402644
9.171                0.911900831     -115.626523
9.172                0.911680868     -115.850953
9.173                0.911460747     -116.075934
9.174                0.911240474     -116.301467
9.175                0.911020053     -116.527552
9.176                0.910799492     -116.754188
9.177                0.910578795     -116.981378
9.178                0.910357969      -117.20912
9.179                 0.91013702     -117.437416
9.18                 0.909915953     -117.666265
9.181                0.909694774     -117.895668
9.182                 0.90947349     -118.125625
9.183                0.909252107     -118.356136
9.184                0.909030631     -118.587202
9.185                0.908809069     -118.818822
9.186                0.908587426     -119.050997
9.187                0.908365709     -119.283727
9.188                0.908143925     -119.517013
9.189                0.907922081     -119.750853
9.19                 0.907700182     -119.985249
9.191                0.907478236     -120.220201
9.192                0.907256249     -120.455708
9.193                0.907034228     -120.691771
9.194                 0.90681218     -120.928389
9.195                0.906590113     -121.165563
9.196                0.906368032     -121.403293
9.197                0.906145945     -121.641578
9.198                 0.90592386      -121.88042
9.199                0.905701782     -122.119816
9.2                  0.905479721     -122.359769
9.201                0.905257682     -122.600276
9.202                0.905035674     -122.841339
9.203                0.904813704     -123.082958
9.204                0.904591779     -123.325131
9.205                0.904369906     -123.567859
9.206                0.904148095     -123.811142
9.207                0.903926351     -124.054979
9.208                0.903704684     -124.299371
9.209                  0.9034831     -124.544317
9.21                 0.903261608     -124.789816
9.211                0.903040216     -125.035869
9.212                0.902818932     -125.282474
9.213                0.902597763     -125.529633
9.214                0.902376718     -125.777344
9.215                0.902155806     -126.025607
9.216                0.901935033     -126.274422
9.217                 0.90171441     -126.523787
9.218                0.901493943     -126.773704
9.219                0.901273642     -127.024171
9.22                 0.901053515     -127.275187
9.221                0.900833571     -127.526753
9.222                0.900613818     -127.778868
9.223                0.900394265      -128.03153
9.224                 0.90017492      -128.28474
9.225                0.899955793     -128.538498
9.226                0.899736892     -128.792801
9.227                0.899518226      -129.04765
9.228                0.899299804     -129.303044
9.229                0.899081636     -129.558982
9.23                 0.898863729     -129.815464
9.231                0.898646094     -130.072488
9.232                 0.89842874     -130.330055
9.233                0.898211675     -130.588162
9.234                 0.89799491      -130.84681
9.235                0.897778453     -131.105998
9.236                0.897562313     -131.365723
9.237                0.897346501     -131.625987
9.238                0.897131026     -131.886787
9.239                0.896915897     -132.148123
9.24                 0.896701124     -132.409994
9.241                0.896486717     -132.672399
9.242                0.896272685     -132.935336
9.243                0.896059038     -133.198805
9.244                0.895845786     -133.462804
9.245                0.895632939     -133.727333
9.246                0.895420506      -133.99239
9.247                0.895208498     -134.257974
9.248                0.894996924     -134.524084
9.249                0.894785795     -134.790719
9.25                  0.89457512     -135.057877
9.251                 0.89436491     -135.325558
9.252                0.894155175     -135.593759
9.253                0.893945925     -135.862479
9.254                 0.89373717     -136.131718
9.255                0.893528921     -136.401473
9.256                0.893321188     -136.671744
9.257                0.893113981     -136.942528
9.258                 0.89290731     -137.213825
9.259                0.892701187     -137.485632
9.26                 0.892495621     -137.757949
9.261                0.892290622     -138.030773
9.262                0.892086203     -138.304104
9.263                0.891882372     -138.577939
9.264                0.891679141     -138.852277
9.265                 0.89147652     -139.127116
9.266                 0.89127452     -139.402454
9.267                0.891073151      -139.67829
9.268                0.890872425     -139.954622
9.269                0.890672351     -140.231448
9.27                 0.890472941     -140.508766
9.271                0.890274206     -140.786575
9.272                0.890076155     -141.064872
9.273                0.889878801     -141.343656
9.274                0.889682153     -141.622924
9.275                0.889486223     -141.902675
9.276                0.889291022     -142.182906
9.277                0.889096559     -142.463617
9.278                0.888902847     -142.744803
9.279                0.888709896     -143.026464
9.28                 0.888517717     -143.308598
9.281                0.888326321     -143.591201
9.282                0.888135719     -143.874272
9.283                0.887945922     -144.157809
9.284                 0.88775694      -144.44181
9.285                0.887568785     -144.726271
9.286                0.887381468     -145.011192
9.287                0.887194999     -145.296569
9.288                 0.88700939       -145.5824
9.289                0.886824651     -145.868683
9.29                 0.886640794     -146.155415
9.291                0.886457829     -146.442593
9.292                0.886275767     -146.730216
9.293                 0.88609462     -147.018281
9.294                0.885914398     -147.306785
9.295                0.885735112     -147.595726
9.296                0.885556773     -147.885101
9.297                0.885379392     -148.174907
9.298                 0.88520298     -148.465142
9.299                0.885027547     -148.755802
9.3                  0.884853105     -149.046886
9.301                0.884679665     -149.338391
9.302                0.884507236     -149.630313
9.303                0.884335831     -149.922649
9.304                0.884165459     -150.215398
9.305                0.883996131     -150.508556
9.306                0.883827859      -150.80212
9.307                0.883660653     -151.096087
9.308                0.883494524     -151.390455
9.309                0.883329481      -151.68522
9.31                 0.883165537     -151.980378
9.311                  0.8830027     -152.275928
9.312                0.882840983     -152.571866
9.313                0.882680395     -152.868189
9.314                0.882520947     -153.164894
9.315                0.882362649     -153.461977
9.316                0.882205512     -153.759435
9.317                0.882049545     -154.057266
9.318                 0.88189476     -154.355465
9.319                0.881741167      -154.65403
9.32                 0.881588775     -154.952957
9.321                0.881437595     -155.252243
9.322                0.881287636     -155.551884
9.323                 0.88113891     -155.851877
9.324                0.880991426     -156.152219
9.325                0.880845193     -156.452906
9.326                0.880700223     -156.753935
9.327                0.880556523     -157.055302
9.328                0.880414105     -157.357003
9.329                0.880272978     -157.659036
9.33                 0.880133152     -157.961396
9.331                0.879994635     -158.264079
9.332                0.879857438     -158.567083
9.333                 0.87972157     -158.870403
9.334                0.879587041     -159.174035
9.335                0.879453858     -159.477977
9.336                0.879322033     -159.782224
9.337                0.879191574     -160.086773
9.338                0.879062489     -160.391619
9.339                0.878934789     -160.696759
9.34                 0.878808481     -161.002188
9.341                0.878683575     -161.307904
9.342                0.878560079     -161.613902
9.343                0.878438002     -161.920178
9.344                0.878317352     -162.226729
9.345                0.878198138      -162.53355
9.346                0.878080369     -162.840637
9.347                0.877964052     -163.147986
9.348                0.877849195     -163.455594
9.349                0.877735808     -163.763456
9.35                 0.877623897     -164.071568
9.351                 0.87751347     -164.379926
9.352                0.877404536     -164.688526
9.353                0.877297103     -164.997363
9.354                0.877191177     -165.306434
9.355                0.877086766     -165.615734
9.356                0.876983877      -165.92526
9.357                0.876882519     -166.235006
9.358                0.876782697     -166.544969
9.359                0.876684419     -166.855144
9.36                 0.876587693     -167.165528
9.361                0.876492524     -167.476115
9.362                0.876398919     -167.786902
9.363                0.876306886     -168.097883
9.364                 0.87621643     -168.409056
9.365                0.876127559     -168.720415
9.366                0.876040277     -169.031955
9.367                0.875954592     -169.343674
9.368                0.875870509     -169.655565
9.369                0.875788035     -169.967626
9.37                 0.875707174      -170.27985
9.371                0.875627934     -170.592234
9.372                0.875550318     -170.904774
9.373                0.875474333     -171.217464
9.374                0.875399984     -171.530301
9.375                0.875327276     -171.843279
9.376                0.875256214     -172.156395
9.377                0.875186803     -172.469643
9.378                0.875119047     -172.783019
9.379                0.875052952     -173.096519
9.38                 0.874988522     -173.410138
9.381                0.874925761     -173.723871
9.382                0.874864673     -174.037714
9.383                0.874805262     -174.351662
9.384                0.874747534      -174.66571
9.385                 0.87469149     -174.979855
9.386                0.874637135      -175.29409
9.387                0.874584473     -175.608412
9.388                0.874533506     -175.922816
9.389                0.874484239     -176.237297
9.39                 0.874436674     -176.551851
9.391                0.874390814     -176.866472
9.392                0.874346662     -177.181157
9.393                0.874304221       -177.4959
9.394                0.874263493     -177.810697
9.395                0.874224481     -178.125543
9.396                0.874187187     -178.440433
