! TOUCHSTONE file generated by CST DESIGN STUDIO
! Date and time: Tue Feb  4 12:53:51 2025
! Project name: C:\Work\MatlabApps\UnitCellOptimizationMatlab\CST\unitcell.cst
! Tree item: Tasks\Sweep1\SPara1\S-Parameters
! Header version: 2024
! Port assignment regex: !\s*Touchstone port\s*([0-9]+)\s*=\s*(CST MWS port|CST DES external port|CST DES block port)\s*(.+)\s* \(\"(.*)\"\)(\s*mode\s*([0-9]+))?.*
! Touchstone port assignment:
! Touchstone port 1 = CST DES external port 1 ("")
# GHz S MA R 50
9                    0.973422816     -76.3413851
9.001                 0.97335637     -76.4595033
9.002                0.973289719     -76.5779195
9.003                0.973222863     -76.6966347
9.004                0.973155802     -76.8156496
9.005                0.973088535     -76.9349652
9.006                0.973021062     -77.0545824
9.007                0.972953383     -77.1745022
9.008                0.972885496     -77.2947255
9.009                0.972817401     -77.4152531
9.01                 0.972749099      -77.536086
9.011                0.972680588     -77.6572251
9.012                0.972611868     -77.7786713
9.013                0.972542938     -77.9004257
9.014                0.972473799      -78.022489
9.015                0.972404449     -78.1448623
9.016                0.972334888     -78.2675464
9.017                0.972265116     -78.3905424
9.018                0.972195133      -78.513851
9.019                0.972124937     -78.6374734
9.02                 0.972054528     -78.7614104
9.021                0.971983907      -78.885663
9.022                0.971913072      -79.010232
9.023                0.971842024     -79.1351186
9.024                0.971770761     -79.2603235
9.025                0.971699283     -79.3858479
9.026                 0.97162759     -79.5116925
9.027                0.971555681     -79.6378584
9.028                0.971483557     -79.7643466
9.029                0.971411216      -79.891158
9.03                 0.971338658     -80.0182935
9.031                0.971265883     -80.1457541
9.032                0.971192891     -80.2735409
9.033                 0.97111968     -80.4016547
9.034                0.971046251     -80.5300965
9.035                0.970972603     -80.6588673
9.036                0.970898736     -80.7879681
9.037                0.970824649     -80.9173998
9.038                0.970750343     -81.0471635
9.039                0.970675815     -81.1772601
9.04                 0.970601068     -81.3076905
9.041                0.970526099     -81.4384558
9.042                0.970450908      -81.569557
9.043                0.970375496      -81.700995
9.044                0.970299861     -81.8327709
9.045                0.970224004     -81.9648855
9.046                0.970147924       -82.09734
9.047                 0.97007162     -82.2301352
9.048                0.969995093     -82.3632723
9.049                0.969918342     -82.4967521
9.05                 0.969841367     -82.6305757
9.051                0.969764167     -82.7647442
9.052                0.969686742     -82.8992584
9.053                0.969609092     -83.0341194
9.054                0.969531216     -83.1693281
9.055                0.969453115     -83.3048857
9.056                0.969374787     -83.4407931
9.057                0.969296232     -83.5770513
9.058                0.969217451     -83.7136614
9.059                0.969138443     -83.8506242
9.06                 0.969059207     -83.9879409
9.061                0.968979743     -84.1256125
9.062                0.968900052       -84.26364
9.063                0.968820132     -84.4020243
9.064                0.968739984     -84.5407666
9.065                0.968659607     -84.6798678
9.066                0.968579001     -84.8193289
9.067                0.968498166      -84.959151
9.068                0.968417101     -85.0993351
9.069                0.968335807     -85.2398823
9.07                 0.968254283     -85.3807934
9.071                0.968172528     -85.5220697
9.072                0.968090543     -85.6637121
9.073                0.968008327     -85.8057215
9.074                0.967925881     -85.9480992
9.075                0.967843203      -86.090846
9.076                0.967760295     -86.2339631
9.077                0.967677155     -86.3774514
9.078                0.967593783      -86.521312
9.079                 0.96751018     -86.6655459
9.08                 0.967426345     -86.8101541
9.081                0.967342277     -86.9551378
9.082                0.967257978     -87.1004979
9.083                0.967173446     -87.2462355
9.084                0.967088682     -87.3923515
9.085                0.967003685     -87.5388471
9.086                0.966918455     -87.6857233
9.087                0.966832993     -87.8329811
9.088                0.966747297     -87.9806216
9.089                0.966661369     -88.1286458
9.09                 0.966575207     -88.2770547
9.091                0.966488812     -88.4258495
9.092                0.966402184      -88.575031
9.093                0.966315323     -88.7246005
9.094                0.966228228     -88.8745588
9.095                  0.9661409     -89.0249071
9.096                0.966053339     -89.1756465
9.097                0.965965544     -89.3267779
9.098                0.965877515     -89.4783023
9.099                0.965789253      -89.630221
9.1                  0.965700758     -89.7825348
9.101                0.965612029     -89.9352448
9.102                0.965523067     -90.0883522
9.103                0.965433871     -90.2418578
9.104                0.965344441     -90.3957628
9.105                0.965254779     -90.5500683
9.106                0.965164883     -90.7047752
9.107                0.965074754     -90.8598846
9.108                0.964984392     -91.0153975
9.109                0.964893797     -91.1713151
9.11                 0.964802969     -91.3276383
9.111                0.964711908     -91.4843681
9.112                0.964620615     -91.6415057
9.113                0.964529089     -91.7990521
9.114                 0.96443733     -91.9570082
9.115                 0.96434534     -92.1153752
9.116                0.964253117     -92.2741541
9.117                0.964160662      -92.433346
9.118                0.964067976     -92.5929518
9.119                0.963975059     -92.7529726
9.12                  0.96388191     -92.9134094
9.121                 0.96378853     -93.0742634
9.122                0.963694919     -93.2355355
9.123                0.963601078     -93.3972267
9.124                0.963507006     -93.5593381
9.125                0.963412704     -93.7218708
9.126                0.963318173     -93.8848257
9.127                0.963223413     -94.0482038
9.128                0.963128423     -94.2120063
9.129                0.963033204     -94.3762342
9.13                 0.962937758     -94.5408884
9.131                0.962842083       -94.70597
9.132                 0.96274618     -94.8714801
9.133                0.962650051     -95.0374195
9.134                0.962553694     -95.2037895
9.135                0.962457111     -95.3705909
9.136                0.962360302     -95.5378248
9.137                0.962263267     -95.7054923
9.138                0.962166007     -95.8735942
9.139                0.962068523     -96.0421317
9.14                 0.961970814     -96.2111058
9.141                0.961872882     -96.3805174
9.142                0.961774727     -96.5503675
9.143                0.961676349     -96.7206573
9.144                0.961577749     -96.8913876
9.145                0.961478927     -97.0625594
9.146                0.961379885     -97.2341738
9.147                0.961280622     -97.4062318
9.148                 0.96118114     -97.5787343
9.149                0.961081439     -97.7516823
9.15                 0.960981519     -97.9250769
9.151                0.960881381     -98.0989189
9.152                0.960781027     -98.2732094
9.153                0.960680456     -98.4479494
9.154                0.960579669     -98.6231398
9.155                0.960478667     -98.7987816
9.156                0.960377452     -98.9748757
9.157                0.960276022     -99.1514232
9.158                0.960174381      -99.328425
9.159                0.960072527      -99.505882
9.16                 0.959970463     -99.6837952
9.161                0.959868188     -99.8621656
9.162                0.959765704     -100.040994
9.163                0.959663011     -100.220281
9.164                0.959560111     -100.400029
9.165                0.959457005     -100.580237
9.166                0.959353693     -100.760907
9.167                0.959250176      -100.94204
9.168                0.959146455     -101.123637
9.169                0.959042532     -101.305698
9.17                 0.958938407     -101.488225
9.171                0.958834081     -101.671218
9.172                0.958729555     -101.854679
9.173                0.958624831     -102.038608
9.174                 0.95851991     -102.223005
9.175                0.958414792     -102.407873
9.176                0.958309479     -102.593212
9.177                0.958203971     -102.779023
9.178                0.958098271     -102.965306
9.179                0.957992379     -103.152063
9.18                 0.957886297     -103.339294
9.181                0.957780026        -103.527
9.182                0.957673566     -103.715183
9.183                 0.95756692     -103.903842
9.184                0.957460089     -104.092979
9.185                0.957353073     -104.282595
9.186                0.957245875      -104.47269
9.187                0.957138496     -104.663266
9.188                0.957030936     -104.854322
9.189                0.956923199     -105.045861
9.19                 0.956815284     -105.237882
9.191                0.956707194     -105.430387
9.192                0.956598929     -105.623376
9.193                0.956490492      -105.81685
9.194                0.956381884      -106.01081
9.195                0.956273107     -106.205257
9.196                0.956164162     -106.400191
9.197                 0.95605505     -106.595613
9.198                0.955945774     -106.791524
9.199                0.955836335     -106.987924
9.2                  0.955726735     -107.184816
9.201                0.955616976     -107.382198
9.202                0.955507058     -107.580072
9.203                0.955396985     -107.778438
9.204                0.955286757     -107.977298
9.205                0.955176377     -108.176652
9.206                0.955065847       -108.3765
9.207                0.954955168     -108.576844
9.208                0.954844342     -108.777683
9.209                0.954733371      -108.97902
9.21                 0.954622257     -109.180853
9.211                0.954511002     -109.383185
9.212                0.954399609     -109.586015
9.213                0.954288078     -109.789344
9.214                0.954176413     -109.993173
9.215                0.954064614     -110.197502
9.216                0.953952686     -110.402333
9.217                0.953840628     -110.607665
9.218                0.953728445     -110.813499
9.219                0.953616137     -111.019836
9.22                 0.953503707     -111.226676
9.221                0.953391157      -111.43402
9.222                0.953278491     -111.641869
9.223                0.953165709     -111.850222
9.224                0.953052814     -112.059081
9.225                0.952939809     -112.268446
9.226                0.952826696     -112.478317
9.227                0.952713477     -112.688696
9.228                0.952600155     -112.899581
9.229                0.952486732     -113.110975
9.23                 0.952373212     -113.322877
9.231                0.952259595     -113.535287
9.232                0.952145886     -113.748207
9.233                0.952032086     -113.961636
9.234                0.951918199     -114.175576
9.235                0.951804226     -114.390026
9.236                0.951690171     -114.604986
9.237                0.951576036     -114.820458
9.238                0.951461824     -115.036441
9.239                0.951347537     -115.252936
9.24                  0.95123318     -115.469944
9.241                0.951118754     -115.687463
9.242                0.951004262     -115.905496
9.243                0.950889707     -116.124042
9.244                0.950775092     -116.343101
9.245                 0.95066042     -116.562674
9.246                0.950545695      -116.78276
9.247                0.950430918     -117.003361
9.248                0.950316094     -117.224476
9.249                0.950201224     -117.446106
9.25                 0.950086313     -117.668251
9.251                0.949971364      -117.89091
9.252                0.949856379     -118.114085
9.253                0.949741362     -118.337775
9.254                0.949626316      -118.56198
9.255                0.949511244     -118.786701
9.256                 0.94939615     -119.011937
9.257                0.949281037     -119.237689
9.258                0.949165909     -119.463957
9.259                0.949050768     -119.690741
9.26                 0.948935618     -119.918041
9.261                0.948820462     -120.145857
9.262                0.948705305     -120.374189
9.263                0.948590149     -120.603036
9.264                0.948474999       -120.8324
9.265                0.948359857     -121.062279
9.266                0.948244728     -121.292675
9.267                0.948129614     -121.523586
9.268                 0.94801452     -121.755013
9.269                 0.94789945     -121.986956
9.27                 0.947784406     -122.219414
9.271                0.947669394     -122.452387
9.272                0.947554416     -122.685876
9.273                0.947439476     -122.919879
9.274                0.947324579     -123.154398
9.275                0.947209728     -123.389431
9.276                0.947094927     -123.624979
9.277                 0.94698018      -123.86104
9.278                0.946865491     -124.097616
9.279                0.946750864     -124.334706
9.28                 0.946636304     -124.572308
9.281                0.946521813     -124.810424
9.282                0.946407397     -125.049052
9.283                0.946293059     -125.288193
9.284                0.946178804     -125.527846
9.285                0.946064635      -125.76801
9.286                0.945950558     -126.008686
9.287                0.945836575     -126.249872
9.288                0.945722692     -126.491569
9.289                0.945608913     -126.733775
9.29                 0.945495242     -126.976491
9.291                0.945381683     -127.219716
9.292                0.945268242     -127.463448
9.293                0.945154921     -127.707689
9.294                0.945041726     -127.952437
9.295                0.944928662     -128.197691
9.296                0.944815732     -128.443452
9.297                0.944702942     -128.689717
9.298                0.944590295     -128.936488
9.299                0.944477796     -129.183762
9.3                  0.944365451      -129.43154
9.301                0.944253263      -129.67982
9.302                0.944141238     -129.928602
9.303                 0.94402938     -130.177885
9.304                0.943917693     -130.427669
9.305                0.943806183     -130.677952
9.306                0.943694854     -130.928733
9.307                0.943583711     -131.180013
9.308                0.943472759     -131.431789
9.309                0.943362003     -131.684062
9.31                 0.943251447     -131.936829
9.311                0.943141096     -132.190091
9.312                0.943030956     -132.443846
9.313                0.942921032     -132.698093
9.314                0.942811327     -132.952832
9.315                0.942701848      -133.20806
9.316                0.942592599     -133.463778
9.317                0.942483585     -133.719984
9.318                0.942374812     -133.976677
9.319                0.942266284     -134.233856
9.32                 0.942158006     -134.491519
9.321                0.942049984     -134.749666
9.322                0.941942223     -135.008296
9.323                0.941834728     -135.267406
9.324                0.941727503     -135.526997
9.325                0.941620555     -135.787065
9.326                0.941513889     -136.047612
9.327                0.941407509     -136.308634
9.328                0.941301421     -136.570131
9.329                 0.94119563     -136.832101
9.33                 0.941090141     -137.094543
9.331                0.940984961     -137.357455
9.332                0.940880093     -137.620837
9.333                0.940775544     -137.884686
9.334                0.940671318     -138.149001
9.335                0.940567421      -138.41378
9.336                0.940463859     -138.679023
9.337                0.940360637     -138.944727
9.338                0.940257759     -139.210891
9.339                0.940155233     -139.477514
9.34                 0.940053062     -139.744593
9.341                0.939951252     -140.012126
9.342                 0.93984981     -140.280113
9.343                 0.93974874     -140.548552
9.344                0.939648047      -140.81744
9.345                0.939547738     -141.086777
9.346                0.939447817      -141.35656
9.347                 0.93934829     -141.626787
9.348                0.939249163     -141.897456
9.349                0.939150442     -142.168567
9.35                  0.93905213     -142.440116
9.351                0.938954235     -142.712102
9.352                0.938856761     -142.984523
9.353                0.938759715     -143.257377
9.354                0.938663101     -143.530662
9.355                0.938566925     -143.804375
9.356                0.938471193     -144.078516
9.357                 0.93837591     -144.353082
9.358                0.938281082      -144.62807
9.359                0.938186714     -144.903479
9.36                 0.938092811     -145.179306
9.361                 0.93799938      -145.45555
9.362                0.937906426     -145.732207
9.363                0.937813953     -146.009276
9.364                0.937721969     -146.286755
9.365                0.937630477     -146.564641
9.366                0.937539485     -146.842933
9.367                0.937448997     -147.121626
9.368                0.937359018      -147.40072
9.369                0.937269555     -147.680212
9.37                 0.937180612       -147.9601
9.371                0.937092195      -148.24038
9.372                 0.93700431     -148.521051
9.373                0.936916962      -148.80211
9.374                0.936830156     -149.083555
9.375                0.936743898     -149.365382
9.376                0.936658194      -149.64759
9.377                0.936573048     -149.930176
9.378                0.936488466     -150.213137
9.379                0.936404453     -150.496471
9.38                 0.936321015     -150.780175
9.381                0.936238158     -151.064246
9.382                0.936155885     -151.348682
9.383                0.936074204     -151.633479
9.384                0.935993118     -151.918635
9.385                0.935912633     -152.204148
9.386                0.935832755     -152.490014
9.387                0.935753489     -152.776231
9.388                0.935674839     -153.062795
9.389                0.935596812     -153.349704
9.39                 0.935519411     -153.636955
9.391                0.935442643     -153.924546
9.392                0.935366513     -154.212472
9.393                0.935291025     -154.500731
9.394                0.935216184      -154.78932
9.395                0.935141996     -155.078237
9.396                0.935068466     -155.367477
