! TOUCHSTONE file generated by CST DESIGN STUDIO
! Date and time: Tue Feb  4 12:54:02 2025
! Project name: C:\Work\MatlabApps\UnitCellOptimizationMatlab\CST\unitcell.cst
! Tree item: Tasks\Sweep1\SPara1\S-Parameters
! Header version: 2024
! Port assignment regex: !\s*Touchstone port\s*([0-9]+)\s*=\s*(CST MWS port|CST DES external port|CST DES block port)\s*(.+)\s* \(\"(.*)\"\)(\s*mode\s*([0-9]+))?.*
! Touchstone port assignment:
! Touchstone port 1 = CST DES external port 1 ("")
# GHz S MA R 50
9                    0.976729148     -59.6463652
9.001                0.976682639     -59.7281021
9.002                0.976635986     -59.8100263
9.003                0.976589187     -59.8921384
9.004                0.976542244      -59.974439
9.005                0.976495154     -60.0569286
9.006                0.976447918      -60.139608
9.007                0.976400536     -60.2224776
9.008                0.976353006      -60.305538
9.009                0.976305328     -60.3887899
9.01                 0.976257503     -60.4722339
9.011                0.976209528     -60.5558706
9.012                0.976161405     -60.6397005
9.013                0.976113132     -60.7237243
9.014                0.976064709     -60.8079426
9.015                0.976016136      -60.892356
9.016                0.975967411     -60.9769652
9.017                0.975918535     -61.0617707
9.018                0.975869508     -61.1467731
9.019                0.975820327     -61.2319732
9.02                 0.975770994     -61.3173714
9.021                0.975721508     -61.4029685
9.022                0.975671868      -61.488765
9.023                0.975622073     -61.5747617
9.024                0.975572123      -61.660959
9.025                0.975522019     -61.7473577
9.026                0.975471758     -61.8339585
9.027                0.975421341     -61.9207618
9.028                0.975370768     -62.0077684
9.029                0.975320037      -62.094979
9.03                 0.975269148     -62.1823941
9.031                0.975218101     -62.2700144
9.032                0.975166896     -62.3578406
9.033                0.975115531     -62.4458732
9.034                0.975064007     -62.5341131
9.035                0.975012322     -62.6225608
9.036                0.974960477      -62.711217
9.037                 0.97490847     -62.8000823
9.038                0.974856302     -62.8891574
9.039                0.974803971      -62.978443
9.04                 0.974751478     -63.0679397
9.041                0.974698822     -63.1576483
9.042                0.974646002     -63.2475693
9.043                0.974593018     -63.3377035
9.044                0.974539869     -63.4280515
9.045                0.974486555     -63.5186141
9.046                0.974433075     -63.6093918
9.047                0.974379429     -63.7003855
9.048                0.974325616     -63.7915957
9.049                0.974271636     -63.8830231
9.05                 0.974217488     -63.9746685
9.051                0.974163172     -64.0665325
9.052                0.974108687     -64.1586159
9.053                0.974054033     -64.2509193
9.054                0.973999209     -64.3434434
9.055                0.973944215      -64.436189
9.056                 0.97388905     -64.5291567
9.057                0.973833714     -64.6223473
9.058                0.973778206     -64.7157614
9.059                0.973722525     -64.8093998
9.06                 0.973666672     -64.9032631
9.061                0.973610645     -64.9973522
9.062                0.973554444     -65.0916677
9.063                0.973498069     -65.1862103
9.064                0.973441519     -65.2809808
9.065                0.973384794     -65.3759799
9.066                0.973327892     -65.4712083
9.067                0.973270814     -65.5666667
9.068                0.973213559     -65.6623559
9.069                0.973156126     -65.7582767
9.07                 0.973098516     -65.8544297
9.071                0.973040726     -65.9508157
9.072                0.972982758     -66.0474354
9.073                0.972924609     -66.1442897
9.074                0.972866281     -66.2413791
9.075                0.972807772     -66.3387046
9.076                0.972749082     -66.4362667
9.077                0.972690209     -66.5340664
9.078                0.972631155     -66.6321043
9.079                0.972571918     -66.7303813
9.08                 0.972512497      -66.828898
9.081                0.972452893     -66.9276552
9.082                0.972393104     -67.0266538
9.083                 0.97233313     -67.1258944
9.084                 0.97227297     -67.2253779
9.085                0.972212625      -67.325105
9.086                0.972152093     -67.4250765
9.087                0.972091374     -67.5252931
9.088                0.972030467     -67.6257558
9.089                0.971969373     -67.7264652
9.09                 0.971908089     -67.8274221
9.091                0.971846617     -67.9286273
9.092                0.971784954     -68.0300817
9.093                0.971723102      -68.131786
9.094                0.971661058     -68.2337409
9.095                0.971598823     -68.3359474
9.096                0.971536397     -68.4384062
9.097                0.971473778     -68.5411181
9.098                0.971410966      -68.644084
9.099                 0.97134796     -68.7473046
9.1                  0.971284761     -68.8507807
9.101                0.971221367     -68.9545132
9.102                0.971157777     -69.0585028
9.103                0.971093993     -69.1627505
9.104                0.971030012      -69.267257
9.105                0.970965834     -69.3720231
9.106                0.970901459     -69.4770497
9.107                0.970836887     -69.5823376
9.108                0.970772116     -69.6878876
9.109                0.970707147     -69.7937006
9.11                 0.970641978     -69.8997775
9.111                0.970576609     -70.0061189
9.112                 0.97051104     -70.1127259
9.113                0.970445269     -70.2195992
9.114                0.970379298     -70.3267397
9.115                0.970313124     -70.4341482
9.116                0.970246748     -70.5418256
9.117                0.970180169     -70.6497728
9.118                0.970113386     -70.7579906
9.119                0.970046399     -70.8664798
9.12                 0.969979208     -70.9752414
9.121                0.969911811     -71.0842761
9.122                0.969844208     -71.1935849
9.123                  0.9697764     -71.3031687
9.124                0.969708384     -71.4130283
9.125                0.969640162     -71.5231645
9.126                0.969571731     -71.6335783
9.127                0.969503092     -71.7442706
9.128                0.969434245     -71.8552421
9.129                0.969365187     -71.9664939
9.13                 0.969295921     -72.0780268
9.131                0.969226443     -72.1898417
9.132                0.969156755     -72.3019395
9.133                0.969086855      -72.414321
9.134                0.969016744     -72.5269873
9.135                0.968946419     -72.6399391
9.136                0.968875882     -72.7531774
9.137                0.968805132     -72.8667031
9.138                0.968734167     -72.9805171
9.139                0.968662988     -73.0946203
9.14                 0.968591594     -73.2090137
9.141                0.968519984     -73.3236981
9.142                0.968448158     -73.4386745
9.143                0.968376116     -73.5539437
9.144                0.968303856     -73.6695068
9.145                0.968231379     -73.7853646
9.146                0.968158684     -73.9015181
9.147                0.968085771     -74.0179682
9.148                0.968012638     -74.1347158
9.149                0.967939286     -74.2517619
9.15                 0.967865714     -74.3691074
9.151                0.967791921     -74.4867532
9.152                0.967717907     -74.6047004
9.153                0.967643672     -74.7229497
9.154                0.967569215     -74.8415023
9.155                0.967494535     -74.9603591
9.156                0.967419633     -75.0795209
9.157                0.967344506     -75.1989888
9.158                0.967269156     -75.3187637
9.159                0.967193582     -75.4388466
9.16                 0.967117783     -75.5592384
9.161                0.967041758     -75.6799401
9.162                0.966965508     -75.8009527
9.163                0.966889031     -75.9222772
9.164                0.966812328     -76.0439145
9.165                0.966735397     -76.1658656
9.166                0.966658239     -76.2881314
9.167                0.966580853      -76.410713
9.168                0.966503238     -76.5336114
9.169                0.966425394     -76.6568275
9.17                 0.966347321     -76.7803623
9.171                0.966269018     -76.9042168
9.172                0.966190485      -77.028392
9.173                0.966111721     -77.1528889
9.174                0.966032725     -77.2777085
9.175                0.965953498     -77.4028518
9.176                0.965874039     -77.5283198
9.177                0.965794348     -77.6541134
9.178                0.965714424     -77.7802338
9.179                0.965634266     -77.9066819
9.18                 0.965553875     -78.0334588
9.181                0.965473249     -78.1605653
9.182                0.965392389     -78.2880027
9.183                0.965311294     -78.4157718
9.184                0.965229964     -78.5438736
9.185                0.965148398     -78.6723094
9.186                0.965066596     -78.8010799
9.187                0.964984558     -78.9301863
9.188                0.964902283     -79.0596297
9.189                 0.96481977     -79.1894109
9.19                  0.96473702     -79.3195311
9.191                0.964654032     -79.4499913
9.192                0.964570805     -79.5807926
9.193                 0.96448734     -79.7119359
9.194                0.964403636     -79.8434223
9.195                0.964319692     -79.9752529
9.196                0.964235508     -80.1074287
9.197                0.964151085     -80.2399508
9.198                0.964066421     -80.3728202
9.199                0.963981516     -80.5060379
9.2                  0.963896371     -80.6396051
9.201                0.963810983     -80.7735227
9.202                0.963725355     -80.9077918
9.203                0.963639484     -81.0424135
9.204                0.963553371     -81.1773889
9.205                0.963467015      -81.312719
9.206                0.963380416     -81.4484048
9.207                0.963293574     -81.5844475
9.208                0.963206489     -81.7208481
9.209                 0.96311916     -81.8576077
9.21                 0.963031587     -81.9947274
9.211                 0.96294377     -82.1322082
9.212                0.962855708     -82.2700512
9.213                0.962767401     -82.4082575
9.214                 0.96267885     -82.5468281
9.215                0.962590053     -82.6857642
9.216                0.962501011     -82.8250668
9.217                0.962411723     -82.9647371
9.218                0.962322189      -83.104776
9.219                0.962232409     -83.2451848
9.22                 0.962142383     -83.3859644
9.221                 0.96205211      -83.527116
9.222                 0.96196159     -83.6686406
9.223                0.961870824     -83.8105394
9.224                0.961779811     -83.9528135
9.225                 0.96168855     -84.0954639
9.226                0.961597042     -84.2384918
9.227                0.961505287     -84.3818982
9.228                0.961413284     -84.5256842
9.229                0.961321033      -84.669851
9.23                 0.961228535     -84.8143997
9.231                0.961135788     -84.9593313
9.232                0.961042793      -85.104647
9.233                0.960949551     -85.2503478
9.234                0.960856059      -85.396435
9.235                 0.96076232     -85.5429095
9.236                0.960668332     -85.6897725
9.237                0.960574096     -85.8370252
9.238                0.960479611     -85.9846685
9.239                0.960384877     -86.1327037
9.24                 0.960289895     -86.2811319
9.241                0.960194664     -86.4299541
9.242                0.960099185     -86.5791715
9.243                0.960003457     -86.7287852
9.244                 0.95990748     -86.8787964
9.245                0.959811255      -87.029206
9.246                0.959714781     -87.1800154
9.247                0.959618058     -87.3312255
9.248                0.959521087     -87.4828375
9.249                0.959423868     -87.6348525
9.25                   0.9593264     -87.7872717
9.251                0.959228684     -87.9400961
9.252                 0.95913072     -88.0933269
9.253                0.959032507     -88.2469653
9.254                0.958934047     -88.4010122
9.255                0.958835338      -88.555469
9.256                0.958736383     -88.7103366
9.257                0.958637179     -88.8656162
9.258                0.958537728      -89.021309
9.259                 0.95843803      -89.177416
9.26                 0.958338085     -89.3339384
9.261                0.958237893     -89.4908773
9.262                0.958137454     -89.6482338
9.263                0.958036769     -89.8060091
9.264                0.957935838     -89.9642043
9.265                0.957834661     -90.1228205
9.266                0.957733238     -90.2818588
9.267                 0.95763157     -90.4413204
9.268                0.957529657     -90.6012064
9.269                0.957427499     -90.7615178
9.27                 0.957325096      -90.922256
9.271                 0.95722245     -91.0834218
9.272                 0.95711956     -91.2450166
9.273                0.957016426     -91.4070413
9.274                0.956913049     -91.5694972
9.275                 0.95680943     -91.7323852
9.276                0.956705568     -91.8957067
9.277                0.956601465     -92.0594627
9.278                 0.95649712     -92.2236542
9.279                0.956392534     -92.3882824
9.28                 0.956287708     -92.5533485
9.281                0.956182642     -92.7188536
9.282                0.956077336     -92.8847987
9.283                0.955971791      -93.051185
9.284                0.955866008     -93.2180135
9.285                0.955759987     -93.3852855
9.286                0.955653729      -93.553002
9.287                0.955547234     -93.7211641
9.288                0.955440503     -93.8897729
9.289                0.955333536     -94.0588295
9.29                 0.955226334     -94.2283351
9.291                0.955118899     -94.3982907
9.292                0.955011229     -94.5686975
9.293                0.954903327     -94.7395565
9.294                0.954795192     -94.9108688
9.295                0.954686826     -95.0826355
9.296                 0.95457823     -95.2548577
9.297                0.954469403     -95.4275366
9.298                0.954360347     -95.6006731
9.299                0.954251063     -95.7742684
9.3                  0.954141551     -95.9483236
9.301                0.954031812     -96.1228397
9.302                0.953921848     -96.2978179
9.303                0.953811658     -96.4732591
9.304                0.953701244     -96.6491645
9.305                0.953590608     -96.8255352
9.306                0.953479748     -97.0023721
9.307                0.953368668     -97.1796764
9.308                0.953257367     -97.3574492
9.309                0.953145847     -97.5356914
9.31                 0.953034108     -97.7144042
9.311                0.952922152     -97.8935886
9.312                 0.95280998     -98.0732456
9.313                0.952697593     -98.2533763
9.314                0.952584992     -98.4339818
9.315                0.952472178      -98.615063
9.316                0.952359152      -98.796621
9.317                0.952245915     -98.9786568
9.318                0.952132469     -99.1611716
9.319                0.952018815     -99.3441662
9.32                 0.951904953     -99.5276417
9.321                0.951790887     -99.7115991
9.322                0.951676615     -99.8960394
9.323                0.951562141     -100.080964
9.324                0.951447464     -100.266373
9.325                0.951332588     -100.452268
9.326                0.951217512      -100.63865
9.327                0.951102239      -100.82552
9.328                0.950986769     -101.012879
9.329                0.950871105     -101.200728
9.33                 0.950755247     -101.389067
9.331                0.950639198     -101.577898
9.332                0.950522958     -101.767223
9.333                 0.95040653      -101.95704
9.334                0.950289915     -102.147353
9.335                0.950173114     -102.338161
9.336                0.950056129     -102.529466
9.337                0.949938962     -102.721268
9.338                0.949821615     -102.913569
9.339                0.949704089     -103.106368
9.34                 0.949586385     -103.299669
9.341                0.949468507      -103.49347
9.342                0.949350455     -103.687773
9.343                0.949232231      -103.88258
9.344                0.949113837      -104.07789
9.345                0.948995276     -104.273705
9.346                0.948876548     -104.470026
9.347                0.948757657     -104.666853
9.348                0.948638603     -104.864187
9.349                0.948519389      -105.06203
9.35                 0.948400017     -105.260381
9.351                0.948280489     -105.459243
9.352                0.948160807     -105.658615
9.353                0.948040972     -105.858499
9.354                0.947920989     -106.058895
9.355                0.947800857     -106.259804
9.356                 0.94768058     -106.461227
9.357                0.947560161     -106.663165
9.358                  0.9474396     -106.865618
9.359                  0.9473189     -107.068588
9.36                 0.947198064     -107.272075
9.361                0.947077095      -107.47608
9.362                0.946955993     -107.680603
9.363                0.946834763     -107.885645
9.364                0.946713406     -108.091208
9.365                0.946591925     -108.297291
9.366                0.946470322     -108.503896
9.367                0.946348599     -108.711023
9.368                 0.94622676     -108.918673
9.369                0.946104808     -109.126846
9.37                 0.945982743     -109.335544
9.371                 0.94586057     -109.544766
9.372                0.945738291     -109.754514
9.373                0.945615909     -109.964788
9.374                0.945493426     -110.175589
9.375                0.945370846     -110.386918
9.376                0.945248171     -110.598774
9.377                0.945125403     -110.811159
9.378                0.945002547     -111.024073
9.379                0.944879604     -111.237517
9.38                 0.944756579     -111.451492
9.381                0.944633473     -111.665997
9.382                0.944510289     -111.881034
9.383                0.944387032     -112.096602
9.384                0.944263704     -112.312704
9.385                0.944140308     -112.529338
9.386                0.944016847     -112.746505
9.387                0.943893325     -112.964207
9.388                0.943769744     -113.182443
9.389                0.943646109     -113.401214
9.39                 0.943522422      -113.62052
9.391                0.943398686     -113.840362
9.392                0.943274906      -114.06074
9.393                0.943151084     -114.281654
9.394                0.943027224     -114.503106
9.395                 0.94290333     -114.725094
9.396                0.942779404     -114.947621
