! TOUCHSTONE file generated by CST DESIGN STUDIO
! Date and time: Tue Feb  4 14:37:02 2025
! Project name: C:\Work\MatlabApps\UnitCellOptimizationMatlab\CST\unitcell.cst
! Tree item: Tasks\Sweep1\SPara1\S-Parameters
! Header version: 2024
! Port assignment regex: !\s*Touchstone port\s*([0-9]+)\s*=\s*(CST MWS port|CST DES external port|CST DES block port)\s*(.+)\s* \(\"(.*)\"\)(\s*mode\s*([0-9]+))?.*
! Touchstone port assignment:
! Touchstone port 1 = CST DES external port 1 ("")
# GHz S MA R 50
9                    0.761205088     -87.1562061
9.001                0.760230611     -87.3546042
9.002                0.759251969     -87.5538038
9.003                0.758269155     -87.7538091
9.004                0.757282161     -87.9546245
9.005                0.756290979     -88.1562544
9.006                0.755295602     -88.3587031
9.007                0.754296022     -88.5619751
9.008                0.753292233     -88.7660748
9.009                0.752284228     -88.9710067
9.01                    0.751272     -89.1767754
9.011                0.750255543     -89.3833853
9.012                0.749234852     -89.5908411
9.013                0.748209919     -89.7991473
9.014                0.747180741     -90.0083085
9.015                0.746147311     -90.2183295
9.016                0.745109624     -90.4292148
9.017                0.744067677     -90.6409693
9.018                0.743021463     -90.8535977
9.019                 0.74197098     -91.0671047
9.02                 0.740916222     -91.2814951
9.021                0.739857187     -91.4967739
9.022                0.738793872     -91.7129457
9.023                0.737726272     -91.9300156
9.024                0.736654386     -92.1479885
9.025                 0.73557821     -92.3668694
9.026                0.734497744     -92.5866632
9.027                0.733412984     -92.8073749
9.028                 0.73232393     -93.0290096
9.029                0.731230581     -93.2515725
9.03                 0.730132935     -93.4750686
9.031                0.729030993      -93.699503
9.032                0.727924754      -93.924881
9.033                0.726814218     -94.1512078
9.034                0.725699387     -94.3784887
9.035                0.724580261     -94.6067288
9.036                0.723456841     -94.8359336
9.037                 0.72232913     -95.0661084
9.038                 0.72119713     -95.2972586
9.039                0.720060843     -95.5293896
9.04                 0.718920273     -95.7625068
9.041                0.717775422     -95.9966158
9.042                0.716626295     -96.2317221
9.043                0.715472896     -96.4678312
9.044                0.714315229     -96.7049487
9.045                0.713153301     -96.9430803
9.046                0.711987116     -97.1822315
9.047                0.710816681     -97.4224083
9.048                0.709642002     -97.6636161
9.049                0.708463087     -97.9058609
9.05                 0.707279942     -98.1491485
9.051                0.706092577     -98.3934846
9.052                0.704900999     -98.6388752
9.053                0.703705217     -98.8853262
9.054                0.702505242     -99.1328435
9.055                0.701301084     -99.3814331
9.056                0.700092752     -99.6311011
9.057                0.698880258     -99.8818535
9.058                0.697663614     -100.133696
9.059                0.696442833     -100.386636
9.06                 0.695217927     -100.640678
9.061                0.693988909      -100.89583
9.062                0.692755794     -101.152097
9.063                0.691518597     -101.409485
9.064                0.690277332     -101.668001
9.065                0.689032015     -101.927652
9.066                0.687782664     -102.188443
9.067                0.686529294     -102.450382
9.068                0.685271925     -102.713474
9.069                0.684010574     -102.977726
9.07                  0.68274526     -103.243145
9.071                0.681476004     -103.509737
9.072                0.680202825     -103.777509
9.073                0.678925745     -104.046468
9.074                0.677644785      -104.31662
9.075                0.676359969     -104.587972
9.076                 0.67507132     -104.860531
9.077                 0.67377886     -105.134304
9.078                0.672482616     -105.409297
9.079                0.671182613     -105.685518
9.08                 0.669878877     -105.962973
9.081                0.668571434     -106.241669
9.082                0.667260314     -106.521614
9.083                0.665945543     -106.802814
9.084                0.664627153     -107.085277
9.085                0.663305172      -107.36901
9.086                0.661979633     -107.654019
9.087                0.660650566     -107.940312
9.088                0.659318005     -108.227897
9.089                0.657981983     -108.516781
9.09                 0.656642534      -108.80697
9.091                0.655299694     -109.098473
9.092                0.653953499     -109.391296
9.093                0.652603986     -109.685447
9.094                0.651251193     -109.980934
9.095                0.649895159     -110.277764
9.096                0.648535923     -110.575945
9.097                0.647173527     -110.875484
9.098                0.645808012     -111.176388
9.099                 0.64443942     -111.478666
9.1                  0.643067796     -111.782325
9.101                0.641693183     -112.087373
9.102                0.640315628     -112.393818
9.103                0.638935176     -112.701667
9.104                0.637551877     -113.010928
9.105                0.636165777     -113.321609
9.106                0.634776927     -113.633718
9.107                0.633385377     -113.947263
9.108                 0.63199118     -114.262251
9.109                0.630594387     -114.578691
9.11                 0.629195053     -114.896591
9.111                0.627793233     -115.215958
9.112                0.626388982     -115.536801
9.113                0.624982358     -115.859127
9.114                0.623573419     -116.182945
9.115                0.622162225     -116.508264
9.116                0.620748835      -116.83509
9.117                0.619333311     -117.163432
9.118                0.617915717     -117.493299
9.119                0.616496116     -117.824698
9.12                 0.615074573     -118.157638
9.121                0.613651154     -118.492127
9.122                0.612225928     -118.828174
9.123                0.610798962     -119.165785
9.124                0.609370327      -119.50497
9.125                0.607940093     -119.845738
9.126                0.606508333     -120.188095
9.127                 0.60507512     -120.532051
9.128                 0.60364053     -120.877614
9.129                0.602204638     -121.224792
9.13                 0.600767521     -121.573593
9.131                0.599329258     -121.924026
9.132                 0.59788993     -122.276099
9.133                0.596449616      -122.62982
9.134                  0.5950084     -122.985198
9.135                0.593566364     -123.342241
9.136                0.592123595     -123.700957
9.137                0.590680178     -124.061354
9.138                0.589236201      -124.42344
9.139                0.587791753     -124.787225
9.14                 0.586346924     -125.152715
9.141                0.584901805      -125.51992
9.142                 0.58345649     -125.888847
9.143                0.582011073     -126.259504
9.144                 0.58056565       -126.6319
9.145                0.579120317     -127.006042
9.146                0.577675172     -127.381939
9.147                0.576230316     -127.759598
9.148                0.574785849     -128.139028
9.149                0.573341874     -128.520236
9.15                 0.571898494      -128.90323
9.151                0.570455815     -129.288018
9.152                0.569013943     -129.674607
9.153                0.567572985     -130.063006
9.154                0.566133052     -130.453221
9.155                0.564694253     -130.845261
9.156                0.563256701     -131.239133
9.157                0.561820508     -131.634843
9.158                 0.56038579       -132.0324
9.159                0.558952662      -132.43181
9.16                 0.557521241      -132.83308
9.161                0.556091648     -133.236218
9.162                0.554664001     -133.641231
9.163                0.553238422     -134.048124
9.164                0.551815033     -134.456905
9.165                0.550393959     -134.867581
9.166                0.548975326     -135.280157
9.167                0.547559259     -135.694639
9.168                0.546145888     -136.111035
9.169                0.544735341      -136.52935
9.17                 0.543327748      -136.94959
9.171                0.541923243      -137.37176
9.172                0.540521957     -137.795866
9.173                0.539124027     -138.221913
9.174                0.537729586     -138.649907
9.175                0.536338772     -139.079852
9.176                0.534951724     -139.511753
9.177                 0.53356858     -139.945616
9.178                0.532189482     -140.381443
9.179                0.530814571      -140.81924
9.18                 0.529443989      -141.25901
9.181                0.528077881     -141.700758
9.182                0.526716392     -142.144486
9.183                0.525359668     -142.590198
9.184                0.524007857     -143.037896
9.185                0.522661106     -143.487585
9.186                0.521319565     -143.939266
9.187                0.519983385     -144.392941
9.188                0.518652717     -144.848612
9.189                0.517327713     -145.306281
9.19                 0.516008526      -145.76595
9.191                0.514695311     -146.227619
9.192                0.513388222      -146.69129
9.193                0.512087415     -147.156961
9.194                0.510793047     -147.624635
9.195                0.509505276      -148.09431
9.196                0.508224258     -148.565985
9.197                0.506950154     -149.039661
9.198                0.505683122     -149.515335
9.199                0.504423323     -149.993006
9.2                  0.503170917     -150.472671
9.201                0.501926065     -150.954329
9.202                 0.50068893     -151.437975
9.203                0.499459672     -151.923608
9.204                0.498238456     -152.411223
9.205                0.497025443     -152.900816
9.206                0.495820797     -153.392383
9.207                0.494624681     -153.885918
9.208                 0.49343726     -154.381416
9.209                0.492258697      -154.87887
9.21                 0.491089155     -155.378276
9.211                  0.4899288     -155.879625
9.212                0.488777795     -156.382909
9.213                0.487636304     -156.888122
9.214                0.486504491     -157.395255
9.215                0.485382521     -157.904299
9.216                0.484270556     -158.415243
9.217                 0.48316876     -158.928079
9.218                0.482077296     -159.442796
9.219                0.480996326     -159.959382
9.22                 0.479926013     -160.477826
9.221                0.478866518     -160.998116
9.222                0.477818002     -161.520238
9.223                0.476780626      -162.04418
9.224                 0.47575455     -162.569927
9.225                0.474739931     -163.097466
9.226                0.473736929      -163.62678
9.227                  0.4727457     -164.157854
9.228                  0.4717664     -164.690672
9.229                0.470799185     -165.225216
9.23                 0.469844209      -165.76147
9.231                0.468901623     -166.299415
9.232                 0.46797158     -166.839031
9.233                 0.46705423     -167.380301
9.234                0.466149722     -167.923203
9.235                0.465258201     -168.467717
9.236                0.464379815     -169.013822
9.237                0.463514708     -169.561496
9.238                 0.46266302     -170.110715
9.239                0.461824894     -170.661458
9.24                 0.461000468       -171.2137
9.241                0.460189877     -171.767416
9.242                0.459393258     -172.322582
9.243                0.458610742     -172.879172
9.244                 0.45784246      -173.43716
9.245                0.457088541     -173.996518
9.246                 0.45634911     -174.557219
9.247                 0.45562429     -175.119235
9.248                0.454914204     -175.682538
9.249                0.454218969     -176.247097
9.25                 0.453538701     -176.812883
9.251                0.452873514     -177.379865
9.252                0.452223518     -177.948013
9.253                0.451588822     -178.517294
9.254                 0.45096953     -179.087677
9.255                0.450365744     -179.659128
9.256                0.449777564      179.768385
9.257                0.449205085      179.194897
9.258                  0.4486484      178.620442
9.259                0.448107599      178.045054
9.26                 0.447582769      177.468769
9.261                0.447073993      176.891623
9.262                 0.44658135      176.313652
9.263                0.446104918      175.734893
9.264                0.445644769      175.155383
9.265                0.445200974      174.575159
9.266                0.444773597      173.994259
9.267                0.444362702      173.412721
9.268                0.443968347      172.830585
9.269                0.443590588      172.247889
9.27                 0.443229477      171.664673
9.271                 0.44288506      171.080976
9.272                0.442557383      170.496838
9.273                0.442246485      169.912299
9.274                0.441952403        169.3274
9.275                0.441675169      168.742181
9.276                0.441414813      168.156684
9.277                0.441171358      167.570948
9.278                0.440944827      166.985016
9.279                0.440735236      166.398929
9.28                 0.440542598      165.812729
9.281                0.440366922      165.226455
9.282                0.440208215      164.640152
9.283                0.440066476      164.053859
9.284                0.439941704      163.467619
9.285                0.439833891      162.881474
9.286                0.439743028      162.295465
9.287                  0.4396691      161.709633
9.288                0.439612089      161.124021
9.289                0.439571972       160.53867
9.29                 0.439548723      159.953621
9.291                0.439542313      159.368916
9.292                0.439552708      158.784595
9.293                 0.43957987        158.2007
9.294                0.439623758      157.617271
9.295                0.439684326       157.03435
9.296                0.439761526      156.451975
9.297                0.439855306      155.870187
9.298                0.439965609      155.289027
9.299                0.440092375      154.708533
9.3                  0.440235541      154.128744
9.301                0.440395041        153.5497
9.302                0.440570804      152.971439
9.303                0.440762756      152.393998
9.304                0.440970821      151.817417
9.305                0.441194917      151.241731
9.306                0.441434962      150.666978
9.307                0.441690868      150.093194
9.308                0.441962546      149.520415
9.309                0.442249902      148.948677
9.31                 0.442552841      148.378014
9.311                0.442871263      147.808462
9.312                0.443205066      147.240054
9.313                0.443554147      146.672823
9.314                0.443918396      146.106803
9.315                0.444297705      145.542026
9.316                 0.44469196      144.978523
9.317                0.445101047      144.416326
9.318                0.445524847      143.855466
9.319                 0.44596324      143.295973
9.32                 0.446416103      142.737876
9.321                0.446883313      142.181204
9.322                0.447364742      141.625985
9.323                0.447860261      141.072248
9.324                0.448369738      140.520018
9.325                0.448893042      139.969323
9.326                0.449430038      139.420188
9.327                0.449980587      138.872639
9.328                0.450544554      138.326699
9.329                0.451121796      137.782394
9.33                 0.451712173      137.239745
9.331                0.452315541      136.698775
9.332                0.452931757      136.159508
9.333                0.453560674      135.621962
9.334                0.454202145      135.086161
9.335                0.454856022      134.552123
9.336                0.455522156      134.019867
9.337                0.456200396      133.489413
9.338                 0.45689059      132.960779
9.339                0.457592587      132.433981
9.34                 0.458306233      131.909038
9.341                0.459031374      131.385964
9.342                0.459767856      130.864777
9.343                0.460515523      130.345489
9.344                 0.46127422      129.828117
9.345                 0.46204379      129.312673
9.346                0.462824077      128.799171
9.347                0.463614924      128.287623
9.348                0.464416172      127.778041
9.349                0.465227666      127.270437
9.35                 0.466049246      126.764821
9.351                0.466880755      126.261204
9.352                0.467722035      125.759595
9.353                0.468572928      125.260003
9.354                0.469433277      124.762436
9.355                0.470302923      124.266904
9.356                0.471181708      123.773413
9.357                0.472069476       123.28197
9.358                0.472966069      122.792581
9.359                 0.47387133      122.305253
9.36                 0.474785104      121.819991
9.361                0.475707233        121.3368
9.362                0.476637563      120.855684
9.363                0.477575938      120.376648
9.364                0.478522203      119.899695
9.365                0.479476206      119.424827
9.366                0.480437792      118.952048
9.367                0.481406808       118.48136
9.368                0.482383103      118.012764
9.369                0.483366526      117.546263
9.37                 0.484356927      117.081856
9.371                0.485354154      116.619545
9.372                0.486358061      116.159329
9.373                0.487368498      115.701209
9.374                0.488385319      115.245184
9.375                0.489408378      114.791253
9.376                0.490437529      114.339415
9.377                0.491472629      113.889667
9.378                0.492513534      113.442009
9.379                0.493560103      112.996438
9.38                 0.494612194      112.552952
9.381                0.495669667      112.111546
9.382                0.496732384       111.67222
9.383                0.497800207      111.234968
9.384                0.498872999      110.799787
9.385                0.499950625      110.366673
9.386                 0.50103295      109.935622
9.387                0.502119842       109.50663
9.388                0.503211169      109.079691
9.389                  0.5043068      108.654801
9.39                 0.505406605      108.231955
9.391                0.506510458      107.811146
9.392                 0.50761823       107.39237
9.393                0.508729796       106.97562
9.394                0.509845033       106.56089
9.395                0.510963816      106.148175
9.396                0.512086024      105.737467
