! TOUCHSTONE file generated by CST DESIGN STUDIO
! Date and time: Tue Feb  4 14:37:10 2025
! Project name: C:\Work\MatlabApps\UnitCellOptimizationMatlab\CST\unitcell.cst
! Tree item: Tasks\Sweep1\SPara1\S-Parameters
! Header version: 2024
! Port assignment regex: !\s*Touchstone port\s*([0-9]+)\s*=\s*(CST MWS port|CST DES external port|CST DES block port)\s*(.+)\s* \(\"(.*)\"\)(\s*mode\s*([0-9]+))?.*
! Touchstone port assignment:
! Touchstone port 1 = CST DES external port 1 ("")
# GHz S MA R 50
9                    0.969096509     -42.7314589
9.001                0.969030611      -42.780679
9.002                  0.9689645     -42.8299944
9.003                0.968898175     -42.8794053
9.004                0.968831635      -42.928912
9.005                 0.96876488     -42.9785148
9.006                0.968697907      -43.028214
9.007                0.968630718     -43.0780098
9.008                 0.96856331     -43.1279025
9.009                0.968495683     -43.1778925
9.01                 0.968427836     -43.2279801
9.011                0.968359768     -43.2781654
9.012                0.968291479     -43.3284488
9.013                0.968222967     -43.3788306
9.014                0.968154232     -43.4293111
9.015                0.968085273     -43.4798906
9.016                0.968016088     -43.5305693
9.017                0.967946678     -43.5813476
9.018                0.967877041     -43.6322258
9.019                0.967807176     -43.6832042
9.02                 0.967737083      -43.734283
9.021                 0.96766676     -43.7854626
9.022                0.967596207     -43.8367432
9.023                0.967525422     -43.8881253
9.024                0.967454406      -43.939609
9.025                0.967383156     -43.9911946
9.026                0.967311673     -44.0428826
9.027                0.967239954     -44.0946732
9.028                   0.967168     -44.1465667
9.029                0.967095809     -44.1985633
9.03                 0.967023381     -44.2506636
9.031                0.966950714     -44.3028676
9.032                0.966877807     -44.3551758
9.033                 0.96680466     -44.4075885
9.034                0.966731272     -44.4601059
9.035                0.966657641     -44.5127285
9.036                0.966583767     -44.5654564
9.037                0.966509649     -44.6182902
9.038                0.966435286     -44.6712299
9.039                0.966360676     -44.7242761
9.04                  0.96628582     -44.7774289
9.041                0.966210715     -44.8306888
9.042                0.966135362      -44.884056
9.043                0.966059758     -44.9375309
9.044                0.965983903     -44.9911138
9.045                0.965907797      -45.044805
9.046                0.965831437      -45.098605
9.047                0.965754824     -45.1525139
9.048                0.965677955     -45.2065321
9.049                0.965600831       -45.26066
9.05                 0.965523449     -45.3148979
9.051                0.965445809     -45.3692462
9.052                0.965367911     -45.4237051
9.053                0.965289752     -45.4782751
9.054                0.965211332     -45.5329564
9.055                0.965132651     -45.5877494
9.056                0.965053706     -45.6426544
9.057                0.964974496     -45.6976718
9.058                0.964895022      -45.752802
9.059                0.964815281     -45.8080452
9.06                 0.964735273     -45.8634019
9.061                0.964654996     -45.9188724
9.062                 0.96457445     -45.9744569
9.063                0.964493633      -46.030156
9.064                0.964412545     -46.0859699
9.065                0.964331184      -46.141899
9.066                0.964249549     -46.1979437
9.067                0.964167639     -46.2541042
9.068                0.964085454      -46.310381
9.069                0.964002991     -46.3667745
9.07                  0.96392025     -46.4232849
9.071                0.963837229     -46.4799127
9.072                0.963753928     -46.5366582
9.073                0.963670346     -46.5935218
9.074                0.963586481     -46.6505039
9.075                0.963502332     -46.7076047
9.076                0.963417898     -46.7648248
9.077                0.963333178     -46.8221645
9.078                0.963248171      -46.879624
9.079                0.963162875     -46.9372039
9.08                  0.96307729     -46.9949045
9.081                0.962991414     -47.0527261
9.082                0.962905246     -47.1106692
9.083                0.962818785     -47.1687342
9.084                 0.96273203     -47.2269213
9.085                0.962644979      -47.285231
9.086                0.962557632     -47.3436638
9.087                0.962469987     -47.4022199
9.088                0.962382043     -47.4608997
9.089                0.962293798     -47.5197037
9.09                 0.962205252     -47.5786322
9.091                0.962116404     -47.6376857
9.092                0.962027251     -47.6968645
9.093                0.961937794      -47.756169
9.094                 0.96184803     -47.8155996
9.095                0.961757959     -47.8751567
9.096                0.961667578     -47.9348408
9.097                0.961576888     -47.9946522
9.098                0.961485886     -48.0545913
9.099                0.961394572     -48.1146585
9.1                  0.961302944     -48.1748543
9.101                0.961211001      -48.235179
9.102                0.961118741     -48.2956331
9.103                0.961026163      -48.356217
9.104                0.960933267      -48.416931
9.105                 0.96084005     -48.4777756
9.106                0.960746512     -48.5387513
9.107                 0.96065265     -48.5998583
9.108                0.960558465     -48.6610973
9.109                0.960463954     -48.7224684
9.11                 0.960369116     -48.7839723
9.111                0.960273949     -48.8456094
9.112                0.960178453     -48.9073799
9.113                0.960082627     -48.9692845
9.114                0.959986468     -49.0313234
9.115                0.959889975     -49.0934972
9.116                0.959793148     -49.1558062
9.117                0.959695984      -49.218251
9.118                0.959598482     -49.2808319
9.119                0.959500641     -49.3435494
9.12                  0.95940246     -49.4064039
9.121                0.959303937     -49.4693959
9.122                 0.95920507     -49.5325258
9.123                0.959105859      -49.595794
9.124                0.959006302      -49.659201
9.125                0.958906397     -49.7227473
9.126                0.958806143     -49.7864333
9.127                0.958705539     -49.8502595
9.128                0.958604583     -49.9142262
9.129                0.958503274      -49.978334
9.13                  0.95840161     -50.0425834
9.131                0.958299589     -50.1069747
9.132                0.958197211     -50.1715084
9.133                0.958094474     -50.2361851
9.134                0.957991377     -50.3010051
9.135                0.957887917      -50.365969
9.136                0.957784093     -50.4310772
9.137                0.957679905     -50.4963302
9.138                 0.95757535     -50.5617284
9.139                0.957470426     -50.6272724
9.14                 0.957365133     -50.6929625
9.141                0.957259469     -50.7587993
9.142                0.957153433     -50.8247833
9.143                0.957047022      -50.890915
9.144                0.956940235     -50.9571948
9.145                 0.95683307     -51.0236231
9.146                0.956725527     -51.0902006
9.147                0.956617604     -51.1569277
9.148                0.956509298     -51.2238049
9.149                0.956400609     -51.2908326
9.15                 0.956291534     -51.3580115
9.151                0.956182073     -51.4253419
9.152                0.956072223     -51.4928244
9.153                0.955961983     -51.5604594
9.154                0.955851352     -51.6282475
9.155                0.955740327     -51.6961893
9.156                0.955628907     -51.7642851
9.157                0.955517091     -51.8325355
9.158                0.955404876      -51.900941
9.159                0.955292262     -51.9695022
9.16                 0.955179246     -52.0382195
9.161                0.955065827     -52.1070935
9.162                0.954952003     -52.1761247
9.163                0.954837772     -52.2453135
9.164                0.954723133     -52.3146606
9.165                0.954608084     -52.3841665
9.166                0.954492624     -52.4538317
9.167                 0.95437675     -52.5236566
9.168                0.954260461      -52.593642
9.169                0.954143755     -52.6637882
9.17                  0.95402663     -52.7340958
9.171                0.953909085     -52.8045655
9.172                0.953791118     -52.8751976
9.173                0.953672728     -52.9459927
9.174                0.953553911     -53.0169515
9.175                0.953434667     -53.0880744
9.176                0.953314994      -53.159362
9.177                 0.95319489     -53.2308149
9.178                0.953074354     -53.3024336
9.179                0.952953382     -53.3742186
9.18                 0.952831974     -53.4461705
9.181                0.952710128       -53.51829
9.182                0.952587842     -53.5905775
9.183                0.952465114     -53.6630335
9.184                0.952341942     -53.7356588
9.185                0.952218325     -53.8084539
9.186                 0.95209426     -53.8814192
9.187                0.951969746     -53.9545555
9.188                 0.95184478     -54.0278632
9.189                0.951719362      -54.101343
9.19                 0.951593488     -54.1749955
9.191                0.951467157     -54.2488212
9.192                0.951340368     -54.3228207
9.193                0.951213117     -54.3969946
9.194                0.951085404     -54.4713435
9.195                0.950957227      -54.545868
9.196                0.950828582     -54.6205687
9.197                0.950699469     -54.6954462
9.198                0.950569886      -54.770501
9.199                 0.95043983     -54.8457339
9.2                  0.950309299     -54.9211454
9.201                0.950178292     -54.9967361
9.202                0.950046807     -55.0725066
9.203                0.949914841     -55.1484576
9.204                0.949782392     -55.2245896
9.205                0.949649459     -55.3009033
9.206                0.949516039     -55.3773992
9.207                0.949382131     -55.4540781
9.208                0.949247732     -55.5309406
9.209                 0.94911284     -55.6079872
9.21                 0.948977453     -55.6852187
9.211                0.948841569     -55.7626356
9.212                0.948705187     -55.8402386
9.213                0.948568303     -55.9180283
9.214                0.948430916     -55.9960053
9.215                0.948293024     -56.0741704
9.216                0.948154624     -56.1525241
9.217                0.948015715     -56.2310672
9.218                0.947876294     -56.3098002
9.219                0.947736359     -56.3887238
9.22                 0.947595908     -56.4678387
9.221                0.947454938     -56.5471455
9.222                0.947313449      -56.626645
9.223                0.947171436     -56.7063377
9.224                0.947028899     -56.7862243
9.225                0.946885835     -56.8663056
9.226                0.946742242     -56.9465821
9.227                0.946598117     -57.0270546
9.228                0.946453458     -57.1077237
9.229                0.946308264     -57.1885902
9.23                 0.946162531     -57.2696546
9.231                0.946016258     -57.3509178
9.232                0.945869442     -57.4323804
9.233                0.945722081      -57.514043
9.234                0.945574173     -57.5959064
9.235                0.945425715     -57.6779713
9.236                0.945276706     -57.7602384
9.237                0.945127141     -57.8427084
9.238                0.944977021      -57.925382
9.239                0.944826341     -58.0082599
9.24                   0.9446751     -58.0913428
9.241                0.944523296     -58.1746315
9.242                0.944370925     -58.2581266
9.243                0.944217986     -58.3418289
9.244                0.944064477     -58.4257392
9.245                0.943910394      -58.509858
9.246                0.943755735     -58.5941863
9.247                0.943600499     -58.6787246
9.248                0.943444682     -58.7634738
9.249                0.943288282     -58.8484346
9.25                 0.943131296     -58.9336077
9.251                0.942973723      -59.018994
9.252                 0.94281556      -59.104594
9.253                0.942656804     -59.1904086
9.254                0.942497452     -59.2764386
9.255                0.942337503     -59.3626847
9.256                0.942176954     -59.4491476
9.257                0.942015802     -59.5358282
9.258                0.941854044     -59.6227271
9.259                0.941691679     -59.7098453
9.26                 0.941528703     -59.7971833
9.261                0.941365115     -59.8847421
9.262                 0.94120091     -59.9725225
9.263                0.941036088     -60.0605251
9.264                0.940870645     -60.1487508
9.265                0.940704579     -60.2372003
9.266                0.940537887     -60.3258746
9.267                0.940370566     -60.4147743
9.268                0.940202614     -60.5039002
9.269                0.940034028     -60.5932533
9.27                 0.939864806     -60.6828342
9.271                0.939694944     -60.7726438
9.272                0.939524441     -60.8626829
9.273                0.939353294     -60.9529523
9.274                0.939181499     -61.0434529
9.275                0.939009054     -61.1341854
9.276                0.938835957     -61.2251508
9.277                0.938662205     -61.3163497
9.278                0.938487794     -61.4077832
9.279                0.938312723     -61.4994519
9.28                 0.938136988     -61.5913568
9.281                0.937960586     -61.6834986
9.282                0.937783516     -61.7758783
9.283                0.937605774     -61.8684967
9.284                0.937427357     -61.9613546
9.285                0.937248262     -62.0544529
9.286                0.937068488     -62.1477925
9.287                 0.93688803     -62.2413742
9.288                0.936706886     -62.3351989
9.289                0.936525054     -62.4292675
9.29                  0.93634253     -62.5235808
9.291                0.936159311     -62.6181397
9.292                0.935975395     -62.7129452
9.293                0.935790778      -62.807998
9.294                0.935605459     -62.9032992
9.295                0.935419433     -62.9988495
9.296                0.935232698     -63.0946499
9.297                0.935045251     -63.1907013
9.298                 0.93485709     -63.2870046
9.299                 0.93466821     -63.3835607
9.3                   0.93447861     -63.4803705
9.301                0.934288286     -63.5774349
9.302                0.934097235     -63.6747548
9.303                0.933905454     -63.7723313
9.304                0.933712941     -63.8701651
9.305                0.933519691     -63.9682573
9.306                0.933325703     -64.0666087
9.307                0.933130974     -64.1652203
9.308                0.932935499     -64.2640931
9.309                0.932739276      -64.363228
9.31                 0.932542302     -64.4626259
9.311                0.932344575     -64.5622878
9.312                 0.93214609     -64.6622147
9.313                0.931946845     -64.7624075
9.314                0.931746836     -64.8628672
9.315                0.931546061     -64.9635947
9.316                0.931344516      -65.064591
9.317                0.931142199     -65.1658572
9.318                0.930939106     -65.2673942
9.319                0.930735234     -65.3692029
9.32                 0.930530579     -65.4712844
9.321                0.930325139     -65.5736396
9.322                0.930118911     -65.6762696
9.323                0.929911891     -65.7791754
9.324                0.929704076     -65.8823579
9.325                0.929495463     -65.9858181
9.326                0.929286048     -66.0895572
9.327                0.929075829     -66.1935761
9.328                0.928864802     -66.2978757
9.329                0.928652963     -66.4024573
9.33                 0.928440311     -66.5073217
9.331                 0.92822684       -66.61247
9.332                0.928012549     -66.7179033
9.333                0.927797434     -66.8236225
9.334                0.927581491     -66.9296288
9.335                0.927364717     -67.0359232
9.336                0.927147109     -67.1425068
9.337                0.926928663     -67.2493805
9.338                0.926709377     -67.3565455
9.339                0.926489246     -67.4640028
9.34                 0.926268268     -67.5717536
9.341                0.926046439     -67.6797988
9.342                0.925823756     -67.7881396
9.343                0.925600215      -67.896777
9.344                0.925375813     -68.0057121
9.345                0.925150547     -68.1149461
9.346                0.924924413       -68.22448
9.347                0.924697407     -68.3343149
9.348                0.924469527      -68.444452
9.349                0.924240769     -68.5548923
9.35                 0.924011129     -68.6656369
9.351                0.923780604      -68.776687
9.352                0.923549191     -68.8880437
9.353                0.923316885     -68.9997082
9.354                0.923083685     -69.1116815
9.355                0.922849585     -69.2239648
9.356                0.922614583     -69.3365592
9.357                0.922378675     -69.4494659
9.358                0.922141858      -69.562686
9.359                0.921904128     -69.6762207
9.36                 0.921665481     -69.7900712
9.361                0.921425914     -69.9042385
9.362                0.921185424     -70.0187239
9.363                0.920944007     -70.1335286
9.364                0.920701659     -70.2486537
9.365                0.920458377     -70.3641003
9.366                0.920214157     -70.4798698
9.367                0.919968996     -70.5959632
9.368                 0.91972289     -70.7123819
9.369                0.919475836     -70.8291268
9.37                 0.919227829     -70.9461994
9.371                0.918978867     -71.0636007
9.372                0.918728946     -71.1813321
9.373                0.918478062     -71.2993946
9.374                0.918226211     -71.4177896
9.375                 0.91797339     -71.5365183
9.376                0.917719595     -71.6555818
9.377                0.917464824     -71.7749815
9.378                0.917209071     -71.8947185
9.379                0.916952333     -72.0147942
9.38                 0.916694607     -72.1352097
9.381                0.916435889     -72.2559663
9.382                0.916176176     -72.3770653
9.383                0.915915463      -72.498508
9.384                0.915653748     -72.6202956
9.385                0.915391025     -72.7424294
9.386                0.915127293     -72.8649106
9.387                0.914862546     -72.9877406
9.388                0.914596782     -73.1109206
9.389                0.914329997      -73.234452
9.39                 0.914062186     -73.3583359
9.391                0.913793347     -73.4825738
9.392                0.913523475      -73.607167
9.393                0.913252567     -73.7321167
9.394                 0.91298062     -73.8574242
9.395                0.912707629      -73.983091
9.396                 0.91243359     -74.1091182
