! TOUCHSTONE file generated by CST DESIGN STUDIO
! Date and time: Tue Feb  4 14:37:01 2025
! Project name: C:\Work\MatlabApps\UnitCellOptimizationMatlab\CST\unitcell.cst
! Tree item: Tasks\Sweep1\SPara1\S-Parameters
! Header version: 2024
! Port assignment regex: !\s*Touchstone port\s*([0-9]+)\s*=\s*(CST MWS port|CST DES external port|CST DES block port)\s*(.+)\s* \(\"(.*)\"\)(\s*mode\s*([0-9]+))?.*
! Touchstone port assignment:
! Touchstone port 1 = CST DES external port 1 ("")
# GHz S MA R 50
9                    0.582954043     -119.415556
9.001                0.581365273     -119.778387
9.002                0.579774859     -120.143094
9.003                0.578182895     -120.509689
9.004                0.576589477     -120.878182
9.005                0.574994701     -121.248587
9.006                0.573398668     -121.620914
9.007                0.571801478     -121.995176
9.008                0.570203235     -122.371384
9.009                0.568604042      -122.74955
9.01                 0.567004006     -123.129686
9.011                0.565403236     -123.511804
9.012                0.563801841     -123.895915
9.013                0.562199932     -124.282033
9.014                0.560597624     -124.670168
9.015                0.558995031     -125.060332
9.016                0.557392271     -125.452538
9.017                0.555789462     -125.846797
9.018                0.554186726     -126.243121
9.019                0.552584185     -126.641522
9.02                 0.550981964     -127.042012
9.021                0.549380189     -127.444602
9.022                0.547778989     -127.849305
9.023                0.546178494     -128.256132
9.024                0.544578835     -128.665095
9.025                0.542980148     -129.076205
9.026                0.541382567     -129.489474
9.027                 0.53978623     -129.904913
9.028                0.538191278     -130.322535
9.029                0.536597852      -130.74235
9.03                 0.535006095      -131.16437
9.031                0.533416153     -131.588606
9.032                0.531828173     -132.015068
9.033                0.530242305     -132.443769
9.034                0.528658699     -132.874719
9.035                0.527077509     -133.307929
9.036                0.525498889     -133.743409
9.037                0.523922998     -134.181171
9.038                0.522349992     -134.621223
9.039                0.520780034     -135.063578
9.04                 0.519213285     -135.508244
9.041                0.517649909     -135.955232
9.042                0.516090074     -136.404552
9.043                0.514533948     -136.856212
9.044                0.512981699     -137.310224
9.045                0.511433501     -137.766594
9.046                0.509889525     -138.225334
9.047                0.508349949      -138.68645
9.048                0.506814949     -139.149952
9.049                0.505284704     -139.615849
9.05                 0.503759394     -140.084147
9.051                0.502239202     -140.554855
9.052                0.500724312      -141.02798
9.053                 0.49921491     -141.503528
9.054                0.497711182     -141.981508
9.055                0.496213319     -142.461925
9.056                0.494721509     -142.944786
9.057                0.493235947     -143.430095
9.058                0.491756824      -143.91786
9.059                0.490284336     -144.408083
9.06                  0.48881868     -144.900771
9.061                0.487360054     -145.395928
9.062                0.485908656     -145.893556
9.063                0.484464688      -146.39366
9.064                0.483028351     -146.896243
9.065                0.481599849     -147.401306
9.066                0.480179386     -147.908852
9.067                0.478767167     -148.418882
9.068                0.477363399     -148.931397
9.069                0.475968289     -149.446397
9.07                 0.474582047     -149.963882
9.071                0.473204882     -150.483852
9.072                0.471837003     -151.006305
9.073                0.470478623     -151.531239
9.074                0.469129952     -152.058652
9.075                0.467791205      -152.58854
9.076                0.466462593       -153.1209
9.077                 0.46514433     -153.655727
9.078                0.463836631     -154.193016
9.079                0.462539711      -154.73276
9.08                 0.461253783     -155.274954
9.081                0.459979064     -155.819591
9.082                0.458715767     -156.366661
9.083                 0.45746411     -156.916156
9.084                0.456224306     -157.468067
9.085                0.454996571     -158.022383
9.086                0.453781119     -158.579092
9.087                0.452578166     -159.138184
9.088                0.451387926     -159.699644
9.089                0.450210611      -160.26346
9.09                 0.449046437     -160.829616
9.091                0.447895614     -161.398097
9.092                0.446758354     -161.968887
9.093                0.445634869     -162.541969
9.094                0.444525368     -163.117323
9.095                 0.44343006     -163.694931
9.096                0.442349151     -164.274773
9.097                0.441282849     -164.856828
9.098                0.440231358     -165.441074
9.099                 0.43919488     -166.027488
9.1                  0.438173619     -166.616045
9.101                0.437167772     -167.206722
9.102                0.436177538     -167.799491
9.103                0.435203112     -168.394327
9.104                0.434244689     -168.991201
9.105                0.433302459     -169.590084
9.106                0.432376612     -170.190946
9.107                0.431467333     -170.793757
9.108                0.430574808     -171.398484
9.109                0.429699217     -172.005095
9.11                 0.428840737     -172.613555
9.111                0.427999546      -173.22383
9.112                0.427175814     -173.835883
9.113                0.426369711     -174.449678
9.114                0.425581403     -175.065177
9.115                0.424811051      -175.68234
9.116                0.424058815     -176.301129
9.117                0.423324849     -176.921501
9.118                0.422609304     -177.543416
9.119                0.421912328     -178.166831
9.12                 0.421234064     -178.791701
9.121                0.420574651     -179.417983
9.122                0.419934224      179.954369
9.123                0.419312914      179.325401
9.124                0.418710846      178.695161
9.125                0.418128141      178.063696
9.126                0.417564918      177.431056
9.127                0.417021288      176.797288
9.128                0.416497358      176.162445
9.129                0.415993231      175.526577
9.13                 0.415509004      174.889736
9.131                 0.41504477      174.251973
9.132                0.414600615      173.613343
9.133                0.414176621      172.973899
9.134                0.413772865      172.333694
9.135                0.413389419      171.692785
9.136                0.413026348      171.051226
9.137                0.412683712      170.409072
9.138                0.412361566      169.766381
9.139                 0.41205996      169.123209
9.14                 0.411778936      168.479612
9.141                0.411518533      167.835649
9.142                0.411278783      167.191376
9.143                0.411059712      166.546853
9.144                0.410861341      165.902136
9.145                0.410683686      165.257284
9.146                0.410526754      164.612356
9.147                 0.41039055      163.967411
9.148                0.410275071      163.322506
9.149                0.410180308      162.677701
9.15                 0.410106249      162.033054
9.151                0.410052872      161.388623
9.152                0.410020153      160.744468
9.153                 0.41000806      160.100646
9.154                0.410016556      159.457215
9.155                  0.4100456      158.814234
9.156                0.410095141       158.17176
9.157                0.410165127      157.529851
9.158                0.410255499      156.888563
9.159                0.410366191      156.247953
9.16                 0.410497133      155.608077
9.161                 0.41064825      154.968991
9.162                0.410819461      154.330751
9.163                 0.41101068       153.69341
9.164                0.411221815      153.057024
9.165                 0.41145277      152.421646
9.166                0.411703444      151.787328
9.167                 0.41197373      151.154124
9.168                0.412263519      150.522084
9.169                0.412572693      149.891261
9.17                 0.412901133      149.261703
9.171                0.413248714      148.633461
9.172                0.413615306      148.006583
9.173                0.414000777      147.381117
9.174                0.414404988       146.75711
9.175                0.414827798      146.134608
9.176                 0.41526906      145.513656
9.177                0.415728626      144.894299
9.178                0.416206341      144.276581
9.179                0.416702049      143.660543
9.18                  0.41721559      143.046228
9.181                0.417746798      142.433675
9.182                0.418295508      141.822925
9.183                 0.41886155      141.214017
9.184                0.419444748      140.606988
9.185                0.420044928      140.001874
9.186                0.420661911      139.398712
9.187                0.421295515      138.797535
9.188                0.421945555      138.198379
9.189                0.422611846      137.601274
9.19                 0.423294198      137.006254
9.191                 0.42399242      136.413348
9.192                0.424706321      135.822586
9.193                0.425435704      135.233997
9.194                0.426180372      134.647607
9.195                0.426940129      134.063445
9.196                0.427714774      133.481534
9.197                0.428504105      132.901899
9.198                 0.42930792      132.324565
9.199                0.430126015      131.749552
9.2                  0.430958186      131.176884
9.201                0.431804226       130.60658
9.202                 0.43266393      130.038659
9.203                0.433537088      129.473141
9.204                0.434423494      128.910043
9.205                0.435322938      128.349381
9.206                0.436235212      127.791172
9.207                0.437160106       127.23543
9.208                 0.43809741      126.682168
9.209                0.439046915      126.131401
9.21                 0.440008411       125.58314
9.211                0.440981688      125.037396
9.212                0.441966537      124.494181
9.213                0.442962747      123.953502
9.214                 0.44397011       123.41537
9.215                0.444988416      122.879793
9.216                0.446017459      122.346776
9.217                0.447057029      121.816328
9.218                0.448106919      121.288453
9.219                0.449166924      120.763157
9.22                 0.450236837      120.240444
9.221                0.451316453      119.720316
9.222                0.452405569      119.202778
9.223                0.453503982      118.687832
9.224                0.454611488      118.175478
9.225                0.455727888      117.665718
9.226                0.456852982      117.158552
9.227                 0.45798657       116.65398
9.228                0.459128456         116.152
9.229                0.460278442      115.652612
9.23                 0.461436335      115.155814
9.231                0.462601941      114.661602
9.232                0.463775068      114.169973
9.233                0.464955525      113.680925
9.234                0.466143123      113.194453
9.235                0.467337674      112.710553
9.236                0.468538993      112.229219
9.237                0.469746896      111.750447
9.238                0.470961199      111.274229
9.239                0.472181721      110.800561
9.24                 0.473408282      110.329436
9.241                0.474640707      109.860845
9.242                0.475878817      109.394783
9.243                0.477122439      108.931241
9.244                0.478371401      108.470212
9.245                0.479625532      108.011686
9.246                0.480884663      107.555655
9.247                0.482148627      107.102111
9.248                0.483417259      106.651043
9.249                0.484690395      106.202443
9.25                 0.485967875        105.7563
9.251                0.487249539      105.312605
9.252                0.488535228      104.871347
9.253                0.489824788      104.432516
9.254                0.491118065      103.996101
9.255                0.492414906       103.56209
9.256                0.493715161      103.130474
9.257                0.495018683       102.70124
9.258                0.496325324      102.274378
9.259                0.497634942      101.849874
9.26                 0.498947393      101.427719
9.261                0.500262537      101.007899
9.262                0.501580235      100.590403
9.263                0.502900351      100.175219
9.264                 0.50422275      99.7623334
9.265                  0.5055473      99.3517348
9.266                0.506873869      98.9434106
9.267                0.508202328      98.5373481
9.268                 0.50953255      98.1335345
9.269                 0.51086441      97.7319571
9.27                 0.512197784      97.3326031
9.271                0.513532551      96.9354595
9.272                0.514868592      96.5405134
9.273                0.516205788      96.1477518
9.274                0.517544023      95.7571616
9.275                0.518883184      95.3687297
9.276                0.520223157      94.9824429
9.277                0.521563833      94.5982881
9.278                0.522905101      94.2162521
9.279                0.524246857      93.8363217
9.28                 0.525588993      93.4584837
9.281                0.526931407      93.0827249
9.282                0.528273997      92.7090319
9.283                0.529616663      92.3373916
9.284                0.530959307      91.9677907
9.285                0.532301831       91.600216
9.286                0.533644141      91.2346544
9.287                0.534986144      90.8710925
9.288                0.536327747      90.5095173
9.289                0.537668862      90.1499155
9.29                 0.539009399      89.7922741
9.291                0.540349271      89.4365799
9.292                0.541688395      89.0828199
9.293                0.543026685      88.7309811
9.294                 0.54436406      88.3810504
9.295                0.545700439      88.0330149
9.296                0.547035743      87.6868617
9.297                0.548369895       87.342578
9.298                0.549702819      87.0001508
9.299                 0.55103444      86.6595675
9.3                  0.552364685      86.3208153
9.301                0.553693483      85.9838815
9.302                0.555020762      85.6487536
9.303                0.556346455      85.3154189
9.304                0.557670494       84.983865
9.305                0.558992813      84.6540795
9.306                0.560313346      84.3260499
9.307                0.561632032       83.999764
9.308                0.562948808      83.6752096
9.309                0.564263612      83.3523743
9.31                 0.565576386      83.0312462
9.311                0.566887072      82.7118131
9.312                0.568195612       82.394063
9.313                0.569501952      82.0779842
9.314                0.570806036      81.7635646
9.315                0.572107811      81.4507926
9.316                0.573407225      81.1396565
9.317                0.574704228      80.8301445
9.318                 0.57599877      80.5222453
9.319                0.577290801      80.2159472
9.32                 0.578580276      79.9112388
9.321                0.579867147      79.6081089
9.322                 0.58115137      79.3065461
9.323                  0.5824329      79.0065394
9.324                0.583711694      78.7080775
9.325                 0.58498771      78.4111494
9.326                0.586260908      78.1157442
9.327                0.587531247       77.821851
9.328                0.588798688      77.5294589
9.329                0.590063194      77.2385573
9.33                 0.591324728      76.9491356
9.331                0.592583253       76.661183
9.332                0.593838735      76.3746891
9.333                0.595091139      76.0896435
9.334                0.596340432      75.8060359
9.335                0.597586583      75.5238559
9.336                0.598829559      75.2430933
9.337                 0.60006933      74.9637381
9.338                0.601305867      74.6857802
9.339                 0.60253914      74.4092096
9.34                 0.603769122      74.1340164
9.341                0.604995786      73.8601909
9.342                0.606219105      73.5877232
9.343                0.607439054      73.3166036
9.344                0.608655608      73.0468227
9.345                0.609868744      72.7783708
9.346                0.611078437      72.5112386
9.347                0.612284666      72.2454166
9.348                0.613487408      71.9808955
9.349                0.614686644      71.7176662
9.35                 0.615882352      71.4557194
9.351                0.617074513      71.1950461
9.352                0.618263108      70.9356373
9.353                0.619448119      70.6774839
9.354                0.620629528      70.4205773
9.355                0.621807319      70.1649085
9.356                0.622981475      69.9104688
9.357                 0.62415198      69.6572497
9.358                 0.62531882      69.4052424
9.359                0.626481981      69.1544384
9.36                 0.627641448      68.9048294
9.361                0.628797208      68.6564069
9.362                0.629949248      68.4091627
9.363                0.631097557      68.1630884
9.364                0.632242123      67.9181759
9.365                0.633382935       67.674417
9.366                0.634519983      67.4318038
9.367                0.635653257      67.1903283
9.368                0.636782747      66.9499824
9.369                0.637908445      66.7107585
9.37                 0.639030341      66.4726486
9.371                 0.64014843       66.235645
9.372                0.641262702      65.9997402
9.373                0.642373151      65.7649264
9.374                 0.64347977      65.5311962
9.375                0.644582554      65.2985421
9.376                0.645681497      65.0669566
9.377                0.646776595      64.8364325
9.378                0.647867841      64.6069623
9.379                0.648955232      64.3785389
9.38                 0.650038764      64.1511551
9.381                0.651118434      63.9248038
9.382                0.652194238      63.6994779
9.383                0.653266175      63.4751704
9.384                 0.65433424      63.2518743
9.385                0.655398434      63.0295829
9.386                0.656458754      62.8082892
9.387                0.657515198      62.5879864
9.388                0.658567767      62.3686679
9.389                0.659616459       62.150327
9.39                 0.660661275      61.9329571
9.391                0.661702215      61.7165515
9.392                0.662739279      61.5011039
9.393                0.663772467      61.2866078
9.394                0.664801782      61.0730566
9.395                0.665827224      60.8604442
9.396                0.666848796      60.6487643
