! TOUCHSTONE file generated by CST DESIGN STUDIO
! Date and time: Tue Feb  4 14:37:07 2025
! Project name: C:\Work\MatlabApps\UnitCellOptimizationMatlab\CST\unitcell.cst
! Tree item: Tasks\Sweep1\SPara1\S-Parameters
! Header version: 2024
! Port assignment regex: !\s*Touchstone port\s*([0-9]+)\s*=\s*(CST MWS port|CST DES external port|CST DES block port)\s*(.+)\s* \(\"(.*)\"\)(\s*mode\s*([0-9]+))?.*
! Touchstone port assignment:
! Touchstone port 1 = CST DES external port 1 ("")
# GHz S MA R 50
9                    0.940901248     -51.4410025
9.001                0.940740042     -51.5104489
9.002                0.940578221     -51.5800615
9.003                0.940415782      -51.649841
9.004                0.940252723     -51.7197879
9.005                0.940089042     -51.7899029
9.006                0.939924735     -51.8601865
9.007                  0.9397598     -51.9306394
9.008                0.939594234     -52.0012621
9.009                0.939428033     -52.0720553
9.01                 0.939261196     -52.1430195
9.011                 0.93909372     -52.2141554
9.012                0.938925601     -52.2854635
9.013                0.938756836     -52.3569445
9.014                0.938587423      -52.428599
9.015                 0.93841736     -52.5004276
9.016                0.938246642     -52.5724309
9.017                0.938075268     -52.6446096
9.018                0.937903233     -52.7169642
9.019                0.937730536     -52.7894955
9.02                 0.937557173      -52.862204
9.021                0.937383141     -52.9350903
9.022                0.937208438     -53.0081552
9.023                 0.93703306     -53.0813992
9.024                0.936857004      -53.154823
9.025                0.936680268     -53.2284272
9.026                0.936502847     -53.3022125
9.027                 0.93632474     -53.3761795
9.028                0.936145943      -53.450329
9.029                0.935966453     -53.5246614
9.03                 0.935786267     -53.5991776
9.031                0.935605381     -53.6738781
9.032                0.935423793     -53.7487637
9.033                  0.9352415     -53.8238349
9.034                0.935058498     -53.8990925
9.035                0.934874784     -53.9745372
9.036                0.934690355     -54.0501696
9.037                0.934505208     -54.1259904
9.038                0.934319339     -54.2020002
9.039                0.934132746     -54.2781999
9.04                 0.933945424     -54.3545899
9.041                0.933757372     -54.4311712
9.042                0.933568584     -54.5079443
9.043                0.933379059     -54.5849099
9.044                0.933188793     -54.6620688
9.045                0.932997782     -54.7394216
9.046                0.932806024     -54.8169691
9.047                0.932613514     -54.8947119
9.048                 0.93242025     -54.9726509
9.049                0.932226228     -55.0507866
9.05                 0.932031444     -55.1291199
9.051                0.931835896     -55.2076514
9.052                0.931639579     -55.2863818
9.053                0.931442491      -55.365312
9.054                0.931244627     -55.4444426
9.055                0.931045985     -55.5237744
9.056                0.930846561      -55.603308
9.057                0.930646351     -55.6830444
9.058                0.930445352     -55.7629841
9.059                 0.93024356      -55.843128
9.06                 0.930040971     -55.9234768
9.061                0.929837583     -56.0040312
9.062                0.929633391     -56.0847921
9.063                0.929428392     -56.1657602
9.064                0.929222582     -56.2469362
9.065                0.929015958     -56.3283209
9.066                0.928808516     -56.4099151
9.067                0.928600252     -56.4917196
9.068                0.928391162     -56.5737351
9.069                0.928181243     -56.6559625
9.07                 0.927970491     -56.7384025
9.071                0.927758903     -56.8210559
9.072                0.927546473     -56.9039235
9.073                  0.9273332     -56.9870061
9.074                0.927119079     -57.0703045
9.075                0.926904105     -57.1538196
9.076                0.926688276     -57.2375521
9.077                0.926471587     -57.3215028
9.078                0.926254035     -57.4056725
9.079                0.926035615     -57.4900621
9.08                 0.925816324     -57.5746725
9.081                0.925596158     -57.6595043
9.082                0.925375112     -57.7445585
9.083                0.925153184     -57.8298359
9.084                0.924930368     -57.9153373
9.085                0.924706661     -58.0010636
9.086                0.924482059     -58.0870156
9.087                0.924256558     -58.1731942
9.088                0.924030153     -58.2596002
9.089                0.923802842     -58.3462344
9.09                 0.923574619     -58.4330978
9.091                 0.92334548     -58.5201913
9.092                0.923115422     -58.6075155
9.093                 0.92288444     -58.6950716
9.094                 0.92265253     -58.7828602
9.095                0.922419687     -58.8708824
9.096                0.922185909      -58.959139
9.097                 0.92195119     -59.0476308
9.098                0.921715526     -59.1363588
9.099                0.921478914     -59.2253239
9.1                  0.921241348      -59.314527
9.101                0.921002824     -59.4039689
9.102                0.920763338     -59.4936506
9.103                0.920522887      -59.583573
9.104                0.920281464     -59.6737371
9.105                0.920039067     -59.7641437
9.106                0.919795691     -59.8547937
9.107                 0.91955133     -59.9456882
9.108                0.919305982      -60.036828
9.109                0.919059641      -60.128214
9.11                 0.918812303     -60.2198473
9.111                0.918563963     -60.3117287
9.112                0.918314618     -60.4038593
9.113                0.918064261     -60.4962399
9.114                 0.91781289     -60.5888716
9.115                0.917560499     -60.6817552
9.116                0.917307084     -60.7748918
9.117                 0.91705264     -60.8682824
9.118                0.916797163     -60.9619278
9.119                0.916540648     -61.0558292
9.12                  0.91628309     -61.1499874
9.121                0.916024485     -61.2444035
9.122                0.915764827     -61.3390785
9.123                0.915504113     -61.4340134
9.124                0.915242338     -61.5292091
9.125                0.914979496     -61.6246668
9.126                0.914715583     -61.7203873
9.127                0.914450595     -61.8163717
9.128                0.914184526     -61.9126211
9.129                0.913917371     -62.0091365
9.13                 0.913649127     -62.1059189
9.131                0.913379787     -62.2029693
9.132                0.913109347     -62.3002888
9.133                0.912837802     -62.3978784
9.134                0.912565148     -62.4957392
9.135                0.912291379     -62.5938722
9.136                 0.91201649     -62.6922786
9.137                0.911740476     -62.7909593
9.138                0.911463333     -62.8899154
9.139                0.911185055     -62.9891481
9.14                 0.910905638     -63.0886583
9.141                0.910625075     -63.1884473
9.142                0.910343363      -63.288516
9.143                0.910060496     -63.3888655
9.144                0.909776468     -63.4894971
9.145                0.909491276     -63.5904117
9.146                0.909204913     -63.6916104
9.147                0.908917375     -63.7930945
9.148                0.908628656      -63.894865
9.149                0.908338751     -63.9969231
9.15                 0.908047655     -64.0992698
9.151                0.907755362     -64.2019063
9.152                0.907461868     -64.3048338
9.153                0.907167167     -64.4080534
9.154                0.906871254     -64.5115662
9.155                0.906574123     -64.6153735
9.156                0.906275769     -64.7194763
9.157                0.905976187     -64.8238758
9.158                0.905675371     -64.9285733
9.159                0.905373316     -65.0335699
9.16                 0.905070017     -65.1388667
9.161                0.904765468      -65.244465
9.162                0.904459663     -65.3503659
9.163                0.904152597     -65.4565708
9.164                0.903844266     -65.5630806
9.165                0.903534662     -65.6698968
9.166                0.903223781     -65.7770204
9.167                0.902911616     -65.8844528
9.168                0.902598164      -65.992195
9.169                0.902283417     -66.1002485
9.17                  0.90196737     -66.2086144
9.171                0.901650018     -66.3172939
9.172                0.901331355     -66.4262883
9.173                0.901011376     -66.5355989
9.174                0.900690074     -66.6452269
9.175                0.900367444     -66.7551736
9.176                 0.90004348     -66.8654403
9.177                0.899718177     -66.9760282
9.178                0.899391528     -67.0869386
9.179                0.899063528     -67.1981729
9.18                 0.898734172     -67.3097322
9.181                0.898403453      -67.421618
9.182                0.898071366     -67.5338315
9.183                0.897737904      -67.646374
9.184                0.897403062     -67.7592469
9.185                0.897066834     -67.8724515
9.186                0.896729214      -67.985989
9.187                0.896390197      -68.099861
9.188                0.896049776     -68.2140686
9.189                0.895707945     -68.3286133
9.19                 0.895364698     -68.4434963
9.191                 0.89502003     -68.5587192
9.192                0.894673934     -68.6742831
9.193                0.894326404     -68.7901896
9.194                0.893977435       -68.90644
9.195                 0.89362702     -69.0230356
9.196                0.893275154     -69.1399779
9.197                0.892921829     -69.2572683
9.198                0.892567041     -69.3749081
9.199                0.892210783     -69.4928989
9.2                  0.891853049     -69.6112419
9.201                0.891493832     -69.7299386
9.202                0.891133127     -69.8489906
9.203                0.890770928     -69.9683991
9.204                0.890407228     -70.0881656
9.205                0.890042021     -70.2082917
9.206                  0.8896753     -70.3287787
9.207                0.889307061     -70.4496281
9.208                0.888937296     -70.5708414
9.209                0.888565999     -70.6924201
9.21                 0.888193164     -70.8143656
9.211                0.887818785     -70.9366794
9.212                0.887442855     -71.0593631
9.213                0.887065369     -71.1824181
9.214                0.886686319     -71.3058459
9.215                  0.8863057     -71.4296481
9.216                0.885923504     -71.5538262
9.217                0.885539727     -71.6783818
9.218                0.885154361     -71.8033162
9.219                0.884767401     -71.9286312
9.22                 0.884378839     -72.0543282
9.221                0.883988669     -72.1804089
9.222                0.883596885     -72.3068747
9.223                0.883203481     -72.4337272
9.224                 0.88280845     -72.5609681
9.225                0.882411786     -72.6885989
9.226                0.882013482     -72.8166212
9.227                0.881613532     -72.9450366
9.228                 0.88121193     -73.0738467
9.229                0.880808668     -73.2030531
9.23                 0.880403741     -73.3326574
9.231                0.879997142     -73.4626614
9.232                0.879588864     -73.5930665
9.233                0.879178902     -73.7238745
9.234                0.878767248      -73.855087
9.235                0.878353897     -73.9867057
9.236                 0.87793884     -74.1187322
9.237                0.877522074     -74.2511681
9.238                0.877103589     -74.3840153
9.239                0.876683381     -74.5172753
9.24                 0.876261442     -74.6509499
9.241                0.875837767     -74.7850407
9.242                0.875412347     -74.9195495
9.243                0.874985178     -75.0544779
9.244                0.874556253     -75.1898278
9.245                0.874125564     -75.3256008
9.246                0.873693106     -75.4617986
9.247                0.873258872     -75.5984231
9.248                0.872822855     -75.7354759
9.249                0.872385049     -75.8729589
9.25                 0.871945447     -76.0108738
9.251                0.871504043     -76.1492224
9.252                 0.87106083     -76.2880064
9.253                0.870615803     -76.4272276
9.254                0.870168953      -76.566888
9.255                0.869720275     -76.7069891
9.256                0.869269762      -76.847533
9.257                0.868817408     -76.9885213
9.258                0.868363206      -77.129956
9.259                 0.86790715     -77.2718388
9.26                 0.867449233     -77.4141716
9.261                0.866989449     -77.5569563
9.262                0.866527791     -77.7001947
9.263                0.866064253     -77.8438887
9.264                0.865598829     -77.9880401
9.265                0.865131511     -78.1326509
9.266                0.864662294      -78.277723
9.267                 0.86419117     -78.4232582
9.268                0.863718135     -78.5692584
9.269                 0.86324318     -78.7157257
9.27                   0.8627663     -78.8626618
9.271                0.862287489     -79.0100687
9.272                 0.86180674     -79.1579484
9.273                0.861324047     -79.3063028
9.274                0.860839403     -79.4551339
9.275                0.860352802     -79.6044437
9.276                0.859864238      -79.754234
9.277                0.859373704     -79.9045069
9.278                0.858881195     -80.0552644
9.279                0.858386704     -80.2065085
9.28                 0.857890225     -80.3582412
9.281                0.857391751     -80.5104644
9.282                0.856891276     -80.6631803
9.283                0.856388795     -80.8163908
9.284                0.855884301      -80.970098
9.285                0.855377788      -81.124304
9.286                0.854869251     -81.2790107
9.287                0.854358682     -81.4342202
9.288                0.853846075     -81.5899347
9.289                0.853331426     -81.7461562
9.29                 0.852814728     -81.9028867
9.291                0.852295975     -82.0601284
9.292                 0.85177516     -82.2178834
9.293                0.851252279     -82.3761539
9.294                0.850727326     -82.5349418
9.295                0.850200294     -82.6942493
9.296                0.849671177     -82.8540787
9.297                0.849139971     -83.0144319
9.298                0.848606669     -83.1753113
9.299                0.848071266     -83.3367188
9.3                  0.847533756     -83.4986568
9.301                0.846994134     -83.6611274
9.302                0.846452393     -83.8241327
9.303                0.845908529     -83.9876751
9.304                0.845362536     -84.1517565
9.305                0.844814409     -84.3163794
9.306                0.844264142     -84.4815459
9.307                 0.84371173     -84.6472582
9.308                0.843157168     -84.8135186
9.309                 0.84260045     -84.9803293
9.31                 0.842041572     -85.1476925
9.311                0.841480528     -85.3156106
9.312                0.840917313     -85.4840858
9.313                0.840351922     -85.6531204
9.314                0.839784351     -85.8227166
9.315                0.839214594     -85.9928768
9.316                0.838642646     -86.1636033
9.317                0.838068504     -86.3348983
9.318                0.837492161     -86.5067642
9.319                0.836913614     -86.6792033
9.32                 0.836332858      -86.852218
9.321                0.835749889     -87.0258106
9.322                0.835164701     -87.1999835
9.323                0.834577291     -87.3747389
9.324                0.833987655     -87.5500794
9.325                0.833395788     -87.7260072
9.326                0.832801685     -87.9025247
9.327                0.832205344     -88.0796344
9.328                0.831606759     -88.2573387
9.329                0.831005928     -88.4356399
9.33                 0.830402845     -88.6145404
9.331                0.829797508     -88.7940428
9.332                0.829189913     -88.9741493
9.333                0.828580056     -89.1548626
9.334                0.827967934     -89.3361849
9.335                0.827353543     -89.5181189
9.336                 0.82673688     -89.7006668
9.337                0.826117942     -89.8838313
9.338                0.825496726     -90.0676148
9.339                0.824873228     -90.2520198
9.34                 0.824247445     -90.4370488
9.341                0.823619376     -90.6227042
9.342                0.822989016     -90.8089887
9.343                0.822356364     -90.9959046
9.344                0.821721417     -91.1834546
9.345                0.821084173     -91.3716412
9.346                0.820444629     -91.5604669
9.347                0.819802783     -91.7499343
9.348                0.819158632      -91.940046
9.349                0.818512176     -92.1308044
9.35                 0.817863412     -92.3222122
9.351                0.817212338     -92.5142719
9.352                0.816558953     -92.7069862
9.353                0.815903255     -92.9003576
9.354                0.815245243     -93.0943888
9.355                0.814584916     -93.2890823
9.356                0.813922273     -93.4844407
9.357                0.813257312     -93.6804667
9.358                0.812590033      -93.877163
9.359                0.811920435      -94.074532
9.36                 0.811248517     -94.2725766
9.361                 0.81057428     -94.4712993
9.362                0.809897722     -94.6707028
9.363                0.809218844     -94.8707897
9.364                0.808537646     -95.0715628
9.365                0.807854127     -95.2730246
9.366                0.807168289     -95.4751779
9.367                0.806480131     -95.6780254
9.368                0.805789655     -95.8815698
9.369                0.805096861     -96.0858137
9.37                 0.804401749     -96.2907599
9.371                0.803704322     -96.4964111
9.372                 0.80300458     -96.7027699
9.373                0.802302525     -96.9098392
9.374                0.801598158     -97.1176216
9.375                0.800891482       -97.32612
9.376                0.800182498     -97.5353369
9.377                0.799471208     -97.7452752
9.378                0.798757615     -97.9559376
9.379                0.798041721     -98.1673268
9.38                 0.797323529     -98.3794457
9.381                0.796603042      -98.592297
9.382                0.795880263     -98.8058835
9.383                0.795155195     -99.0202078
9.384                0.794427841     -99.2352729
9.385                0.793698206     -99.4510815
9.386                0.792966294     -99.6676363
9.387                0.792232107     -99.8849403
9.388                0.791495652     -100.102996
9.389                0.790756931     -100.321806
9.39                  0.79001595     -100.541374
9.391                0.789272714     -100.761703
9.392                0.788527228     -100.982794
9.393                0.787779498     -101.204651
9.394                0.787029528     -101.427277
9.395                0.786277326     -101.650674
9.396                0.785522896     -101.874846
