! TOUCHSTONE file generated by CST DESIGN STUDIO
! Date and time: Tue Feb  4 17:16:07 2025
! Project name: C:\Work\MatlabApps\UnitCellOptimizationMatlab\CST\unitcell.cst
! Tree item: Tasks\Sweep1\SPara1\S-Parameters
! Header version: 2024
! Port assignment regex: !\s*Touchstone port\s*([0-9]+)\s*=\s*(CST MWS port|CST DES external port|CST DES block port)\s*(.+)\s* \(\"(.*)\"\)(\s*mode\s*([0-9]+))?.*
! Touchstone port assignment:
! Touchstone port 1 = CST DES external port 1 ("")
# GHz S MA R 50
9                    0.965194112     -47.8408876
9.001                0.965134523     -47.9004761
9.002                0.965074753     -47.9601862
9.003                  0.9650148     -48.0200182
9.004                0.964954665     -48.0799725
9.005                0.964894347     -48.1400495
9.006                0.964833845     -48.2002495
9.007                0.964773159     -48.2605729
9.008                0.964712287     -48.3210201
9.009                0.964651229     -48.3815915
9.01                 0.964589986     -48.4422873
9.011                0.964528555     -48.5031081
9.012                0.964466937     -48.5640542
9.013                 0.96440513     -48.6251259
9.014                0.964343135     -48.6863237
9.015                0.964280951     -48.7476479
9.016                0.964218576     -48.8090989
9.017                0.964156011     -48.8706771
9.018                0.964093254     -48.9323829
9.019                0.964030305     -48.9942166
9.02                 0.963967164     -49.0561787
9.021                 0.96390383     -49.1182695
9.022                0.963840301     -49.1804895
9.023                0.963776579     -49.2428389
9.024                0.963712661     -49.3053183
9.025                0.963648547      -49.367928
9.026                0.963584237     -49.4306684
9.027                0.963519729       -49.49354
9.028                0.963455024      -49.556543
9.029                0.963390121     -49.6196779
9.03                 0.963325018     -49.6829452
9.031                0.963259716     -49.7463451
9.032                0.963194213     -49.8098782
9.033                0.963128509     -49.8735448
9.034                0.963062604     -49.9373454
9.035                0.962996496     -50.0012803
9.036                0.962930184     -50.0653499
9.037                 0.96286367     -50.1295548
9.038                 0.96279695     -50.1938952
9.039                0.962730026     -50.2583716
9.04                 0.962662896     -50.3229844
9.041                0.962595559     -50.3877341
9.042                0.962528015      -50.452621
9.043                0.962460263     -50.5176457
9.044                0.962392302     -50.5828084
9.045                0.962324133     -50.6481097
9.046                0.962255753     -50.7135499
9.047                0.962187163     -50.7791295
9.048                0.962118361     -50.8448489
9.049                0.962049347     -50.9107086
9.05                  0.96198012     -50.9767089
9.051                 0.96191068     -51.0428504
9.052                0.961841025     -51.1091334
9.053                0.961771156     -51.1755585
9.054                0.961701071     -51.2421259
9.055                0.961630769     -51.3088362
9.056                0.961560251     -51.3756899
9.057                0.961489514     -51.4426873
9.058                0.961418559     -51.5098289
9.059                0.961347385     -51.5771152
9.06                 0.961275991     -51.6445465
9.061                0.961204376     -51.7121234
9.062                0.961132539     -51.7798464
9.063                 0.96106048     -51.8477158
9.064                0.960988198     -51.9157321
9.065                0.960915692     -51.9838957
9.066                0.960842962     -52.0522073
9.067                0.960770006     -52.1206671
9.068                0.960696825     -52.1892756
9.069                0.960623417     -52.2580334
9.07                 0.960549781     -52.3269409
9.071                0.960475917     -52.3959986
9.072                0.960401823     -52.4652068
9.073                  0.9603275     -52.5345662
9.074                0.960252947     -52.6040771
9.075                0.960178161     -52.6737401
9.076                0.960103144     -52.7435557
9.077                0.960027894     -52.8135242
9.078                 0.95995241     -52.8836462
9.079                0.959876692     -52.9539221
9.08                 0.959800738     -53.0243525
9.081                0.959724548     -53.0949379
9.082                0.959648121     -53.1656786
9.083                0.959571457     -53.2365753
9.084                0.959494554     -53.3076284
9.085                0.959417412     -53.3788383
9.086                0.959340029     -53.4502057
9.087                0.959262406     -53.5217309
9.088                0.959184541     -53.5934146
9.089                0.959106434     -53.6652571
9.09                 0.959028083     -53.7372589
9.091                0.958949488     -53.8094207
9.092                0.958870648     -53.8817429
9.093                0.958791563     -53.9542259
9.094                 0.95871223     -54.0268704
9.095                0.958632651     -54.0996768
9.096                0.958552823     -54.1726457
9.097                0.958472746     -54.2457774
9.098                0.958392418     -54.3190727
9.099                0.958311841     -54.3925319
9.1                  0.958231011     -54.4661557
9.101                0.958149929     -54.5399444
9.102                0.958068594     -54.6138987
9.103                0.957987004     -54.6880191
9.104                 0.95790516     -54.7623061
9.105                0.957823059     -54.8367603
9.106                0.957740702     -54.9113821
9.107                0.957658087     -54.9861721
9.108                0.957575214     -55.0611309
9.109                0.957492082     -55.1362589
9.11                 0.957408689     -55.2115568
9.111                0.957325035      -55.287025
9.112                0.957241119     -55.3626641
9.113                 0.95715694     -55.4384747
9.114                0.957072498     -55.5144573
9.115                0.956987791     -55.5906124
9.116                0.956902819     -55.6669406
9.117                 0.95681758     -55.7434425
9.118                0.956732074     -55.8201186
9.119                0.956646299     -55.8969695
9.12                 0.956560256     -55.9739957
9.121                0.956473943     -56.0511978
9.122                0.956387359     -56.1285763
9.123                0.956300503     -56.2061319
9.124                0.956213374     -56.2838651
9.125                0.956125972     -56.3617764
9.126                0.956038295     -56.4398665
9.127                0.955950343     -56.5181359
9.128                0.955862115     -56.5965852
9.129                0.955773609     -56.6752149
9.13                 0.955684825     -56.7540258
9.131                0.955595762     -56.8330182
9.132                0.955506419     -56.9121929
9.133                0.955416795     -56.9915503
9.134                 0.95532689     -57.0710912
9.135                0.955236701     -57.1508161
9.136                0.955146228     -57.2307255
9.137                0.955055471     -57.3108201
9.138                0.954964428     -57.3911005
9.139                0.954873099     -57.4715673
9.14                 0.954781481     -57.5522211
9.141                0.954689576     -57.6330625
9.142                0.954597381      -57.714092
9.143                0.954504895     -57.7953104
9.144                0.954412118     -57.8767182
9.145                0.954319049      -57.958316
9.146                0.954225686     -58.0401045
9.147                0.954132029     -58.1220842
9.148                0.954038076     -58.2042559
9.149                0.953943828       -58.28662
9.15                 0.953849282     -58.3691773
9.151                0.953754438     -58.4519284
9.152                0.953659294     -58.5348738
9.153                0.953563851     -58.6180143
9.154                0.953468106     -58.7013505
9.155                0.953372059     -58.7848829
9.156                0.953275709     -58.8686123
9.157                0.953179054     -58.9525393
9.158                0.953082095     -59.0366645
9.159                0.952984829     -59.1209886
9.16                 0.952887256     -59.2055122
9.161                0.952789375      -59.290236
9.162                0.952691185     -59.3751606
9.163                0.952592685     -59.4602867
9.164                0.952493873      -59.545615
9.165                0.952394749      -59.631146
9.166                0.952295312     -59.7168805
9.167                 0.95219556     -59.8028192
9.168                0.952095493     -59.8889626
9.169                 0.95199511     -59.9753115
9.17                  0.95189441     -60.0618666
9.171                0.951793391     -60.1486285
9.172                0.951692052     -60.2355979
9.173                0.951590393     -60.3227754
9.174                0.951488413     -60.4101619
9.175                 0.95138611     -60.4977578
9.176                0.951283483      -60.585564
9.177                0.951180532     -60.6735811
9.178                0.951077255     -60.7618099
9.179                0.950973651     -60.8502509
9.18                  0.95086972      -60.938905
9.181                0.950765459     -61.0277728
9.182                0.950660869      -61.116855
9.183                0.950555948     -61.2061523
9.184                0.950450694     -61.2956654
9.185                0.950345107     -61.3853951
9.186                0.950239187      -61.475342
9.187                0.950132931     -61.5655069
9.188                0.950026338     -61.6558904
9.189                0.949919409     -61.7464934
9.19                  0.94981214     -61.8373165
9.191                0.949704532     -61.9283604
9.192                0.949596584     -62.0196259
9.193                0.949488294     -62.1111138
9.194                0.949379661     -62.2028246
9.195                0.949270684     -62.2947593
9.196                0.949161362     -62.3869185
9.197                0.949051694     -62.4793029
9.198                0.948941678     -62.5719134
9.199                0.948831315     -62.6647506
9.2                  0.948720602     -62.7578153
9.201                0.948609538     -62.8511082
9.202                0.948498123     -62.9446302
9.203                0.948386356     -63.0383819
9.204                0.948274234     -63.1323642
9.205                0.948161758     -63.2265778
9.206                0.948048925     -63.3210234
9.207                0.947935736     -63.4157018
9.208                0.947822188     -63.5106138
9.209                0.947708281     -63.6057602
9.21                 0.947594014     -63.7011417
9.211                0.947479384     -63.7967592
9.212                0.947364393     -63.8926134
9.213                0.947249037      -63.988705
9.214                0.947133316     -64.0850349
9.215                 0.94701723     -64.1816039
9.216                0.946900776     -64.2784128
9.217                0.946783954     -64.3754623
9.218                0.946666762     -64.4727533
9.219                  0.9465492     -64.5702865
9.22                 0.946431266     -64.6680628
9.221                0.946312959      -64.766083
9.222                0.946194278     -64.8643478
9.223                0.946075222     -64.9628581
9.224                 0.94595579     -65.0616148
9.225                 0.94583598     -65.1606185
9.226                0.945715792     -65.2598702
9.227                0.945595225     -65.3593707
9.228                0.945474276     -65.4591207
9.229                0.945352945     -65.5591212
9.23                 0.945231232     -65.6593729
9.231                0.945109134     -65.7598767
9.232                0.944986651     -65.8606335
9.233                0.944863781      -65.961644
9.234                0.944740523     -66.0629091
9.235                0.944616877     -66.1644297
9.236                0.944492841     -66.2662066
9.237                0.944368413     -66.3682407
9.238                0.944243593     -66.4705328
9.239                 0.94411838     -66.5730838
9.24                 0.943992772     -66.6758945
9.241                0.943866769     -66.7789658
9.242                0.943740368     -66.8822985
9.243                 0.94361357     -66.9858936
9.244                0.943486372      -67.089752
9.245                0.943358774     -67.1938744
9.246                0.943230775     -67.2982617
9.247                0.943102373      -67.402915
9.248                0.942973567     -67.5078349
9.249                0.942844356     -67.6130225
9.25                 0.942714738     -67.7184786
9.251                0.942584714      -67.824204
9.252                0.942454281     -67.9301998
9.253                0.942323439     -68.0364668
9.254                0.942192186     -68.1430059
9.255                0.942060521      -68.249818
9.256                0.941928443      -68.356904
9.257                 0.94179595     -68.4642648
9.258                0.941663043     -68.5719014
9.259                0.941529719     -68.6798147
9.26                 0.941395977     -68.7880055
9.261                0.941261816     -68.8964748
9.262                0.941127236     -69.0052235
9.263                0.940992234     -69.1142526
9.264                 0.94085681      -69.223563
9.265                0.940720962     -69.3331557
9.266                0.940584691     -69.4430315
9.267                0.940447993     -69.5531913
9.268                0.940310868     -69.6636363
9.269                0.940173316     -69.7743672
9.27                 0.940035334     -69.8853851
9.271                0.939896922     -69.9966909
9.272                0.939758079     -70.1082856
9.273                0.939618803       -70.22017
9.274                0.939479094     -70.3323453
9.275                0.939338949     -70.4448123
9.276                0.939198369      -70.557572
9.277                0.939057352     -70.6706254
9.278                0.938915896     -70.7839734
9.279                0.938774001     -70.8976171
9.28                 0.938631665     -71.0115574
9.281                0.938488888     -71.1257954
9.282                0.938345668     -71.2403319
9.283                0.938202005      -71.355168
9.284                0.938057896     -71.4703046
9.285                0.937913341     -71.5857429
9.286                 0.93776834     -71.7014837
9.287                0.937622889      -71.817528
9.288                 0.93747699      -71.933877
9.289                 0.93733064     -72.0505315
9.29                 0.937183838     -72.1674926
9.291                0.937036584     -72.2847614
9.292                0.936888875     -72.4023387
9.293                0.936740712     -72.5202258
9.294                0.936592093     -72.6384234
9.295                0.936443017     -72.7569328
9.296                0.936293483     -72.8757549
9.297                 0.93614349     -72.9948908
9.298                0.935993036     -73.1143415
9.299                0.935842121      -73.234108
9.3                  0.935690743     -73.3541913
9.301                0.935538902     -73.4745926
9.302                0.935386597     -73.5953129
9.303                0.935233826     -73.7163531
9.304                0.935080588     -73.8377145
9.305                0.934926882      -73.959398
9.306                0.934772708     -74.0814046
9.307                0.934618064     -74.2037355
9.308                 0.93446295     -74.3263917
9.309                0.934307363     -74.4493744
9.31                 0.934151304     -74.5726844
9.311                 0.93399477      -74.696323
9.312                0.933837762     -74.8202912
9.313                0.933680279     -74.9445901
9.314                0.933522318     -75.0692208
9.315                0.933363879     -75.1941843
9.316                0.933204962     -75.3194818
9.317                0.933045565     -75.4451143
9.318                0.932885687     -75.5710829
9.319                0.932725327     -75.6973888
9.32                 0.932564485      -75.824033
9.321                0.932403159     -75.9510166
9.322                0.932241349     -76.0783408
9.323                0.932079053     -76.2060067
9.324                 0.93191627     -76.3340153
9.325                   0.931753     -76.4623678
9.326                0.931589242     -76.5910653
9.327                0.931424995     -76.7201089
9.328                0.931260257     -76.8494998
9.329                0.931095029      -76.979239
9.33                 0.930929309     -77.1093278
9.331                0.930763096     -77.2397672
9.332                0.930596389     -77.3705583
9.333                0.930429188     -77.5017024
9.334                0.930261491     -77.6332005
9.335                0.930093299     -77.7650538
9.336                0.929924609     -77.8972635
9.337                0.929755422     -78.0298306
9.338                0.929585736     -78.1627564
9.339                 0.92941555      -78.296042
9.34                 0.929244864     -78.4296885
9.341                0.929073678     -78.5636972
9.342                0.928901989     -78.6980691
9.343                0.928729798     -78.8328054
9.344                0.928557103     -78.9679074
9.345                0.928383905     -79.1033762
9.346                0.928210202     -79.2392129
9.347                0.928035993     -79.3754187
9.348                0.927861278     -79.5119949
9.349                0.927686056     -79.6489425
9.35                 0.927510327     -79.7862628
9.351                0.927334089      -79.923957
9.352                0.927157343     -80.0620262
9.353                0.926980087     -80.2004717
9.354                0.926802321     -80.3392946
9.355                0.926624043     -80.4784961
9.356                0.926445255     -80.6180775
9.357                0.926265954     -80.7580398
9.358                0.926086141     -80.8983844
9.359                0.925905815     -81.0391125
9.36                 0.925724975     -81.1802252
9.361                 0.92554362     -81.3217237
9.362                0.925361751     -81.4636093
9.363                0.925179366     -81.6058832
9.364                0.924996466     -81.7485466
9.365                 0.92481305     -81.8916007
9.366                0.924629116     -82.0350467
9.367                0.924444666     -82.1788859
9.368                0.924259697     -82.3231195
9.369                0.924074211     -82.4677487
9.37                 0.923888206     -82.6127748
9.371                0.923701682     -82.7581989
9.372                0.923514639     -82.9040224
9.373                0.923327077     -83.0502464
9.374                0.923138995     -83.1968721
9.375                0.922950392     -83.3439009
9.376                0.922761269      -83.491334
9.377                0.922571624     -83.6391726
9.378                0.922381459     -83.7874179
9.379                0.922190773     -83.9360713
9.38                 0.921999565     -84.0851339
9.381                0.921807835      -84.234607
9.382                0.921615583     -84.3844918
9.383                0.921422809     -84.5347897
9.384                0.921229513     -84.6855018
9.385                0.921035694     -84.8366295
9.386                0.920841353     -84.9881739
9.387                0.920646489     -85.1401364
9.388                0.920451102     -85.2925182
9.389                0.920255193     -85.4453205
9.39                 0.920058761     -85.5985447
9.391                0.919861806      -85.752192
9.392                0.919664329     -85.9062637
9.393                0.919466329      -86.060761
9.394                0.919267806     -86.2156852
9.395                0.919068761     -86.3710375
9.396                0.918869193     -86.5268194
