! TOUCHSTONE file generated by CST DESIGN STUDIO
! Date and time: Tue Feb  4 14:21:00 2025
! Project name: C:\Work\MatlabApps\UnitCellOptimizationMatlab\CST\unitcell.cst
! Tree item: Tasks\Sweep1\SPara1\S-Parameters
! Header version: 2024
! Port assignment regex: !\s*Touchstone port\s*([0-9]+)\s*=\s*(CST MWS port|CST DES external port|CST DES block port)\s*(.+)\s* \(\"(.*)\"\)(\s*mode\s*([0-9]+))?.*
! Touchstone port assignment:
! Touchstone port 1 = CST DES external port 1 ("")
# GHz S MA R 50
9                    0.980272261     -65.8388571
9.001                0.980227177     -65.9338778
9.002                0.980181954     -66.0291288
9.003                0.980136592     -66.1246107
9.004                0.980091091     -66.2203245
9.005                 0.98004545     -66.3162707
9.006                0.979999668     -66.4124501
9.007                0.979953745     -66.5088634
9.008                0.979907681     -66.6055115
9.009                0.979861475      -66.702395
9.01                 0.979815127     -66.7995147
9.011                0.979768637     -66.8968714
9.012                0.979722003     -66.9944657
9.013                0.979675226     -67.0922985
9.014                0.979628305     -67.1903705
9.015                 0.97958124     -67.2886825
9.016                 0.97953403     -67.3872352
9.017                0.979486675     -67.4860294
9.018                0.979439174     -67.5850658
9.019                0.979391528     -67.6843453
9.02                 0.979343735     -67.7838686
9.021                0.979295795     -67.8836365
9.022                0.979247707     -67.9836497
9.023                0.979199472      -68.083909
9.024                0.979151089     -68.1844153
9.025                0.979102557     -68.2851693
9.026                0.979053876     -68.3861717
9.027                0.979005046     -68.4874234
9.028                0.978956065     -68.5889252
9.029                0.978906934     -68.6906779
9.03                 0.978857653     -68.7926822
9.031                 0.97880822     -68.8949389
9.032                0.978758636     -68.9974489
9.033                0.978708899      -69.100213
9.034                 0.97865901      -69.203232
9.035                0.978608968     -69.3065066
9.036                0.978558773     -69.4100377
9.037                0.978508424     -69.5138261
9.038                 0.97845792     -69.6178727
9.039                0.978407262     -69.7221782
9.04                 0.978356449     -69.8267434
9.041                 0.97830548     -69.9315692
9.042                0.978254355     -70.0366565
9.043                0.978203074     -70.1420059
9.044                0.978151635     -70.2476185
9.045                 0.97810004     -70.3534949
9.046                0.978048287     -70.4596361
9.047                0.977996375     -70.5660429
9.048                0.977944305     -70.6727161
9.049                0.977892076     -70.7796566
9.05                 0.977839687     -70.8868652
9.051                0.977787139     -70.9943428
9.052                 0.97773443     -71.1020901
9.053                 0.97768156     -71.2101082
9.054                 0.97762853     -71.3183978
9.055                0.977575337     -71.4269597
9.056                0.977521983     -71.5357949
9.057                0.977468466     -71.6449043
9.058                0.977414786     -71.7542886
9.059                0.977360942     -71.8639487
9.06                 0.977306935     -71.9738856
9.061                0.977252764     -72.0841001
9.062                0.977198428      -72.194593
9.063                0.977143927     -72.3053653
9.064                0.977089261     -72.4164179
9.065                0.977034428     -72.5277515
9.066                0.976979429     -72.6393672
9.067                0.976924264     -72.7512658
9.068                0.976868931     -72.8634481
9.069                0.976813431     -72.9759152
9.07                 0.976757762     -73.0886678
9.071                0.976701925     -73.2017069
9.072                0.976645919     -73.3150334
9.073                0.976589744     -73.4286482
9.074                  0.9765334     -73.5425522
9.075                0.976476885     -73.6567462
9.076                0.976420199     -73.7712313
9.077                0.976363343     -73.8860084
9.078                0.976306315     -74.0010783
9.079                0.976249115     -74.1164419
9.08                 0.976191743     -74.2321003
9.081                0.976134199     -74.3480542
9.082                0.976076481     -74.4643047
9.083                 0.97601859     -74.5808527
9.084                0.975960525     -74.6976991
9.085                0.975902286     -74.8148448
9.086                0.975843872     -74.9322908
9.087                0.975785284      -75.050038
9.088                0.975726519     -75.1680874
9.089                0.975667579     -75.2864399
9.09                 0.975608463     -75.4050964
9.091                 0.97554917     -75.5240579
9.092                  0.9754897     -75.6433254
9.093                0.975430052     -75.7628998
9.094                0.975370227      -75.882782
9.095                0.975310223     -76.0029731
9.096                0.975250041     -76.1234739
9.097                 0.97518968     -76.2442855
9.098                0.975129139     -76.3654088
9.099                0.975068419     -76.4868448
9.1                  0.975007518     -76.6085944
9.101                0.974946437     -76.7306587
9.102                0.974885175     -76.8530386
9.103                0.974823732      -76.975735
9.104                0.974762107      -77.098749
9.105                  0.9747003     -77.2220815
9.106                0.974638311     -77.3457336
9.107                0.974576139     -77.4697061
9.108                0.974513783     -77.5940002
9.109                0.974451245     -77.7186168
9.11                 0.974388522     -77.8435568
9.111                0.974325616     -77.9688214
9.112                0.974262525     -78.0944114
9.113                0.974199249     -78.2203279
9.114                0.974135787     -78.3465719
9.115                 0.97407214     -78.4731444
9.116                0.974008308     -78.6000464
9.117                0.973944289     -78.7272789
9.118                0.973880083     -78.8548429
9.119                 0.97381569     -78.9827395
9.12                 0.973751111     -79.1109696
9.121                0.973686343     -79.2395343
9.122                0.973621388     -79.3684345
9.123                0.973556244     -79.4976714
9.124                0.973490912      -79.627246
9.125                0.973425392     -79.7571592
9.126                0.973359681     -79.8874121
9.127                0.973293782     -80.0180057
9.128                0.973227693     -80.1489411
9.129                0.973161413     -80.2802192
9.13                 0.973094944     -80.4118412
9.131                0.973028283     -80.5438081
9.132                0.972961432     -80.6761209
9.133                0.972894389     -80.8087807
9.134                0.972827155     -80.9417884
9.135                0.972759729     -81.0751452
9.136                0.972692111     -81.2088521
9.137                0.972624301     -81.3429102
9.138                0.972556298     -81.4773204
9.139                0.972488103      -81.612084
9.14                 0.972419714     -81.7472018
9.141                0.972351132      -81.882675
9.142                0.972282356     -82.0185046
9.143                0.972213387     -82.1546917
9.144                0.972144223     -82.2912374
9.145                0.972074865     -82.4281427
9.146                0.972005313     -82.5654087
9.147                0.971935566     -82.7030365
9.148                0.971865623     -82.8410271
9.149                0.971795486     -82.9793815
9.15                 0.971725153      -83.118101
9.151                0.971654625     -83.2571865
9.152                0.971583901     -83.3966392
9.153                0.971512981       -83.53646
9.154                0.971441865     -83.6766502
9.155                0.971370552     -83.8172107
9.156                0.971299043     -83.9581426
9.157                0.971227337     -84.0994471
9.158                0.971155435     -84.2411252
9.159                0.971083335     -84.3831781
9.16                 0.971011038     -84.5256067
9.161                0.970938544     -84.6684122
9.162                0.970865853     -84.8115957
9.163                0.970792964     -84.9551583
9.164                0.970719877      -85.099101
9.165                0.970646592      -85.243425
9.166                 0.97057311     -85.3881314
9.167                0.970499429     -85.5332212
9.168                0.970425551     -85.6786956
9.169                0.970351474     -85.8245556
9.17                 0.970277199     -85.9708024
9.171                0.970202725      -86.117437
9.172                0.970128053     -86.2644606
9.173                0.970053183     -86.4118743
9.174                0.969978114     -86.5596791
9.175                0.969902846     -86.7078762
9.176                 0.96982738     -86.8564667
9.177                0.969751715     -87.0054517
9.178                0.969675851     -87.1548322
9.179                0.969599789     -87.3046095
9.18                 0.969523527     -87.4547846
9.181                0.969447068     -87.6053586
9.182                0.969370409     -87.7563326
9.183                0.969293551     -87.9077078
9.184                0.969216495     -88.0594853
9.185                 0.96913924     -88.2116661
9.186                0.969061787     -88.3642514
9.187                0.968984135     -88.5172423
9.188                0.968906284     -88.6706399
9.189                0.968828235     -88.8244453
9.19                 0.968749988     -88.9786597
9.191                0.968671542     -89.1332841
9.192                0.968592899     -89.2883197
9.193                0.968514057     -89.4437676
9.194                0.968435017     -89.5996289
9.195                0.968355779     -89.7559047
9.196                0.968276343     -89.9125961
9.197                 0.96819671     -90.0697042
9.198                0.968116879     -90.2272302
9.199                0.968036852     -90.3851752
9.2                  0.967956627     -90.5435403
9.201                0.967876205     -90.7023266
9.202                0.967795586     -90.8615352
9.203                0.967714771     -91.0211672
9.204                 0.96763376     -91.1812238
9.205                0.967552552      -91.341706
9.206                0.967471149      -91.502615
9.207                 0.96738955     -91.6639519
9.208                0.967307756     -91.8257177
9.209                0.967225766     -91.9879137
9.21                 0.967143582     -92.1505409
9.211                0.967061204     -92.3136004
9.212                0.966978631     -92.4770933
9.213                0.966895864     -92.6410208
9.214                0.966812904     -92.8053839
9.215                0.966729751     -92.9701837
9.216                0.966646405     -93.1354214
9.217                0.966562866     -93.3010981
9.218                0.966479135     -93.4672148
9.219                0.966395213     -93.6337727
9.22                 0.966311099     -93.8007728
9.221                0.966226795     -93.9682163
9.222                  0.9661423     -94.1361043
9.223                0.966057615     -94.3044378
9.224                0.965972741     -94.4732179
9.225                0.965887677     -94.6424457
9.226                0.965802425     -94.8121224
9.227                0.965716985      -94.982249
9.228                0.965631357     -95.1528266
9.229                0.965545543     -95.3238563
9.23                 0.965459541     -95.4953391
9.231                0.965373354     -95.6672761
9.232                0.965286982     -95.8396685
9.233                0.965200425     -96.0125173
9.234                0.965113683     -96.1858235
9.235                0.965026758     -96.3595883
9.236                0.964939651     -96.5338127
9.237                 0.96485236     -96.7084978
9.238                0.964764889     -96.8836445
9.239                0.964677236     -97.0592541
9.24                 0.964589403     -97.2353276
9.241                0.964501391     -97.4118659
9.242                  0.9644132     -97.5888702
9.243                0.964324831     -97.7663415
9.244                0.964236284     -97.9442809
9.245                0.964147561     -98.1226893
9.246                0.964058662     -98.3015679
9.247                0.963969589     -98.4809177
9.248                0.963880341     -98.6607396
9.249                 0.96379092     -98.8410348
9.25                 0.963701327     -99.0218042
9.251                0.963611562      -99.203049
9.252                0.963521627       -99.38477
9.253                0.963431522     -99.5669683
9.254                0.963341248     -99.7496449
9.255                0.963250806     -99.9328008
9.256                0.963160198     -100.116437
9.257                0.963069424     -100.300555
9.258                0.962978484     -100.485155
9.259                0.962887382     -100.670238
9.26                 0.962796116     -100.855805
9.261                0.962704689     -101.041858
9.262                0.962613101     -101.228397
9.263                0.962521353     -101.415423
9.264                0.962429447     -101.602937
9.265                0.962337384     -101.790941
9.266                0.962245165     -101.979434
9.267                0.962152791     -102.168418
9.268                0.962060263     -102.357895
9.269                0.961967583     -102.547864
9.27                 0.961874751     -102.738327
9.271                 0.96178177     -102.929285
9.272                 0.96168864     -103.120739
9.273                0.961595362     -103.312689
9.274                0.961501939     -103.505137
9.275                 0.96140837     -103.698083
9.276                0.961314659     -103.891528
9.277                0.961220805     -104.085474
9.278                0.961126811      -104.27992
9.279                0.961032678     -104.474869
9.28                 0.960938407      -104.67032
9.281                   0.960844     -104.866275
9.282                0.960749459     -105.062734
9.283                0.960654784     -105.259699
9.284                0.960559978      -105.45717
9.285                0.960465042     -105.655148
9.286                0.960369977     -105.853634
9.287                0.960274785     -106.052629
9.288                0.960179469     -106.252133
9.289                0.960084029     -106.452147
9.29                 0.959988467     -106.652672
9.291                0.959892785      -106.85371
9.292                0.959796985      -107.05526
9.293                0.959701068     -107.257323
9.294                0.959605036       -107.4599
9.295                0.959508892     -107.662993
9.296                0.959412636     -107.866601
9.297                0.959316271     -108.070725
9.298                0.959219798     -108.275367
9.299                 0.95912322     -108.480526
9.3                  0.959026538     -108.686204
9.301                0.958929755     -108.892401
9.302                0.958832872     -109.099118
9.303                0.958735892     -109.306356
9.304                0.958638816     -109.514114
9.305                0.958541646     -109.722395
9.306                0.958444385     -109.931199
9.307                0.958347035     -110.140525
9.308                0.958249597     -110.350375
9.309                0.958152074      -110.56075
9.31                 0.958054469      -110.77165
9.311                0.957956783     -110.983076
9.312                0.957859018     -111.195027
9.313                0.957761178     -111.407506
9.314                0.957663263     -111.620512
9.315                0.957565278     -111.834045
9.316                0.957467222     -112.048107
9.317                0.957369101     -112.262698
9.318                0.957270915     -112.477819
9.319                0.957172667      -112.69347
9.32                 0.957074359     -112.909651
9.321                0.956975995     -113.126362
9.322                0.956877576     -113.343606
9.323                0.956779105     -113.561381
9.324                0.956680584     -113.779688
9.325                0.956582018     -113.998529
9.326                0.956483406     -114.217902
9.327                0.956384754     -114.437809
9.328                0.956286063     -114.658249
9.329                0.956187335     -114.879224
9.33                 0.956088574     -115.100734
9.331                0.955989783     -115.322778
9.332                0.955890964     -115.545358
9.333                 0.95579212     -115.768474
9.334                0.955693254     -115.992125
9.335                0.955594369     -116.216313
9.336                0.955495467     -116.441037
9.337                0.955396552     -116.666298
9.338                0.955297627     -116.892096
9.339                0.955198694     -117.118431
9.34                 0.955099757     -117.345303
9.341                0.955000818     -117.572713
9.342                0.954901881     -117.800661
9.343                0.954802949     -118.029147
9.344                0.954704025      -118.25817
9.345                0.954605113     -118.487732
9.346                0.954506214     -118.717833
9.347                0.954407333     -118.948472
9.348                0.954308473     -119.179649
9.349                0.954209638     -119.411365
9.35                 0.954110829     -119.643619
9.351                0.954012051     -119.876413
9.352                0.953913308     -120.109745
9.353                0.953814602     -120.343615
9.354                0.953715937     -120.578024
9.355                0.953617316     -120.812972
9.356                0.953518743     -121.048459
9.357                0.953420222     -121.284483
9.358                0.953321755     -121.521047
9.359                0.953223347     -121.758148
9.36                 0.953125001     -121.995788
9.361                0.953026721     -122.233965
9.362                 0.95292851     -122.472681
9.363                0.952830373     -122.711934
9.364                0.952732312     -122.951724
9.365                0.952634331     -123.192052
9.366                0.952536435     -123.432916
9.367                0.952438627     -123.674318
9.368                0.952340911     -123.916255
9.369                 0.95224329     -124.158729
9.37                 0.952145769     -124.401738
9.371                0.952048351     -124.645283
9.372                0.951951041     -124.889363
9.373                0.951853842     -125.133978
9.374                0.951756759     -125.379126
9.375                0.951659795     -125.624809
9.376                0.951562954     -125.871025
9.377                0.951466241     -126.117773
9.378                0.951369659     -126.365055
9.379                0.951273213     -126.612868
9.38                 0.951176907     -126.861212
9.381                0.951080744     -127.110087
9.382                 0.95098473     -127.359492
9.383                0.950888868     -127.609427
9.384                0.950793163     -127.859891
9.385                0.950697618     -128.110883
9.386                0.950602239     -128.362402
9.387                0.950507029     -128.614449
9.388                0.950411993     -128.867022
9.389                0.950317135      -129.12012
9.39                 0.950222459     -129.373743
9.391                 0.95012797      -129.62789
9.392                0.950033673      -129.88256
9.393                0.949939572     -130.137752
9.394                 0.94984567     -130.393465
9.395                0.949751974     -130.649699
9.396                0.949658487     -130.906453
