! TOUCHSTONE file generated by CST DESIGN STUDIO
! Date and time: Tue Feb  4 14:20:55 2025
! Project name: C:\Work\MatlabApps\UnitCellOptimizationMatlab\CST\unitcell.cst
! Tree item: Tasks\Sweep1\SPara1\S-Parameters
! Header version: 2024
! Port assignment regex: !\s*Touchstone port\s*([0-9]+)\s*=\s*(CST MWS port|CST DES external port|CST DES block port)\s*(.+)\s* \(\"(.*)\"\)(\s*mode\s*([0-9]+))?.*
! Touchstone port assignment:
! Touchstone port 1 = CST DES external port 1 ("")
# GHz S MA R 50
9                    0.978629912     -71.9442976
9.001                0.978575932     -72.0529331
9.002                0.978521791     -72.1618393
9.003                0.978467488     -72.2710168
9.004                0.978413022     -72.3804665
9.005                0.978358392     -72.4901894
9.006                  0.9783036     -72.6001862
9.007                0.978248643     -72.7104578
9.008                0.978193523     -72.8210051
9.009                0.978138237     -72.9318289
9.01                 0.978082787     -73.0429301
9.011                0.978027171     -73.1543096
9.012                0.977971389     -73.2659683
9.013                0.977915441      -73.377907
9.014                0.977859326     -73.4901265
9.015                0.977803044     -73.6026279
9.016                0.977746595     -73.7154118
9.017                0.977689977     -73.8284794
9.018                0.977633192     -73.9418313
9.019                0.977576238     -74.0554686
9.02                 0.977519114      -74.169392
9.021                0.977461822     -74.2836026
9.022                0.977404359     -74.3981011
9.023                0.977346726     -74.5128885
9.024                0.977288923     -74.6279657
9.025                0.977230948     -74.7433336
9.026                0.977172803     -74.8589931
9.027                0.977114485      -74.974945
9.028                0.977055995     -75.0911904
9.029                0.976997333     -75.2077301
9.03                 0.976938497     -75.3245651
9.031                0.976879489     -75.4416962
9.032                0.976820306     -75.5591243
9.033                 0.97676095     -75.6768505
9.034                0.976701419     -75.7948755
9.035                0.976641713     -75.9132004
9.036                0.976581832     -76.0318261
9.037                0.976521775     -76.1507535
9.038                0.976461543     -76.2699835
9.039                0.976401134     -76.3895171
9.04                 0.976340548     -76.5093552
9.041                0.976279785     -76.6294987
9.042                0.976218845     -76.7499486
9.043                0.976157727     -76.8707058
9.044                0.976096431     -76.9917714
9.045                0.976034956     -77.1131461
9.046                0.975973303      -77.234831
9.047                 0.97591147     -77.3568271
9.048                0.975849457     -77.4791353
9.049                0.975787265     -77.6017565
9.05                 0.975724892     -77.7246917
9.051                0.975662339     -77.8479418
9.052                0.975599605     -77.9715079
9.053                0.975536689     -78.0953909
9.054                0.975473592     -78.2195918
9.055                0.975410312     -78.3441116
9.056                 0.97534685     -78.4689511
9.057                0.975283206     -78.5941114
9.058                0.975219379     -78.7195935
9.059                0.975155368     -78.8453984
9.06                 0.975091173     -78.9715269
9.061                0.975026795     -79.0979802
9.062                0.974962232     -79.2247592
9.063                0.974897485     -79.3518649
9.064                0.974832552     -79.4792983
9.065                0.974767434     -79.6070603
9.066                0.974702131      -79.735152
9.067                0.974636642     -79.8635744
9.068                0.974570967     -79.9923284
9.069                0.974505105     -80.1214151
9.07                 0.974439056     -80.2508355
9.071                0.974372821     -80.3805905
9.072                0.974306397     -80.5106812
9.073                0.974239787     -80.6411086
9.074                0.974172988     -80.7718737
9.075                0.974106001     -80.9029775
9.076                0.974038826     -81.0344211
9.077                0.973971461     -81.1662054
9.078                0.973903908     -81.2983314
9.079                0.973836166     -81.4308002
9.08                 0.973768234     -81.5636128
9.081                0.973700112     -81.6967703
9.082                  0.9736318     -81.8302736
9.083                0.973563297     -81.9641237
9.084                0.973494604     -82.0983218
9.085                 0.97342572     -82.2328688
9.086                0.973356645     -82.3677658
9.087                0.973287379     -82.5030138
9.088                0.973217922     -82.6386139
9.089                0.973148272      -82.774567
9.09                 0.973078431     -82.9108742
9.091                0.973008397     -83.0475366
9.092                0.972938171     -83.1845552
9.093                0.972867752     -83.3219311
9.094                0.972797141     -83.4596652
9.095                0.972726336     -83.5977587
9.096                0.972655339     -83.7362126
9.097                0.972584148     -83.8750279
9.098                0.972512763     -84.0142057
9.099                0.972441185      -84.153747
9.1                  0.972369412      -84.293653
9.101                0.972297446     -84.4339246
9.102                0.972225285     -84.5745629
9.103                 0.97215293      -84.715569
9.104                 0.97208038     -84.8569439
9.105                0.972007636     -84.9986887
9.106                0.971934697     -85.1408045
9.107                0.971861563     -85.2832923
9.108                0.971788234     -85.4261531
9.109                0.971714709     -85.5693881
9.11                 0.971640989     -85.7129984
9.111                0.971567074     -85.8569849
9.112                0.971492963     -86.0013488
9.113                0.971418657     -86.1460911
9.114                0.971344155     -86.2912129
9.115                0.971269457     -86.4367153
9.116                0.971194563     -86.5825993
9.117                0.971119473     -86.7288661
9.118                0.971044188     -86.8755166
9.119                0.970968706      -87.022552
9.12                 0.970893028     -87.1699734
9.121                0.970817154     -87.3177818
9.122                0.970741083     -87.4659783
9.123                0.970664817     -87.6145639
9.124                0.970588354     -87.7635399
9.125                0.970511695     -87.9129071
9.126                0.970434839     -88.0626669
9.127                0.970357788     -88.2128201
9.128                 0.97028054     -88.3633679
9.129                0.970203096     -88.5143114
9.13                 0.970125456     -88.6656516
9.131                0.970047619     -88.8173897
9.132                0.969969587     -88.9695267
9.133                0.969891358     -89.1220637
9.134                0.969812933     -89.2750018
9.135                0.969734313     -89.4283421
9.136                0.969655496     -89.5820857
9.137                0.969576484     -89.7362336
9.138                0.969497276     -89.8907869
9.139                0.969417873     -90.0457468
9.14                 0.969338274     -90.2011142
9.141                 0.96925848     -90.3568904
9.142                 0.96917849     -90.5130763
9.143                0.969098306     -90.6696731
9.144                0.969017926     -90.8266818
9.145                0.968937352     -90.9841036
9.146                0.968856584     -91.1419395
9.147                 0.96877562     -91.3001906
9.148                0.968694463     -91.4588579
9.149                0.968613112     -91.6179427
9.15                 0.968531566     -91.7774459
9.151                0.968449828     -91.9373686
9.152                0.968367896     -92.0977119
9.153                 0.96828577      -92.258477
9.154                0.968203452     -92.4196648
9.155                0.968120942     -92.5812765
9.156                0.968038239     -92.7433131
9.157                0.967955344     -92.9057757
9.158                0.967872257     -93.0686654
9.159                0.967788979     -93.2319833
9.16                  0.96770551     -93.3957304
9.161                 0.96762185     -93.5599079
9.162                   0.967538     -93.7245167
9.163                 0.96745396      -93.889558
9.164                 0.96736973     -94.0550328
9.165                 0.96728531     -94.2209423
9.166                0.967200702     -94.3872874
9.167                0.967115905     -94.5540692
9.168                 0.96703092     -94.7212889
9.169                0.966945748     -94.8889474
9.17                 0.966860388     -95.0570458
9.171                0.966774842     -95.2255852
9.172                0.966689109     -95.3945667
9.173                 0.96660319     -95.5639913
9.174                0.966517086       -95.73386
9.175                0.966430798     -95.9041739
9.176                0.966344325     -96.0749341
9.177                0.966257668     -96.2461416
9.178                0.966170828     -96.4177974
9.179                0.966083806     -96.5899026
9.18                 0.965996601     -96.7624583
9.181                0.965909216     -96.9354654
9.182                0.965821649     -97.1089251
9.183                0.965733902     -97.2828383
9.184                0.965645975      -97.457206
9.185                 0.96555787     -97.6320294
9.186                0.965469586     -97.8073094
9.187                0.965381125      -97.983047
9.188                0.965292487     -98.1592434
9.189                0.965203673     -98.3358994
9.19                 0.965114683     -98.5130161
9.191                0.965025519     -98.6905945
9.192                0.964936181     -98.8686356
9.193                 0.96484667     -99.0471404
9.194                0.964756986       -99.22611
9.195                0.964667131     -99.4055453
9.196                0.964577106     -99.5854473
9.197                 0.96448691     -99.7658169
9.198                0.964396545     -99.9466553
9.199                0.964306013     -100.127963
9.2                  0.964215313     -100.309742
9.201                0.964124447     -100.491992
9.202                0.964033415     -100.674715
9.203                 0.96394222     -100.857912
9.204                 0.96385086     -101.041582
9.205                0.963759339     -101.225729
9.206                0.963667656     -101.410352
9.207                0.963575812     -101.595452
9.208                0.963483809      -101.78103
9.209                0.963391648     -101.967088
9.21                 0.963299329     -102.153626
9.211                0.963206855     -102.340645
9.212                0.963114225     -102.528145
9.213                0.963021442     -102.716129
9.214                0.962928505     -102.904597
9.215                0.962835418      -103.09355
9.216                0.962742179     -103.282988
9.217                0.962648792     -103.472912
9.218                0.962555257     -103.663324
9.219                0.962461575     -103.854225
9.22                 0.962367748     -104.045614
9.221                0.962273776     -104.237494
9.222                0.962179662     -104.429864
9.223                0.962085406     -104.622727
9.224                0.961991011     -104.816082
9.225                0.961896476      -105.00993
9.226                0.961801805     -105.204273
9.227                0.961706997     -105.399111
9.228                0.961612055     -105.594444
9.229                 0.96151698     -105.790275
9.23                 0.961421773     -105.986603
9.231                0.961326437      -106.18343
9.232                0.961230972     -106.380756
9.233                 0.96113538     -106.578581
9.234                0.961039662     -106.776908
9.235                0.960943821     -106.975736
9.236                0.960847858     -107.175066
9.237                0.960751774     -107.374899
9.238                0.960655572     -107.575237
9.239                0.960559252     -107.776078
9.24                 0.960462817     -107.977425
9.241                0.960366268     -108.179278
9.242                0.960269607     -108.381638
9.243                0.960172836     -108.584505
9.244                0.960075957      -108.78788
9.245                0.959978971     -108.991764
9.246                0.959881881     -109.196157
9.247                0.959784688     -109.401061
9.248                0.959687393     -109.606475
9.249                    0.95959     -109.812401
9.25                  0.95949251     -110.018839
9.251                0.959394925      -110.22579
9.252                0.959297247     -110.433254
9.253                0.959199477     -110.641232
9.254                0.959101619     -110.849724
9.255                0.959003674     -111.058732
9.256                0.958905644     -111.268255
9.257                0.958807531     -111.478295
9.258                0.958709338     -111.688851
9.259                0.958611066     -111.899925
9.26                 0.958512718     -112.111517
9.261                0.958414296     -112.323627
9.262                0.958315803     -112.536257
9.263                 0.95821724     -112.749405
9.264                 0.95811861     -112.963074
9.265                0.958019915     -113.177263
9.266                0.957921158     -113.391973
9.267                0.957822341     -113.607205
9.268                0.957723466     -113.822958
9.269                0.957624536     -114.039234
9.27                 0.957525553     -114.256032
9.271                 0.95742652     -114.473353
9.272                0.957327439     -114.691198
9.273                0.957228313     -114.909566
9.274                0.957129145     -115.128459
9.275                0.957029936     -115.347876
9.276                 0.95693069     -115.567818
9.277                0.956831409     -115.788286
9.278                0.956732096     -116.009279
9.279                0.956632754     -116.230797
9.28                 0.956533385     -116.452842
9.281                0.956433992     -116.675414
9.282                0.956334578     -116.898511
9.283                0.956235146     -117.122136
9.284                0.956135698     -117.346288
9.285                0.956036238     -117.570967
9.286                0.955936768     -117.796174
9.287                0.955837291     -118.021909
9.288                 0.95573781     -118.248171
9.289                0.955638329     -118.474961
9.29                 0.955538849      -118.70228
9.291                0.955439375     -118.930126
9.292                0.955339909     -119.158501
9.293                0.955240454     -119.387405
9.294                0.955141014     -119.616837
9.295                0.955041592     -119.846798
9.296                 0.95494219     -120.077287
9.297                0.954842812     -120.308305
9.298                0.954743461     -120.539852
9.299                0.954644141     -120.771927
9.3                  0.954544854     -121.004531
9.301                0.954445605     -121.237664
9.302                0.954346395     -121.471325
9.303                 0.95424723     -121.705515
9.304                0.954148111     -121.940232
9.305                0.954049043     -122.175478
9.306                0.953950029     -122.411253
9.307                0.953851073     -122.647555
9.308                0.953752177     -122.884385
9.309                0.953653346     -123.121742
9.31                 0.953554582     -123.359627
9.311                 0.95345589     -123.598039
9.312                0.953357274     -123.836977
9.313                0.953258736     -124.076443
9.314                0.953160281     -124.316435
9.315                0.953061912     -124.556952
9.316                0.952963632     -124.797996
9.317                0.952865446     -125.039565
9.318                0.952767358     -125.281659
9.319                0.952669371     -125.524277
9.32                 0.952571488      -125.76742
9.321                0.952473715     -126.011087
9.322                0.952376054     -126.255277
9.323                0.952278509     -126.499989
9.324                0.952181085     -126.745224
9.325                0.952083785     -126.990982
9.326                0.951986614      -127.23726
9.327                0.951889575     -127.484059
9.328                0.951792673     -127.731379
9.329                 0.95169591     -127.979218
9.33                 0.951599293     -128.227576
9.331                0.951502823     -128.476453
9.332                0.951406507     -128.725847
9.333                0.951310347     -128.975759
9.334                0.951214348     -129.226186
9.335                0.951118514      -129.47713
9.336                0.951022849     -129.728588
9.337                0.950927358      -129.98056
9.338                0.950832045     -130.233046
9.339                0.950736914     -130.486045
9.34                 0.950641969     -130.739554
9.341                0.950547215     -130.993575
9.342                0.950452655     -131.248106
9.343                0.950358296     -131.503146
9.344                0.950264139     -131.758693
9.345                0.950170191     -132.014748
9.346                0.950076455      -132.27131
9.347                0.949982937     -132.528376
9.348                0.949889639     -132.785946
9.349                0.949796568      -133.04402
9.35                 0.949703727     -133.302595
9.351                 0.94961112     -133.561671
9.352                0.949518753     -133.821247
9.353                 0.94942663     -134.081322
9.354                0.949334756     -134.341894
9.355                0.949243134     -134.602963
9.356                0.949151771     -134.864526
9.357                0.949060669     -135.126583
9.358                0.948969834     -135.389133
9.359                0.948879271     -135.652174
9.36                 0.948788984     -135.915704
9.361                0.948698978     -136.179724
9.362                0.948609258      -136.44423
9.363                0.948519827     -136.709222
9.364                0.948430692     -136.974698
9.365                0.948341856     -137.240658
9.366                0.948253325     -137.507098
9.367                0.948165103     -137.774019
9.368                0.948077195     -138.041418
9.369                0.947989605     -138.309293
9.37                 0.947902339     -138.577644
9.371                0.947815401     -138.846469
9.372                0.947728797     -139.115765
9.373                 0.94764253     -139.385532
9.374                0.947556606     -139.655767
9.375                0.947471029     -139.926469
9.376                0.947385805     -140.197636
9.377                0.947300937     -140.469267
9.378                0.947216432     -140.741359
9.379                0.947132294     -141.013911
9.38                 0.947048527     -141.286921
9.381                0.946965138     -141.560387
9.382                0.946882129     -141.834307
9.383                0.946799507     -142.108679
9.384                0.946717276     -142.383501
9.385                0.946635441     -142.658772
9.386                0.946554007     -142.934489
9.387                0.946472979      -143.21065
9.388                0.946392362     -143.487253
9.389                 0.94631216     -143.764296
9.39                 0.946232379     -144.041777
9.391                0.946153023     -144.319694
9.392                0.946074097     -144.598045
9.393                0.945995606     -144.876827
9.394                0.945917555     -145.156038
9.395                0.945839949     -145.435676
9.396                0.945762793     -145.715738
