! TOUCHSTONE file generated by CST DESIGN STUDIO
! Date and time: Tue Feb  4 14:20:58 2025
! Project name: C:\Work\MatlabApps\UnitCellOptimizationMatlab\CST\unitcell.cst
! Tree item: Tasks\Sweep1\SPara1\S-Parameters
! Header version: 2024
! Port assignment regex: !\s*Touchstone port\s*([0-9]+)\s*=\s*(CST MWS port|CST DES external port|CST DES block port)\s*(.+)\s* \(\"(.*)\"\)(\s*mode\s*([0-9]+))?.*
! Touchstone port assignment:
! Touchstone port 1 = CST DES external port 1 ("")
# GHz S MA R 50
9                    0.979730427     -67.8538714
9.001                0.979681919     -67.9533756
9.002                0.979633265     -68.0531223
9.003                0.979584466     -68.1531123
9.004                 0.97953552     -68.2533463
9.005                0.979486428     -68.3538252
9.006                0.979437188     -68.4545496
9.007                0.979387801     -68.5555204
9.008                0.979338266     -68.6567384
9.009                0.979288583     -68.7582043
9.01                 0.979238751     -68.8599189
9.011                 0.97918877      -68.961883
9.012                0.979138639     -69.0640975
9.013                0.979088359      -69.166563
9.014                0.979037928     -69.2692805
9.015                0.978987346     -69.3722506
9.016                0.978936614     -69.4754743
9.017                 0.97888573     -69.5789522
9.018                0.978834694     -69.6826853
9.019                0.978783506     -69.7866742
9.02                 0.978732165     -69.8909199
9.021                 0.97868067     -69.9954232
9.022                0.978629023     -70.1001848
9.023                0.978577221     -70.2052055
9.024                0.978525266     -70.3104863
9.025                0.978473155     -70.4160279
9.026                0.978420889     -70.5218311
9.027                0.978368468     -70.6278969
9.028                0.978315891     -70.7342259
9.029                0.978263158     -70.8408191
9.03                 0.978210268     -70.9476772
9.031                 0.97815722     -71.0548012
9.032                0.978104016     -71.1621918
9.033                0.978050653     -71.2698499
9.034                0.977997132     -71.3777764
9.035                0.977943452     -71.4859721
9.036                0.977889614     -71.5944378
9.037                0.977835615     -71.7031744
9.038                0.977781457     -71.8121828
9.039                0.977727139     -71.9214638
9.04                 0.977672659     -72.0310182
9.041                0.977618019     -72.1408471
9.042                0.977563217     -72.2509511
9.043                0.977508254     -72.3613312
9.044                0.977453128     -72.4719882
9.045                0.977397839     -72.5829231
9.046                0.977342387     -72.6941366
9.047                0.977286772     -72.8056297
9.048                0.977230993     -72.9174033
9.049                 0.97717505     -73.0294582
9.05                 0.977118942     -73.1417954
9.051                0.977062669     -73.2544156
9.052                0.977006231     -73.3673199
9.053                0.976949627     -73.4805091
9.054                0.976892856      -73.593984
9.055                0.976835919     -73.7077456
9.056                0.976778815     -73.8217949
9.057                0.976721544     -73.9361326
9.058                0.976664105     -74.0507597
9.059                0.976606498     -74.1656772
9.06                 0.976548723     -74.2808858
9.061                0.976490778     -74.3963866
9.062                0.976432665     -74.5121804
9.063                0.976374381     -74.6282682
9.064                0.976315928     -74.7446509
9.065                0.976257304     -74.8613294
9.066                 0.97619851     -74.9783046
9.067                0.976139544     -75.0955775
9.068                0.976080407      -75.213149
9.069                0.976021098       -75.33102
9.07                 0.975961617     -75.4491914
9.071                0.975901963     -75.5676643
9.072                0.975842136     -75.6864395
9.073                0.975782136     -75.8055179
9.074                0.975721962     -75.9249006
9.075                0.975661615     -76.0445885
9.076                0.975601092     -76.1645824
9.077                0.975540395     -76.2848835
9.078                0.975479523     -76.4054925
9.079                0.975418475     -76.5264106
9.08                 0.975357252     -76.6476386
9.081                0.975295852     -76.7691774
9.082                0.975234276     -76.8910282
9.083                0.975172523     -77.0131917
9.084                0.975110593     -77.1356691
9.085                0.975048485     -77.2584612
9.086                0.974986199     -77.3815691
9.087                0.974923735     -77.5049937
9.088                0.974861092     -77.6287359
9.089                0.974798271     -77.7527969
9.09                  0.97473527     -77.8771774
9.091                 0.97467209     -78.0018787
9.092                0.974608729     -78.1269015
9.093                0.974545189     -78.2522469
9.094                0.974481468      -78.377916
9.095                0.974417566     -78.5039096
9.096                0.974353483     -78.6302289
9.097                0.974289219     -78.7568747
9.098                0.974224772     -78.8838481
9.099                0.974160144     -79.0111501
9.1                  0.974095333     -79.1387816
9.101                 0.97403034     -79.2667438
9.102                0.973965163     -79.3950376
9.103                0.973899803     -79.5236639
9.104                 0.97383426     -79.6526239
9.105                0.973768533     -79.7819186
9.106                0.973702621     -79.9115489
9.107                0.973636525     -80.0415159
9.108                0.973570245     -80.1718205
9.109                0.973503779     -80.3024639
9.11                 0.973437128      -80.433447
9.111                0.973370292     -80.5647709
9.112                0.973303269     -80.6964366
9.113                0.973236061     -80.8284451
9.114                0.973168666     -80.9607975
9.115                0.973101085     -81.0934947
9.116                0.973033317     -81.2265379
9.117                0.972965362     -81.3599281
9.118                 0.97289722     -81.4936662
9.119                0.972828889     -81.6277534
9.12                 0.972760372     -81.7621907
9.121                0.972691666     -81.8969792
9.122                0.972622772     -82.0321198
9.123                0.972553689     -82.1676137
9.124                0.972484418     -82.3034618
9.125                0.972414958     -82.4396653
9.126                0.972345309     -82.5762251
9.127                 0.97227547     -82.7131424
9.128                0.972205442     -82.8504182
9.129                0.972135224     -82.9880536
9.13                 0.972064817     -83.1260496
9.131                0.971994219     -83.2644073
9.132                0.971923431     -83.4031277
9.133                0.971852453      -83.542212
9.134                0.971781284     -83.6816611
9.135                0.971709924     -83.8214762
9.136                0.971638373     -83.9616583
9.137                0.971566632     -84.1022085
9.138                0.971494699     -84.2431279
9.139                0.971422575     -84.3844175
9.14                 0.971350259     -84.5260784
9.141                0.971277752     -84.6681117
9.142                0.971205052     -84.8105185
9.143                0.971132161     -84.9532999
9.144                0.971059079     -85.0964569
9.145                0.970985804     -85.2399905
9.146                0.970912336      -85.383902
9.147                0.970838677     -85.5281924
9.148                0.970764825     -85.6728627
9.149                0.970690781     -85.8179141
9.15                 0.970616544     -85.9633477
9.151                0.970542115     -86.1091645
9.152                0.970467493     -86.2553656
9.153                0.970392678     -86.4019521
9.154                0.970317671     -86.5489251
9.155                0.970242471     -86.6962857
9.156                0.970167078      -86.844035
9.157                0.970091492     -86.9921741
9.158                0.970015714     -87.1407041
9.159                0.969939742     -87.2896261
9.16                 0.969863578     -87.4389411
9.161                0.969787221     -87.5886503
9.162                0.969710671     -87.7387548
9.163                0.969633928     -87.8892557
9.164                0.969556992      -88.040154
9.165                0.969479864     -88.1914509
9.166                0.969402543     -88.3431475
9.167                0.969325029     -88.4952448
9.168                0.969247322      -88.647744
9.169                0.969169423     -88.8006462
9.17                 0.969091332     -88.9539525
9.171                0.969013048     -89.1076639
9.172                0.968934572     -89.2617817
9.173                0.968855904     -89.4163068
9.174                0.968777044     -89.5712404
9.175                0.968697992     -89.7265836
9.176                0.968618748     -89.8823375
9.177                0.968539312     -90.0385032
9.178                0.968459685     -90.1950818
9.179                0.968379867     -90.3520744
9.18                 0.968299857     -90.5094822
9.181                0.968219657     -90.6673061
9.182                0.968139265     -90.8255474
9.183                0.968058683      -90.984207
9.184                0.967977911     -91.1432862
9.185                0.967896948      -91.302786
9.186                0.967815796     -91.4627076
9.187                0.967734454     -91.6230519
9.188                0.967652922     -91.7838202
9.189                0.967571201     -91.9450135
9.19                 0.967489292      -92.106633
9.191                0.967407193     -92.2686796
9.192                0.967324907     -92.4311546
9.193                0.967242432      -92.594059
9.194                 0.96715977     -92.7573939
9.195                 0.96707692     -92.9211604
9.196                0.966993883     -93.0853596
9.197                 0.96691066     -93.2499926
9.198                0.966827251     -93.4150605
9.199                0.966743655     -93.5805644
9.2                  0.966659874     -93.7465053
9.201                0.966575908     -93.9128844
9.202                0.966491757     -94.0797027
9.203                0.966407422     -94.2469614
9.204                0.966322903     -94.4146615
9.205                  0.9662382      -94.582804
9.206                0.966153315     -94.7513902
9.207                0.966068247      -94.920421
9.208                0.965982998     -95.0898975
9.209                0.965897567     -95.2598208
9.21                 0.965811955      -95.430192
9.211                0.965726162     -95.6010122
9.212                 0.96564019     -95.7722824
9.213                0.965554039     -95.9440036
9.214                0.965467709      -96.116177
9.215                0.965381201     -96.2888037
9.216                0.965294515     -96.4618846
9.217                0.965207652     -96.6354208
9.218                0.965120614     -96.8094134
9.219                0.965033399     -96.9838635
9.22                  0.96494601     -97.1587721
9.221                0.964858447     -97.3341402
9.222                 0.96477071     -97.5099689
9.223                  0.9646828     -97.6862592
9.224                0.964594718     -97.8630122
9.225                0.964506465     -98.0402288
9.226                0.964418041     -98.2179102
9.227                0.964329448     -98.3960574
9.228                0.964240685     -98.5746714
9.229                0.964151754     -98.7537532
9.23                 0.964062656     -98.9333038
9.231                0.963973391     -99.1133242
9.232                 0.96388396     -99.2938155
9.233                0.963794365     -99.4747787
9.234                0.963704606     -99.6562148
9.235                0.963614684     -99.8381247
9.236                0.963524599     -100.020509
9.237                0.963434354      -100.20337
9.238                0.963343948     -100.386708
9.239                0.963253383     -100.570523
9.24                  0.96316266     -100.754817
9.241                 0.96307178     -100.939591
9.242                0.962980744     -101.124846
9.243                0.962889552     -101.310582
9.244                0.962798207     -101.496801
9.245                0.962706708     -101.683504
9.246                0.962615058     -101.870691
9.247                0.962523257     -102.058364
9.248                0.962431307     -102.246523
9.249                0.962339208      -102.43517
9.25                 0.962246962     -102.624305
9.251                 0.96215457     -102.813929
9.252                0.962062033     -103.004044
9.253                0.961969353      -103.19465
9.254                 0.96187653     -103.385747
9.255                0.961783567     -103.577338
9.256                0.961690463     -103.769422
9.257                0.961597222     -103.962001
9.258                0.961503844     -104.155075
9.259                 0.96141033     -104.348646
9.26                 0.961316681     -104.542715
9.261                  0.9612229     -104.737281
9.262                0.961128988     -104.932347
9.263                0.961034946     -105.127912
9.264                0.960940775     -105.323978
9.265                0.960846478     -105.520546
9.266                0.960752055     -105.717616
9.267                0.960657508     -105.915189
9.268                0.960562839     -106.113267
9.269                0.960468049     -106.311849
9.27                  0.96037314     -106.510936
9.271                0.960278114     -106.710531
9.272                0.960182972     -106.910632
9.273                0.960087715     -107.111241
9.274                0.959992347     -107.312359
9.275                0.959896867     -107.513987
9.276                0.959801279     -107.716124
9.277                0.959705583     -107.918773
9.278                0.959609783     -108.121934
9.279                0.959513878     -108.325607
9.28                 0.959417872     -108.529793
9.281                0.959321766     -108.734492
9.282                0.959225562     -108.939707
9.283                0.959129262     -109.145436
9.284                0.959032868     -109.351682
9.285                0.958936382     -109.558444
9.286                0.958839806     -109.765723
9.287                0.958743142     -109.973521
9.288                0.958646391     -110.181836
9.289                0.958549557     -110.390671
9.29                 0.958452641     -110.600026
9.291                0.958355645     -110.809901
9.292                0.958258571     -111.020297
9.293                0.958161422     -111.231214
9.294                0.958064199     -111.442654
9.295                0.957966906     -111.654616
9.296                0.957869543     -111.867102
9.297                0.957772114     -112.080111
9.298                0.957674621     -112.293644
9.299                0.957577066     -112.507703
9.3                  0.957479451     -112.722286
9.301                0.957381779     -112.937396
9.302                0.957284052     -113.153032
9.303                0.957186273     -113.369194
9.304                0.957088444     -113.585884
9.305                0.956990567     -113.803101
9.306                0.956892646     -114.020847
9.307                0.956794682      -114.23912
9.308                0.956696678     -114.457923
9.309                0.956598637     -114.677255
9.31                 0.956500562     -114.897117
9.311                0.956402454     -115.117509
9.312                0.956304317     -115.338431
9.313                0.956206154     -115.559884
9.314                0.956107966     -115.781868
9.315                0.956009757     -116.004383
9.316                 0.95591153      -116.22743
9.317                0.955813288     -116.451009
9.318                0.955715033      -116.67512
9.319                0.955616767     -116.899764
9.32                 0.955518495      -117.12494
9.321                0.955420219     -117.350649
9.322                0.955321942     -117.576892
9.323                0.955223666     -117.803667
9.324                0.955125396     -118.030976
9.325                0.955027133     -118.258819
9.326                0.954928881     -118.487195
9.327                0.954830643     -118.716106
9.328                0.954732423      -118.94555
9.329                0.954634223     -119.175528
9.33                 0.954536046     -119.406041
9.331                0.954437895     -119.637088
9.332                0.954339775     -119.868669
9.333                0.954241688     -120.100785
9.334                0.954143637     -120.333434
9.335                0.954045625     -120.566619
9.336                0.953947657     -120.800337
9.337                0.953849735      -121.03459
9.338                0.953751863     -121.269377
9.339                0.953654044     -121.504698
9.34                 0.953556282     -121.740553
9.341                0.953458579     -121.976942
9.342                0.953360941     -122.213865
9.343                0.953263369     -122.451321
9.344                0.953165868     -122.689311
9.345                0.953068441     -122.927834
9.346                0.952971092     -123.166891
9.347                0.952873825      -123.40648
9.348                0.952776642     -123.646601
9.349                0.952679549     -123.887255
9.35                 0.952582548     -124.128441
9.351                0.952485643     -124.370159
9.352                0.952388838     -124.612408
9.353                0.952292137     -124.855189
9.354                0.952195544       -125.0985
9.355                0.952099062     -125.342341
9.356                0.952002695     -125.586712
9.357                0.951906448     -125.831613
9.358                0.951810323     -126.077043
9.359                0.951714326     -126.323001
9.36                  0.95161846     -126.569487
9.361                0.951522729     -126.816501
9.362                0.951427136     -127.064042
9.363                0.951331687      -127.31211
9.364                0.951236385     -127.560703
9.365                0.951141235     -127.809822
9.366                0.951046239     -128.059465
9.367                0.950951404     -128.309633
9.368                0.950856731     -128.560323
9.369                0.950762227     -128.811537
9.37                 0.950667895     -129.063272
9.371                0.950573739     -129.315529
9.372                0.950479763     -129.568306
9.373                0.950385973     -129.821603
9.374                0.950292371     -130.075419
9.375                0.950198963     -130.329752
9.376                0.950105752     -130.584603
9.377                0.950012744     -130.839971
9.378                0.949919942     -131.095853
9.379                0.949827351     -131.352251
9.38                 0.949734976     -131.609162
9.381                 0.94964282     -131.866585
9.382                0.949550888      -132.12452
9.383                0.949459186     -132.382966
9.384                0.949367716     -132.641921
9.385                0.949276484     -132.901385
9.386                0.949185494     -133.161356
9.387                0.949094752     -133.421833
9.388                 0.94900426     -133.682815
9.389                0.948914025     -133.944302
9.39                  0.94882405     -134.206291
9.391                 0.94873434     -134.468782
9.392                0.948644901     -134.731773
9.393                0.948555735     -134.995263
9.394                0.948466849      -135.25925
9.395                0.948378247     -135.523734
9.396                0.948289934     -135.788714
