! TOUCHSTONE file generated by CST DESIGN STUDIO
! Date and time: Tue Feb  4 14:14:28 2025
! Project name: C:\Work\MatlabApps\UnitCellOptimizationMatlab\CST\unitcell.cst
! Tree item: Tasks\Sweep1\SPara1\S-Parameters
! Header version: 2024
! Port assignment regex: !\s*Touchstone port\s*([0-9]+)\s*=\s*(CST MWS port|CST DES external port|CST DES block port)\s*(.+)\s* \(\"(.*)\"\)(\s*mode\s*([0-9]+))?.*
! Touchstone port assignment:
! Touchstone port 1 = CST DES external port 1 ("")
# GHz S MA R 50
9                    0.989044269     -78.6228863
9.001                 0.98901729     -78.7424287
9.002                0.988990232     -78.8622631
9.003                0.988963094     -78.9823903
9.004                0.988935875     -79.1028111
9.005                0.988908576     -79.2235265
9.006                0.988881197     -79.3445373
9.007                0.988853736     -79.4658442
9.008                0.988826195     -79.5874482
9.009                0.988798573     -79.7093501
9.01                  0.98877087     -79.8315507
9.011                0.988743085     -79.9540509
9.012                0.988715219     -80.0768516
9.013                0.988687272     -80.1999535
9.014                0.988659242     -80.3233576
9.015                0.988631131     -80.4470647
9.016                0.988602937     -80.5710756
9.017                0.988574662     -80.6953913
9.018                0.988546304     -80.8200125
9.019                0.988517864     -80.9449402
9.02                 0.988489341     -81.0701752
9.021                0.988460735     -81.1957183
9.022                0.988432046     -81.3215704
9.023                0.988403275     -81.4477325
9.024                 0.98837442     -81.5742053
9.025                0.988345482     -81.7009898
9.026                 0.98831646     -81.8280868
9.027                0.988287355     -81.9554971
9.028                0.988258166     -82.0832217
9.029                0.988228894     -82.2112615
9.03                 0.988199537     -82.3396172
9.031                0.988170096     -82.4682898
9.032                0.988140572     -82.5972802
9.033                0.988110962     -82.7265893
9.034                0.988081269     -82.8562178
9.035                0.988051491     -82.9861668
9.036                0.988021628     -83.1164371
9.037                 0.98799168     -83.2470295
9.038                0.987961648     -83.3779451
9.039                0.987931531     -83.5091845
9.04                 0.987901328     -83.6407489
9.041                 0.98787104     -83.7726389
9.042                0.987840667     -83.9048556
9.043                0.987810208     -84.0373998
9.044                0.987779664     -84.1702725
9.045                0.987749035     -84.3034744
9.046                0.987718319     -84.4370065
9.047                0.987687518     -84.5708698
9.048                 0.98765663      -84.705065
9.049                0.987625657     -84.8395931
9.05                 0.987594598     -84.9744551
9.051                0.987563452     -85.1096517
9.052                 0.98753222     -85.2451839
9.053                0.987500902     -85.3810527
9.054                0.987469497     -85.5172588
9.055                0.987438006     -85.6538033
9.056                0.987406428     -85.7906869
9.057                0.987374763     -85.9279107
9.058                0.987343012     -86.0654755
9.059                0.987311173     -86.2033823
9.06                 0.987279248     -86.3416318
9.061                0.987247236     -86.4802252
9.062                0.987215137     -86.6191632
9.063                 0.98718295     -86.7584467
9.064                0.987150677     -86.8980768
9.065                0.987118316     -87.0380542
9.066                0.987085868       -87.17838
9.067                0.987053333     -87.3190549
9.068                 0.98702071       -87.46008
9.069                   0.986988     -87.6014561
9.07                 0.986955202     -87.7431842
9.071                0.986922317     -87.8852651
9.072                0.986889344     -88.0276999
9.073                0.986856284     -88.1704893
9.074                0.986823136     -88.3136343
9.075                  0.9867899     -88.4571359
9.076                0.986756577     -88.6009949
9.077                0.986723166     -88.7452123
9.078                0.986689667     -88.8897889
9.079                0.986656081     -89.0347258
9.08                 0.986622407     -89.1800237
9.081                0.986588645     -89.3256837
9.082                0.986554795     -89.4717066
9.083                0.986520857     -89.6180934
9.084                0.986486832     -89.7648449
9.085                0.986452719     -89.9119621
9.086                0.986418518      -90.059446
9.087                0.986384229     -90.2072974
9.088                0.986349853     -90.3555172
9.089                0.986315388     -90.5041063
9.09                 0.986280836     -90.6530658
9.091                0.986246197     -90.8023964
9.092                0.986211469     -90.9520991
9.093                0.986176654     -91.1021748
9.094                0.986141752     -91.2526245
9.095                0.986106761      -91.403449
9.096                0.986071683     -91.5546493
9.097                0.986036518     -91.7062263
9.098                0.986001265     -91.8581808
9.099                0.985965925     -92.0105138
9.1                  0.985930498     -92.1632263
9.101                0.985894983      -92.316319
9.102                0.985859381      -92.469793
9.103                0.985823691     -92.6236492
9.104                0.985787915     -92.7778883
9.105                0.985752052     -92.9325115
9.106                0.985716101     -93.0875195
9.107                0.985680064     -93.2429132
9.108                 0.98564394     -93.3986936
9.109                 0.98560773     -93.5548616
9.11                 0.985571432     -93.7114181
9.111                0.985535049      -93.868364
9.112                0.985498579     -94.0257001
9.113                0.985462022     -94.1834275
9.114                 0.98542538     -94.3415469
9.115                0.985388651     -94.5000592
9.116                0.985351837     -94.6589655
9.117                0.985314937     -94.8182665
9.118                0.985277951     -94.9779631
9.119                0.985240879     -95.1380563
9.12                 0.985203723      -95.298547
9.121                0.985166481     -95.4594359
9.122                0.985129154     -95.6207241
9.123                0.985091742     -95.7824124
9.124                0.985054245     -95.9445016
9.125                0.985016664     -96.1069927
9.126                0.984978999     -96.2698865
9.127                0.984941249      -96.433184
9.128                0.984903415     -96.5968859
9.129                0.984865497     -96.7609932
9.13                 0.984827496     -96.9255067
9.131                0.984789411     -97.0904273
9.132                0.984751243     -97.2557559
9.133                0.984712992     -97.4214933
9.134                0.984674658     -97.5876404
9.135                0.984636242     -97.7541981
9.136                0.984597743     -97.9211671
9.137                0.984559162     -98.0885484
9.138                0.984520499     -98.2563428
9.139                0.984481755     -98.4245512
9.14                 0.984442929     -98.5931744
9.141                0.984404022     -98.7622132
9.142                0.984365034     -98.9316685
9.143                0.984325966     -99.1015411
9.144                0.984286817     -99.2718319
9.145                0.984247589     -99.4425417
9.146                 0.98420828     -99.6136713
9.147                0.984168892     -99.7852215
9.148                0.984129425     -99.9571932
9.149                0.984089879     -100.129587
9.15                 0.984050255     -100.302404
9.151                0.984010552     -100.475645
9.152                0.983970772     -100.649311
9.153                0.983930914     -100.823402
9.154                0.983890979      -100.99792
9.155                0.983850967     -101.172864
9.156                0.983810878     -101.348237
9.157                0.983770714     -101.524038
9.158                0.983730473     -101.700269
9.159                0.983690158      -101.87693
9.16                 0.983649767     -102.054022
9.161                0.983609301     -102.231546
9.162                0.983568762     -102.409502
9.163                0.983528149     -102.587892
9.164                0.983487462     -102.766716
9.165                0.983446702     -102.945974
9.166                 0.98340587     -103.125669
9.167                0.983364966     -103.305799
9.168                 0.98332399     -103.486367
9.169                0.983282942     -103.667373
9.17                 0.983241824     -103.848817
9.171                0.983200636       -104.0307
9.172                0.983159378     -104.213024
9.173                0.983118051     -104.395788
9.174                0.983076654     -104.578993
9.175                 0.98303519     -104.762641
9.176                0.982993657     -104.946732
9.177                0.982952058     -105.131266
9.178                0.982910391     -105.316244
9.179                0.982868658     -105.501667
9.18                  0.98282686     -105.687536
9.181                0.982784996     -105.873851
9.182                0.982743068     -106.060613
9.183                0.982701075     -106.247822
9.184                0.982659019      -106.43548
9.185                  0.9826169     -106.623586
9.186                0.982574719     -106.812142
9.187                0.982532476     -107.001148
9.188                0.982490172     -107.190605
9.189                0.982447807     -107.380513
9.19                 0.982405383     -107.570873
9.191                0.982362899     -107.761686
9.192                0.982320357     -107.952952
9.193                0.982277757     -108.144672
9.194                0.982235099     -108.336846
9.195                0.982192385     -108.529475
9.196                0.982149615      -108.72256
9.197                0.982106789     -108.916101
9.198                0.982063909     -109.110098
9.199                0.982020975     -109.304553
9.2                  0.981977988     -109.499465
9.201                0.981934949     -109.694835
9.202                0.981891857     -109.890665
9.203                0.981848715     -110.086953
9.204                0.981805523     -110.283702
9.205                0.981762281      -110.48091
9.206                0.981718991      -110.67858
9.207                0.981675652     -110.876711
9.208                0.981632267     -111.075303
9.209                0.981588835     -111.274358
9.21                 0.981545358     -111.473875
9.211                0.981501836     -111.673856
9.212                0.981458271       -111.8743
9.213                0.981414662     -112.075208
9.214                0.981371011     -112.276581
9.215                0.981327319     -112.478418
9.216                0.981283587      -112.68072
9.217                0.981239815     -112.883489
9.218                0.981196004     -113.086723
9.219                0.981152156     -113.290423
9.22                  0.98110827     -113.494591
9.221                0.981064349     -113.699225
9.222                0.981020393     -113.904327
9.223                0.980976403     -114.109896
9.224                 0.98093238     -114.315934
9.225                0.980888325      -114.52244
9.226                0.980844239     -114.729415
9.227                0.980800122     -114.936859
9.228                0.980755976     -115.144772
9.229                0.980711803     -115.353154
9.23                 0.980667602     -115.562007
9.231                0.980623375     -115.771329
9.232                0.980579123     -115.981122
9.233                0.980534846     -116.191385
9.234                0.980490547     -116.402119
9.235                0.980446226     -116.613324
9.236                0.980401885        -116.825
9.237                0.980357523     -117.037148
9.238                0.980313143     -117.249766
9.239                0.980268745     -117.462857
9.24                 0.980224331     -117.676419
9.241                0.980179902     -117.890453
9.242                0.980135459     -118.104959
9.243                0.980091002     -118.319937
9.244                0.980046534     -118.535387
9.245                0.980002055      -118.75131
9.246                0.979957567     -118.967705
9.247                0.979913071     -119.184573
9.248                0.979868568     -119.401912
9.249                0.979824058     -119.619725
9.25                 0.979779545      -119.83801
9.251                0.979735028     -120.056767
9.252                0.979690509     -120.275997
9.253                0.979645989     -120.495699
9.254                0.979601469     -120.715874
9.255                0.979556952     -120.936521
9.256                0.979512437      -121.15764
9.257                0.979467927     -121.379231
9.258                0.979423422     -121.601295
9.259                0.979378925     -121.823831
9.26                 0.979334436     -122.046838
9.261                0.979289956     -122.270317
9.262                0.979245488     -122.494268
9.263                0.979201032      -122.71869
9.264                 0.97915659     -122.943584
9.265                0.979112163     -123.168948
9.266                0.979067753     -123.394783
9.267                0.979023361     -123.621089
9.268                0.978978988     -123.847865
9.269                0.978934636     -124.075112
9.27                 0.978890307     -124.302828
9.271                0.978846001     -124.531013
9.272                0.978801721     -124.759668
9.273                0.978757468     -124.988792
9.274                0.978713242     -125.218384
9.275                0.978669047     -125.448444
9.276                0.978624883     -125.678972
9.277                0.978580751     -125.909968
9.278                0.978536654      -126.14143
9.279                0.978492593     -126.373359
9.28                 0.978448569     -126.605755
9.281                0.978404584     -126.838616
9.282                0.978360639     -127.071942
9.283                0.978316737     -127.305733
9.284                0.978272879     -127.539988
9.285                0.978229066     -127.774707
9.286                0.978185299     -128.009889
9.287                0.978141582     -128.245533
9.288                0.978097914      -128.48164
9.289                0.978054299     -128.718208
9.29                 0.978010737     -128.955237
9.291                 0.97796723     -129.192726
9.292                0.977923779     -129.430674
9.293                0.977880388     -129.669082
9.294                0.977837056     -129.907947
9.295                0.977793787      -130.14727
9.296                0.977750581      -130.38705
9.297                 0.97770744     -130.627286
9.298                0.977664366     -130.867976
9.299                0.977621361     -131.109122
9.3                  0.977578427     -131.350721
9.301                0.977535565     -131.592773
9.302                0.977492777     -131.835277
9.303                0.977450064     -132.078232
9.304                 0.97740743     -132.321637
9.305                0.977364874     -132.565492
9.306                  0.9773224     -132.809796
9.307                0.977280009     -133.054546
9.308                0.977237702     -133.299744
9.309                0.977195482     -133.545387
9.31                  0.97715335     -133.791475
9.311                0.977111309     -134.038006
9.312                 0.97706936      -134.28498
9.313                0.977027504     -134.532395
9.314                0.976985744     -134.780251
9.315                0.976944082     -135.028546
9.316                 0.97690252      -135.27728
9.317                0.976861058     -135.526451
9.318                  0.9768197     -135.776058
9.319                0.976778447     -136.026099
9.32                 0.976737302     -136.276574
9.321                0.976696265     -136.527482
9.322                0.976655338     -136.778821
9.323                0.976614525     -137.030589
9.324                0.976573826     -137.282787
9.325                0.976533244     -137.535411
9.326                 0.97649278     -137.788462
9.327                0.976452437     -138.041938
9.328                0.976412216     -138.295836
9.329                0.976372119     -138.550157
9.33                 0.976332149     -138.804898
9.331                0.976292306     -139.060059
9.332                0.976252594     -139.315637
9.333                0.976213014     -139.571632
9.334                0.976173568     -139.828041
9.335                0.976134259     -140.084863
9.336                0.976095087     -140.342097
9.337                0.976056055     -140.599742
9.338                0.976017165     -140.857795
9.339                0.975978419     -141.116255
9.34                 0.975939819      -141.37512
9.341                0.975901367     -141.634389
9.342                0.975863064      -141.89406
9.343                0.975824914     -142.154132
9.344                0.975786917     -142.414602
9.345                0.975749077      -142.67547
9.346                0.975711394     -142.936732
9.347                0.975673871     -143.198389
9.348                0.975636509     -143.460437
9.349                0.975599312     -143.722874
9.35                 0.975562281       -143.9857
9.351                0.975525417     -144.248913
9.352                0.975488723     -144.512509
9.353                0.975452201     -144.776488
9.354                0.975415853     -145.040848
9.355                0.975379681     -145.305586
9.356                0.975343686     -145.570701
9.357                0.975307872     -145.836191
9.358                0.975272239     -146.102053
9.359                 0.97523679     -146.368286
9.36                 0.975201527     -146.634887
9.361                0.975166451     -146.901856
9.362                0.975131566     -147.169188
9.363                0.975096872     -147.436883
9.364                0.975062372     -147.704939
9.365                0.975028067     -147.973352
9.366                0.974993961     -148.242121
9.367                0.974960054     -148.511244
9.368                0.974926348     -148.780719
9.369                0.974892847     -149.050542
9.37                 0.974859551     -149.320713
9.371                0.974826462     -149.591229
9.372                0.974793583     -149.862087
9.373                0.974760915     -150.133285
9.374                0.974728461     -150.404821
9.375                0.974696222     -150.676692
9.376                  0.9746642     -150.948896
9.377                0.974632398     -151.221431
9.378                0.974600816     -151.494294
9.379                0.974569458     -151.767483
9.38                 0.974538324     -152.040996
9.381                0.974507417     -152.314829
9.382                0.974476739      -152.58898
9.383                0.974446292     -152.863447
9.384                0.974416076     -153.138228
9.385                0.974386096     -153.413319
9.386                0.974356351     -153.688718
9.387                0.974326845     -153.964422
9.388                0.974297578      -154.24043
9.389                0.974268553     -154.516738
9.39                 0.974239772     -154.793343
9.391                0.974211236     -155.070243
9.392                0.974182947     -155.347435
9.393                0.974154907     -155.624917
9.394                0.974127117     -155.902685
9.395                0.974099581     -156.180738
9.396                0.974072298     -156.459071
