! TOUCHSTONE file generated by CST DESIGN STUDIO
! Date and time: Tue Feb  4 14:14:33 2025
! Project name: C:\Work\MatlabApps\UnitCellOptimizationMatlab\CST\unitcell.cst
! Tree item: Tasks\Sweep1\SPara1\S-Parameters
! Header version: 2024
! Port assignment regex: !\s*Touchstone port\s*([0-9]+)\s*=\s*(CST MWS port|CST DES external port|CST DES block port)\s*(.+)\s* \(\"(.*)\"\)(\s*mode\s*([0-9]+))?.*
! Touchstone port assignment:
! Touchstone port 1 = CST DES external port 1 ("")
# GHz S MA R 50
9                    0.989582031     -76.2045134
9.001                 0.98955722     -76.3184199
9.002                0.989532336     -76.4326025
9.003                0.989507378      -76.547062
9.004                0.989482345     -76.6617992
9.005                0.989457238     -76.7768148
9.006                0.989432057     -76.8921098
9.007                0.989406801      -77.007685
9.008                 0.98938147      -77.123541
9.009                0.989356064     -77.2396788
9.01                 0.989330582     -77.3560992
9.011                0.989305026      -77.472803
9.012                0.989279394      -77.589791
9.013                0.989253687      -77.707064
9.014                0.989227903     -77.8246229
9.015                0.989202044     -77.9424684
9.016                0.989176109     -78.0606015
9.017                0.989150097     -78.1790229
9.018                0.989124009     -78.2977335
9.019                0.989097845     -78.4167341
9.02                 0.989071603     -78.5360255
9.021                0.989045285     -78.6556086
9.022                 0.98901889     -78.7754842
9.023                0.988992418     -78.8956531
9.024                0.988965869     -79.0161163
9.025                0.988939242     -79.1368745
9.026                0.988912538     -79.2579285
9.027                0.988885756     -79.3792793
9.028                0.988858896     -79.5009277
9.029                0.988831958     -79.6228745
9.03                 0.988804942     -79.7451205
9.031                0.988777847     -79.8676667
9.032                0.988750675     -79.9905139
9.033                0.988723423     -80.1136629
9.034                0.988696094     -80.2371146
9.035                0.988668685     -80.3608699
9.036                0.988641197     -80.4849295
9.037                 0.98861363     -80.6092945
9.038                0.988585985     -80.7339656
9.039                0.988558259     -80.8589437
9.04                 0.988530455     -80.9842296
9.041                 0.98850257     -81.1098244
9.042                0.988474606     -81.2357287
9.043                0.988446562     -81.3619435
9.044                0.988418439     -81.4884696
9.045                0.988390235      -81.615308
9.046                0.988361951     -81.7424595
9.047                0.988333586     -81.8699249
9.048                0.988305141     -81.9977052
9.049                0.988276616     -82.1258013
9.05                  0.98824801     -82.2542139
9.051                0.988219323     -82.3829441
9.052                0.988190555     -82.5119926
9.053                0.988161707     -82.6413604
9.054                0.988132777     -82.7710484
9.055                0.988103766     -82.9010574
9.056                0.988074673     -83.0313883
9.057                  0.9880455      -83.162042
9.058                0.988016244     -83.2930195
9.059                0.987986907     -83.4243215
9.06                 0.987957489      -83.555949
9.061                0.987927988      -83.687903
9.062                0.987898406     -83.8201842
9.063                0.987868741     -83.9527936
9.064                0.987838995      -84.085732
9.065                0.987809166     -84.2190004
9.066                0.987779255     -84.3525998
9.067                0.987749262     -84.4865308
9.068                0.987719186     -84.6207946
9.069                0.987689028     -84.7553919
9.07                 0.987658787     -84.8903238
9.071                0.987628463      -85.025591
9.072                0.987598057     -85.1611945
9.073                0.987567567     -85.2971352
9.074                0.987536995      -85.433414
9.075                 0.98750634     -85.5700319
9.076                0.987475602     -85.7069896
9.077                0.987444781     -85.8442882
9.078                0.987413876     -85.9819285
9.079                0.987382889     -86.1199115
9.08                 0.987351818     -86.2582381
9.081                0.987320664     -86.3969092
9.082                0.987289426     -86.5359256
9.083                0.987258105     -86.6752884
9.084                  0.9872267     -86.8149984
9.085                0.987195212     -86.9550565
9.086                0.987163641     -87.0954637
9.087                0.987131985     -87.2362208
9.088                0.987100246     -87.3773289
9.089                0.987068424     -87.5187887
9.09                 0.987036517     -87.6606013
9.091                0.987004527     -87.8027675
9.092                0.986972453     -87.9452883
9.093                0.986940296     -88.0881646
9.094                0.986908054     -88.2313972
9.095                0.986875729     -88.3749872
9.096                 0.98684332     -88.5189355
9.097                0.986810827     -88.6632429
9.098                 0.98677825     -88.8079103
9.099                0.986745589     -88.9529388
9.1                  0.986712844     -89.0983292
9.101                0.986680016     -89.2440825
9.102                0.986647103     -89.3901995
9.103                0.986614107     -89.5366812
9.104                0.986581027     -89.6835285
9.105                0.986547862     -89.8307424
9.106                0.986514615     -89.9783237
9.107                0.986481283     -90.1262733
9.108                0.986447867     -90.2745923
9.109                0.986414368     -90.4232815
9.11                 0.986380785     -90.5723418
9.111                0.986347118     -90.7217742
9.112                0.986313368     -90.8715795
9.113                0.986279533     -91.0217587
9.114                0.986245616     -91.1723128
9.115                0.986211615     -91.3232425
9.116                 0.98617753      -91.474549
9.117                0.986143362      -91.626233
9.118                 0.98610911     -91.7782955
9.119                0.986074775     -91.9307373
9.12                 0.986040357     -92.0835595
9.121                0.986005856      -92.236763
9.122                0.985971271     -92.3903486
9.123                0.985936604     -92.5443172
9.124                0.985901854     -92.6986698
9.125                 0.98586702     -92.8534073
9.126                0.985832104     -93.0085307
9.127                0.985797106     -93.1640407
9.128                0.985762024     -93.3199383
9.129                0.985726861     -93.4762245
9.13                 0.985691614     -93.6329001
9.131                0.985656286     -93.7899661
9.132                0.985620876     -93.9474233
9.133                0.985585383     -94.1052726
9.134                0.985549809      -94.263515
9.135                0.985514152     -94.4221514
9.136                0.985478415     -94.5811826
9.137                0.985442595     -94.7406096
9.138                0.985406695     -94.9004333
9.139                0.985370713     -95.0606545
9.14                  0.98533465     -95.2212741
9.141                0.985298506     -95.3822931
9.142                0.985262282     -95.5437123
9.143                0.985225977     -95.7055326
9.144                0.985189591     -95.8677549
9.145                0.985153126     -96.0303801
9.146                 0.98511658     -96.1934091
9.147                0.985079955     -96.3568427
9.148                 0.98504325     -96.5206819
9.149                0.985006465     -96.6849275
9.15                 0.984969601     -96.8495804
9.151                0.984932658     -97.0146414
9.152                0.984895637     -97.1801115
9.153                0.984858537     -97.3459914
9.154                0.984821358     -97.5122822
9.155                0.984784102     -97.6789845
9.156                0.984746767     -97.8460994
9.157                0.984709355     -98.0136276
9.158                0.984671865     -98.1815701
9.159                0.984634299     -98.3499276
9.16                 0.984596655      -98.518701
9.161                0.984558935     -98.6878911
9.162                0.984521138     -98.8574989
9.163                0.984483266     -99.0275251
9.164                0.984445317     -99.1979706
9.165                0.984407293     -99.3688363
9.166                0.984369194     -99.5401229
9.167                0.984331021     -99.7118313
9.168                0.984292772     -99.8839623
9.169                0.984254449     -100.056517
9.17                 0.984216053     -100.229495
9.171                0.984177582     -100.402899
9.172                0.984139039     -100.576729
9.173                0.984100422     -100.750985
9.174                0.984061733     -100.925669
9.175                0.984022972     -101.100781
9.176                0.983984139     -101.276322
9.177                0.983945234     -101.452294
9.178                0.983906259     -101.628695
9.179                0.983867212     -101.805529
9.18                 0.983828095     -101.982794
9.181                0.983788909     -102.160493
9.182                0.983749652     -102.338625
9.183                0.983710327     -102.517192
9.184                0.983670933     -102.696194
9.185                0.983631471     -102.875633
9.186                 0.98359194     -103.055508
9.187                0.983552343     -103.235821
9.188                0.983512678     -103.416572
9.189                0.983472947     -103.597762
9.19                  0.98343315     -103.779392
9.191                0.983393287     -103.961463
9.192                0.983353359     -104.143975
9.193                0.983313367     -104.326929
9.194                 0.98327331     -104.510325
9.195                 0.98323319     -104.694165
9.196                0.983193007     -104.878449
9.197                0.983152761     -105.063178
9.198                0.983112453     -105.248353
9.199                0.983072083     -105.433974
9.2                  0.983031653     -105.620041
9.201                0.982991162     -105.806556
9.202                0.982950611      -105.99352
9.203                0.982910001     -106.180932
9.204                0.982869332     -106.368794
9.205                0.982828605     -106.557105
9.206                 0.98278782     -106.745868
9.207                0.982746979     -106.935083
9.208                0.982706081     -107.124749
9.209                0.982665127     -107.314868
9.21                 0.982624118     -107.505441
9.211                0.982583055     -107.696467
9.212                0.982541938     -107.887948
9.213                0.982500768     -108.079884
9.214                0.982459545     -108.272276
9.215                 0.98241827     -108.465124
9.216                0.982376944     -108.658429
9.217                0.982335568     -108.852192
9.218                0.982294141     -109.046413
9.219                0.982252666     -109.241092
9.22                 0.982211142      -109.43623
9.221                0.982169571     -109.631828
9.222                0.982127953     -109.827886
9.223                0.982086288     -110.024405
9.224                0.982044578     -110.221385
9.225                0.982002823     -110.418827
9.226                0.981961025     -110.616731
9.227                0.981919183     -110.815098
9.228                0.981877299     -111.013928
9.229                0.981835374     -111.213222
9.23                 0.981793407      -111.41298
9.231                0.981751401     -111.613202
9.232                0.981709356      -111.81389
9.233                0.981667272     -112.015042
9.234                0.981625151     -112.216661
9.235                0.981582994     -112.418746
9.236                  0.9815408     -112.621298
9.237                0.981498572     -112.824317
9.238                 0.98145631     -113.027803
9.239                0.981414015     -113.231757
9.24                 0.981371688      -113.43618
9.241                 0.98132933     -113.641071
9.242                0.981286941      -113.84643
9.243                0.981244523      -114.05226
9.244                0.981202077     -114.258558
9.245                0.981159603     -114.465327
9.246                0.981117103     -114.672566
9.247                0.981074577     -114.880275
9.248                0.981032026     -115.088455
9.249                0.980989453     -115.297107
9.25                 0.980946856     -115.506229
9.251                0.980904238     -115.715823
9.252                  0.9808616     -115.925889
9.253                0.980818942     -116.136427
9.254                0.980776266     -116.347437
9.255                0.980733573      -116.55892
9.256                0.980690863     -116.770875
9.257                0.980648138     -116.983304
9.258                0.980605399     -117.196205
9.259                0.980562647     -117.409579
9.26                 0.980519883     -117.623427
9.261                0.980477109     -117.837748
9.262                0.980434324     -118.052543
9.263                0.980391532     -118.267811
9.264                0.980348732     -118.483553
9.265                0.980305925     -118.699769
9.266                0.980263114     -118.916459
9.267                0.980220299     -119.133623
9.268                0.980177482     -119.351261
9.269                0.980134663     -119.569372
9.27                 0.980091843     -119.787958
9.271                0.980049025     -120.007018
9.272                0.980006209     -120.226552
9.273                0.979963397     -120.446561
9.274                0.979920589     -120.667043
9.275                0.979877788     -120.887999
9.276                0.979834994     -121.109429
9.277                0.979792208     -121.331332
9.278                0.979749432      -121.55371
9.279                0.979706668      -121.77656
9.28                 0.979663916     -121.999885
9.281                0.979621178     -122.223683
9.282                0.979578455     -122.447953
9.283                0.979535749     -122.672697
9.284                0.979493061     -122.897914
9.285                0.979450392     -123.123603
9.286                0.979407744     -123.349765
9.287                0.979365117     -123.576399
9.288                0.979322515     -123.803505
9.289                0.979279937     -124.031082
9.29                 0.979237386     -124.259131
9.291                0.979194862     -124.487651
9.292                0.979152368     -124.716642
9.293                0.979109904     -124.946103
9.294                0.979067472     -125.176034
9.295                0.979025074     -125.406436
9.296                0.978982711     -125.637306
9.297                0.978940385     -125.868646
9.298                0.978898097     -126.100454
9.299                0.978855848      -126.33273
9.3                  0.978813641     -126.565474
9.301                0.978771476     -126.798685
9.302                0.978729356     -127.032363
9.303                0.978687281     -127.266508
9.304                0.978645253     -127.501118
9.305                0.978603275     -127.736193
9.306                0.978561347     -127.971734
9.307                0.978519471     -128.207738
9.308                0.978477648     -128.444206
9.309                0.978435881     -128.681137
9.31                 0.978394171      -128.91853
9.311                 0.97835252     -129.156385
9.312                0.978310928     -129.394702
9.313                0.978269399     -129.633478
9.314                0.978227933     -129.872715
9.315                0.978186532      -130.11241
9.316                0.978145198     -130.352564
9.317                0.978103932     -130.593175
9.318                0.978062737     -130.834243
9.319                0.978021613     -131.075767
9.32                 0.977980563     -131.317746
9.321                0.977939589      -131.56018
9.322                0.977898691     -131.803067
9.323                0.977857872     -132.046407
9.324                0.977817134     -132.290199
9.325                0.977776478     -132.534441
9.326                0.977735905     -132.779134
9.327                0.977695419     -133.024276
9.328                 0.97765502     -133.269866
9.329                0.977614711     -133.515903
9.33                 0.977574492     -133.762386
9.331                0.977534367     -134.009314
9.332                0.977494336     -134.256687
9.333                0.977454401     -134.504502
9.334                0.977414565     -134.752759
9.335                0.977374829     -135.001458
9.336                0.977335195     -135.250596
9.337                0.977295665     -135.500172
9.338                 0.97725624     -135.750187
9.339                0.977216923     -136.000637
9.34                 0.977177715     -136.251522
9.341                0.977138618     -136.502842
9.342                0.977099634     -136.754594
9.343                0.977060765     -137.006777
9.344                0.977022012     -137.259391
9.345                0.976983378     -137.512433
9.346                0.976944865     -137.765903
9.347                0.976906474     -138.019799
9.348                0.976868208     -138.274119
9.349                0.976830067     -138.528863
9.35                 0.976792054     -138.784029
9.351                0.976754172     -139.039616
9.352                0.976716421     -139.295621
9.353                0.976678804     -139.552044
9.354                0.976641323     -139.808884
9.355                0.976603979     -140.066138
9.356                0.976566775     -140.323805
9.357                0.976529712     -140.581883
9.358                0.976492792     -140.840372
9.359                0.976456018     -141.099269
9.36                 0.976419391     -141.358572
9.361                0.976382913     -141.618281
9.362                0.976346586     -141.878393
9.363                0.976310412     -142.138907
9.364                0.976274393      -142.39982
9.365                 0.97623853     -142.661133
9.366                0.976202827     -142.922841
9.367                0.976167284     -143.184945
9.368                0.976131904     -143.447441
9.369                0.976096689     -143.710329
9.37                  0.97606164     -143.973606
9.371                0.976026759      -144.23727
9.372                0.975992049      -144.50132
9.373                0.975957512     -144.765753
9.374                0.975923148     -145.030569
9.375                0.975888961     -145.295764
9.376                0.975854952     -145.561337
9.377                0.975821124     -145.827286
9.378                0.975787477     -146.093609
9.379                0.975754014     -146.360303
9.38                 0.975720737     -146.627367
9.381                0.975687648     -146.894799
9.382                0.975654749     -147.162597
9.383                0.975622041     -147.430758
9.384                0.975589527      -147.69928
9.385                0.975557209     -147.968162
9.386                0.975525087       -148.2374
9.387                0.975493166     -148.506993
9.388                0.975461445     -148.776939
9.389                0.975429928     -149.047235
9.39                 0.975398615     -149.317879
9.391                 0.97536751     -149.588869
9.392                0.975336613     -149.860202
9.393                0.975305927     -150.131876
9.394                0.975275454     -150.403889
9.395                0.975245195     -150.676239
9.396                0.975215152     -150.948922
