! TOUCHSTONE file generated by CST DESIGN STUDIO
! Date and time: Tue Feb  4 14:14:36 2025
! Project name: C:\Work\MatlabApps\UnitCellOptimizationMatlab\CST\unitcell.cst
! Tree item: Tasks\Sweep1\SPara1\S-Parameters
! Header version: 2024
! Port assignment regex: !\s*Touchstone port\s*([0-9]+)\s*=\s*(CST MWS port|CST DES external port|CST DES block port)\s*(.+)\s* \(\"(.*)\"\)(\s*mode\s*([0-9]+))?.*
! Touchstone port assignment:
! Touchstone port 1 = CST DES external port 1 ("")
# GHz S MA R 50
9                    0.989957034     -74.4609929
9.001                0.989933697     -74.5709662
9.002                0.989910291     -74.6812046
9.003                0.989886815     -74.7917086
9.004                 0.98986327     -74.9024792
9.005                0.989839654     -75.0135172
9.006                0.989815969     -75.1248232
9.007                0.989792213     -75.2363981
9.008                0.989768387     -75.3482427
9.009                0.989744491     -75.4603578
9.01                 0.989720524     -75.5727442
9.011                0.989696486     -75.6854026
9.012                0.989672377     -75.7983339
9.013                0.989648197     -75.9115388
9.014                0.989623946     -76.0250182
9.015                0.989599623     -76.1387729
9.016                0.989575229     -76.2528036
9.017                0.989550763     -76.3671112
9.018                0.989526225     -76.4816965
9.019                0.989501615     -76.5965603
9.02                 0.989476933     -76.7117034
9.021                0.989452179     -76.8271267
9.022                0.989427352     -76.9428308
9.023                0.989402452     -77.0588167
9.024                 0.98937748     -77.1750852
9.025                0.989352435     -77.2916371
9.026                0.989327316     -77.4084732
9.027                0.989302125     -77.5255944
9.028                 0.98927686     -77.6430014
9.029                0.989251521     -77.7606951
9.03                 0.989226109     -77.8786763
9.031                0.989200623     -77.9969459
9.032                0.989175063     -78.1155047
9.033                0.989149429     -78.2343536
9.034                0.989123721     -78.3534932
9.035                0.989097938     -78.4729246
9.036                 0.98907208     -78.5926486
9.037                0.989046148     -78.7126659
9.038                0.989020142     -78.8329775
9.039                 0.98899406     -78.9535841
9.04                 0.988967903     -79.0744867
9.041                0.988941671      -79.195686
9.042                0.988915364      -79.317183
9.043                0.988888981     -79.4389784
9.044                0.988862522     -79.5610731
9.045                0.988835988     -79.6834681
9.046                0.988809378     -79.8061641
9.047                0.988782691      -79.929162
9.048                0.988755929     -80.0524626
9.049                 0.98872909     -80.1760669
9.05                 0.988702175     -80.2999757
9.051                0.988675184     -80.4241898
9.052                0.988648115     -80.5487102
9.053                 0.98862097     -80.6735376
9.054                0.988593749      -80.798673
9.055                 0.98856645     -80.9241172
9.056                0.988539074     -81.0498711
9.057                 0.98851162     -81.1759356
9.058                 0.98848409     -81.3023115
9.059                0.988456481     -81.4289998
9.06                 0.988428796     -81.5560013
9.061                0.988401032     -81.6833168
9.062                0.988373191     -81.8109474
9.063                0.988345272     -81.9388937
9.064                0.988317274     -82.0671569
9.065                0.988289199     -82.1957376
9.066                0.988261045     -82.3246368
9.067                0.988232813     -82.4538555
9.068                0.988204503     -82.5833944
9.069                0.988176114     -82.7132545
9.07                 0.988147646     -82.8434366
9.071                0.988119099     -82.9739417
9.072                0.988090474     -83.1047707
9.073                 0.98806177     -83.2359244
9.074                0.988032987     -83.3674038
9.075                0.988004124     -83.4992097
9.076                0.987975183     -83.6313431
9.077                0.987946162     -83.7638048
9.078                0.987917061     -83.8965957
9.079                0.987887882     -84.0297168
9.08                 0.987858622      -84.163169
9.081                0.987829283     -84.2969531
9.082                0.987799865       -84.43107
9.083                0.987770366     -84.5655208
9.084                0.987740788     -84.7003062
9.085                 0.98771113     -84.8354272
9.086                0.987681391     -84.9708847
9.087                0.987651573     -85.1066796
9.088                0.987621675     -85.2428128
9.089                0.987591696     -85.3792853
9.09                 0.987561637     -85.5160979
9.091                0.987531498     -85.6532515
9.092                0.987501278     -85.7907471
9.093                0.987470978     -85.9285857
9.094                0.987440598      -86.066768
9.095                0.987410137      -86.205295
9.096                0.987379595     -86.3441677
9.097                0.987348973      -86.483387
9.098                 0.98731827     -86.6229537
9.099                0.987287487     -86.7628688
9.1                  0.987256623     -86.9031333
9.101                0.987225678      -87.043748
9.102                0.987194652     -87.1847138
9.103                0.987163545     -87.3260318
9.104                0.987132358     -87.4677027
9.105                0.987101089     -87.6097276
9.106                 0.98706974     -87.7521073
9.107                 0.98703831     -87.8948428
9.108                0.987006799      -88.037935
9.109                0.986975207     -88.1813849
9.11                 0.986943534     -88.3251933
9.111                 0.98691178     -88.4693612
9.112                0.986879945     -88.6138895
9.113                0.986848029     -88.7587791
9.114                0.986816032     -88.9040309
9.115                0.986783954      -89.049646
9.116                0.986751795     -89.1956252
9.117                0.986719555     -89.3419693
9.118                0.986687234     -89.4886795
9.119                0.986654833     -89.6357566
9.12                  0.98662235     -89.7832014
9.121                0.986589787      -89.931015
9.122                0.986557142     -90.0791983
9.123                0.986524417     -90.2277522
9.124                0.986491611     -90.3766776
9.125                0.986458725     -90.5259754
9.126                0.986425757     -90.6756466
9.127                 0.98639271     -90.8256921
9.128                0.986359581     -90.9761128
9.129                0.986326372     -91.1269097
9.13                 0.986293082     -91.2780837
9.131                0.986259712     -91.4296356
9.132                0.986226261     -91.5815665
9.133                0.986192731     -91.7338772
9.134                 0.98615912     -91.8865686
9.135                0.986125428     -92.0396418
9.136                0.986091657     -92.1930975
9.137                0.986057806     -92.3469368
9.138                0.986023874     -92.5011605
9.139                0.985989863     -92.6557696
9.14                 0.985955772      -92.810765
9.141                0.985921602     -92.9661475
9.142                0.985887352     -93.1219182
9.143                0.985853022     -93.2780779
9.144                0.985818613     -93.4346276
9.145                0.985784125     -93.5915681
9.146                0.985749558     -93.7489004
9.147                0.985714912     -93.9066253
9.148                0.985680187     -94.0647439
9.149                0.985645383     -94.2232569
9.15                 0.985610501     -94.3821654
9.151                 0.98557554     -94.5414701
9.152                0.985540501     -94.7011721
9.153                0.985505384     -94.8612722
9.154                0.985470189     -95.0217713
9.155                0.985434916     -95.1826703
9.156                0.985399565     -95.3439702
9.157                0.985364137     -95.5056717
9.158                0.985328632     -95.6677759
9.159                0.985293049     -95.8302836
9.16                  0.98525739     -95.9931956
9.161                0.985221654     -96.1565129
9.162                0.985185841     -96.3202364
9.163                0.985149952      -96.484367
9.164                0.985113987     -96.6489054
9.165                0.985077946     -96.8138527
9.166                0.985041829     -96.9792097
9.167                0.985005636     -97.1449773
9.168                0.984969369     -97.3111563
9.169                0.984933026     -97.4777476
9.17                 0.984896608     -97.6447521
9.171                0.984860116     -97.8121706
9.172                 0.98482355     -97.9800041
9.173                 0.98478691     -98.1482533
9.174                0.984750195     -98.3169192
9.175                0.984713408     -98.4860026
9.176                0.984676547     -98.6555043
9.177                0.984639613     -98.8254252
9.178                0.984602606     -98.9957661
9.179                0.984565527     -99.1665279
9.18                 0.984528376     -99.3377115
9.181                0.984491153     -99.5093176
9.182                0.984453859     -99.6813471
9.183                0.984416493     -99.8538009
9.184                0.984379057      -100.02668
9.185                 0.98434155     -100.199984
9.186                0.984303973     -100.373716
9.187                0.984266326     -100.547875
9.188                0.984228609     -100.722462
9.189                0.984190824     -100.897478
9.19                 0.984152969     -101.072925
9.191                0.984115046     -101.248802
9.192                0.984077056      -101.42511
9.193                0.984038997     -101.601852
9.194                0.984000871     -101.779026
9.195                0.983962679     -101.956634
9.196                 0.98392442     -102.134677
9.197                0.983886094     -102.313155
9.198                0.983847704     -102.492069
9.199                0.983809248     -102.671421
9.2                  0.983770727      -102.85121
9.201                0.983732141     -103.031438
9.202                0.983693492     -103.212105
9.203                 0.98365478     -103.393212
9.204                0.983616004      -103.57476
9.205                0.983577166      -103.75675
9.206                0.983538266     -103.939182
9.207                0.983499304     -104.122057
9.208                0.983460281     -104.305375
9.209                0.983421198     -104.489138
9.21                 0.983382054     -104.673346
9.211                0.983342851        -104.858
9.212                0.983303589     -105.043101
9.213                0.983264268     -105.228649
9.214                0.983224889     -105.414645
9.215                0.983185453     -105.601089
9.216                 0.98314596     -105.787983
9.217                0.983106411     -105.975326
9.218                0.983066805     -106.163121
9.219                0.983027145     -106.351367
9.22                  0.98298743     -106.540064
9.221                0.982947661     -106.729215
9.222                0.982907839     -106.918818
9.223                0.982867963     -107.108875
9.224                0.982828036     -107.299387
9.225                0.982788057     -107.490355
9.226                0.982748027     -107.681777
9.227                0.982707947     -107.873657
9.228                0.982667817     -108.065993
9.229                0.982627638     -108.258786
9.23                 0.982587411     -108.452038
9.231                0.982547136     -108.645749
9.232                0.982506815     -108.839919
9.233                0.982466447     -109.034548
9.234                0.982426033     -109.229638
9.235                0.982385575     -109.425189
9.236                0.982345073     -109.621202
9.237                0.982304527     -109.817677
9.238                0.982263939     -110.014614
9.239                0.982223308     -110.212014
9.24                 0.982182637     -110.409877
9.241                0.982141925     -110.608205
9.242                0.982101174     -110.806997
9.243                0.982060384     -111.006255
9.244                0.982019556     -111.205978
9.245                0.981978691     -111.406166
9.246                0.981937789     -111.606822
9.247                0.981896852     -111.807944
9.248                0.981855881     -112.009533
9.249                0.981814875      -112.21159
9.25                 0.981773836     -112.414115
9.251                0.981732766     -112.617109
9.252                0.981691664     -112.820572
9.253                0.981650531     -113.024504
9.254                0.981609369     -113.228906
9.255                0.981568179     -113.433777
9.256                0.981526961      -113.63912
9.257                0.981485716     -113.844933
9.258                0.981444445     -114.051217
9.259                 0.98140315     -114.257973
9.26                  0.98136183       -114.4652
9.261                0.981320488     -114.672899
9.262                0.981279123     -114.881071
9.263                0.981237738     -115.089716
9.264                0.981196333     -115.298833
9.265                0.981154908     -115.508424
9.266                0.981113466     -115.718488
9.267                0.981072006     -115.929025
9.268                0.981030531     -116.140037
9.269                 0.98098904     -116.351523
9.27                 0.980947536     -116.563483
9.271                0.980906019     -116.775917
9.272                0.980864491     -116.988826
9.273                0.980822951      -117.20221
9.274                0.980781403     -117.416069
9.275                0.980739845     -117.630404
9.276                0.980698281     -117.845213
9.277                 0.98065671     -118.060498
9.278                0.980615134     -118.276258
9.279                0.980573554     -118.492495
9.28                 0.980531972     -118.709206
9.281                0.980490388     -118.926394
9.282                0.980448803     -119.144057
9.283                 0.98040722     -119.362196
9.284                0.980365638     -119.580811
9.285                0.980324059     -119.799902
9.286                0.980282485     -120.019469
9.287                0.980240916     -120.239512
9.288                0.980199354      -120.46003
9.289                0.980157801     -120.681025
9.29                 0.980116257     -120.902495
9.291                0.980074723     -121.124441
9.292                0.980033201     -121.346862
9.293                0.979991692     -121.569759
9.294                0.979950198     -121.793131
9.295                 0.97990872     -122.016979
9.296                0.979867259     -122.241301
9.297                0.979825816     -122.466099
9.298                0.979784393     -122.691372
9.299                0.979742992     -122.917119
9.3                  0.979701612      -123.14334
9.301                0.979660257     -123.370036
9.302                0.979618927     -123.597205
9.303                0.979577623     -123.824849
9.304                0.979536348     -124.052965
9.305                0.979495102     -124.281555
9.306                0.979453887     -124.510618
9.307                0.979412704     -124.740153
9.308                0.979371555      -124.97016
9.309                0.979330441      -125.20064
9.31                 0.979289364     -125.431591
9.311                0.979248324     -125.663012
9.312                0.979207325     -125.894905
9.313                0.979166366     -126.127268
9.314                0.979125451     -126.360101
9.315                0.979084579     -126.593403
9.316                0.979043753     -126.827174
9.317                0.979002974     -127.061414
9.318                0.978962243     -127.296122
9.319                0.978921563     -127.531297
9.32                 0.978880935     -127.766939
9.321                 0.97884036     -128.003048
9.322                 0.97879984     -128.239622
9.323                0.978759376     -128.476662
9.324                0.978718971     -128.714166
9.325                0.978678625     -128.952134
9.326                 0.97863834     -129.190566
9.327                0.978598119      -129.42946
9.328                0.978557962     -129.668817
9.329                0.978517871     -129.908634
9.33                 0.978477847     -130.148912
9.331                0.978437894     -130.389651
9.332                0.978398011     -130.630848
9.333                0.978358201     -130.872503
9.334                0.978318466     -131.114617
9.335                0.978278806     -131.357187
9.336                0.978239225     -131.600212
9.337                0.978199723     -131.843693
9.338                0.978160302     -132.087629
9.339                0.978120965     -132.332017
9.34                 0.978081711     -132.576858
9.341                0.978042545      -132.82215
9.342                0.978003466     -133.067893
9.343                0.977964477     -133.314086
9.344                 0.97792558     -133.560727
9.345                0.977886776     -133.807815
9.346                0.977848068      -134.05535
9.347                0.977809456     -134.303331
9.348                0.977770943     -134.551756
9.349                 0.97773253     -134.800625
9.35                  0.97769422     -135.049935
9.351                0.977656014     -135.299687
9.352                0.977617913     -135.549879
9.353                 0.97757992      -135.80051
9.354                0.977542037     -136.051578
9.355                0.977504265     -136.303082
9.356                0.977466606     -136.555022
9.357                0.977429062     -136.807396
9.358                0.977391634     -137.060202
9.359                0.977354325      -137.31344
9.36                 0.977317137     -137.567107
9.361                0.977280071     -137.821204
9.362                0.977243129     -138.075727
9.363                0.977206313     -138.330677
9.364                0.977169625     -138.586051
9.365                0.977133066     -138.841848
9.366                 0.97709664     -139.098067
9.367                0.977060346     -139.354707
9.368                0.977024188     -139.611765
9.369                0.976988167      -139.86924
9.37                 0.976952285     -140.127131
9.371                0.976916544     -140.385436
9.372                0.976880946     -140.644153
9.373                0.976845492     -140.903282
9.374                0.976810185      -141.16282
9.375                0.976775027     -141.422765
9.376                0.976740019     -141.683117
9.377                0.976705163     -141.943873
9.378                0.976670462     -142.205032
9.379                0.976635916     -142.466591
9.38                 0.976601528      -142.72855
9.381                0.976567301     -142.990907
9.382                0.976533235     -143.253659
9.383                0.976499332     -143.516804
9.384                0.976465596     -143.780342
9.385                0.976432026      -144.04427
9.386                0.976398626     -144.308586
9.387                0.976365397     -144.573289
9.388                0.976332342     -144.838376
9.389                0.976299461     -145.103845
9.39                 0.976266758     -145.369695
9.391                0.976234233     -145.635924
9.392                0.976201889     -145.902529
9.393                0.976169727     -146.169509
9.394                 0.97613775     -146.436861
9.395                0.976105959     -146.704583
9.396                0.976074357     -146.972674
