! TOUCHSTONE file generated by CST DESIGN STUDIO
! Date and time: Tue Feb  4 14:14:34 2025
! Project name: C:\Work\MatlabApps\UnitCellOptimizationMatlab\CST\unitcell.cst
! Tree item: Tasks\Sweep1\SPara1\S-Parameters
! Header version: 2024
! Port assignment regex: !\s*Touchstone port\s*([0-9]+)\s*=\s*(CST MWS port|CST DES external port|CST DES block port)\s*(.+)\s* \(\"(.*)\"\)(\s*mode\s*([0-9]+))?.*
! Touchstone port assignment:
! Touchstone port 1 = CST DES external port 1 ("")
# GHz S MA R 50
9                    0.989769439     -75.3395017
9.001                0.989745394     -75.4514438
9.002                0.989721278     -75.5636564
9.003                0.989697089     -75.6761403
9.004                0.989672828     -75.7888963
9.005                0.989648495     -75.9019253
9.006                0.989624089     -76.0152279
9.007                0.989599611     -76.1288051
9.008                 0.98957506     -76.2426575
9.009                0.989550435      -76.356786
9.01                 0.989525738     -76.4711915
9.011                0.989500967     -76.5858747
9.012                0.989476123     -76.7008364
9.013                0.989451206     -76.8160774
9.014                0.989426214     -76.9315986
9.015                0.989401149     -77.0474008
9.016                0.989376009     -77.1634848
9.017                0.989350796     -77.2798513
9.018                0.989325508     -77.3965013
9.019                0.989300145     -77.5134355
9.02                 0.989274708     -77.6306548
9.021                0.989249196       -77.74816
9.022                0.989223608     -77.8659519
9.023                0.989197946     -77.9840313
9.024                0.989172209     -78.1023991
9.025                0.989146396     -78.2210562
9.026                0.989120507     -78.3400032
9.027                0.989094543     -78.4592412
9.028                0.989068503     -78.5787709
9.029                0.989042387     -78.6985931
9.03                 0.989016195     -78.8187087
9.031                0.988989926     -78.9391186
9.032                0.988963581     -79.0598236
9.033                 0.98893716     -79.1808245
9.034                0.988910661     -79.3021221
9.035                0.988884086     -79.4237174
9.036                0.988857434     -79.5456112
9.037                0.988830705     -79.6678043
9.038                0.988803899     -79.7902976
9.039                0.988777015     -79.9130919
9.04                 0.988750053     -80.0361881
9.041                0.988723014     -80.1595871
9.042                0.988695898     -80.2832897
9.043                0.988668703     -80.4072968
9.044                 0.98864143     -80.5316092
9.045                0.988614079     -80.6562278
9.046                 0.98858665     -80.7811535
9.047                0.988559142     -80.9063872
9.048                0.988531556     -81.0319296
9.049                0.988503892     -81.1577818
9.05                 0.988476148     -81.2839444
9.051                0.988448325     -81.4104186
9.052                0.988420424      -81.537205
9.053                0.988392443     -81.6643046
9.054                0.988364383     -81.7917182
9.055                0.988336244     -81.9194468
9.056                0.988308025     -82.0474912
9.057                0.988279727     -82.1758524
9.058                0.988251349     -82.3045311
9.059                0.988222891     -82.4335282
9.06                 0.988194353     -82.5628447
9.061                0.988165736     -82.6924815
9.062                0.988137038     -82.8224394
9.063                 0.98810826     -82.9527193
9.064                0.988079401     -83.0833222
9.065                0.988050462     -83.2142488
9.066                0.988021443     -83.3455001
9.067                0.987992343     -83.4770771
9.068                0.987963162     -83.6089805
9.069                0.987933901     -83.7412113
9.07                 0.987904559     -83.8737704
9.071                0.987875135     -84.0066587
9.072                0.987845631      -84.139877
9.073                0.987816045     -84.2734264
9.074                0.987786379     -84.4073076
9.075                0.987756631     -84.5415217
9.076                0.987726801     -84.6760694
9.077                 0.98769689     -84.8109517
9.078                0.987666898     -84.9461696
9.079                0.987636824     -85.0817238
9.08                 0.987606668     -85.2176154
9.081                0.987576431     -85.3538453
9.082                0.987546112     -85.4904142
9.083                0.987515711     -85.6273233
9.084                0.987485228     -85.7645733
9.085                0.987454663     -85.9021651
9.086                0.987424015     -86.0400998
9.087                0.987393286     -86.1783782
9.088                0.987362475     -86.3170012
9.089                0.987331582     -86.4559697
9.09                 0.987300606     -86.5952847
9.091                0.987269548     -86.7349471
9.092                0.987238408     -86.8749578
9.093                0.987207185     -87.0153177
9.094                 0.98717588     -87.1560277
9.095                0.987144492     -87.2970887
9.096                0.987113022     -87.4385017
9.097                 0.98708147     -87.5802676
9.098                0.987049835     -87.7223873
9.099                0.987018117     -87.8648617
9.1                  0.986986317     -88.0076918
9.101                0.986954434     -88.1508785
9.102                0.986922469     -88.2944226
9.103                0.986890421     -88.4383252
9.104                 0.98685829     -88.5825871
9.105                0.986826077     -88.7272092
9.106                0.986793781     -88.8721926
9.107                0.986761402      -89.017538
9.108                0.986728941     -89.1632465
9.109                0.986696398     -89.3093189
9.11                 0.986663771     -89.4557563
9.111                0.986631062     -89.6025594
9.112                0.986598271     -89.7497292
9.113                0.986565397     -89.8972667
9.114                 0.98653244     -90.0451727
9.115                0.986499401     -90.1934483
9.116                0.986466279     -90.3420943
9.117                0.986433075     -90.4911116
9.118                0.986399788     -90.6405012
9.119                0.986366419     -90.7902639
9.12                 0.986332968     -90.9404008
9.121                0.986299434     -91.0909127
9.122                0.986265818     -91.2418005
9.123                 0.98623212     -91.3930653
9.124                 0.98619834     -91.5447078
9.125                0.986164478      -91.696729
9.126                0.986130534     -91.8491299
9.127                0.986096508     -92.0019113
9.128                0.986062399     -92.1550742
9.129                 0.98602821     -92.3086194
9.13                 0.985993938      -92.462548
9.131                0.985959585     -92.6168608
9.132                 0.98592515     -92.7715587
9.133                0.985890634     -92.9266427
9.134                0.985856036     -93.0821136
9.135                0.985821358     -93.2379724
9.136                0.985786598     -93.3942201
9.137                0.985751757     -93.5508574
9.138                0.985716835     -93.7078853
9.139                0.985681832     -93.8653047
9.14                 0.985646749     -94.0231165
9.141                0.985611585     -94.1813217
9.142                0.985576341     -94.3399211
9.143                0.985541017     -94.4989156
9.144                0.985505612     -94.6583062
9.145                0.985470127     -94.8180937
9.146                0.985434563     -94.9782791
9.147                0.985398919     -95.1388632
9.148                0.985363195     -95.2998469
9.149                0.985327392     -95.4612311
9.15                  0.98529151     -95.6230168
9.151                0.985255549     -95.7852048
9.152                0.985219509     -95.9477959
9.153                 0.98518339     -96.1107912
9.154                0.985147193     -96.2741914
9.155                0.985110917     -96.4379974
9.156                0.985074564     -96.6022102
9.157                0.985038133     -96.7668306
9.158                0.985001624     -96.9318595
9.159                0.984965037     -97.0972978
9.16                 0.984928374     -97.2631462
9.161                0.984891633     -97.4294058
9.162                0.984854816     -97.5960774
9.163                0.984817923     -97.7631618
9.164                0.984780953     -97.9306598
9.165                0.984743907     -98.0985725
9.166                0.984706785     -98.2669005
9.167                0.984669588     -98.4356449
9.168                0.984632315     -98.6048063
9.169                0.984594968     -98.7743857
9.17                 0.984557546     -98.9443839
9.171                 0.98452005     -99.1148018
9.172                0.984482479     -99.2856402
9.173                0.984444835     -99.4568999
9.174                0.984407117     -99.6285818
9.175                0.984369327     -99.8006867
9.176                0.984331463     -99.9732154
9.177                0.984293527     -100.146169
9.178                0.984255518     -100.319548
9.179                0.984217438     -100.493353
9.18                 0.984179286     -100.667585
9.181                0.984141063     -100.842245
9.182                 0.98410277     -101.017334
9.183                0.984064406     -101.192852
9.184                0.984025971     -101.368801
9.185                0.983987467      -101.54518
9.186                0.983948894     -101.721992
9.187                0.983910252     -101.899236
9.188                0.983871541     -102.076914
9.189                0.983832762     -102.255026
9.19                 0.983793916     -102.433573
9.191                0.983755002     -102.612556
9.192                0.983716021     -102.791975
9.193                0.983676974     -102.971832
9.194                0.983637861     -103.152126
9.195                0.983598682      -103.33286
9.196                0.983559439     -103.514033
9.197                 0.98352013     -103.695646
9.198                0.983480758       -103.8777
9.199                0.983441322     -104.060197
9.2                  0.983401822     -104.243135
9.201                 0.98336226     -104.426517
9.202                0.983322636     -104.610342
9.203                 0.98328295     -104.794613
9.204                0.983243202     -104.979328
9.205                0.983203395      -105.16449
9.206                0.983163527     -105.350098
9.207                0.983123599     -105.536154
9.208                0.983083612     -105.722657
9.209                0.983043567      -105.90961
9.21                 0.983003464     -106.097012
9.211                0.982963304     -106.284863
9.212                0.982923087     -106.473166
9.213                0.982882814      -106.66192
9.214                0.982842485     -106.851126
9.215                0.982802101     -107.040785
9.216                0.982761663     -107.230897
9.217                0.982721171     -107.421463
9.218                0.982680626     -107.612483
9.219                0.982640029     -107.803958
9.22                  0.98259938     -107.995889
9.221                0.982558679     -108.188277
9.222                0.982517929     -108.381121
9.223                0.982477128     -108.574423
9.224                0.982436278     -108.768183
9.225                 0.98239538     -108.962402
9.226                0.982354434     -109.157079
9.227                0.982313441     -109.352217
9.228                0.982272402     -109.547814
9.229                0.982231317     -109.743873
9.23                 0.982190188     -109.940393
9.231                0.982149014     -110.137374
9.232                0.982107797     -110.334818
9.233                0.982066537     -110.532725
9.234                0.982025236     -110.731095
9.235                0.981983894     -110.929929
9.236                0.981942511     -111.129227
9.237                0.981901089      -111.32899
9.238                0.981859629     -111.529219
9.239                0.981818131     -111.729913
9.24                 0.981776596     -111.931072
9.241                0.981735024     -112.132699
9.242                0.981693418     -112.334792
9.243                0.981651777     -112.537353
9.244                0.981610103     -112.740382
9.245                0.981568396     -112.943879
9.246                0.981526657     -113.147844
9.247                0.981484888     -113.352278
9.248                0.981443088     -113.557181
9.249                 0.98140126     -113.762554
9.25                 0.981359404     -113.968397
9.251                 0.98131752     -114.174711
9.252                 0.98127561     -114.381495
9.253                0.981233675     -114.588749
9.254                0.981191716     -114.796475
9.255                0.981149734     -115.004673
9.256                0.981107729     -115.213342
9.257                0.981065703     -115.422484
9.258                0.981023657     -115.632097
9.259                0.980981592     -115.842183
9.26                 0.980939508     -116.052742
9.261                0.980897408     -116.263774
9.262                0.980855291      -116.47528
9.263                0.980813159     -116.687258
9.264                0.980771013      -116.89971
9.265                0.980728854     -117.112636
9.266                0.980686684     -117.326036
9.267                0.980644503      -117.53991
9.268                0.980602312     -117.754258
9.269                0.980560113     -117.969081
9.27                 0.980517907     -118.184378
9.271                0.980475694     -118.400149
9.272                0.980433476     -118.616395
9.273                0.980391255     -118.833116
9.274                0.980349031     -119.050312
9.275                0.980306805     -119.267982
9.276                 0.98026458     -119.486128
9.277                0.980222355     -119.704748
9.278                0.980180132     -119.923843
9.279                0.980137913     -120.143413
9.28                 0.980095698     -120.363458
9.281                0.980053489     -120.583977
9.282                0.980011287     -120.804972
9.283                0.979969094     -121.026441
9.284                 0.97992691     -121.248385
9.285                0.979884738     -121.470803
9.286                0.979842577     -121.693696
9.287                0.979800431     -121.917063
9.288                0.979758299     -122.140904
9.289                0.979716183     -122.365219
9.29                 0.979674085     -122.590008
9.291                0.979632006     -122.815271
9.292                0.979589948     -123.041007
9.293                0.979547911     -123.267217
9.294                0.979505897       -123.4939
9.295                0.979463907     -123.721055
9.296                0.979421944     -123.948683
9.297                0.979380007     -124.176783
9.298                  0.9793381     -124.405356
9.299                0.979296222       -124.6344
9.3                  0.979254376     -124.863915
9.301                0.979212563     -125.093902
9.302                0.979170785     -125.324359
9.303                0.979129043     -125.555286
9.304                0.979087338     -125.786684
9.305                0.979045672     -126.018551
9.306                0.979004046     -126.250887
9.307                0.978962463     -126.483691
9.308                0.978920923     -126.716964
9.309                0.978879428     -126.950705
9.31                  0.97883798     -127.184913
9.311                0.978796579     -127.419588
9.312                0.978755229     -127.654729
9.313                 0.97871393     -127.890335
9.314                0.978672683     -128.126407
9.315                0.978631491     -128.362944
9.316                0.978590355     -128.599944
9.317                0.978549277     -128.837408
9.318                0.978508258     -129.075334
9.319                  0.9784673     -129.313723
9.32                 0.978426404     -129.552573
9.321                0.978385573     -129.791883
9.322                0.978344807     -130.031654
9.323                0.978304109     -130.271884
9.324                0.978263479     -130.512573
9.325                0.978222921     -130.753719
9.326                0.978182435     -130.995322
9.327                0.978142024     -131.237382
9.328                0.978101688     -131.479897
9.329                 0.97806143     -131.722867
9.33                 0.978021251      -131.96629
9.331                0.977981153     -132.210166
9.332                0.977941138     -132.454495
9.333                0.977901207     -132.699274
9.334                0.977861363     -132.944503
9.335                0.977821607     -133.190182
9.336                 0.97778194     -133.436309
9.337                0.977742365     -133.682882
9.338                0.977702883     -133.929903
9.339                0.977663497     -134.177368
9.34                 0.977624207     -134.425277
9.341                0.977585016      -134.67363
9.342                0.977545925     -134.922424
9.343                0.977506937     -135.171659
9.344                0.977468053     -135.421334
9.345                0.977429274     -135.671447
9.346                0.977390604     -135.921998
9.347                0.977352043     -136.172985
9.348                0.977313593     -136.424407
9.349                0.977275257     -136.676263
9.35                 0.977237036     -136.928551
9.351                0.977198931      -137.18127
9.352                0.977160946     -137.434419
9.353                0.977123081     -137.687997
9.354                0.977085339     -137.942002
9.355                0.977047721     -138.196432
9.356                0.977010229     -138.451288
9.357                0.976972866     -138.706566
9.358                0.976935632     -138.962266
9.359                0.976898531     -139.218386
9.36                 0.976861563     -139.474925
9.361                0.976824731     -139.731881
9.362                0.976788037     -139.989253
9.363                0.976751482     -140.247039
9.364                0.976715069     -140.505237
9.365                0.976678798     -140.763847
9.366                0.976642673     -141.022866
9.367                0.976606696     -141.282293
9.368                0.976570867     -141.542126
9.369                0.976535189     -141.802364
9.37                 0.976499664     -142.063005
9.371                0.976464294     -142.324046
9.372                0.976429081     -142.585487
9.373                0.976394026     -142.847326
9.374                0.976359132     -143.109561
9.375                  0.9763244      -143.37219
9.376                0.976289832     -143.635211
9.377                0.976255431     -143.898622
9.378                0.976221198     -144.162422
9.379                0.976187136     -144.426609
9.38                 0.976153245     -144.691181
9.381                0.976119528     -144.956135
9.382                0.976085987     -145.221471
9.383                0.976052624     -145.487185
9.384                0.976019441     -145.753276
9.385                 0.97598644     -146.019743
9.386                0.975953622     -146.286582
9.387                0.975920989     -146.553792
9.388                0.975888544     -146.821371
9.389                0.975856288     -147.089317
9.39                 0.975824223     -147.357627
9.391                0.975792351       -147.6263
9.392                0.975760675     -147.895333
9.393                0.975729195     -148.164724
9.394                0.975697914     -148.434471
9.395                0.975666833     -148.704571
9.396                0.975635955     -148.975023
