! TOUCHSTONE file generated by CST DESIGN STUDIO
! Date and time: Tue Feb  4 18:29:37 2025
! Project name: C:\Work\MatlabApps\UnitCellOptimizationMatlab\CST\unitcell.cst
! Tree item: Tasks\Sweep1\SPara1\S-Parameters
! Header version: 2024
! Port assignment regex: !\s*Touchstone port\s*([0-9]+)\s*=\s*(CST MWS port|CST DES external port|CST DES block port)\s*(.+)\s* \(\"(.*)\"\)(\s*mode\s*([0-9]+))?.*
! Touchstone port assignment:
! Touchstone port 1 = CST DES external port 1 ("")
# GHz S MA R 50
9                    0.892486255      -84.147478
9.001                0.892155414     -84.3017862
9.002                0.891823422     -84.4565529
9.003                0.891490277     -84.6117797
9.004                0.891155978     -84.7674681
9.005                0.890820523     -84.9236198
9.006                0.890483909     -85.0802363
9.007                0.890146135     -85.2373191
9.008                0.889807199       -85.39487
9.009                0.889467099     -85.5528905
9.01                 0.889125835     -85.7113821
9.011                0.888783403     -85.8703465
9.012                0.888439803     -86.0297853
9.013                0.888095032     -86.1897001
9.014                 0.88774909     -86.3500925
9.015                0.887401975     -86.5109641
9.016                0.887053685     -86.6723165
9.017                0.886704219     -86.8341514
9.018                0.886353575     -86.9964703
9.019                0.886001752     -87.1592749
9.02                 0.885648749     -87.3225668
9.021                0.885294564     -87.4863476
9.022                0.884939197     -87.6506191
9.023                0.884582646     -87.8153827
9.024                0.884224909     -87.9806402
9.025                0.883865986     -88.1463932
9.026                0.883505877     -88.3126433
9.027                0.883144578     -88.4793922
9.028                0.882782091     -88.6466415
9.029                0.882418413     -88.8143929
9.03                 0.882053544      -88.982648
9.031                0.881687484     -89.1514085
9.032                 0.88132023     -89.3206761
9.033                0.880951784     -89.4904524
9.034                0.880582143      -89.660739
9.035                0.880211308     -89.8315377
9.036                0.879839277     -90.0028501
9.037                 0.87946605     -90.1746778
9.038                0.879091628     -90.3470226
9.039                0.878716009     -90.5198861
9.04                 0.878339192       -90.69327
9.041                0.877961179     -90.8671759
9.042                0.877581968     -91.0416056
9.043                 0.87720156     -91.2165607
9.044                0.876819953      -91.392043
9.045                0.876437149      -91.568054
9.046                0.876053147     -91.7445954
9.047                0.875667947     -91.9216691
9.048                 0.87528155     -92.0992765
9.049                0.874893955     -92.2774195
9.05                 0.874505164     -92.4560997
9.051                0.874115175     -92.6353188
9.052                 0.87372399     -92.8150785
9.053                0.873331609     -92.9953805
9.054                0.872938032     -93.1762265
9.055                0.872543261     -93.3576182
9.056                0.872147295     -93.5395572
9.057                0.871750136     -93.7220453
9.058                0.871351785     -93.9050841
9.059                0.870952241     -94.0886754
9.06                 0.870551507     -94.2728209
9.061                0.870149583     -94.4575221
9.062                0.869746471      -94.642781
9.063                0.869342171      -94.828599
9.064                0.868936685      -95.014978
9.065                0.868530014     -95.2019196
9.066                 0.86812216     -95.3894255
9.067                0.867713124     -95.5774974
9.068                0.867302908     -95.7661371
9.069                0.866891513     -95.9553461
9.07                 0.866478941     -96.1451262
9.071                0.866065194     -96.3354791
9.072                0.865650274     -96.5264065
9.073                0.865234183     -96.7179101
9.074                0.864816923     -96.9099915
9.075                0.864398496     -97.1026524
9.076                0.863978905     -97.2958945
9.077                0.863558151     -97.4897196
9.078                0.863136238     -97.6841292
9.079                0.862713168     -97.8791251
9.08                 0.862288944      -98.074709
9.081                0.861863567     -98.2708824
9.082                0.861437042     -98.4676472
9.083                0.861009371      -98.665005
9.084                0.860580558     -98.8629573
9.085                0.860150604      -99.061506
9.086                0.859719514     -99.2606527
9.087                0.859287292     -99.4603989
9.088                0.858853939     -99.6607465
9.089                 0.85841946      -99.861697
9.09                 0.857983859     -100.063252
9.091                 0.85754714     -100.265413
9.092                0.857109305     -100.468183
9.093                 0.85667036     -100.671561
9.094                0.856230309     -100.875551
9.095                0.855789154     -101.080154
9.096                0.855346902     -101.285371
9.097                0.854903556     -101.491204
9.098                0.854459121     -101.697655
9.099                0.854013602     -101.904725
9.1                  0.853567002     -102.112416
9.101                0.853119328      -102.32073
9.102                0.852670585     -102.529668
9.103                0.852220777     -102.739231
9.104                0.851769909     -102.949422
9.105                0.851317988     -103.160241
9.106                0.850865018     -103.371691
9.107                0.850411005     -103.583773
9.108                0.849955956     -103.796489
9.109                0.849499875     -104.009839
9.11                 0.849042769     -104.223827
9.111                0.848584645     -104.438452
9.112                0.848125508     -104.653718
9.113                0.847665364     -104.869625
9.114                0.847204221     -105.086174
9.115                0.846742085     -105.303368
9.116                0.846278963     -105.521208
9.117                0.845814862     -105.739695
9.118                0.845349789     -105.958831
9.119                0.844883751     -106.178618
9.12                 0.844416755     -106.399056
9.121                 0.84394881     -106.620147
9.122                0.843479922     -106.841893
9.123                  0.8430101     -107.064296
9.124                0.842539351     -107.287356
9.125                0.842067684     -107.511075
9.126                0.841595107     -107.735455
9.127                0.841121628     -107.960496
9.128                0.840647256     -108.186201
9.129                   0.840172      -108.41257
9.13                 0.839695868     -108.639606
9.131                0.839218869     -108.867309
9.132                0.838741013     -109.095681
9.133                0.838262308     -109.324722
9.134                0.837782765     -109.554436
9.135                0.837302393     -109.784822
9.136                0.836821202     -110.015882
9.137                0.836339201     -110.247617
9.138                0.835856401      -110.48003
9.139                0.835372812      -110.71312
9.14                 0.834888445     -110.946889
9.141                 0.83440331     -111.181339
9.142                0.833917417      -111.41647
9.143                0.833430778     -111.652284
9.144                0.832943404     -111.888783
9.145                0.832455306     -112.125966
9.146                0.831966496     -112.363836
9.147                0.831476985     -112.602394
9.148                0.830986784      -112.84164
9.149                0.830495907     -113.081577
9.15                 0.830004364     -113.322204
9.151                0.829512169     -113.563523
9.152                0.829019333     -113.805535
9.153                0.828525869     -114.048242
9.154                0.828031791     -114.291643
9.155                 0.82753711     -114.535741
9.156                0.827041841     -114.780536
9.157                0.826545996      -115.02603
9.158                0.826049589     -115.272223
9.159                0.825552634     -115.519115
9.16                 0.825055145     -115.766709
9.161                0.824557135     -116.015005
9.162                 0.82405862     -116.264004
9.163                0.823559612     -116.513706
9.164                0.823060127     -116.764114
9.165                0.822560181     -117.015226
9.166                0.822059786     -117.267045
9.167                 0.82155896     -117.519571
9.168                0.821057716     -117.772805
9.169                0.820556072     -118.026747
9.17                 0.820054041     -118.281399
9.171                0.819551641      -118.53676
9.172                0.819048887     -118.792833
9.173                0.818545796     -119.049616
9.174                0.818042384     -119.307112
9.175                0.817538667      -119.56532
9.176                0.817034663     -119.824241
9.177                0.816530388     -120.083876
9.178                 0.81602586     -120.344225
9.179                0.815521096     -120.605289
9.18                 0.815016114     -120.867068
9.181                0.814510931     -121.129563
9.182                0.814005565     -121.392774
9.183                0.813500035     -121.656701
9.184                0.812994358     -121.921346
9.185                0.812488554     -122.186707
9.186                0.811982641     -122.452786
9.187                0.811476638     -122.719583
9.188                0.810970564     -122.987099
9.189                0.810464439     -123.255332
9.19                 0.809958281     -123.524284
9.191                 0.80945211     -123.793955
9.192                0.808945947     -124.064344
9.193                0.808439811     -124.335453
9.194                0.807933722     -124.607281
9.195                0.807427701     -124.879828
9.196                0.806921769     -125.153094
9.197                0.806415946     -125.427079
9.198                0.805910253     -125.701783
9.199                0.805404711     -125.977207
9.2                  0.804899342     -126.253349
9.201                0.804394167      -126.53021
9.202                0.803889208      -126.80779
9.203                0.803384487     -127.086088
9.204                0.802880025     -127.365104
9.205                0.802375846     -127.644838
9.206                0.801871971      -127.92529
9.207                0.801368422     -128.206459
9.208                0.800865224     -128.488345
9.209                0.800362398     -128.770947
9.21                 0.799859968     -129.054265
9.211                0.799357957     -129.338299
9.212                0.798856388     -129.623047
9.213                0.798355286      -129.90851
9.214                0.797854673     -130.194687
9.215                0.797354575     -130.481577
9.216                0.796855015     -130.769179
9.217                0.796356017     -131.057493
9.218                0.795857606     -131.346518
9.219                0.795359806     -131.636253
9.22                 0.794862643     -131.926697
9.221                 0.79436614     -132.217849
9.222                0.793870325      -132.50971
9.223                 0.79337522     -132.802276
9.224                0.792880853     -133.095548
9.225                0.792387249     -133.389525
9.226                0.791894432     -133.684205
9.227                 0.79140243     -133.979587
9.228                0.790911268      -134.27567
9.229                0.790420973     -134.572453
9.23                  0.78993157     -134.869934
9.231                0.789443086     -135.168113
9.232                0.788955548     -135.466987
9.233                0.788468982     -135.766556
9.234                0.787983416     -136.066818
9.235                0.787498875     -136.367772
9.236                0.787015388     -136.669415
9.237                0.786532982     -136.971747
9.238                0.786051683     -137.274765
9.239                 0.78557152     -137.578469
9.24                 0.785092519     -137.882855
9.241                0.784614709     -138.187924
9.242                0.784138118     -138.493672
9.243                0.783662773     -138.800098
9.244                0.783188702     -139.107199
9.245                0.782715934     -139.414975
9.246                0.782244496     -139.723423
9.247                0.781774417      -140.03254
9.248                0.781305726     -140.342325
9.249                0.780838451     -140.652776
9.25                  0.78037262      -140.96389
9.251                0.779908262     -141.275666
9.252                0.779445406       -141.5881
9.253                0.778984081      -141.90119
9.254                0.778524315     -142.214934
9.255                0.778066137      -142.52933
9.256                0.777609577     -142.844375
9.257                0.777154664     -143.160066
9.258                0.776701426     -143.476401
9.259                0.776249894     -143.793377
9.26                 0.775800095     -144.110991
9.261                 0.77535206     -144.429241
9.262                0.774905817     -144.748123
9.263                0.774461396     -145.067636
9.264                0.774018827     -145.387775
9.265                0.773578138     -145.708538
9.266                 0.77313936     -146.029922
9.267                0.772702521     -146.351923
9.268                0.772267652     -146.674539
9.269                0.771834781     -146.997766
9.27                 0.771403938     -147.321602
9.271                0.770975152     -147.646042
9.272                0.770548454     -147.971083
9.273                0.770123872     -148.296723
9.274                0.769701436     -148.622957
9.275                0.769281175     -148.949781
9.276                0.768863119     -149.277193
9.277                0.768447297     -149.605189
9.278                0.768033739     -149.933764
9.279                0.767622473     -150.262916
9.28                  0.76721353      -150.59264
9.281                0.766806937     -150.922932
9.282                0.766402725     -151.253789
9.283                0.766000923     -151.585207
9.284                 0.76560156     -151.917181
9.285                0.765204664     -152.249707
9.286                0.764810264     -152.582782
9.287                 0.76441839     -152.916401
9.288                 0.76402907      -153.25056
9.289                0.763642333     -153.585254
9.29                 0.763258207      -153.92048
9.291                0.762876721     -154.256232
9.292                0.762497904     -154.592507
9.293                0.762121782     -154.929299
9.294                0.761748386     -155.266605
9.295                0.761377742     -155.604419
9.296                0.761009879     -155.942737
9.297                0.760644824     -156.281554
9.298                0.760282605     -156.620866
9.299                 0.75992325     -156.960667
9.3                  0.759566786     -157.300952
9.301                 0.75921324     -157.641717
9.302                0.758862639     -157.982957
9.303                 0.75851501     -158.324667
9.304                 0.75817038     -158.666841
9.305                0.757828775     -159.009474
9.306                0.757490222     -159.352562
9.307                0.757154747     -159.696098
9.308                0.756822376     -160.040078
9.309                0.756493135     -160.384496
9.31                  0.75616705     -160.729347
9.311                0.755844145     -161.074626
9.312                0.755524446     -161.420326
9.313                0.755207978     -161.766442
9.314                0.754894766     -162.112969
9.315                0.754584835     -162.459901
9.316                0.754278208     -162.807233
9.317                 0.75397491     -163.154958
9.318                0.753674964     -163.503071
9.319                0.753378395     -163.851566
9.32                 0.753085225     -164.200437
9.321                0.752795478     -164.549678
9.322                0.752509177     -164.899283
9.323                0.752226344     -165.249246
9.324                0.751947001     -165.599562
9.325                 0.75167117     -165.950223
9.326                0.751398874     -166.301224
9.327                0.751130133     -166.652559
9.328                0.750864969     -167.004222
9.329                0.750603403     -167.356205
9.33                 0.750345455     -167.708504
9.331                0.750091145      -168.06111
9.332                0.749840495     -168.414019
9.333                0.749593522     -168.767224
9.334                0.749350246     -169.120718
9.335                0.749110688     -169.474495
9.336                0.748874864     -169.828548
9.337                0.748642794      -170.18287
9.338                0.748414496     -170.537456
9.339                0.748189987     -170.892298
9.34                 0.747969285     -171.247389
9.341                0.747752407     -171.602724
9.342                0.747539368     -171.958295
9.343                0.747330187     -172.314095
9.344                0.747124878     -172.670118
9.345                0.746923457     -173.026357
9.346                 0.74672594     -173.382806
9.347                0.746532341     -173.739456
9.348                0.746342675     -174.096301
9.349                0.746156956     -174.453335
9.35                 0.745975197      -174.81055
9.351                0.745797413      -175.16794
9.352                0.745623615     -175.525497
9.353                0.745453817     -175.883214
9.354                0.745288031     -176.241084
9.355                0.745126269     -176.599101
9.356                0.744968541     -176.957257
9.357                0.744814859     -177.315545
9.358                0.744665234     -177.673957
9.359                0.744519676     -178.032488
9.36                 0.744378195     -178.391129
9.361                  0.7442408     -178.749873
9.362                0.744107499     -179.108714
9.363                0.743978303     -179.467643
9.364                0.743853218     -179.826654
9.365                0.743732253       179.81426
9.366                0.743615415      179.455107
9.367                 0.74350271      179.095894
9.368                0.743394146      178.736628
9.369                0.743289729      178.377317
9.37                 0.743189464      178.017967
9.371                0.743093356      177.658587
9.372                0.743001411      177.299183
9.373                0.742913632      176.939762
9.374                0.742830024      176.580333
9.375                 0.74275059      176.220901
9.376                0.742675333      175.861476
9.377                0.742604257      175.502063
9.378                0.742537362       175.14267
9.379                0.742474652      174.783305
9.38                 0.742416128      174.423975
9.381                 0.74236179      174.064686
9.382                 0.74231164      173.705447
9.383                0.742265676      173.346265
9.384                  0.7422239      172.987146
9.385                0.742186311      172.628099
9.386                0.742152906       172.26913
9.387                0.742123685      171.910246
9.388                0.742098646      171.551456
9.389                0.742077787      171.192766
9.39                 0.742061103      170.834183
9.391                0.742048594      170.475715
9.392                0.742040253      170.117368
9.393                0.742036079      169.759151
9.394                0.742036065      169.401069
9.395                0.742040208      169.043131
9.396                0.742048501      168.685343
