! TOUCHSTONE file generated by CST DESIGN STUDIO
! Date and time: Tue Feb  4 18:29:51 2025
! Project name: C:\Work\MatlabApps\UnitCellOptimizationMatlab\CST\unitcell.cst
! Tree item: Tasks\Sweep1\SPara1\S-Parameters
! Header version: 2024
! Port assignment regex: !\s*Touchstone port\s*([0-9]+)\s*=\s*(CST MWS port|CST DES external port|CST DES block port)\s*(.+)\s* \(\"(.*)\"\)(\s*mode\s*([0-9]+))?.*
! Touchstone port assignment:
! Touchstone port 1 = CST DES external port 1 ("")
# GHz S MA R 50
9                    0.970710988     -38.5814582
9.001                0.970659487     -38.6249318
9.002                 0.97060786       -38.66848
9.003                0.970556107     -38.7121032
9.004                0.970504229     -38.7558016
9.005                0.970452225     -38.7995753
9.006                0.970400094     -38.8434246
9.007                0.970347836     -38.8873497
9.008                0.970295451     -38.9313509
9.009                0.970242937     -38.9754283
9.01                 0.970190296     -39.0195821
9.011                0.970137527     -39.0638126
9.012                0.970084628       -39.10812
9.013                  0.9700316     -39.1525046
9.014                0.969978443     -39.1969665
9.015                0.969925155     -39.2415059
9.016                0.969871737     -39.2861232
9.017                0.969818188     -39.3308184
9.018                0.969764508     -39.3755919
9.019                0.969710696     -39.4204439
9.02                 0.969656752     -39.4653745
9.021                0.969602675      -39.510384
9.022                0.969548466     -39.5554727
9.023                0.969494123     -39.6006408
9.024                0.969439647     -39.6458885
9.025                0.969385036      -39.691216
9.026                0.969330291     -39.7366235
9.027                0.969275411     -39.7821114
9.028                0.969220396     -39.8276797
9.029                0.969165245     -39.8733289
9.03                 0.969109957      -39.919059
9.031                0.969054533     -39.9648704
9.032                0.968998972     -40.0107632
9.033                0.968943273     -40.0567377
9.034                0.968887437     -40.1027941
9.035                0.968831461     -40.1489328
9.036                0.968775347     -40.1951538
9.037                0.968719094     -40.2414575
9.038                0.968662701     -40.2878441
9.039                0.968606168     -40.3343138
9.04                 0.968549494     -40.3808669
9.041                0.968492679     -40.4275036
9.042                0.968435723     -40.4742241
9.043                0.968378624     -40.5210288
9.044                0.968321383     -40.5679179
9.045                0.968263999     -40.6148915
9.046                0.968206472       -40.66195
9.047                0.968148801     -40.7090935
9.048                0.968090986     -40.7563225
9.049                0.968033026      -40.803637
9.05                  0.96797492     -40.8510373
9.051                0.967916669     -40.8985237
9.052                0.967858272     -40.9460965
9.053                0.967799728     -40.9937559
9.054                0.967741037     -41.0415022
9.055                0.967682198     -41.0893355
9.056                0.967623211     -41.1372562
9.057                0.967564075     -41.1852646
9.058                 0.96750479     -41.2333608
9.059                0.967445356     -41.2815451
9.06                 0.967385771     -41.3298179
9.061                0.967326036     -41.3781792
9.062                 0.96726615     -41.4266296
9.063                0.967206112      -41.475169
9.064                0.967145922      -41.523798
9.065                 0.96708558     -41.5725166
9.066                0.967025084     -41.6213252
9.067                0.966964435     -41.6702241
9.068                0.966903631     -41.7192134
9.069                0.966842673     -41.7682935
9.07                 0.966781559     -41.8174647
9.071                 0.96672029     -41.8667271
9.072                0.966658865     -41.9160812
9.073                0.966597282      -41.965527
9.074                0.966535543      -42.015065
9.075                0.966473645     -42.0646954
9.076                 0.96641159     -42.1144185
9.077                0.966349375     -42.1642345
9.078                0.966287001     -42.2141437
9.079                0.966224466     -42.2641465
9.08                 0.966161771      -42.314243
9.081                0.966098916     -42.3644335
9.082                0.966035898     -42.4147184
9.083                0.965972718     -42.4650979
9.084                0.965909375     -42.5155722
9.085                0.965845869     -42.5661418
9.086                  0.9657822     -42.6168068
9.087                0.965718365     -42.6675676
9.088                0.965654366     -42.7184244
9.089                0.965590201     -42.7693775
9.09                  0.96552587     -42.8204272
9.091                0.965461372     -42.8715739
9.092                0.965396706     -42.9228177
9.093                0.965331873      -42.974159
9.094                0.965266872      -43.025598
9.095                0.965201701     -43.0771351
9.096                 0.96513636     -43.1287706
9.097                 0.96507085     -43.1805047
9.098                0.965005168     -43.2323378
9.099                0.964939315     -43.2842701
9.1                   0.96487329     -43.3363019
9.101                0.964807092     -43.3884336
9.102                0.964740721     -43.4406654
9.103                0.964674176     -43.4929977
9.104                0.964607457     -43.5454307
9.105                0.964540562     -43.5979647
9.106                0.964473492     -43.6506001
9.107                0.964406246     -43.7033372
9.108                0.964338822     -43.7561762
9.109                0.964271221     -43.8091175
9.11                 0.964203442     -43.8621614
9.111                0.964135483     -43.9153082
9.112                0.964067346     -43.9685582
9.113                0.963999028     -44.0219117
9.114                0.963930529      -44.075369
9.115                 0.96386185     -44.1289304
9.116                0.963792988     -44.1825964
9.117                0.963723943     -44.2363671
9.118                0.963654715     -44.2902428
9.119                0.963585303      -44.344224
9.12                 0.963515706      -44.398311
9.121                0.963445924     -44.4525039
9.122                0.963375956     -44.5068033
9.123                0.963305801     -44.5612093
9.124                0.963235459     -44.6157224
9.125                 0.96316493     -44.6703428
9.126                0.963094211     -44.7250709
9.127                0.963023303     -44.7799071
9.128                0.962952205     -44.8348515
9.129                0.962880916     -44.8899046
9.13                 0.962809436     -44.9450667
9.131                0.962737764     -45.0003381
9.132                0.962665899     -45.0557192
9.133                0.962593841     -45.1112103
9.134                0.962521588     -45.1668117
9.135                0.962449141     -45.2225238
9.136                0.962376497      -45.278347
9.137                0.962303658     -45.3342814
9.138                0.962230622     -45.3903276
9.139                0.962157388     -45.4464858
9.14                 0.962083955     -45.5027564
9.141                0.962010324     -45.5591397
9.142                0.961936492     -45.6156361
9.143                 0.96186246     -45.6722459
9.144                0.961788226     -45.7289694
9.145                0.961713791     -45.7858071
9.146                0.961639152     -45.8427593
9.147                 0.96156431     -45.8998263
9.148                0.961489264     -45.9570084
9.149                0.961414013     -46.0143061
9.15                 0.961338556     -46.0717197
9.151                0.961262892     -46.1292495
9.152                0.961187021      -46.186896
9.153                0.961110943     -46.2446594
9.154                0.961034655     -46.3025402
9.155                0.960958157     -46.3605386
9.156                 0.96088145     -46.4186551
9.157                0.960804531       -46.47689
9.158                  0.9607274     -46.5352437
9.159                0.960650057     -46.5937166
9.16                   0.9605725      -46.652309
9.161                0.960494729     -46.7110213
9.162                0.960416742     -46.7698539
9.163                 0.96033854     -46.8288071
9.164                0.960260122     -46.8878814
9.165                0.960181486      -46.947077
9.166                0.960102631     -47.0063945
9.167                0.960023558     -47.0658341
9.168                0.959944265     -47.1253962
9.169                0.959864751     -47.1850812
9.17                 0.959785016     -47.2448896
9.171                0.959705058     -47.3048216
9.172                0.959624877     -47.3648778
9.173                0.959544472     -47.4250584
9.174                0.959463843     -47.4853638
9.175                0.959382988     -47.5457945
9.176                0.959301906     -47.6063508
9.177                0.959220597     -47.6670332
9.178                0.959139061      -47.727842
9.179                0.959057295     -47.7887776
9.18                 0.958975299     -47.8498404
9.181                0.958893072     -47.9110309
9.182                0.958810614     -47.9723493
9.183                0.958727924     -48.0337962
9.184                   0.958645      -48.095372
9.185                0.958561842     -48.1570769
9.186                0.958478449     -48.2189115
9.187                0.958394821     -48.2808762
9.188                0.958310955     -48.3429713
9.189                0.958226852     -48.4051973
9.19                  0.95814251     -48.4675546
9.191                0.958057929     -48.5300436
9.192                0.957973107     -48.5926647
9.193                0.957888045     -48.6554183
9.194                 0.95780274     -48.7183049
9.195                0.957717192     -48.7813249
9.196                  0.9576314     -48.8444786
9.197                0.957545363     -48.9077666
9.198                0.957459081     -48.9711892
9.199                0.957372552     -49.0347469
9.2                  0.957285775     -49.0984401
9.201                 0.95719875     -49.1622693
9.202                0.957111475     -49.2262348
9.203                 0.95702395     -49.2903371
9.204                0.956936173     -49.3545766
9.205                0.956848144     -49.4189538
9.206                0.956759862     -49.4834691
9.207                0.956671326      -49.548123
9.208                0.956582534     -49.6129158
9.209                0.956493486     -49.6778481
9.21                 0.956404182     -49.7429203
9.211                0.956314619     -49.8081328
9.212                0.956224797     -49.8734861
9.213                0.956134716     -49.9389806
9.214                0.956044373     -50.0046168
9.215                0.955953768     -50.0703951
9.216                0.955862901      -50.136316
9.217                0.955771769     -50.2023799
9.218                0.955680373     -50.2685874
9.219                0.955588711     -50.3349388
9.22                 0.955496782     -50.4014346
9.221                0.955404585     -50.4680753
9.222                0.955312119     -50.5348614
9.223                0.955219383     -50.6017933
9.224                0.955126376     -50.6688715
9.225                0.955033097     -50.7360964
9.226                0.954939545     -50.8034686
9.227                0.954845719     -50.8709885
9.228                0.954751618     -50.9386566
9.229                0.954657241     -51.0064733
9.23                 0.954562587     -51.0744392
9.231                0.954467654     -51.1425547
9.232                0.954372443     -51.2108203
9.233                0.954276951     -51.2792365
9.234                0.954181177     -51.3478038
9.235                0.954085122     -51.4165226
9.236                0.953988782     -51.4853935
9.237                0.953892159      -51.554417
9.238                0.953795249     -51.6235935
9.239                0.953698053     -51.6929236
9.24                 0.953600569     -51.7624077
9.241                0.953502797     -51.8320463
9.242                0.953404734       -51.90184
9.243                 0.95330638     -51.9717892
9.244                0.953207734     -52.0418945
9.245                0.953108795     -52.1121563
9.246                0.953009561     -52.1825752
9.247                0.952910032     -52.2531517
9.248                0.952810207     -52.3238863
9.249                0.952710083     -52.3947795
9.25                 0.952609661     -52.4658318
9.251                0.952508939     -52.5370438
9.252                0.952407916      -52.608416
9.253                 0.95230659     -52.6799488
9.254                0.952204961     -52.7516429
9.255                0.952103028     -52.8234987
9.256                0.952000789     -52.8955167
9.257                0.951898243     -52.9676976
9.258                0.951795389     -53.0400418
9.259                0.951692226     -53.1125499
9.26                 0.951588752     -53.1852224
9.261                0.951484967     -53.2580599
9.262                 0.95138087     -53.3310629
9.263                0.951276458     -53.4042318
9.264                0.951171732     -53.4775674
9.265                0.951066689     -53.5510701
9.266                0.950961329     -53.6247405
9.267                 0.95085565     -53.6985791
9.268                0.950749652     -53.7725865
9.269                0.950643332     -53.8467632
9.27                  0.95053669     -53.9211099
9.271                0.950429725      -53.995627
9.272                0.950322435     -54.0703151
9.273                0.950214819     -54.1451748
9.274                0.950106876     -54.2202067
9.275                0.949998605     -54.2954113
9.276                0.949890004     -54.3707891
9.277                0.949781072     -54.4463409
9.278                0.949671808     -54.5220671
9.279                0.949562211     -54.5979683
9.28                 0.949452279     -54.6740451
9.281                0.949342011     -54.7502981
9.282                0.949231407     -54.8267278
9.283                0.949120463     -54.9033349
9.284                0.949009181       -54.98012
9.285                0.948897557     -55.0570836
9.286                0.948785591     -55.1342263
9.287                0.948673281     -55.2115487
9.288                0.948560627     -55.2890514
9.289                0.948447627     -55.3667351
9.29                 0.948334279     -55.4446003
9.291                0.948220582     -55.5226476
9.292                0.948106536     -55.6008776
9.293                0.947992138      -55.679291
9.294                0.947877388     -55.7578884
9.295                0.947762283     -55.8366703
9.296                0.947646824     -55.9156374
9.297                0.947531007     -55.9947903
9.298                0.947414833     -56.0741296
9.299                  0.9472983     -56.1536559
9.3                  0.947181405     -56.2333699
9.301                0.947064149     -56.3132723
9.302                 0.94694653     -56.3933635
9.303                0.946828545     -56.4736444
9.304                0.946710195     -56.5541154
9.305                0.946591477     -56.6347772
9.306                0.946472391     -56.7156306
9.307                0.946352934      -56.796676
9.308                0.946233106     -56.8779142
9.309                0.946112905     -56.9593458
9.31                 0.945992329     -57.0409715
9.311                0.945871378     -57.1227919
9.312                0.945750049     -57.2048077
9.313                0.945628342     -57.2870195
9.314                0.945506255     -57.3694279
9.315                0.945383787     -57.4520338
9.316                0.945260936     -57.5348376
9.317                0.945137701     -57.6178401
9.318                 0.94501408      -57.701042
9.319                0.944890072     -57.7844438
9.32                 0.944765675     -57.8680464
9.321                0.944640889     -57.9518504
9.322                0.944515711     -58.0358564
9.323                 0.94439014     -58.1200651
9.324                0.944264176     -58.2044773
9.325                0.944137815     -58.2890936
9.326                0.944011057     -58.3739146
9.327                0.943883901     -58.4589412
9.328                0.943756344      -58.544174
9.329                0.943628386     -58.6296136
9.33                 0.943500024     -58.7152609
9.331                0.943371258     -58.8011164
9.332                0.943242086      -58.887181
9.333                0.943112507     -58.9734552
9.334                0.942982518     -59.0599399
9.335                0.942852119     -59.1466357
9.336                0.942721308     -59.2335433
9.337                0.942590083     -59.3206636
9.338                0.942458443     -59.4079971
9.339                0.942326387     -59.4955446
9.34                 0.942193912     -59.5833069
9.341                0.942061018     -59.6712847
9.342                0.941927702     -59.7594787
9.343                0.941793964     -59.8478896
9.344                0.941659801     -59.9365183
9.345                0.941525213     -60.0253653
9.346                0.941390197     -60.1144316
9.347                0.941254753     -60.2037177
9.348                0.941118878     -60.2932246
9.349                 0.94098257     -60.3829528
9.35                  0.94084583     -60.4729033
9.351                0.940708654     -60.5630767
9.352                0.940571041     -60.6534737
9.353                 0.94043299     -60.7440953
9.354                0.940294499     -60.8349421
9.355                0.940155566     -60.9260149
9.356                0.940016191     -61.0173145
9.357                 0.93987637     -61.1088416
9.358                0.939736104     -61.2005971
9.359                0.939595389     -61.2925817
9.36                 0.939454225     -61.3847962
9.361                 0.93931261     -61.4772414
9.362                0.939170542     -61.5699181
9.363                 0.93902802      -61.662827
9.364                0.938885042     -61.7559691
9.365                0.938741606      -61.849345
9.366                0.938597711     -61.9429555
9.367                0.938453355     -62.0368016
9.368                0.938308536     -62.1308839
9.369                0.938163254     -62.2252034
9.37                 0.938017505     -62.3197607
9.371                0.937871289     -62.4145568
9.372                0.937724604     -62.5095924
9.373                0.937577448     -62.6048685
9.374                 0.93742982     -62.7003857
9.375                0.937281718      -62.796145
9.376                 0.93713314     -62.8921471
9.377                0.936984084      -62.988393
9.378                 0.93683455     -63.0848833
9.379                0.936684534     -63.1816191
9.38                 0.936534036     -63.2786011
9.381                0.936383054     -63.3758302
9.382                0.936231586     -63.4733072
9.383                0.936079631     -63.5710331
9.384                0.935927186     -63.6690085
9.385                0.935774251     -63.7672345
9.386                0.935620822     -63.8657118
9.387                  0.9354669     -63.9644414
9.388                0.935312481     -64.0634241
9.389                0.935157564     -64.1626608
9.39                 0.935002148     -64.2621523
9.391                0.934846231     -64.3618996
9.392                0.934689811     -64.4619035
9.393                0.934532886     -64.5621649
9.394                0.934375455     -64.6626847
9.395                0.934217516     -64.7634638
9.396                0.934059067     -64.8645031
