! TOUCHSTONE file generated by CST DESIGN STUDIO
! Date and time: Tue Feb  4 18:29:39 2025
! Project name: C:\Work\MatlabApps\UnitCellOptimizationMatlab\CST\unitcell.cst
! Tree item: Tasks\Sweep1\SPara1\S-Parameters
! Header version: 2024
! Port assignment regex: !\s*Touchstone port\s*([0-9]+)\s*=\s*(CST MWS port|CST DES external port|CST DES block port)\s*(.+)\s* \(\"(.*)\"\)(\s*mode\s*([0-9]+))?.*
! Touchstone port assignment:
! Touchstone port 1 = CST DES external port 1 ("")
# GHz S MA R 50
9                     0.90961824     -75.2417414
9.001                0.909351497     -75.3689255
9.002                 0.90908379     -75.4964682
9.003                0.908815115     -75.6243709
9.004                 0.90854547     -75.7526348
9.005                0.908274853     -75.8812612
9.006                 0.90800326     -76.0102513
9.007                0.907730689     -76.1396065
9.008                0.907457137     -76.2693279
9.009                0.907182602      -76.399417
9.01                  0.90690708      -76.529875
9.011                 0.90663057     -76.6607033
9.012                0.906353068      -76.791903
9.013                0.906074573     -76.9234756
9.014                 0.90579508     -77.0554223
9.015                0.905514589     -77.1877444
9.016                0.905233095     -77.3204433
9.017                0.904950597     -77.4535203
9.018                0.904667091     -77.5869768
9.019                0.904382576      -77.720814
9.02                 0.904097048     -77.8550333
9.021                0.903810506      -77.989636
9.022                0.903522946     -78.1246235
9.023                0.903234366     -78.2599972
9.024                0.902944764     -78.3957583
9.025                0.902654137     -78.5319083
9.026                0.902362482     -78.6684484
9.027                0.902069797     -78.8053802
9.028                0.901776079     -78.9427048
9.029                0.901481327     -79.0804238
9.03                 0.901185537     -79.2185385
9.031                0.900888707     -79.3570502
9.032                0.900590836     -79.4959604
9.033                0.900291919     -79.6352705
9.034                0.899991955     -79.7749817
9.035                0.899690942     -79.9150956
9.036                0.899388877     -80.0556136
9.037                0.899085758      -80.196537
9.038                0.898781582     -80.3378672
9.039                0.898476347     -80.4796057
9.04                 0.898170052     -80.6217538
9.041                0.897862693     -80.7643131
9.042                0.897554268     -80.9072849
9.043                0.897244775     -81.0506707
9.044                0.896934213     -81.1944718
9.045                0.896622578     -81.3386898
9.046                0.896309868      -81.483326
9.047                0.895996082     -81.6283819
9.048                0.895681218      -81.773859
9.049                0.895365272     -81.9197587
9.05                 0.895048243     -82.0660824
9.051                 0.89473013     -82.2128317
9.052                0.894410929      -82.360008
9.053                0.894090639     -82.5076127
9.054                0.893769258     -82.6556473
9.055                0.893446784     -82.8041133
9.056                0.893123215     -82.9530122
9.057                0.892798549     -83.1023454
9.058                0.892472784     -83.2521145
9.059                0.892145918     -83.4023209
9.06                  0.89181795     -83.5529661
9.061                0.891488877     -83.7040516
9.062                0.891158698      -83.855579
9.063                0.890827411     -84.0075496
9.064                0.890495014     -84.1599651
9.065                0.890161506     -84.3128269
9.066                0.889826885     -84.4661365
9.067                0.889491149     -84.6198955
9.068                0.889154297     -84.7741054
9.069                0.888816327     -84.9287676
9.07                 0.888477237     -85.0838838
9.071                0.888137027     -85.2394554
9.072                0.887795694      -85.395484
9.073                0.887453236     -85.5519712
9.074                0.887109654     -85.7089183
9.075                0.886764945     -85.8663271
9.076                0.886419108      -86.024199
9.077                0.886072141     -86.1825357
9.078                0.885724044     -86.3413385
9.079                0.885374814     -86.5006091
9.08                 0.885024452     -86.6603491
9.081                0.884672956       -86.82056
9.082                0.884320324     -86.9812434
9.083                0.883966555     -87.1424008
9.084                0.883611649     -87.3040338
9.085                0.883255605      -87.466144
9.086                0.882898421     -87.6287329
9.087                0.882540097     -87.7918022
9.088                0.882180632     -87.9553534
9.089                0.881820024      -88.119388
9.09                 0.881458274     -88.2839077
9.091                 0.88109538      -88.448914
9.092                0.880731342     -88.6144086
9.093                0.880366159      -88.780393
9.094                 0.87999983     -88.9468689
9.095                0.879632355     -89.1138377
9.096                0.879263734     -89.2813012
9.097                0.878893966     -89.4492608
9.098                0.878523051     -89.6177183
9.099                0.878150987     -89.7866752
9.1                  0.877777776     -89.9561331
9.101                0.877403417     -90.1260937
9.102                0.877027909     -90.2965584
9.103                0.876651252     -90.4675291
9.104                0.876273447     -90.6390072
9.105                0.875894493     -90.8109943
9.106                 0.87551439     -90.9834922
9.107                0.875133139     -91.1565023
9.108                0.874750739     -91.3300264
9.109                0.874367191      -91.504066
9.11                 0.873982496     -91.6786228
9.111                0.873596652     -91.8536984
9.112                0.873209662     -92.0292944
9.113                0.872821524     -92.2054124
9.114                0.872432241     -92.3820541
9.115                0.872041811     -92.5592211
9.116                0.871650237     -92.7369149
9.117                0.871257518     -92.9151374
9.118                0.870863656       -93.09389
9.119                0.870468651     -93.2731744
9.12                 0.870072504     -93.4529922
9.121                0.869675217     -93.6333452
9.122                0.869276789     -93.8142348
9.123                0.868877223     -93.9956627
9.124                 0.86847652     -94.1776306
9.125                 0.86807468     -94.3601401
9.126                0.867671706     -94.5431928
9.127                0.867267598     -94.7267904
9.128                0.866862358     -94.9109344
9.129                0.866455988     -95.0956266
9.13                 0.866048489     -95.2808685
9.131                0.865639863     -95.4666618
9.132                0.865230112     -95.6530081
9.133                0.864819238      -95.839909
9.134                0.864407242     -96.0273663
9.135                0.863994127     -96.2153814
9.136                0.863579895      -96.403956
9.137                0.863164548     -96.5930918
9.138                0.862748088     -96.7827904
9.139                0.862330518     -96.9730533
9.14                  0.86191184     -97.1638823
9.141                0.861492057      -97.355279
9.142                0.861071171     -97.5472449
9.143                0.860649186     -97.7397816
9.144                0.860226103     -97.9328909
9.145                0.859801926     -98.1265743
9.146                0.859376659     -98.3208334
9.147                0.858950303     -98.5156698
9.148                0.858522862     -98.7110852
9.149                 0.85809434     -98.9070811
9.15                  0.85766474     -99.1036591
9.151                0.857234066     -99.3008209
9.152                 0.85680232      -99.498568
9.153                0.856369507     -99.6969021
9.154                0.855935631     -99.8958247
9.155                0.855500695     -100.095337
9.156                0.855064704     -100.295442
9.157                0.854627661      -100.49614
9.158                 0.85418957     -100.697432
9.159                0.853750437     -100.899321
9.16                 0.853310266     -101.101808
9.161                 0.85286906     -101.304895
9.162                0.852426825     -101.508582
9.163                0.851983566     -101.712873
9.164                0.851539287     -101.917767
9.165                0.851093993     -102.123267
9.166                0.850647689     -102.329375
9.167                0.850200381     -102.536092
9.168                0.849752074     -102.743419
9.169                0.849302774     -102.951357
9.17                 0.848852485      -103.15991
9.171                0.848401214     -103.369077
9.172                0.847948967     -103.578861
9.173                0.847495749     -103.789262
9.174                0.847041566     -104.000283
9.175                0.846586425     -104.211925
9.176                0.846130331      -104.42419
9.177                0.845673292     -104.637078
9.178                0.845215314     -104.850592
9.179                0.844756404     -105.064733
9.18                 0.844296568     -105.279502
9.181                0.843835813     -105.494901
9.182                0.843374146     -105.710931
9.183                0.842911575     -105.927593
9.184                0.842448107      -106.14489
9.185                 0.84198375     -106.362822
9.186                 0.84151851     -106.581391
9.187                0.841052396     -106.800598
9.188                0.840585416     -107.020445
9.189                0.840117577     -107.240933
9.19                 0.839648888     -107.462064
9.191                0.839179357     -107.683838
9.192                0.838708993     -107.906257
9.193                0.838237804     -108.129323
9.194                0.837765799     -108.353037
9.195                0.837292986       -108.5774
9.196                0.836819375     -108.802413
9.197                0.836344975     -109.028078
9.198                0.835869795     -109.254396
9.199                0.835393845     -109.481369
9.2                  0.834917135     -109.708997
9.201                0.834439673     -109.937282
9.202                 0.83396147     -110.166225
9.203                0.833482536     -110.395827
9.204                0.833002882      -110.62609
9.205                0.832522517     -110.857015
9.206                0.832041452     -111.088603
9.207                0.831559699     -111.320854
9.208                0.831077267     -111.553771
9.209                0.830594167     -111.787355
9.21                 0.830110412     -112.021606
9.211                0.829626011     -112.256526
9.212                0.829140978     -112.492115
9.213                0.828655322     -112.728376
9.214                0.828169057     -112.965308
9.215                0.827682193     -113.202914
9.216                0.827194744     -113.441194
9.217                0.826706722     -113.680149
9.218                0.826218138      -113.91978
9.219                0.825729006     -114.160088
9.22                 0.825239338     -114.401074
9.221                0.824749148      -114.64274
9.222                0.824258448     -114.885085
9.223                0.823767252     -115.128112
9.224                0.823275573      -115.37182
9.225                0.822783425     -115.616212
9.226                0.822290821     -115.861287
9.227                0.821797776     -116.107046
9.228                0.821304304     -116.353491
9.229                0.820810419     -116.600622
9.23                 0.820316136      -116.84844
9.231                0.819821468     -117.096946
9.232                0.819326432     -117.346141
9.233                0.818831042     -117.596025
9.234                0.818335314     -117.846599
9.235                0.817839261     -118.097863
9.236                0.817342902     -118.349819
9.237                 0.81684625     -118.602467
9.238                0.816349321     -118.855808
9.239                0.815852133     -119.109842
9.24                 0.815354701      -119.36457
9.241                0.814857041     -119.619992
9.242                 0.81435917      -119.87611
9.243                0.813861105     -120.132923
9.244                0.813362863     -120.390431
9.245                0.812864461     -120.648637
9.246                0.812365916     -120.907539
9.247                0.811867246     -121.167139
9.248                0.811368468     -121.427436
9.249                  0.8108696     -121.688432
9.25                 0.810370661     -121.950126
9.251                0.809871668     -122.212518
9.252                0.809372639      -122.47561
9.253                0.808873594     -122.739401
9.254                0.808374551     -123.003892
9.255                0.807875529     -123.269082
9.256                0.807376547     -123.534973
9.257                0.806877625     -123.801563
9.258                 0.80637878     -124.068854
9.259                0.805880034     -124.336845
9.26                 0.805381407     -124.605536
9.261                0.804882917     -124.874928
9.262                0.804384585      -125.14502
9.263                0.803886431     -125.415813
9.264                0.803388477     -125.687306
9.265                0.802890742     -125.959499
9.266                0.802393247     -126.232392
9.267                0.801896013     -126.505986
9.268                0.801399062     -126.780279
9.269                0.800902415     -127.055271
9.27                 0.800406093     -127.330963
9.271                0.799910118     -127.607354
9.272                0.799414511     -127.884444
9.273                0.798919295     -128.162232
9.274                0.798424492     -128.440718
9.275                0.797930125     -128.719902
9.276                0.797436214     -128.999783
9.277                0.796942785      -129.28036
9.278                0.796449858     -129.561633
9.279                0.795957457     -129.843602
9.28                 0.795465606     -130.126266
9.281                0.794974326     -130.409624
9.282                0.794483643     -130.693676
9.283                0.793993579     -130.978421
9.284                0.793504159     -131.263858
9.285                0.793015405     -131.549986
9.286                0.792527343     -131.836804
9.287                0.792039995     -132.124313
9.288                0.791553388      -132.41251
9.289                0.791067544     -132.701395
9.29                 0.790582489     -132.990967
9.291                0.790098248     -133.281224
9.292                0.789614844     -133.572166
9.293                0.789132304     -133.863792
9.294                0.788650653     -134.156101
9.295                0.788169915     -134.449091
9.296                0.787690117      -134.74276
9.297                0.787211283     -135.037109
9.298                0.786733439     -135.332135
9.299                0.786256612     -135.627837
9.3                  0.785780827     -135.924214
9.301                 0.78530611     -136.221264
9.302                0.784832487     -136.518986
9.303                0.784359985     -136.817378
9.304                 0.78388863     -137.116439
9.305                0.783418448     -137.416167
9.306                0.782949466      -137.71656
9.307                0.782481711     -138.017616
9.308                 0.78201521     -138.319335
9.309                0.781549988     -138.621714
9.31                 0.781086074     -138.924751
9.311                0.780623495     -139.228444
9.312                0.780162277     -139.532792
9.313                0.779702448     -139.837792
9.314                0.779244035     -140.143442
9.315                0.778787065     -140.449741
9.316                0.778331567     -140.756685
9.317                0.777877567     -141.064274
9.318                0.777425093     -141.372504
9.319                0.776974174     -141.681374
9.32                 0.776524835     -141.990881
9.321                0.776077107     -142.301023
9.322                0.775631016     -142.611796
9.323                 0.77518659       -142.9232
9.324                0.774743857     -143.235231
9.325                0.774302845     -143.547887
9.326                0.773863583     -143.861164
9.327                0.773426098     -144.175061
9.328                0.772990419     -144.489575
9.329                0.772556573     -144.804703
9.33                  0.77212459     -145.120441
9.331                0.771694496     -145.436788
9.332                 0.77126632      -145.75374
9.333                0.770840091     -146.071295
9.334                0.770415837     -146.389448
9.335                0.769993585     -146.708198
9.336                0.769573365     -147.027541
9.337                0.769155205     -147.347473
9.338                0.768739131     -147.667993
9.339                0.768325174     -147.989095
9.34                 0.767913361     -148.310777
9.341                0.767503721     -148.633036
9.342                 0.76709628     -148.955869
9.343                0.766691069      -149.27927
9.344                0.766288114     -149.603238
9.345                0.765887443     -149.927768
9.346                0.765489086     -150.252857
9.347                0.765093069     -150.578501
9.348                0.764699421     -150.904697
9.349                0.764308169      -151.23144
9.35                 0.763919341     -151.558727
9.351                0.763532966     -151.886553
9.352                 0.76314907     -152.214915
9.353                0.762767681     -152.543809
9.354                0.762388828     -152.873231
9.355                0.762012536     -153.203176
9.356                0.761638834     -153.533641
9.357                0.761267748     -153.864621
9.358                0.760899306     -154.196112
9.359                0.760533536     -154.528109
9.36                 0.760170462     -154.860609
9.361                0.759810114     -155.193606
9.362                0.759452516     -155.527097
9.363                0.759097697     -155.861076
9.364                0.758745682      -156.19554
9.365                0.758396497     -156.530483
9.366                0.758050168     -156.865901
9.367                0.757706723     -157.201789
9.368                0.757366185     -157.538142
9.369                0.757028582     -157.874956
9.37                 0.756693939     -158.212226
9.371                0.756362281     -158.549946
9.372                0.756033633     -158.888112
9.373                 0.75570802     -159.226719
9.374                0.755385468     -159.565761
9.375                   0.755066     -159.905234
9.376                0.754749642     -160.245132
9.377                0.754436417     -160.585451
9.378                 0.75412635     -160.926184
9.379                0.753819464     -161.267326
9.38                 0.753515784     -161.608873
9.381                0.753215332     -161.950819
9.382                0.752918132     -162.293158
9.383                0.752624207     -162.635884
9.384                 0.75233358     -162.978993
9.385                0.752046272     -163.322479
9.386                0.751762308     -163.666336
9.387                0.751481708     -164.010558
9.388                0.751204494      -164.35514
9.389                0.750930688     -164.700076
9.39                 0.750660312      -165.04536
9.391                0.750393385     -165.390987
9.392                 0.75012993     -165.736949
9.393                0.749869967     -166.083243
9.394                0.749613515     -166.429861
9.395                0.749360596     -166.776797
9.396                0.749111227     -167.124046
