! TOUCHSTONE file generated by CST DESIGN STUDIO
! Date and time: Tue Feb  4 16:14:30 2025
! Project name: C:\Work\MatlabApps\UnitCellOptimizationMatlab\CST\unitcell.cst
! Tree item: Tasks\Sweep1\SPara1\S-Parameters
! Header version: 2024
! Port assignment regex: !\s*Touchstone port\s*([0-9]+)\s*=\s*(CST MWS port|CST DES external port|CST DES block port)\s*(.+)\s* \(\"(.*)\"\)(\s*mode\s*([0-9]+))?.*
! Touchstone port assignment:
! Touchstone port 1 = CST DES external port 1 ("")
# GHz S MA R 50
9                    0.969659701     -66.2390797
9.001                0.969594719     -66.3350372
9.002                 0.96952954     -66.4312301
9.003                0.969464165      -66.527659
9.004                0.969398591     -66.6243247
9.005                0.969332819      -66.721228
9.006                0.969266848     -66.8183696
9.007                0.969200676     -66.9157503
9.008                0.969134305     -67.0133708
9.009                0.969067732     -67.1112319
9.01                 0.969000957     -67.2093345
9.011                0.968933979     -67.3076791
9.012                0.968866799     -67.4062667
9.013                0.968799414      -67.505098
9.014                0.968731824     -67.6041738
9.015                 0.96866403     -67.7034949
9.016                0.968596029      -67.803062
9.017                0.968527821      -67.902876
9.018                0.968459407     -68.0029376
9.019                0.968390784     -68.1032476
9.02                 0.968321952     -68.2038068
9.021                0.968252911      -68.304616
9.022                 0.96818366     -68.4056761
9.023                0.968114198     -68.5069878
9.024                0.968044524     -68.6085519
9.025                0.967974638     -68.7103692
9.026                 0.96790454     -68.8124406
9.027                0.967834227     -68.9147669
9.028                0.967763701     -69.0173488
9.029                0.967692959     -69.1201872
9.03                 0.967622002     -69.2232829
9.031                0.967550828     -69.3266367
9.032                0.967479438     -69.4302495
9.033                 0.96740783     -69.5341221
9.034                0.967336003     -69.6382553
9.035                0.967263957       -69.74265
9.036                0.967191691     -69.8473069
9.037                0.967119205      -69.952227
9.038                0.967046498      -70.057411
9.039                0.966973568     -70.1628599
9.04                 0.966900416     -70.2685744
9.041                0.966827041     -70.3745554
9.042                0.966753442     -70.4808037
9.043                0.966679618     -70.5873203
9.044                0.966605569      -70.694106
9.045                0.966531293     -70.8011616
9.046                0.966456791     -70.9084879
9.047                0.966382062      -71.016086
9.048                0.966307104     -71.1239565
9.049                0.966231917     -71.2321005
9.05                 0.966156501     -71.3405187
9.051                0.966080855      -71.449212
9.052                0.966004978     -71.5581814
9.053                0.965928869     -71.6674277
9.054                0.965852528     -71.7769518
9.055                0.965775953     -71.8867545
9.056                0.965699146     -71.9968368
9.057                0.965622103     -72.1071995
9.058                0.965544826     -72.2178436
9.059                0.965467313     -72.3287699
9.06                 0.965389563     -72.4399793
9.061                0.965311576     -72.5514728
9.062                0.965233352     -72.6632512
9.063                0.965154889     -72.7753155
9.064                0.965076186     -72.8876665
9.065                0.964997244     -73.0003052
9.066                0.964918061     -73.1132325
9.067                0.964838637     -73.2264492
9.068                0.964758971     -73.3399564
9.069                0.964679063      -73.453755
9.07                 0.964598911     -73.5678458
9.071                0.964518515     -73.6822298
9.072                0.964437875     -73.7969079
9.073                0.964356989      -73.911881
9.074                0.964275857     -74.0271502
9.075                0.964194478     -74.1427163
9.076                0.964112852     -74.2585802
9.077                0.964030978      -74.374743
9.078                0.963948855     -74.4912055
9.079                0.963866483     -74.6079687
9.08                 0.963783861     -74.7250336
9.081                0.963700988     -74.8424011
9.082                0.963617864     -74.9600722
9.083                0.963534488     -75.0780477
9.084                0.963450859     -75.1963288
9.085                0.963366977     -75.3149163
9.086                 0.96328284     -75.4338112
9.087                0.963198449     -75.5530145
9.088                0.963113803     -75.6725272
9.089                0.963028901     -75.7923501
9.09                 0.962943742     -75.9124844
9.091                0.962858326      -76.032931
9.092                0.962772652     -76.1536908
9.093                0.962686719     -76.2747648
9.094                0.962600527     -76.3961541
9.095                0.962514076     -76.5178596
9.096                0.962427364     -76.6398823
9.097                0.962340391     -76.7622232
9.098                0.962253156     -76.8848833
9.099                0.962165659     -77.0078636
9.1                  0.962077898     -77.1311651
9.101                0.961989875     -77.2547888
9.102                0.961901587     -77.3787357
9.103                0.961813034     -77.5030069
9.104                0.961724216     -77.6276032
9.105                0.961635131     -77.7525258
9.106                 0.96154578     -77.8777756
9.107                0.961456162     -78.0033537
9.108                0.961366276     -78.1292611
9.109                0.961276122     -78.2554988
9.11                 0.961185698     -78.3820678
9.111                0.961095005     -78.5089692
9.112                0.961004042      -78.636204
9.113                0.960912808     -78.7637732
9.114                0.960821303     -78.8916779
9.115                0.960729525     -79.0199191
9.116                0.960637476     -79.1484978
9.117                0.960545153     -79.2774151
9.118                0.960452556      -79.406672
9.119                0.960359685     -79.5362695
9.12                  0.96026654     -79.6662088
9.121                0.960173119     -79.7964908
9.122                0.960079423     -79.9271167
9.123                 0.95998545     -80.0580874
9.124                  0.9598912      -80.189404
9.125                0.959796673     -80.3210676
9.126                0.959701868     -80.4530792
9.127                0.959606785       -80.58544
9.128                0.959511422     -80.7181509
9.129                 0.95941578      -80.851213
9.13                 0.959319858     -80.9846275
9.131                0.959223656     -81.1183953
9.132                0.959127173     -81.2525176
9.133                0.959030408     -81.3869954
9.134                0.958933361     -81.5218298
9.135                0.958836032     -81.6570219
9.136                 0.95873842     -81.7925727
9.137                0.958640525     -81.9284834
9.138                0.958542346      -82.064755
9.139                0.958443883     -82.2013886
9.14                 0.958345135     -82.3383853
9.141                0.958246102     -82.4757462
9.142                0.958146783     -82.6134724
9.143                0.958047179      -82.751565
9.144                0.957947288     -82.8900251
9.145                 0.95784711     -83.0288537
9.146                0.957746645      -83.168052
9.147                0.957645893      -83.307621
9.148                0.957544852      -83.447562
9.149                0.957443524     -83.5878759
9.15                 0.957341906     -83.7285639
9.151                    0.95724     -83.8696271
9.152                0.957137804     -84.0110666
9.153                0.957035318     -84.1528835
9.154                0.956932542      -84.295079
9.155                0.956829476      -84.437654
9.156                0.956726119     -84.5806099
9.157                 0.95662247     -84.7239476
9.158                0.956518531     -84.8676683
9.159                0.956414299     -85.0117731
9.16                 0.956309776     -85.1562631
9.161                0.956204961     -85.3011395
9.162                0.956099852     -85.4464033
9.163                0.955994451     -85.5920558
9.164                0.955888757      -85.738098
9.165                 0.95578277      -85.884531
9.166                0.955676489      -86.031356
9.167                0.955569915     -86.1785742
9.168                0.955463046     -86.3261865
9.169                0.955355883     -86.4741943
9.17                 0.955248426     -86.6225985
9.171                0.955140674     -86.7714004
9.172                0.955032628     -86.9206011
9.173                0.954924287     -87.0702017
9.174                 0.95481565     -87.2202033
9.175                0.954706719     -87.3706071
9.176                0.954597492     -87.5214142
9.177                0.954487969     -87.6726258
9.178                0.954378152      -87.824243
9.179                0.954268038     -87.9762669
9.18                 0.954157629     -88.1286987
9.181                0.954046924     -88.2815396
9.182                0.953935923     -88.4347906
9.183                0.953824627     -88.5884529
9.184                0.953713034     -88.7425277
9.185                0.953601146      -88.897016
9.186                0.953488961     -89.0519191
9.187                0.953376481     -89.2072381
9.188                0.953263704     -89.3629741
9.189                0.953150632     -89.5191283
9.19                 0.953037264     -89.6757018
9.191                  0.9529236     -89.8326957
9.192                0.952809641     -89.9901113
9.193                0.952695386     -90.1479496
9.194                0.952580835     -90.3062118
9.195                0.952465989     -90.4648991
9.196                0.952350847     -90.6240125
9.197                0.952235411     -90.7835533
9.198                0.952119679     -90.9435226
9.199                0.952003653     -91.1039215
9.2                  0.951887332     -91.2647511
9.201                0.951770717     -91.4260127
9.202                0.951653807     -91.5877073
9.203                0.951536603     -91.7498361
9.204                0.951419106     -91.9124003
9.205                0.951301315     -92.0754009
9.206                0.951183232     -92.2388391
9.207                0.951064855     -92.4027162
9.208                0.950946186     -92.5670331
9.209                0.950827224     -92.7317911
9.21                 0.950707971     -92.8969912
9.211                0.950588426     -93.0626347
9.212                0.950468591     -93.2287226
9.213                0.950348464     -93.3952561
9.214                0.950228047     -93.5622363
9.215                0.950107341     -93.7296644
9.216                0.949986345     -93.8975414
9.217                 0.94986506     -94.0658686
9.218                0.949743487      -94.234647
9.219                0.949621626     -94.4038778
9.22                 0.949499478      -94.573562
9.221                0.949377043     -94.7437009
9.222                0.949254322     -94.9142956
9.223                0.949131315     -95.0853471
9.224                0.949008023     -95.2568565
9.225                0.948884447     -95.4288251
9.226                0.948760587     -95.6012539
9.227                0.948636444      -95.774144
9.228                0.948512019     -95.9474965
9.229                0.948387313     -96.1213126
9.23                 0.948262325     -96.2955933
9.231                0.948137057     -96.4703398
9.232                 0.94801151     -96.6455531
9.233                0.947885685     -96.8212344
9.234                0.947759582     -96.9973847
9.235                0.947633202     -97.1740051
9.236                0.947506546     -97.3510968
9.237                0.947379616     -97.5286608
9.238                0.947252411     -97.7066982
9.239                0.947124933     -97.8852101
9.24                 0.946997182     -98.0641975
9.241                0.946869161     -98.2436615
9.242                0.946740869     -98.4236033
9.243                0.946612309     -98.6040238
9.244                 0.94648348     -98.7849242
9.245                0.946354384     -98.9663055
9.246                0.946225022     -99.1481687
9.247                0.946095396     -99.3305149
9.248                0.945965506     -99.5133452
9.249                0.945835353     -99.6966606
9.25                  0.94570494     -99.8804622
9.251                0.945574266     -100.064751
9.252                0.945443334     -100.249528
9.253                0.945312145     -100.434794
9.254                  0.9451807      -100.62055
9.255                   0.945049     -100.806798
9.256                0.944917046     -100.993538
9.257                0.944784841     -101.180772
9.258                0.944652386     -101.368499
9.259                0.944519681     -101.556722
9.26                 0.944386729     -101.745442
9.261                0.944253531     -101.934658
9.262                0.944120089     -102.124373
9.263                0.943986404     -102.314587
9.264                0.943852478     -102.505302
9.265                0.943718312     -102.696517
9.266                0.943583908     -102.888235
9.267                0.943449268     -103.080456
9.268                0.943314394     -103.273181
9.269                0.943179287     -103.466411
9.27                 0.943043949     -103.660147
9.271                0.942908382      -103.85439
9.272                0.942772587     -104.049141
9.273                0.942636568     -104.244401
9.274                0.942500325      -104.44017
9.275                 0.94236386     -104.636449
9.276                0.942227176     -104.833241
9.277                0.942090275     -105.030544
9.278                0.941953158     -105.228361
9.279                0.941815827     -105.426692
9.28                 0.941678286     -105.625538
9.281                0.941540535     -105.824899
9.282                0.941402578     -106.024778
9.283                0.941264416     -106.225174
9.284                0.941126051     -106.426088
9.285                0.940987486     -106.627521
9.286                0.940848724     -106.829475
9.287                0.940709766     -107.031949
9.288                0.940570615     -107.234945
9.289                0.940431273     -107.438464
9.29                 0.940291743     -107.642506
9.291                0.940152027     -107.847071
9.292                0.940012128     -108.052162
9.293                0.939872049     -108.257778
9.294                0.939731791      -108.46392
9.295                0.939591358      -108.67059
9.296                0.939450753     -108.877787
9.297                0.939309977     -109.085513
9.298                0.939169034     -109.293768
9.299                0.939027927     -109.502553
9.3                  0.938886658     -109.711868
9.301                 0.93874523     -109.921715
9.302                0.938603647     -110.132094
9.303                0.938461911     -110.343005
9.304                0.938320024      -110.55445
9.305                0.938177991     -110.766428
9.306                0.938035814     -110.978941
9.307                0.937893496     -111.191989
9.308                0.937751041     -111.405573
9.309                0.937608451     -111.619694
9.31                  0.93746573     -111.834351
9.311                0.937322881     -112.049546
9.312                0.937179907     -112.265279
9.313                0.937036812      -112.48155
9.314                0.936893599     -112.698361
9.315                0.936750271     -112.915711
9.316                0.936606832     -113.133602
9.317                0.936463286     -113.352033
9.318                0.936319635     -113.571005
9.319                0.936175884      -113.79052
9.32                 0.936032036     -114.010576
9.321                0.935888095     -114.231174
9.322                0.935744064     -114.452316
9.323                0.935599948     -114.674001
9.324                0.935455749      -114.89623
9.325                0.935311473     -115.119003
9.326                0.935167122      -115.34232
9.327                  0.9350227     -115.566183
9.328                0.934878213     -115.790591
9.329                0.934733662     -116.015544
9.33                 0.934589053     -116.241043
9.331                 0.93444439     -116.467089
9.332                0.934299677     -116.693681
9.333                0.934154918     -116.920819
9.334                0.934010116     -117.148505
9.335                0.933865277     -117.376738
9.336                0.933720405     -117.605518
9.337                0.933575504     -117.834847
9.338                0.933430578     -118.064723
9.339                0.933285632     -118.295147
9.34                  0.93314067     -118.526119
9.341                0.932995697      -118.75764
9.342                0.932850717     -118.989709
9.343                0.932705735     -119.222327
9.344                0.932560756     -119.455493
9.345                0.932415783     -119.689208
9.346                0.932270823     -119.923472
9.347                0.932125879     -120.158285
9.348                0.931980957     -120.393647
9.349                0.931836061     -120.629557
9.35                 0.931691197     -120.866016
9.351                0.931546368     -121.103025
9.352                0.931401581     -121.340581
9.353                0.931256839     -121.578687
9.354                0.931112149     -121.817341
9.355                0.930967515     -122.056544
9.356                0.930822943     -122.296295
9.357                0.930678437     -122.536594
9.358                0.930534003     -122.777441
9.359                0.930389646     -123.018836
9.36                 0.930245371     -123.260779
9.361                0.930101185     -123.503269
9.362                0.929957091     -123.746306
9.363                0.929813096      -123.98989
9.364                0.929669205      -124.23402
9.365                0.929525424     -124.478697
9.366                0.929381758      -124.72392
9.367                0.929238212     -124.969688
9.368                0.929094793     -125.216002
9.369                0.928951507      -125.46286
9.37                 0.928808357     -125.710263
9.371                0.928665352     -125.958209
9.372                0.928522496     -126.206699
9.373                0.928379795     -126.455733
9.374                0.928237255     -126.705308
9.375                0.928094882     -126.955426
9.376                0.927952683     -127.206084
9.377                0.927810662     -127.457284
9.378                0.927668826     -127.709024
9.379                0.927527181     -127.961303
9.38                 0.927385734     -128.214122
9.381                 0.92724449     -128.467479
9.382                0.927103455     -128.721373
9.383                0.926962636     -128.975804
9.384                 0.92682204     -129.230771
9.385                0.926681671     -129.486274
9.386                0.926541538     -129.742311
9.387                0.926401645     -129.998882
9.388                   0.926262     -130.255986
9.389                0.926122608     -130.513622
9.39                 0.925983477     -130.771789
9.391                0.925844613     -131.030486
9.392                0.925706023     -131.289712
9.393                0.925567712     -131.549467
9.394                0.925429688     -131.809749
9.395                0.925291957     -132.070558
9.396                0.925154526     -132.331892
