! TOUCHSTONE file generated by CST DESIGN STUDIO
! Date and time: Tue Feb  4 16:14:19 2025
! Project name: C:\Work\MatlabApps\UnitCellOptimizationMatlab\CST\unitcell.cst
! Tree item: Tasks\Sweep1\SPara1\S-Parameters
! Header version: 2024
! Port assignment regex: !\s*Touchstone port\s*([0-9]+)\s*=\s*(CST MWS port|CST DES external port|CST DES block port)\s*(.+)\s* \(\"(.*)\"\)(\s*mode\s*([0-9]+))?.*
! Touchstone port assignment:
! Touchstone port 1 = CST DES external port 1 ("")
# GHz S MA R 50
9                     0.96301539     -85.8947368
9.001                0.962916071      -86.038968
9.002                0.962816495     -86.1835823
9.003                0.962716662     -86.3285808
9.004                0.962616572     -86.4739647
9.005                0.962516223     -86.6197349
9.006                0.962415617     -86.7658927
9.007                0.962314753     -86.9124391
9.008                 0.96221363     -87.0593753
9.009                0.962112249     -87.2067024
9.01                 0.962010609     -87.3544214
9.011                0.961908711     -87.5025335
9.012                0.961806553     -87.6510398
9.013                0.961704136     -87.7999414
9.014                0.961601459     -87.9492395
9.015                0.961498523     -88.0989352
9.016                0.961395327     -88.2490295
9.017                0.961291872     -88.3995236
9.018                0.961188156     -88.5504186
9.019                0.961084181     -88.7017157
9.02                 0.960979945     -88.8534159
9.021                0.960875449     -89.0055204
9.022                0.960770693     -89.1580303
9.023                0.960665676     -89.3109467
9.024                0.960560399     -89.4642708
9.025                0.960454862     -89.6180037
9.026                0.960349064     -89.7721464
9.027                0.960243005     -89.9267002
9.028                0.960136686     -90.0816661
9.029                0.960030107     -90.2370452
9.03                 0.959923266     -90.3928388
9.031                0.959816166     -90.5490479
9.032                0.959708804     -90.7056736
9.033                0.959601183     -90.8627171
9.034                0.959493301     -91.0201795
9.035                0.959385158     -91.1780619
9.036                0.959276756     -91.3363654
9.037                0.959168093     -91.4950913
9.038                 0.95905917     -91.6542405
9.039                0.958949988     -91.8138142
9.04                 0.958840545     -91.9738135
9.041                0.958730843     -92.1342397
9.042                0.958620882     -92.2950937
9.043                0.958510661     -92.4563767
9.044                0.958400181     -92.6180898
9.045                0.958289442     -92.7802342
9.046                0.958178445      -92.942811
9.047                0.958067189     -93.1058212
9.048                0.957955675     -93.2692661
9.049                0.957843903     -93.4331467
9.05                 0.957731873     -93.5974641
9.051                0.957619586     -93.7622195
9.052                0.957507042      -93.927414
9.053                0.957394242     -94.0930486
9.054                0.957281184     -94.2591246
9.055                0.957167871     -94.4256429
9.056                0.957054302     -94.5926048
9.057                0.956940478     -94.7600114
9.058                0.956826399     -94.9278636
9.059                0.956712065     -95.0961627
9.06                 0.956597478     -95.2649098
9.061                0.956482636     -95.4341059
9.062                0.956367542     -95.6037522
9.063                0.956252195     -95.7738497
9.064                0.956136596     -95.9443996
9.065                0.956020745     -96.1154029
9.066                0.955904643     -96.2868608
9.067                0.955788291     -96.4587743
9.068                0.955671688     -96.6311445
9.069                0.955554837     -96.8039725
9.07                 0.955437736     -96.9772594
9.071                0.955320388     -97.1510063
9.072                0.955202792     -97.3252143
9.073                0.955084949     -97.4998843
9.074                 0.95496686     -97.6750176
9.075                0.954848526     -97.8506152
9.076                0.954729947     -98.0266781
9.077                0.954611124     -98.2032075
9.078                0.954492058     -98.3802043
9.079                0.954372749     -98.5576696
9.08                 0.954253199     -98.7356046
9.081                0.954133409     -98.9140102
9.082                0.954013378     -99.0928875
9.083                0.953893108     -99.2722376
9.084                0.953772601     -99.4520614
9.085                0.953651856     -99.6323601
9.086                0.953530874     -99.8131347
9.087                0.953409658     -99.9943862
9.088                0.953288207     -100.176116
9.089                0.953166523     -100.358324
9.09                 0.953044606     -100.541012
9.091                0.952922458     -100.724182
9.092                 0.95280008     -100.907833
9.093                0.952677473     -101.091967
9.094                0.952554638     -101.276586
9.095                0.952431576     -101.461689
9.096                0.952308289     -101.647279
9.097                0.952184777     -101.833355
9.098                0.952061042      -102.01992
9.099                0.951937084     -102.206973
9.1                  0.951812906     -102.394517
9.101                0.951688509     -102.582551
9.102                0.951563893     -102.771077
9.103                0.951439061     -102.960096
9.104                0.951314013     -103.149609
9.105                0.951188751     -103.339617
9.106                0.951063276      -103.53012
9.107                 0.95093759      -103.72112
9.108                0.950811694     -103.912618
9.109                0.950685591     -104.104614
9.11                  0.95055928      -104.29711
9.111                0.950432764     -104.490105
9.112                0.950306045     -104.683603
9.113                0.950179124     -104.877602
9.114                0.950052002     -105.072104
9.115                0.949924682      -105.26711
9.116                0.949797165     -105.462621
9.117                0.949669452     -105.658638
9.118                0.949541546     -105.855161
9.119                0.949413448     -106.052192
9.12                  0.94928516     -106.249731
9.121                0.949156684     -106.447779
9.122                0.949028022     -106.646337
9.123                0.948899176     -106.845406
9.124                0.948770147     -107.044986
9.125                0.948640937     -107.245079
9.126                0.948511549     -107.445685
9.127                0.948381985     -107.646805
9.128                0.948252246      -107.84844
9.129                0.948122335      -108.05059
9.13                 0.947992253     -108.253257
9.131                0.947862003     -108.456441
9.132                0.947731588     -108.660142
9.133                0.947601008     -108.864363
9.134                0.947470267     -109.069103
9.135                0.947339367     -109.274363
9.136                 0.94720831     -109.480143
9.137                0.947077098     -109.686446
9.138                0.946945734      -109.89327
9.139                 0.94681422     -110.100617
9.14                 0.946682558     -110.308488
9.141                0.946550752     -110.516884
9.142                0.946418803     -110.725804
9.143                0.946286714     -110.935249
9.144                0.946154487     -111.145221
9.145                0.946022126      -111.35572
9.146                0.945889633     -111.566747
9.147                 0.94575701     -111.778301
9.148                 0.94562426     -111.990384
9.149                0.945491386     -112.202996
9.15                 0.945358391     -112.416138
9.151                0.945225277     -112.629811
9.152                0.945092047     -112.844014
9.153                0.944958705     -113.058749
9.154                0.944825253     -113.274016
9.155                0.944691693     -113.489815
9.156                 0.94455803     -113.706148
9.157                0.944424266     -113.923014
9.158                0.944290403     -114.140413
9.159                0.944156446     -114.358348
9.16                 0.944022397     -114.576817
9.161                 0.94388826     -114.795821
9.162                0.943754037     -115.015362
9.163                0.943619732     -115.235438
9.164                0.943485348     -115.456051
9.165                0.943350888     -115.677201
9.166                0.943216356     -115.898889
9.167                0.943081756     -116.121114
9.168                 0.94294709     -116.343877
9.169                0.942812361     -116.567178
9.17                 0.942677575     -116.791018
9.171                0.942542733     -117.015397
9.172                 0.94240784     -117.240315
9.173                0.942272899     -117.465773
9.174                0.942137913     -117.691771
9.175                0.942002888     -117.918308
9.176                0.941867825     -118.145386
9.177                 0.94173273     -118.373004
9.178                0.941597605     -118.601163
9.179                0.941462454     -118.829862
9.18                 0.941327282     -119.059103
9.181                0.941192093     -119.288885
9.182                0.941056889     -119.519208
9.183                0.940921676     -119.750072
9.184                0.940786457     -119.981478
9.185                0.940651236     -120.213425
9.186                0.940516018     -120.445913
9.187                0.940380806     -120.678944
9.188                0.940245605     -120.912516
9.189                0.940110419     -121.146629
9.19                 0.939975252     -121.381285
9.191                0.939840108     -121.616482
9.192                0.939704992      -121.85222
9.193                0.939569908       -122.0885
9.194                0.939434861     -122.325321
9.195                0.939299855     -122.562684
9.196                0.939164893     -122.800588
9.197                0.939029982     -123.039033
9.198                0.938895125     -123.278018
9.199                0.938760328     -123.517545
9.2                  0.938625594     -123.757612
9.201                0.938490928     -123.998219
9.202                0.938356335     -124.239366
9.203                 0.93822182     -124.481053
9.204                0.938087387      -124.72328
9.205                0.937953042     -124.966046
9.206                0.937818788      -125.20935
9.207                0.937684632     -125.453193
9.208                0.937550578     -125.697575
9.209                0.937416631     -125.942494
9.21                 0.937282795     -126.187951
9.211                0.937149076     -126.433944
9.212                 0.93701548     -126.680475
9.213                 0.93688201     -126.927541
9.214                0.936748672     -127.175143
9.215                0.936615472      -127.42328
9.216                0.936482414     -127.671951
9.217                0.936349505     -127.921157
9.218                0.936216748     -128.170895
9.219                0.936084149     -128.421167
9.22                 0.935951714     -128.671971
9.221                0.935819449     -128.923306
9.222                0.935687357     -129.175173
9.223                0.935555446     -129.427569
9.224                 0.93542372     -129.680495
9.225                0.935292185      -129.93395
9.226                0.935160846     -130.187933
9.227                0.935029709     -130.442443
9.228                 0.93489878     -130.697479
9.229                0.934768064     -130.953041
9.23                 0.934637567     -131.209127
9.231                0.934507295     -131.465738
9.232                0.934377253     -131.722871
9.233                0.934247446     -131.980526
9.234                0.934117882     -132.238702
9.235                0.933988566     -132.497398
9.236                0.933859502     -132.756614
9.237                0.933730699     -133.016347
9.238                 0.93360216     -133.276597
9.239                0.933473893     -133.537364
9.24                 0.933345903     -133.798644
9.241                0.933218196     -134.060439
9.242                0.933090778     -134.322746
9.243                0.932963655     -134.585564
9.244                0.932836834     -134.848893
9.245                 0.93271032      -135.11273
9.246                0.932584119     -135.377075
9.247                0.932458238     -135.641926
9.248                0.932332683     -135.907282
9.249                0.932207459     -136.173142
9.25                 0.932082574     -136.439504
9.251                0.931958033     -136.706367
9.252                0.931833842     -136.973729
9.253                0.931710008     -137.241589
9.254                0.931586538     -137.509946
9.255                0.931463437     -137.778798
9.256                0.931340711     -138.048144
9.257                0.931218368     -138.317981
9.258                0.931096413     -138.588309
9.259                0.930974853     -138.859125
9.26                 0.930853694     -139.130429
9.261                0.930732943     -139.402218
9.262                0.930612605     -139.674491
9.263                0.930492689     -139.947246
9.264                0.930373199     -140.220481
9.265                0.930254142     -140.494194
9.266                0.930135526     -140.768385
9.267                0.930017356      -141.04305
9.268                0.929899638     -141.318188
9.269                0.929782381     -141.593797
9.27                 0.929665589     -141.869876
9.271                0.929549269     -142.146421
9.272                0.929433428     -142.423432
9.273                0.929318073     -142.700907
9.274                 0.92920321     -142.978842
9.275                0.929088846     -143.257237
9.276                0.928974987     -143.536088
9.277                0.928861639     -143.815395
9.278                 0.92874881     -144.095155
9.279                0.928636506     -144.375365
9.28                 0.928524733     -144.656023
9.281                0.928413499     -144.937128
9.282                0.928302808     -145.218677
9.283                 0.92819267     -145.500667
9.284                0.928083089     -145.783097
9.285                0.927974072     -146.065964
9.286                0.927865626     -146.349265
9.287                0.927757758     -146.632999
9.288                0.927650473     -146.917163
9.289                 0.92754378     -147.201753
9.29                 0.927437683     -147.486769
9.291                 0.92733219     -147.772207
9.292                0.927227308     -148.058065
9.293                0.927123042      -148.34434
9.294                0.927019399     -148.631029
9.295                0.926916386     -148.918131
9.296                 0.92681401     -149.205642
9.297                0.926712276     -149.493559
9.298                0.926611191     -149.781881
9.299                0.926510762     -150.070604
9.3                  0.926410995     -150.359725
9.301                0.926311896     -150.649241
9.302                0.926213472     -150.939151
9.303                 0.92611573      -151.22945
9.304                0.926018675     -151.520137
9.305                0.925922314     -151.811208
9.306                0.925826653      -152.10266
9.307                0.925731699      -152.39449
9.308                0.925637458     -152.686695
9.309                0.925543935     -152.979273
9.31                 0.925451138      -153.27222
9.311                0.925359072     -153.565533
9.312                0.925267744     -153.859209
9.313                 0.92517716     -154.153245
9.314                0.925087326     -154.447637
9.315                0.924998247     -154.742384
9.316                0.924909931      -155.03748
9.317                0.924822383     -155.332924
9.318                0.924735608     -155.628712
9.319                0.924649614      -155.92484
9.32                 0.924564405     -156.221306
9.321                0.924479988     -156.518105
9.322                0.924396368     -156.815235
9.323                0.924313552     -157.112692
9.324                0.924231545     -157.410473
9.325                0.924150353     -157.708575
9.326                0.924069981     -158.006993
9.327                0.923990435     -158.305725
9.328                0.923911721     -158.604767
9.329                0.923833845     -158.904115
9.33                 0.923756811     -159.203765
9.331                0.923680625     -159.503715
9.332                0.923605293     -159.803961
9.333                 0.92353082     -160.104499
9.334                0.923457211     -160.405325
9.335                0.923384471     -160.706436
9.336                0.923312607     -161.007827
9.337                0.923241622     -161.309496
9.338                0.923171522     -161.611439
9.339                0.923102313     -161.913651
9.34                 0.923033998     -162.216129
9.341                0.922966583     -162.518869
9.342                0.922900074     -162.821868
9.343                0.922834474     -163.125121
9.344                0.922769788     -163.428625
9.345                0.922706022     -163.732375
9.346                0.922643179     -164.036368
9.347                0.922581265       -164.3406
9.348                0.922520284     -164.645067
9.349                 0.92246024     -164.949765
9.35                 0.922401138      -165.25469
9.351                0.922342982     -165.559838
9.352                0.922285776     -165.865205
9.353                0.922229525     -166.170787
9.354                0.922174233     -166.476579
9.355                0.922119903     -166.782579
9.356                0.922066541     -167.088781
9.357                0.922014149     -167.395181
9.358                0.921962731     -167.701776
9.359                0.921912292     -168.008561
9.36                 0.921862836     -168.315532
9.361                0.921814365     -168.622685
9.362                0.921766883     -168.930016
9.363                0.921720394      -169.23752
9.364                0.921674901     -169.545194
9.365                0.921630408     -169.853032
9.366                0.921586917     -170.161032
9.367                0.921544433     -170.469188
9.368                0.921502958     -170.777496
9.369                0.921462495     -171.085952
9.37                 0.921423048     -171.394551
9.371                0.921384618      -171.70329
9.372                0.921347209     -172.012164
9.373                0.921310824     -172.321169
9.374                0.921275466       -172.6303
9.375                0.921241136     -172.939553
9.376                0.921207837     -173.248923
9.377                0.921175572     -173.558407
9.378                0.921144343     -173.867999
9.379                0.921114153     -174.177696
9.38                 0.921085002     -174.487492
9.381                0.921056895     -174.797384
9.382                0.921029831     -175.107367
9.383                0.921003815     -175.417437
9.384                0.920978846     -175.727589
9.385                0.920954927     -176.037819
9.386                 0.92093206     -176.348122
9.387                0.920910246     -176.658494
9.388                0.920889487      -176.96893
9.389                0.920869783     -177.279426
9.39                 0.920851137     -177.589978
9.391                 0.92083355      -177.90058
9.392                0.920817022     -178.211229
9.393                0.920801554      -178.52192
9.394                0.920787149     -178.832648
9.395                0.920773805     -179.143409
9.396                0.920761525     -179.454198
