! TOUCHSTONE file generated by CST DESIGN STUDIO
! Date and time: Tue Feb  4 14:31:37 2025
! Project name: C:\Work\MatlabApps\UnitCellOptimizationMatlab\CST\unitcell.cst
! Tree item: Tasks\Sweep1\SPara1\S-Parameters
! Header version: 2024
! Port assignment regex: !\s*Touchstone port\s*([0-9]+)\s*=\s*(CST MWS port|CST DES external port|CST DES block port)\s*(.+)\s* \(\"(.*)\"\)(\s*mode\s*([0-9]+))?.*
! Touchstone port assignment:
! Touchstone port 1 = CST DES external port 1 ("")
# GHz S MA R 50
9                    0.972956268       -63.38368
9.001                0.972896753     -63.4730734
9.002                0.972837057     -63.5626794
9.003                 0.97277718     -63.6524988
9.004                0.972717121     -63.7425323
9.005                0.972656879     -63.8327804
9.006                0.972596454     -63.9232439
9.007                0.972535846     -64.0139234
9.008                0.972475053     -64.1048197
9.009                0.972414076     -64.1959334
9.01                 0.972352913     -64.2872652
9.011                0.972291564     -64.3788159
9.012                0.972230029      -64.470586
9.013                0.972168306     -64.5625764
9.014                0.972106396     -64.6547877
9.015                0.972044297     -64.7472205
9.016                0.971982009     -64.8398757
9.017                0.971919532     -64.9327539
9.018                0.971856864     -65.0258558
9.019                0.971794006     -65.1191821
9.02                 0.971730957     -65.2127336
9.021                0.971667716      -65.306511
9.022                0.971604282     -65.4005149
9.023                0.971540655     -65.4947461
9.024                0.971476835     -65.5892054
9.025                 0.97141282     -65.6838934
9.026                0.971348611     -65.7788109
9.027                0.971284206     -65.8739586
9.028                0.971219605     -65.9693372
9.029                0.971154807     -66.0649475
9.03                 0.971089812     -66.1607902
9.031                0.971024619     -66.2568661
9.032                0.970959228     -66.3531759
9.033                0.970893637     -66.4497203
9.034                0.970827847     -66.5465001
9.035                0.970761857      -66.643516
9.036                0.970695666     -66.7407688
9.037                0.970629273     -66.8382593
9.038                0.970562678     -66.9359881
9.039                0.970495881     -67.0339561
9.04                  0.97042888      -67.132164
9.041                0.970361676     -67.2306126
9.042                0.970294267     -67.3293027
9.043                0.970226653      -67.428235
9.044                0.970158833     -67.5274102
9.045                0.970090806     -67.6268293
9.046                0.970022573     -67.7264928
9.047                0.969954133     -67.8264017
9.048                0.969885484     -67.9265567
9.049                0.969816626     -68.0269586
9.05                 0.969747559     -68.1276081
9.051                0.969678282     -68.2285062
9.052                0.969608795     -68.3296534
9.053                0.969539096     -68.4310507
9.054                0.969469185     -68.5326989
9.055                0.969399062     -68.6345987
9.056                0.969328726     -68.7367509
9.057                0.969258177     -68.8391564
9.058                0.969187413      -68.941816
9.059                0.969116434     -69.0447304
9.06                  0.96904524     -69.1479004
9.061                0.968973829      -69.251327
9.062                0.968902202     -69.3550109
9.063                0.968830358     -69.4589529
9.064                0.968758295     -69.5631539
9.065                0.968686015     -69.6676146
9.066                0.968613514     -69.7723359
9.067                0.968540795     -69.8773186
9.068                0.968467854     -69.9825637
9.069                0.968394693     -70.0880718
9.07                  0.96832131     -70.1938438
9.071                0.968247705     -70.2998806
9.072                0.968173877      -70.406183
9.073                0.968099826     -70.5127519
9.074                0.968025551     -70.6195881
9.075                0.967951051     -70.7266924
9.076                0.967876325     -70.8340657
9.077                0.967801374      -70.941709
9.078                0.967726196     -71.0496229
9.079                0.967650792     -71.1578084
9.08                 0.967575159     -71.2662663
9.081                0.967499298     -71.3749976
9.082                0.967423209      -71.484003
9.083                 0.96734689     -71.5932835
9.084                 0.96727034     -71.7028399
9.085                 0.96719356     -71.8126731
9.086                0.967116549     -71.9227839
9.087                0.967039305     -72.0331733
9.088                 0.96696183     -72.1438422
9.089                0.966884121     -72.2547913
9.09                 0.966806178     -72.3660217
9.091                0.966728001     -72.4775342
9.092                0.966649589     -72.5893296
9.093                0.966570941      -72.701409
9.094                0.966492058     -72.8137731
9.095                0.966412937     -72.9264229
9.096                 0.96633358     -73.0393594
9.097                0.966253984     -73.1525833
9.098                 0.96617415     -73.2660956
9.099                0.966094077     -73.3798972
9.1                  0.966013764     -73.4939891
9.101                0.965933211     -73.6083721
9.102                0.965852417     -73.7230472
9.103                0.965771382     -73.8380152
9.104                0.965690104     -73.9532772
9.105                0.965608584      -74.068834
9.106                0.965526821     -74.1846866
9.107                0.965444814     -74.3008359
9.108                0.965362563     -74.4172828
9.109                0.965280067     -74.5340282
9.11                 0.965197326     -74.6510732
9.111                0.965114338     -74.7684186
9.112                0.965031104     -74.8860655
9.113                0.964947623     -75.0040146
9.114                0.964863894      -75.122267
9.115                0.964779917     -75.2408237
9.116                0.964695691     -75.3596856
9.117                0.964611215     -75.4788536
9.118                 0.96452649     -75.5983287
9.119                0.964441514     -75.7181119
9.12                 0.964356287     -75.8382041
9.121                0.964270808     -75.9586063
9.122                0.964185078     -76.0793195
9.123                0.964099094     -76.2003446
9.124                0.964012858     -76.3216826
9.125                0.963926368     -76.4433345
9.126                0.963839623     -76.5653013
9.127                0.963752624     -76.6875839
9.128                0.963665369     -76.8101834
9.129                0.963577858     -76.9331006
9.13                 0.963490091     -77.0563367
9.131                0.963402068     -77.1798925
9.132                0.963313786     -77.3037692
9.133                0.963225247     -77.4279676
9.134                 0.96313645     -77.5524888
9.135                0.963047393     -77.6773337
9.136                0.962958078     -77.8025035
9.137                0.962868502      -77.927999
9.138                0.962778666     -78.0538213
9.139                0.962688569     -78.1799714
9.14                  0.96259821     -78.3064503
9.141                 0.96250759      -78.433259
9.142                0.962416707     -78.5603986
9.143                0.962325562     -78.6878701
9.144                0.962234153     -78.8156744
9.145                0.962142481     -78.9438126
9.146                0.962050544     -79.0722857
9.147                0.961958343     -79.2010948
9.148                0.961865877     -79.3302408
9.149                0.961773145     -79.4597249
9.15                 0.961680147      -79.589548
9.151                0.961586883     -79.7197111
9.152                0.961493351     -79.8502154
9.153                0.961399553     -79.9810619
9.154                0.961305487     -80.1122515
9.155                0.961211153     -80.2437854
9.156                 0.96111655     -80.3756646
9.157                0.961021679     -80.5078901
9.158                0.960926538      -80.640463
9.159                0.960831127     -80.7733843
9.16                 0.960735447     -80.9066552
9.161                0.960639495     -81.0402765
9.162                0.960543273     -81.1742495
9.163                 0.96044678     -81.3085752
9.164                0.960350015     -81.4432545
9.165                0.960252979     -81.5782887
9.166                 0.96015567     -81.7136787
9.167                0.960058088     -81.8494256
9.168                0.959960233     -81.9855306
9.169                0.959862105     -82.1219946
9.17                 0.959763704     -82.2588187
9.171                0.959665028      -82.396004
9.172                0.959566078     -82.5335517
9.173                0.959466854     -82.6714627
9.174                0.959367355     -82.8097381
9.175                0.959267581     -82.9483791
9.176                0.959167531     -83.0873867
9.177                0.959067205      -83.226762
9.178                0.958966604      -83.366506
9.179                0.958865726       -83.50662
9.18                 0.958764572     -83.6471049
9.181                0.958663141     -83.7879618
9.182                0.958561433     -83.9291919
9.183                0.958459448     -84.0707963
9.184                0.958357186      -84.212776
9.185                0.958254646     -84.3551321
9.186                0.958151828     -84.4978657
9.187                0.958048732      -84.640978
9.188                0.957945358       -84.78447
9.189                0.957841705     -84.9283429
9.19                 0.957737774     -85.0725977
9.191                0.957633564     -85.2172355
9.192                0.957529076     -85.3622575
9.193                0.957424308     -85.5076648
9.194                0.957319262     -85.6534584
9.195                0.957213936     -85.7996395
9.196                 0.95710833     -85.9462092
9.197                0.957002446     -86.0931686
9.198                0.956896282     -86.2405188
9.199                0.956789838      -86.388261
9.2                  0.956683114     -86.5363962
9.201                0.956576111     -86.6849256
9.202                0.956468828     -86.8338502
9.203                0.956361265     -86.9831712
9.204                0.956253423     -87.1328898
9.205                  0.9561453      -87.283007
9.206                0.956036898      -87.433524
9.207                0.955928216     -87.5844418
9.208                0.955819254     -87.7357616
9.209                0.955710012     -87.8874846
9.21                  0.95560049     -88.0396118
9.211                0.955490689     -88.1921443
9.212                0.955380608     -88.3450834
9.213                0.955270248     -88.4984301
9.214                0.955159608     -88.6521855
9.215                0.955048689     -88.8063508
9.216                0.954937491     -88.9609271
9.217                0.954826013     -89.1159155
9.218                0.954714257     -89.2713171
9.219                0.954602222     -89.4271332
9.22                 0.954489908     -89.5833647
9.221                0.954377316     -89.7400128
9.222                0.954264446     -89.8970787
9.223                0.954151298     -90.0545635
9.224                0.954037872     -90.2124683
9.225                0.953924168     -90.3707942
9.226                0.953810187     -90.5295423
9.227                0.953695929     -90.6887139
9.228                0.953581395       -90.84831
9.229                0.953466584     -91.0083317
9.23                 0.953351497     -91.1687801
9.231                0.953236134     -91.3296565
9.232                0.953120496     -91.4909618
9.233                0.953004583     -91.6526973
9.234                0.952888395      -91.814864
9.235                0.952771933     -91.9774632
9.236                0.952655197     -92.1404958
9.237                0.952538188      -92.303963
9.238                0.952420906      -92.467866
9.239                0.952303351     -92.6322059
9.24                 0.952185524     -92.7969837
9.241                0.952067426     -92.9622006
9.242                0.951949057     -93.1278578
9.243                0.951830417     -93.2939562
9.244                0.951711508     -93.4604972
9.245                0.951592329     -93.6274816
9.246                0.951472881     -93.7949108
9.247                0.951353166     -93.9627857
9.248                0.951233182     -94.1311075
9.249                0.951112932     -94.2998773
9.25                 0.950992416     -94.4690962
9.251                0.950871634     -94.6387653
9.252                0.950750587     -94.8088858
9.253                0.950629276     -94.9794586
9.254                0.950507702     -95.1504849
9.255                0.950385866     -95.3219659
9.256                0.950263767     -95.4939025
9.257                0.950141408     -95.6662959
9.258                0.950018788     -95.8391472
9.259                0.949895909     -96.0124575
9.26                 0.949772772     -96.1862278
9.261                0.949649377     -96.3604593
9.262                0.949525725      -96.535153
9.263                0.949401817       -96.71031
9.264                0.949277655     -96.8859313
9.265                0.949153239     -97.0620181
9.266                 0.94902857     -97.2385714
9.267                 0.94890365     -97.4155923
9.268                0.948778478     -97.5930819
9.269                0.948653057     -97.7710411
9.27                 0.948527388     -97.9494712
9.271                0.948401471      -98.128373
9.272                0.948275307     -98.3077477
9.273                0.948148899     -98.4875964
9.274                0.948022246       -98.66792
9.275                0.947895351     -98.8487196
9.276                0.947768214     -99.0299963
9.277                0.947640837      -99.211751
9.278                0.947513221     -99.3939849
9.279                0.947385367     -99.5766989
9.28                 0.947257277      -99.759894
9.281                0.947128952     -99.9435714
9.282                0.947000393     -100.127732
9.283                0.946871602     -100.312377
9.284                 0.94674258     -100.497507
9.285                0.946613329     -100.683123
9.286                 0.94648385     -100.869226
9.287                0.946354145     -101.055817
9.288                0.946224215     -101.242898
9.289                0.946094063     -101.430469
9.29                 0.945963688     -101.618531
9.291                0.945833094     -101.807085
9.292                0.945702281     -101.996132
9.293                0.945571252     -102.185673
9.294                0.945440008     -102.375709
9.295                 0.94530855     -102.566242
9.296                0.945176882      -102.75727
9.297                0.945045004     -102.948797
9.298                0.944912918     -103.140823
9.299                0.944780626     -103.333348
9.3                  0.944648131     -103.526374
9.301                0.944515433     -103.719901
9.302                0.944382535     -103.913931
9.303                0.944249439     -104.108464
9.304                0.944116148     -104.303501
9.305                0.943982662     -104.499043
9.306                0.943848984     -104.695091
9.307                0.943715116     -104.891646
9.308                0.943581061     -105.088709
9.309                 0.94344682     -105.286281
9.31                 0.943312395     -105.484361
9.311                 0.94317779     -105.682953
9.312                0.943043005     -105.882055
9.313                0.942908045     -106.081669
9.314                 0.94277291     -106.281796
9.315                0.942637603     -106.482436
9.316                0.942502126     -106.683591
9.317                0.942366483     -106.885261
9.318                0.942230675     -107.087447
9.319                0.942094705     -107.290149
9.32                 0.941958576     -107.493369
9.321                 0.94182229     -107.697108
9.322                0.941685849     -107.901365
9.323                0.941549257     -108.106142
9.324                0.941412515      -108.31144
9.325                0.941275627     -108.517259
9.326                0.941138596       -108.7236
9.327                0.941001424     -108.930463
9.328                0.940864114      -109.13785
9.329                0.940726669     -109.345761
9.33                 0.940589092     -109.554197
9.331                0.940451385     -109.763157
9.332                0.940313552     -109.972644
9.333                0.940175596     -110.182658
9.334                0.940037519     -110.393199
9.335                0.939899325     -110.604268
9.336                0.939761017     -110.815865
9.337                0.939622598     -111.027992
9.338                0.939484071     -111.240648
9.339                0.939345439     -111.453835
9.34                 0.939206706     -111.667553
9.341                0.939067875     -111.881802
9.342                0.938928949     -112.096583
9.343                0.938789932     -112.311896
9.344                0.938650827     -112.527743
9.345                0.938511638     -112.744123
9.346                0.938372367     -112.961038
9.347                0.938233019     -113.178486
9.348                0.938093597      -113.39647
9.349                0.937954105      -113.61499
9.35                 0.937814546     -113.834045
9.351                0.937674924     -114.053636
9.352                0.937535242     -114.273765
9.353                0.937395505      -114.49443
9.354                0.937255717     -114.715633
9.355                 0.93711588     -114.937374
9.356                0.936975999     -115.159654
9.357                0.936836078     -115.382472
9.358                0.936696122     -115.605829
9.359                0.936556132     -115.829725
9.36                 0.936416115     -116.054161
9.361                0.936276074     -116.279137
9.362                0.936136012     -116.504653
9.363                0.935995935      -116.73071
9.364                0.935855846     -116.957307
9.365                 0.93571575     -117.184446
9.366                0.935575651     -117.412125
9.367                0.935435552     -117.640346
9.368                 0.93529546     -117.869108
9.369                0.935155377     -118.098412
9.37                 0.935015309     -118.328258
9.371                0.934875259     -118.558646
9.372                0.934735233     -118.789576
9.373                0.934595235     -119.021048
9.374                0.934455269     -119.253062
9.375                0.934315341     -119.485619
9.376                0.934175454     -119.718718
9.377                0.934035613      -119.95236
9.378                0.933895824     -120.186544
9.379                0.933756091     -120.421271
9.38                 0.933616419      -120.65654
9.381                0.933476813     -120.892351
9.382                0.933337278     -121.128705
9.383                0.933197818     -121.365601
9.384                0.933058438      -121.60304
9.385                0.932919144      -121.84102
9.386                0.932779941     -122.079542
9.387                0.932640834     -122.318606
9.388                0.932501828     -122.558212
9.389                0.932362928     -122.798359
9.39                 0.932224139     -123.039047
9.391                0.932085467     -123.280276
9.392                0.931946917     -123.522046
9.393                0.931808495     -123.764357
9.394                0.931670205     -124.007208
9.395                0.931532053     -124.250598
9.396                0.931394044     -124.494528
