! TOUCHSTONE file generated by CST DESIGN STUDIO
! Date and time: Tue Feb  4 14:31:34 2025
! Project name: C:\Work\MatlabApps\UnitCellOptimizationMatlab\CST\unitcell.cst
! Tree item: Tasks\Sweep1\SPara1\S-Parameters
! Header version: 2024
! Port assignment regex: !\s*Touchstone port\s*([0-9]+)\s*=\s*(CST MWS port|CST DES external port|CST DES block port)\s*(.+)\s* \(\"(.*)\"\)(\s*mode\s*([0-9]+))?.*
! Touchstone port assignment:
! Touchstone port 1 = CST DES external port 1 ("")
# GHz S MA R 50
9                    0.971566476      -68.787042
9.001                0.971498639     -68.8882452
9.002                0.971430597     -68.9896965
9.003                 0.97136235     -69.0913967
9.004                0.971293897     -69.1933466
9.005                0.971225237      -69.295547
9.006                 0.97115637     -69.3979987
9.007                0.971087295     -69.5007024
9.008                0.971018011     -69.6036591
9.009                0.970948518     -69.7068694
9.01                 0.970878816     -69.8103342
9.011                0.970808904     -69.9140543
9.012                0.970738781     -70.0180305
9.013                0.970668446     -70.1222636
9.014                0.970597899     -70.2267544
9.015                 0.97052714     -70.3315037
9.016                0.970456168     -70.4365124
9.017                0.970384982     -70.5417812
9.018                0.970313581     -70.6473111
9.019                0.970241966     -70.7531027
9.02                 0.970170135      -70.859157
9.021                0.970098088     -70.9654748
9.022                0.970025824     -71.0720568
9.023                0.969953343      -71.178904
9.024                0.969880644     -71.2860172
9.025                0.969807726     -71.3933972
9.026                0.969734589     -71.5010449
9.027                0.969661233      -71.608961
9.028                0.969587656     -71.7171465
9.029                0.969513859     -71.8256022
9.03                  0.96943984     -71.9343289
9.031                0.969365599     -72.0433276
9.032                0.969291135      -72.152599
9.033                0.969216449      -72.262144
9.034                0.969141538     -72.3719635
9.035                0.969066403     -72.4820584
9.036                0.968991043     -72.5924295
9.037                0.968915458     -72.7030776
9.038                0.968839646     -72.8140037
9.039                0.968763608     -72.9252087
9.04                 0.968687342     -73.0366933
9.041                0.968610848     -73.1484585
9.042                0.968534126     -73.2605052
9.043                0.968457175     -73.3728343
9.044                0.968379995     -73.4854465
9.045                0.968302584      -73.598343
9.046                0.968224942     -73.7115244
9.047                0.968147069     -73.8249917
9.048                0.968068965     -73.9387458
9.049                0.967990627     -74.0527877
9.05                 0.967912057     -74.1671181
9.051                0.967833253     -74.2817381
9.052                0.967754214     -74.3966485
9.053                0.967674941     -74.5118502
9.054                0.967595433     -74.6273441
9.055                0.967515689     -74.7431312
9.056                0.967435708     -74.8592124
9.057                0.967355491     -74.9755886
9.058                0.967275035     -75.0922606
9.059                0.967194342     -75.2092295
9.06                  0.96711341     -75.3264961
9.061                0.967032239     -75.4440614
9.062                0.966950827     -75.5619264
9.063                0.966869176     -75.6800918
9.064                0.966787284     -75.7985588
9.065                 0.96670515     -75.9173282
9.066                0.966622774     -76.0364009
9.067                0.966540156     -76.1557779
9.068                0.966457295     -76.2754602
9.069                 0.96637419     -76.3954487
9.07                 0.966290841     -76.5157443
9.071                0.966207247      -76.636348
9.072                0.966123408     -76.7572607
9.073                0.966039323     -76.8784835
9.074                0.965954993     -77.0000172
9.075                0.965870415     -77.1218628
9.076                 0.96578559     -77.2440213
9.077                0.965700518     -77.3664937
9.078                0.965615197     -77.4892809
9.079                0.965529627     -77.6123838
9.08                 0.965443808     -77.7358036
9.081                0.965357739     -77.8595411
9.082                0.965271419     -77.9835973
9.083                0.965184849     -78.1079731
9.084                0.965098028     -78.2326697
9.085                0.965010955     -78.3576879
9.086                0.964923629     -78.4830288
9.087                0.964836051     -78.6086933
9.088                0.964748219     -78.7346824
9.089                0.964660134     -78.8609971
9.09                 0.964571794     -78.9876385
9.091                  0.9644832     -79.1146074
9.092                0.964394351      -79.241905
9.093                0.964305246     -79.3695321
9.094                0.964215885     -79.4974899
9.095                0.964126267     -79.6257793
9.096                0.964036392     -79.7544013
9.097                 0.96394626     -79.8833569
9.098                 0.96385587     -80.0126472
9.099                0.963765222     -80.1422732
9.1                  0.963674315     -80.2722358
9.101                0.963583149     -80.4025361
9.102                0.963491723     -80.5331751
9.103                0.963400038     -80.6641539
9.104                0.963308092     -80.7954734
9.105                0.963215885     -80.9271347
9.106                0.963123416     -81.0591388
9.107                0.963030687     -81.1914867
9.108                0.962937695     -81.3241795
9.109                 0.96284444     -81.4572182
9.11                 0.962750923     -81.5906039
9.111                0.962657143     -81.7243375
9.112                0.962563099     -81.8584202
9.113                0.962468792     -81.9928529
9.114                 0.96237422     -82.1276366
9.115                0.962279383     -82.2627726
9.116                0.962184282     -82.3982617
9.117                0.962088915     -82.5341051
9.118                0.961993282     -82.6703037
9.119                0.961897384     -82.8068587
9.12                 0.961801219     -82.9437711
9.121                0.961704787     -83.0810419
9.122                0.961608089     -83.2186723
9.123                0.961511123     -83.3566632
9.124                 0.96141389     -83.4950157
9.125                0.961316389     -83.6337309
9.126                 0.96121862     -83.7728098
9.127                0.961120583     -83.9122535
9.128                0.961022277     -84.0520631
9.129                0.960923702     -84.1922397
9.13                 0.960824857     -84.3327842
9.131                0.960725744     -84.4736979
9.132                0.960626361     -84.6149817
9.133                0.960526707     -84.7566367
9.134                0.960426784      -84.898664
9.135                 0.96032659     -85.0410647
9.136                0.960226126     -85.1838398
9.137                0.960125391     -85.3269904
9.138                0.960024386     -85.4705177
9.139                0.959923109     -85.6144226
9.14                 0.959821561     -85.7587063
9.141                0.959719741     -85.9033699
9.142                 0.95961765     -86.0484144
9.143                0.959515287     -86.1938409
9.144                0.959412652     -86.3396505
9.145                0.959309745     -86.4858443
9.146                0.959206566     -86.6324234
9.147                0.959103115     -86.7793888
9.148                0.958999391     -86.9267417
9.149                0.958895395     -87.0744832
9.15                 0.958791127     -87.2226143
9.151                0.958686586     -87.3711361
9.152                0.958581772     -87.5200497
9.153                0.958476685     -87.6693563
9.154                0.958371326     -87.8190569
9.155                0.958265694     -87.9691526
9.156                 0.95815979     -88.1196444
9.157                0.958053612     -88.2705336
9.158                0.957947162     -88.4218212
9.159                0.957840439     -88.5735083
9.16                 0.957733444     -88.7255959
9.161                0.957626175     -88.8780853
9.162                0.957518634     -89.0309774
9.163                0.957410821     -89.1842734
9.164                0.957302735     -89.3379744
9.165                0.957194376     -89.4920815
9.166                0.957085745     -89.6465958
9.167                0.956976842     -89.8015184
9.168                0.956867667     -89.9568503
9.169                 0.95675822     -90.1125927
9.17                 0.956648501     -90.2687467
9.171                0.956538511     -90.4253134
9.172                0.956428249     -90.5822939
9.173                0.956317716     -90.7396892
9.174                0.956206911     -90.8975005
9.175                0.956095836     -91.0557289
9.176                 0.95598449     -91.2143755
9.177                0.955872874     -91.3734414
9.178                0.955760988     -91.5329276
9.179                0.955648832     -91.6928353
9.18                 0.955536406     -91.8531656
9.181                0.955423711     -92.0139196
9.182                0.955310748     -92.1750983
9.183                0.955197515     -92.3367028
9.184                0.955084015     -92.4987344
9.185                0.954970246     -92.6611939
9.186                 0.95485621     -92.8240826
9.187                0.954741907     -92.9874016
9.188                0.954627337     -93.1511519
9.189                0.954512501     -93.3153345
9.19                 0.954397399     -93.4799507
9.191                0.954282031     -93.6450015
9.192                0.954166399      -93.810488
9.193                0.954050502     -93.9764112
9.194                0.953934341     -94.1427722
9.195                0.953817917     -94.3095723
9.196                0.953701231     -94.4768123
9.197                0.953584281     -94.6444934
9.198                0.953467071     -94.8126167
9.199                0.953349599     -94.9811832
9.2                  0.953231866      -95.150194
9.201                0.953113874     -95.3196503
9.202                0.952995623      -95.489553
9.203                0.952877113     -95.6599033
9.204                0.952758345     -95.8307021
9.205                 0.95263932     -96.0019507
9.206                0.952520039     -96.1736499
9.207                0.952400502      -96.345801
9.208                 0.95228071     -96.5184049
9.209                0.952160664     -96.6914628
9.21                 0.952040365     -96.8649756
9.211                0.951919814     -97.0389444
9.212                0.951799011     -97.2133703
9.213                0.951677957     -97.3882543
9.214                0.951556653     -97.5635974
9.215                  0.9514351     -97.7394008
9.216                  0.9513133     -97.9156653
9.217                0.951191252     -98.0923922
9.218                0.951068958     -98.2695824
9.219                 0.95094642     -98.4472369
9.22                 0.950823637     -98.6253567
9.221                0.950700611     -98.8039429
9.222                0.950577343     -98.9829966
9.223                0.950453835     -99.1625186
9.224                0.950330087     -99.3425101
9.225                  0.9502061      -99.522972
9.226                0.950081875     -99.7039053
9.227                0.949957415     -99.8853111
9.228                0.949832719      -100.06719
9.229                 0.94970779     -100.249544
9.23                 0.949582628     -100.432373
9.231                0.949457235     -100.615678
9.232                0.949331612     -100.799461
9.233                 0.94920576     -100.983722
9.234                0.949079681     -101.168463
9.235                0.948953376     -101.353684
9.236                0.948826846     -101.539386
9.237                0.948700093      -101.72557
9.238                0.948573119     -101.912237
9.239                0.948445925     -102.099389
9.24                 0.948318512     -102.287025
9.241                0.948190882     -102.475148
9.242                0.948063036     -102.663757
9.243                0.947934976     -102.852855
9.244                0.947806704     -103.042441
9.245                0.947678222     -103.232517
9.246                 0.94754953     -103.423083
9.247                0.947420631     -103.614141
9.248                0.947291527     -103.805691
9.249                0.947162218     -103.997734
9.25                 0.947032708     -104.190272
9.251                0.946902997     -104.383305
9.252                0.946773088     -104.576833
9.253                0.946642983     -104.770859
9.254                0.946512682     -104.965382
9.255                0.946382189     -105.160403
9.256                0.946251506     -105.355924
9.257                0.946120633     -105.551945
9.258                0.945989574     -105.748467
9.259                0.945858331     -105.945491
9.26                 0.945726904     -106.143017
9.261                0.945595297     -106.341047
9.262                0.945463512     -106.539582
9.263                0.945331551     -106.738621
9.264                0.945199415     -106.938166
9.265                0.945067108     -107.138218
9.266                0.944934632     -107.338777
9.267                0.944801988     -107.539844
9.268                0.944669179      -107.74142
9.269                0.944536208     -107.943506
9.27                 0.944403077     -108.146102
9.271                0.944269789     -108.349209
9.272                0.944136345     -108.552828
9.273                0.944002748      -108.75696
9.274                0.943869001     -108.961604
9.275                0.943735107     -109.166763
9.276                0.943601067     -109.372437
9.277                0.943466886     -109.578625
9.278                0.943332564      -109.78533
9.279                0.943198106     -109.992551
9.28                 0.943063513     -110.200289
9.281                0.942928789     -110.408546
9.282                0.942793935      -110.61732
9.283                0.942658957     -110.826614
9.284                0.942523855     -111.036428
9.285                0.942388633     -111.246762
9.286                0.942253293     -111.457616
9.287                 0.94211784     -111.668993
9.288                0.941982275     -111.880891
9.289                0.941846602     -112.093312
9.29                 0.941710825     -112.306255
9.291                0.941574945     -112.519723
9.292                0.941438966     -112.733714
9.293                0.941302892     -112.948231
9.294                0.941166725     -113.163272
9.295                 0.94103047     -113.378839
9.296                0.940894128     -113.594932
9.297                0.940757704     -113.811551
9.298                0.940621201     -114.028698
9.299                0.940484622     -114.246372
9.3                  0.940347971     -114.464573
9.301                0.940211252     -114.683303
9.302                0.940074467     -114.902561
9.303                 0.93993762     -115.122349
9.304                0.939800715     -115.342665
9.305                0.939663756     -115.563512
9.306                0.939526746     -115.784888
9.307                0.939389689     -116.006794
9.308                0.939252589     -116.229232
9.309                0.939115449       -116.4522
9.31                 0.938978273     -116.675699
9.311                0.938841065      -116.89973
9.312                 0.93870383     -117.124292
9.313                 0.93856657     -117.349387
9.314                0.938429291     -117.575013
9.315                0.938291995     -117.801172
9.316                0.938154688     -118.027864
9.317                0.938017372     -118.255088
9.318                0.937880053     -118.482845
9.319                0.937742734     -118.711135
9.32                  0.93760542     -118.939958
9.321                0.937468115     -119.169314
9.322                0.937330822     -119.399204
9.323                0.937193548     -119.629627
9.324                0.937056295     -119.860584
9.325                0.936919068     -120.092074
9.326                0.936781872     -120.324097
9.327                0.936644711     -120.556655
9.328                0.936507589     -120.789745
9.329                0.936370512      -121.02337
9.33                 0.936233483     -121.257527
9.331                0.936096508     -121.492218
9.332                0.935959591     -121.727443
9.333                0.935822736       -121.9632
9.334                0.935685949     -122.199491
9.335                0.935549234     -122.436315
9.336                0.935412597     -122.673671
9.337                0.935276041      -122.91156
9.338                0.935139572     -123.149982
9.339                0.935003195     -123.388935
9.34                 0.934866914     -123.628421
9.341                0.934730735     -123.868439
9.342                0.934594663     -124.108988
9.343                0.934458702     -124.350068
9.344                0.934322859     -124.591679
9.345                0.934187137     -124.833821
9.346                0.934051543     -125.076493
9.347                0.933916081     -125.319695
9.348                0.933780756     -125.563426
9.349                0.933645575     -125.807686
9.35                 0.933510542     -126.052475
9.351                0.933375663     -126.297792
9.352                0.933240943     -126.543637
9.353                0.933106387     -126.790009
9.354                0.932972001     -127.036908
9.355                0.932837791     -127.284333
9.356                0.932703762     -127.532283
9.357                0.932569919     -127.780759
9.358                0.932436268     -128.029759
9.359                0.932302815     -128.279282
9.36                 0.932169566     -128.529329
9.361                0.932036526     -128.779898
9.362                  0.9319037      -129.03099
9.363                0.931771096     -129.282602
9.364                0.931638718     -129.534734
9.365                0.931506572     -129.787386
9.366                0.931374664     -130.040557
9.367                   0.931243     -130.294246
9.368                0.931111586     -130.548452
9.369                0.930980428     -130.803174
9.37                 0.930849532     -131.058412
9.371                0.930718904     -131.314164
9.372                 0.93058855      -131.57043
9.373                0.930458476     -131.827209
9.374                0.930328688     -132.084499
9.375                0.930199192       -132.3423
9.376                0.930069994      -132.60061
9.377                0.929941101     -132.859429
9.378                0.929812519     -133.118756
9.379                0.929684253     -133.378589
9.38                 0.929556311     -133.638928
9.381                0.929428699      -133.89977
9.382                0.929301422     -134.161116
9.383                0.929174487     -134.422963
9.384                0.929047901     -134.685311
9.385                 0.92892167     -134.948159
9.386                  0.9287958     -135.211504
9.387                0.928670297     -135.475346
9.388                0.928545169     -135.739684
9.389                0.928420421     -136.004516
9.39                  0.92829606      -136.26984
9.391                0.928172093     -136.535656
9.392                0.928048526     -136.801961
9.393                0.927925365     -137.068755
9.394                0.927802618     -137.336036
9.395                 0.92768029     -137.603803
9.396                0.927558389     -137.872053
