! TOUCHSTONE file generated by CST DESIGN STUDIO
! Date and time: Tue Feb  4 14:31:27 2025
! Project name: C:\Work\MatlabApps\UnitCellOptimizationMatlab\CST\unitcell.cst
! Tree item: Tasks\Sweep1\SPara1\S-Parameters
! Header version: 2024
! Port assignment regex: !\s*Touchstone port\s*([0-9]+)\s*=\s*(CST MWS port|CST DES external port|CST DES block port)\s*(.+)\s* \(\"(.*)\"\)(\s*mode\s*([0-9]+))?.*
! Touchstone port assignment:
! Touchstone port 1 = CST DES external port 1 ("")
# GHz S MA R 50
9                    0.969018501     -79.3934994
9.001                0.968935944     -79.5201488
9.002                0.968853142     -79.6471243
9.003                0.968770093     -79.7744268
9.004                0.968686797     -79.9020574
9.005                0.968603253      -80.030017
9.006                0.968519461     -80.1583066
9.007                0.968435421     -80.2869272
9.008                0.968351131     -80.4158798
9.009                0.968266593     -80.5451655
9.01                 0.968181804     -80.6747851
9.011                0.968096765     -80.8047398
9.012                0.968011475     -80.9350304
9.013                0.967925934     -81.0656581
9.014                0.967840141     -81.1966237
9.015                0.967754096     -81.3279284
9.016                0.967667798     -81.4595732
9.017                0.967581247      -81.591559
9.018                0.967494443     -81.7238868
9.019                0.967407385     -81.8565578
9.02                 0.967320073     -81.9895728
9.021                0.967232506     -82.1229329
9.022                0.967144684     -82.2566392
9.023                0.967056607     -82.3906926
9.024                0.966968273     -82.5250943
9.025                0.966879684     -82.6598451
9.026                0.966790837     -82.7949462
9.027                0.966701734     -82.9303985
9.028                0.966612373     -83.0662032
9.029                0.966522755     -83.2023612
9.03                 0.966432878     -83.3388735
9.031                0.966342743     -83.4757413
9.032                0.966252349     -83.6129655
9.033                0.966161696     -83.7505472
9.034                0.966070783     -83.8884874
9.035                 0.96597961     -84.0267872
9.036                0.965888177     -84.1654476
9.037                0.965796484     -84.3044696
9.038                0.965704529     -84.4438544
9.039                0.965612314     -84.5836029
9.04                 0.965519837     -84.7237162
9.041                0.965427098     -84.8641953
9.042                0.965334098     -85.0050414
9.043                0.965240835     -85.1462554
9.044                0.965147309     -85.2878384
9.045                0.965053521     -85.4297915
9.046                0.964959469     -85.5721158
9.047                0.964865154     -85.7148122
9.048                0.964770575     -85.8578818
9.049                0.964675732     -86.0013258
9.05                 0.964580626     -86.1451451
9.051                0.964485255     -86.2893409
9.052                0.964389619     -86.4339141
9.053                0.964293719     -86.5788659
9.054                0.964197553     -86.7241974
9.055                0.964101123     -86.8699095
9.056                0.964004427     -87.0160034
9.057                0.963907466     -87.1624801
9.058                0.963810239     -87.3093407
9.059                0.963712746     -87.4565863
9.06                 0.963614987     -87.6042179
9.061                0.963516962     -87.7522367
9.062                0.963418671     -87.9006436
9.063                0.963320114     -88.0494398
9.064                0.963221289     -88.1986263
9.065                0.963122199     -88.3482042
9.066                0.963022841     -88.4981746
9.067                0.962923217     -88.6485385
9.068                0.962823326     -88.7992971
9.069                0.962723168     -88.9504514
9.07                 0.962622744     -89.1020025
9.071                0.962522052     -89.2539514
9.072                0.962421093     -89.4062993
9.073                0.962319867     -89.5590472
9.074                0.962218374     -89.7121962
9.075                0.962116614     -89.8657473
9.076                0.962014586     -90.0197017
9.077                0.961912292     -90.1740605
9.078                0.961809731     -90.3288246
9.079                0.961706903     -90.4839953
9.08                 0.961603808     -90.6395735
9.081                0.961500446     -90.7955603
9.082                0.961396817     -90.9519569
9.083                0.961292922     -91.1087643
9.084                 0.96118876     -91.2659835
9.085                0.961084331     -91.4236157
9.086                0.960979636      -91.581662
9.087                0.960874675     -91.7401233
9.088                0.960769448     -91.8990008
9.089                0.960663955     -92.0582956
9.09                 0.960558197     -92.2180088
9.091                0.960452173     -92.3781413
9.092                0.960345883     -92.5386944
9.093                0.960239329     -92.6996689
9.094                 0.96013251     -92.8610662
9.095                0.960025426     -93.0228871
9.096                0.959918078     -93.1851328
9.097                0.959810465     -93.3478044
9.098                0.959702589     -93.5109028
9.099                 0.95959445     -93.6744293
9.1                  0.959486047     -93.8383848
9.101                0.959377382     -94.0027704
9.102                0.959268454     -94.1675872
9.103                0.959159264     -94.3328363
9.104                0.959049812     -94.4985186
9.105                0.958940099     -94.6646354
9.106                0.958830125     -94.8311875
9.107                0.958719891     -94.9981761
9.108                0.958609396     -95.1656023
9.109                0.958498642     -95.3334671
9.11                 0.958387629     -95.5017715
9.111                0.958276357     -95.6705166
9.112                0.958164828     -95.8397035
9.113                 0.95805304     -96.0093332
9.114                0.957940996     -96.1794067
9.115                0.957828695     -96.3499251
9.116                0.957716138     -96.5208894
9.117                0.957603326     -96.6923007
9.118                0.957490259     -96.8641599
9.119                0.957376938     -97.0364683
9.12                 0.957263364     -97.2092266
9.121                0.957149537     -97.3824361
9.122                0.957035458     -97.5560977
9.123                0.956921127     -97.7302125
9.124                0.956806546     -97.9047814
9.125                0.956691715     -98.0798055
9.126                0.956576635     -98.2552858
9.127                0.956461307     -98.4312233
9.128                0.956345731     -98.6076191
9.129                0.956229909      -98.784474
9.13                  0.95611384     -98.9617892
9.131                0.955997527     -99.1395657
9.132                0.955880969     -99.3178044
9.133                0.955764169     -99.4965063
9.134                0.955647126     -99.6756724
9.135                0.955529841     -99.8553037
9.136                0.955412317     -100.035401
9.137                0.955294553     -100.215966
9.138                 0.95517655     -100.396999
9.139                0.955058311       -100.5785
9.14                 0.954939835     -100.760472
9.141                0.954821124     -100.942915
9.142                0.954702178      -101.12583
9.143                   0.954583     -101.309218
9.144                 0.95446359      -101.49308
9.145                 0.95434395     -101.677417
9.146                 0.95422408     -101.862229
9.147                0.954103981     -102.047518
9.148                0.953983656     -102.233285
9.149                0.953863105     -102.419531
9.15                  0.95374233     -102.606255
9.151                0.953621331     -102.793461
9.152                0.953500111     -102.981147
9.153                 0.95337867     -103.169316
9.154                 0.95325701     -103.357968
9.155                0.953135133     -103.547104
9.156                0.953013039     -103.736725
9.157                0.952890731     -103.926831
9.158                0.952768209     -104.117425
9.159                0.952645476     -104.308505
9.16                 0.952522533     -104.500075
9.161                0.952399381     -104.692133
9.162                0.952276022     -104.884682
9.163                0.952152457     -105.077721
9.164                0.952028689     -105.271252
9.165                0.951904719     -105.465276
9.166                0.951780548     -105.659794
9.167                0.951656179     -105.854805
9.168                0.951531613     -106.050312
9.169                0.951406851     -106.246315
9.17                 0.951281897     -106.442814
9.171                0.951156751     -106.639811
9.172                0.951031415     -106.837306
9.173                0.950905892       -107.0353
9.174                0.950780183     -107.233793
9.175                0.950654291     -107.432788
9.176                0.950528216     -107.632284
9.177                0.950401962     -107.832281
9.178                 0.95027553     -108.032782
9.179                0.950148922     -108.233786
9.18                 0.950022141     -108.435294
9.181                0.949895188     -108.637307
9.182                0.949768066     -108.839826
9.183                0.949640777     -109.042851
9.184                0.949513324     -109.246383
9.185                0.949385707     -109.450423
9.186                0.949257931     -109.654971
9.187                0.949129996     -109.860029
9.188                0.949001906     -110.065596
9.189                0.948873663     -110.271673
9.19                 0.948745268     -110.478261
9.191                0.948616726     -110.685361
9.192                0.948488037     -110.892972
9.193                0.948359205     -111.101097
9.194                0.948230233     -111.309735
9.195                0.948101122     -111.518887
9.196                0.947971875     -111.728553
9.197                0.947842496     -111.938734
9.198                0.947712986     -112.149431
9.199                0.947583348     -112.360644
9.2                  0.947453586     -112.572374
9.201                0.947323702     -112.784621
9.202                0.947193698     -112.997385
9.203                0.947063578     -113.210668
9.204                0.946933344     -113.424469
9.205                0.946802999     -113.638789
9.206                0.946672547     -113.853629
9.207                 0.94654199     -114.068989
9.208                0.946411331     -114.284869
9.209                0.946280574      -114.50127
9.21                 0.946149721     -114.718192
9.211                0.946018776     -114.935636
9.212                0.945887741     -115.153602
9.213                 0.94575662      -115.37209
9.214                0.945625416     -115.591101
9.215                0.945494133     -115.810635
9.216                0.945362773     -116.030692
9.217                 0.94523134     -116.251273
9.218                0.945099837     -116.472378
9.219                0.944968268     -116.694008
9.22                 0.944836636     -116.916161
9.221                0.944704945      -117.13884
9.222                0.944573198     -117.362044
9.223                0.944441398     -117.585772
9.224                 0.94430955     -117.810027
9.225                0.944177656     -118.034807
9.226                0.944045721     -118.260113
9.227                0.943913748     -118.485945
9.228                0.943781741     -118.712303
9.229                0.943649704     -118.939187
9.23                  0.94351764     -119.166598
9.231                0.943385553     -119.394535
9.232                0.943253448     -119.622999
9.233                0.943121327      -119.85199
9.234                0.942989196     -120.081507
9.235                0.942857057     -120.311552
9.236                0.942724915     -120.542123
9.237                0.942592774     -120.773221
9.238                0.942460638     -121.004845
9.239                0.942328512     -121.236997
9.24                 0.942196398     -121.469675
9.241                0.942064303      -121.70288
9.242                0.941932228     -121.936612
9.243                 0.94180018      -122.17087
9.244                0.941668162     -122.405655
9.245                0.941536179     -122.640966
9.246                0.941404235     -122.876803
9.247                0.941272334     -123.113166
9.248                0.941140481     -123.350055
9.249                 0.94100868     -123.587469
9.25                 0.940876936     -123.825409
9.251                0.940745253     -124.063874
9.252                0.940613636     -124.302863
9.253                0.940482089     -124.542378
9.254                0.940350618     -124.782416
9.255                0.940219227     -125.022979
9.256                 0.94008792     -125.264065
9.257                0.939956702     -125.505674
9.258                0.939825579     -125.747807
9.259                0.939694554     -125.990461
9.26                 0.939563634     -126.233638
9.261                0.939432822     -126.477337
9.262                0.939302123     -126.721557
9.263                0.939171543     -126.966297
9.264                0.939041087     -127.211558
9.265                0.938910759     -127.457338
9.266                0.938780565     -127.703637
9.267                0.938650509     -127.950455
9.268                0.938520597     -128.197792
9.269                0.938390835     -128.445645
9.27                 0.938261226     -128.694015
9.271                0.938131777     -128.942901
9.272                0.938002492     -129.192303
9.273                0.937873377      -129.44222
9.274                0.937744437      -129.69265
9.275                0.937615678     -129.943594
9.276                0.937487105     -130.195051
9.277                0.937358723     -130.447019
9.278                0.937230538     -130.699498
9.279                0.937102555     -130.952487
9.28                  0.93697478     -131.205986
9.281                0.936847218     -131.459993
9.282                0.936719875     -131.714507
9.283                0.936592756     -131.969528
9.284                0.936465867     -132.225055
9.285                0.936339213     -132.481086
9.286                0.936212801     -132.737621
9.287                0.936086635     -132.994659
9.288                0.935960722     -133.252198
9.289                0.935835068     -133.510238
9.29                 0.935709677     -133.768777
9.291                0.935584557     -134.027815
9.292                0.935459712      -134.28735
9.293                0.935335148     -134.547381
9.294                0.935210872     -134.807907
9.295                0.935086889     -135.068926
9.296                0.934963205     -135.330438
9.297                0.934839827     -135.592442
9.298                0.934716759     -135.854935
9.299                0.934594008     -136.117916
9.3                   0.93447158     -136.381385
9.301                0.934349481      -136.64534
9.302                0.934227717      -136.90978
9.303                0.934106294     -137.174702
9.304                0.933985218     -137.440106
9.305                0.933864495     -137.705991
9.306                0.933744132     -137.972354
9.307                0.933624133     -138.239194
9.308                0.933504506      -138.50651
9.309                0.933385257       -138.7743
9.31                 0.933266392     -139.042562
9.311                0.933147916     -139.311296
9.312                0.933029836     -139.580498
9.313                0.932912159     -139.850168
9.314                 0.93279489     -140.120305
9.315                0.932678036     -140.390905
9.316                0.932561603     -140.661967
9.317                0.932445597     -140.933491
9.318                0.932330025     -141.205473
9.319                0.932214892     -141.477912
9.32                 0.932100205     -141.750806
9.321                 0.93198597     -142.024154
9.322                0.931872194     -142.297953
9.323                0.931758882     -142.572201
9.324                0.931646042     -142.846897
9.325                0.931533679     -143.122038
9.326                  0.9314218     -143.397623
9.327                 0.93131041     -143.673649
9.328                0.931199517     -143.950115
9.329                0.931089126     -144.227017
9.33                 0.930979244     -144.504355
9.331                0.930869877     -144.782126
9.332                0.930761031     -145.060328
9.333                0.930652714     -145.338959
9.334                 0.93054493     -145.618015
9.335                0.930437686     -145.897496
9.336                0.930330989     -146.177399
9.337                0.930224845     -146.457722
9.338                 0.93011926     -146.738461
9.339                 0.93001424     -147.019616
9.34                 0.929909792     -147.301183
9.341                0.929805921      -147.58316
9.342                0.929702635     -147.865544
9.343                0.929599939     -148.148334
9.344                0.929497839     -148.431527
9.345                0.929396342     -148.715119
9.346                0.929295453     -148.999109
9.347                 0.92919518     -149.283495
9.348                0.929095528     -149.568272
9.349                0.928996503      -149.85344
9.35                 0.928898111     -150.138994
9.351                0.928800359     -150.424934
9.352                0.928703252     -150.711255
9.353                0.928606796     -150.997955
9.354                0.928510999     -151.285031
9.355                0.928415864     -151.572481
9.356                0.928321399     -151.860301
9.357                 0.92822761      -152.14849
9.358                0.928134502     -152.437043
9.359                0.928042081     -152.725959
9.36                 0.927950353     -153.015234
9.361                0.927859324     -153.304865
9.362                   0.927769      -153.59485
9.363                0.927679386     -153.885185
9.364                0.927590488     -154.175868
9.365                0.927502312     -154.466895
9.366                0.927414864     -154.758263
9.367                0.927328148      -155.04997
9.368                0.927242172     -155.342012
9.369                0.927156939     -155.634386
9.37                 0.927072456     -155.927089
9.371                0.926988728     -156.220117
9.372                0.926905761     -156.513468
9.373                0.926823559     -156.807139
9.374                0.926742129     -157.101125
9.375                0.926661475     -157.395425
9.376                0.926581602     -157.690034
9.377                0.926502516      -157.98495
9.378                0.926424222     -158.280168
9.379                0.926346725     -158.575686
9.38                 0.926270029       -158.8715
9.381                0.926194141     -159.167608
9.382                0.926119063     -159.464005
9.383                0.926044802     -159.760688
9.384                0.925971362     -160.057653
9.385                0.925898748     -160.354898
9.386                0.925826964     -160.652418
9.387                0.925756014     -160.950211
9.388                0.925685904     -161.248272
9.389                0.925616637     -161.546599
9.39                 0.925548219     -161.845187
9.391                0.925480652     -162.144033
9.392                0.925413941     -162.443134
9.393                 0.92534809     -162.742486
9.394                0.925283103     -163.042085
9.395                0.925218985     -163.341927
9.396                0.925155737      -163.64201
