! TOUCHSTONE file generated by CST DESIGN STUDIO
! Date and time: Tue Feb  4 14:31:26 2025
! Project name: C:\Work\MatlabApps\UnitCellOptimizationMatlab\CST\unitcell.cst
! Tree item: Tasks\Sweep1\SPara1\S-Parameters
! Header version: 2024
! Port assignment regex: !\s*Touchstone port\s*([0-9]+)\s*=\s*(CST MWS port|CST DES external port|CST DES block port)\s*(.+)\s* \(\"(.*)\"\)(\s*mode\s*([0-9]+))?.*
! Touchstone port assignment:
! Touchstone port 1 = CST DES external port 1 ("")
# GHz S MA R 50
9                    0.968464324     -81.8736301
9.001                0.968378591     -82.0066378
9.002                0.968292605     -82.1399905
9.003                0.968206367     -82.2736894
9.004                0.968119875     -82.4077354
9.005                0.968033129     -82.5421296
9.006                0.967946128      -82.676873
9.007                0.967858874     -82.8119665
9.008                0.967771364     -82.9474113
9.009                0.967683598     -83.0832084
9.01                 0.967595577     -83.2193588
9.011                  0.9675073     -83.3558635
9.012                0.967418766     -83.4927236
9.013                0.967329975     -83.6299401
9.014                0.967240927      -83.767514
9.015                0.967151621     -83.9054465
9.016                0.967062058     -84.0437384
9.017                0.966972236      -84.182391
9.018                0.966882155     -84.3214052
9.019                0.966791815      -84.460782
9.02                 0.966701216     -84.6005225
9.021                0.966610357     -84.7406279
9.022                0.966519239      -84.881099
9.023                0.966427859      -85.021937
9.024                 0.96633622     -85.1631429
9.025                0.966244319     -85.3047178
9.026                0.966152158     -85.4466627
9.027                0.966059735     -85.5889787
9.028                 0.96596705     -85.7316668
9.029                0.965874103     -85.8747282
9.03                 0.965780894     -86.0181638
9.031                0.965687423     -86.1619747
9.032                0.965593688      -86.306162
9.033                0.965499691     -86.4507268
9.034                0.965405431     -86.5956701
9.035                0.965310907     -86.7409929
9.036                0.965216119     -86.8866964
9.037                0.965121068     -87.0327816
9.038                0.965025753     -87.1792496
9.039                0.964930173     -87.3261015
9.04                 0.964834329     -87.4733383
9.041                0.964738221      -87.620961
9.042                0.964641848     -87.7689708
9.043                 0.96454521     -87.9173688
9.044                0.964448307     -88.0661559
9.045                0.964351138     -88.2153334
9.046                0.964253705     -88.3649022
9.047                0.964156006     -88.5148634
9.048                0.964058042     -88.6652181
9.049                0.963959812     -88.8159674
9.05                 0.963861316     -88.9671123
9.051                0.963762554      -89.118654
9.052                0.963663527     -89.2705935
9.053                0.963564234     -89.4229318
9.054                0.963464675     -89.5756702
9.055                 0.96336485     -89.7288095
9.056                0.963264759      -89.882351
9.057                0.963164402     -90.0362957
9.058                0.963063779     -90.1906446
9.059                0.962962889     -90.3453989
9.06                 0.962861734     -90.5005596
9.061                0.962760313     -90.6561278
9.062                0.962658626     -90.8121046
9.063                0.962556674      -90.968491
9.064                0.962454455     -91.1252882
9.065                0.962351971     -91.2824972
9.066                0.962249221     -91.4401191
9.067                0.962146205     -91.5981549
9.068                0.962042924     -91.7566058
9.069                0.961939378     -91.9154728
9.07                 0.961835566      -92.074757
9.071                 0.96173149     -92.2344595
9.072                0.961627149     -92.3945813
9.073                0.961522543     -92.5551235
9.074                0.961417672     -92.7160873
9.075                0.961312538     -92.8774735
9.076                0.961207139     -93.0392834
9.077                0.961101476      -93.201518
9.078                 0.96099555     -93.3641784
9.079                0.960889361     -93.5272656
9.08                 0.960782908     -93.6907808
9.081                0.960676193     -93.8547249
9.082                0.960569215      -94.019099
9.083                0.960461975     -94.1839042
9.084                0.960354473     -94.3491416
9.085                 0.96024671     -94.5148123
9.086                0.960138686     -94.6809172
9.087                0.960030401     -94.8474574
9.088                0.959921856     -95.0144341
9.089                 0.95981305     -95.1818482
9.09                 0.959703985     -95.3497008
9.091                0.959594662      -95.517993
9.092                0.959485079     -95.6867258
9.093                0.959375239     -95.8559003
9.094                 0.95926514     -96.0255175
9.095                0.959154785     -96.1955784
9.096                0.959044173     -96.3660841
9.097                0.958933305     -96.5370356
9.098                0.958822181     -96.7084341
9.099                0.958710803     -96.8802804
9.1                   0.95859917     -97.0525757
9.101                0.958487284     -97.2253209
9.102                0.958375144     -97.3985172
9.103                0.958262752     -97.5721654
9.104                0.958150108     -97.7462668
9.105                0.958037213     -97.9208222
9.106                0.957924068     -98.0958326
9.107                0.957810673     -98.2712992
9.108                0.957697029     -98.4472229
9.109                0.957583137     -98.6236047
9.11                 0.957468997     -98.8004457
9.111                0.957354611     -98.9777467
9.112                 0.95723998      -99.155509
9.113                0.957125103     -99.3337333
9.114                0.957009982     -99.5124207
9.115                0.956894619     -99.6915723
9.116                0.956779012     -99.8711889
9.117                0.956663165     -100.051272
9.118                0.956547077     -100.231821
9.119                 0.95643075     -100.412839
9.12                 0.956314184     -100.594326
9.121                0.956197381     -100.776283
9.122                0.956080342      -100.95871
9.123                0.955963067      -101.14161
9.124                0.955845558     -101.324982
9.125                0.955727816     -101.508828
9.126                0.955609842     -101.693149
9.127                0.955491637     -101.877946
9.128                0.955373202     -102.063219
9.129                0.955254539      -102.24897
9.13                 0.955135648     -102.435199
9.131                0.955016531     -102.621907
9.132                 0.95489719     -102.809096
9.133                0.954777625     -102.996766
9.134                0.954657838     -103.184918
9.135                 0.95453783     -103.373553
9.136                0.954417602     -103.562672
9.137                0.954297157     -103.752275
9.138                0.954176495     -103.942365
9.139                0.954055617     -104.132941
9.14                 0.953934526     -104.324004
9.141                0.953813222     -104.515555
9.142                0.953691708     -104.707596
9.143                0.953569984     -104.900127
9.144                0.953448053     -105.093148
9.145                0.953325915     -105.286661
9.146                0.953203574     -105.480667
9.147                0.953081029     -105.675166
9.148                0.952958283     -105.870159
9.149                0.952835338     -106.065646
9.15                 0.952712195      -106.26163
9.151                0.952588856      -106.45811
9.152                0.952465323     -106.655088
9.153                0.952341597     -106.852564
9.154                0.952217682     -107.050538
9.155                0.952093577     -107.249012
9.156                0.951969286     -107.447987
9.157                 0.95184481     -107.647462
9.158                0.951720151      -107.84744
9.159                0.951595311      -108.04792
9.16                 0.951470292     -108.248904
9.161                0.951345097     -108.450392
9.162                0.951219726     -108.652384
9.163                0.951094184     -108.854882
9.164                 0.95096847     -109.057886
9.165                0.950842589     -109.261397
9.166                0.950716541     -109.465416
9.167                0.950590329     -109.669942
9.168                0.950463956     -109.874978
9.169                0.950337423     -110.080523
9.17                 0.950210734     -110.286578
9.171                0.950083889     -110.493144
9.172                0.949956893     -110.700221
9.173                0.949829746     -110.907811
9.174                0.949702452     -111.115913
9.175                0.949575014     -111.324528
9.176                0.949447432     -111.533656
9.177                0.949319711     -111.743299
9.178                0.949191853     -111.953457
9.179                0.949063859     -112.164131
9.18                 0.948935734      -112.37532
9.181                0.948807479     -112.587026
9.182                0.948679098     -112.799249
9.183                0.948550593     -113.011989
9.184                0.948421966     -113.225247
9.185                0.948293221     -113.439023
9.186                0.948164361     -113.653319
9.187                0.948035388     -113.868134
9.188                0.947906305     -114.083468
9.189                0.947777116     -114.299323
9.19                 0.947647822     -114.515698
9.191                0.947518428     -114.732595
9.192                0.947388936     -114.950013
9.193                 0.94725935     -115.167952
9.194                0.947129671     -115.386414
9.195                0.946999905     -115.605399
9.196                0.946870053     -115.824906
9.197                0.946740119     -116.044936
9.198                0.946610107      -116.26549
9.199                0.946480019     -116.486567
9.2                  0.946349858     -116.708169
9.201                0.946219629     -116.930295
9.202                0.946089335     -117.152946
9.203                0.945958979     -117.376121
9.204                0.945828564     -117.599822
9.205                0.945698094     -117.824047
9.206                0.945567573     -118.048798
9.207                0.945437004     -118.274075
9.208                0.945306391     -118.499878
9.209                0.945175737     -118.726206
9.21                 0.945045046     -118.953061
9.211                0.944914322     -119.180442
9.212                0.944783568     -119.408349
9.213                0.944652789     -119.636783
9.214                0.944521988     -119.865743
9.215                0.944391168      -120.09523
9.216                0.944260335     -120.325243
9.217                0.944129492     -120.555783
9.218                0.943998642     -120.786849
9.219                 0.94386779     -121.018442
9.22                  0.94373694     -121.250562
9.221                0.943606096     -121.483208
9.222                0.943475262      -121.71638
9.223                0.943344442     -121.950079
9.224                0.943213641     -122.184304
9.225                0.943082862     -122.419056
9.226                0.942952109     -122.654333
9.227                0.942821388     -122.890137
9.228                0.942690703     -123.126466
9.229                0.942560057      -123.36332
9.23                 0.942429455       -123.6007
9.231                0.942298902     -123.838605
9.232                0.942168402     -124.077035
9.233                 0.94203796     -124.315989
9.234                 0.94190758     -124.555468
9.235                0.941777266     -124.795471
9.236                0.941647024     -125.035998
9.237                0.941516858     -125.277047
9.238                0.941386772      -125.51862
9.239                0.941256772     -125.760716
9.24                 0.941126862     -126.003334
9.241                0.940997047     -126.246473
9.242                0.940867331     -126.490134
9.243                 0.94073772     -126.734316
9.244                0.940608218     -126.979018
9.245                0.940478831      -127.22424
9.246                0.940349562     -127.469982
9.247                0.940220419     -127.716242
9.248                0.940091404     -127.963021
9.249                0.939962523     -128.210317
9.25                 0.939833782      -128.45813
9.251                0.939705186      -128.70646
9.252                0.939576739     -128.955306
9.253                0.939448447     -129.204667
9.254                0.939320315     -129.454542
9.255                0.939192348     -129.704931
9.256                0.939064552     -129.955833
9.257                0.938936931     -130.207248
9.258                0.938809492     -130.459173
9.259                0.938682239      -130.71161
9.26                 0.938555178     -130.964556
9.261                0.938428314     -131.218011
9.262                0.938301654     -131.471974
9.263                0.938175201     -131.726445
9.264                0.938048962     -131.981421
9.265                0.937922942     -132.236903
9.266                0.937797147     -132.492889
9.267                0.937671583     -132.749379
9.268                0.937546254     -133.006371
9.269                0.937421168     -133.263864
9.27                 0.937296328     -133.521857
9.271                0.937171742      -133.78035
9.272                0.937047414      -134.03934
9.273                0.936923351     -134.298828
9.274                0.936799558     -134.558811
9.275                0.936676041     -134.819289
9.276                0.936552806     -135.080259
9.277                0.936429859     -135.341722
9.278                0.936307205     -135.603676
9.279                0.936184851     -135.866119
9.28                 0.936062802     -136.129051
9.281                0.935941064     -136.392469
9.282                0.935819644     -136.656373
9.283                0.935698546     -136.920761
9.284                0.935577778     -137.185632
9.285                0.935457345     -137.450983
9.286                0.935337254     -137.716815
9.287                0.935217509     -137.983125
9.288                0.935098118     -138.249912
9.289                0.934979087     -138.517174
9.29                  0.93486042     -138.784909
9.291                0.934742126     -139.053117
9.292                0.934624209     -139.321795
9.293                0.934506676     -139.590942
9.294                0.934389533     -139.860556
9.295                0.934272786     -140.130635
9.296                0.934156441     -140.401178
9.297                0.934040506     -140.672183
9.298                0.933924984     -140.943648
9.299                0.933809884     -141.215571
9.3                  0.933695211     -141.487951
9.301                0.933580972     -141.760786
9.302                0.933467172     -142.034073
9.303                0.933353818     -142.307812
9.304                0.933240916     -142.581999
9.305                0.933128472     -142.856633
9.306                0.933016494     -143.131712
9.307                0.932904986     -143.407233
9.308                0.932793956     -143.683196
9.309                0.932683409     -143.959598
9.31                 0.932573352     -144.236436
9.311                0.932463791     -144.513709
9.312                0.932354732     -144.791414
9.313                0.932246183     -145.069549
9.314                0.932138148     -145.348112
9.315                0.932030634     -145.627101
9.316                0.931923648     -145.906514
9.317                0.931817196     -146.186348
9.318                0.931711284     -146.466601
9.319                0.931605919      -146.74727
9.32                 0.931501106     -147.028353
9.321                0.931396852     -147.309849
9.322                0.931293163     -147.591753
9.323                0.931190046     -147.874065
9.324                0.931087507      -148.15678
9.325                0.930985551     -148.439898
9.326                0.930884186     -148.723415
9.327                0.930783417     -149.007329
9.328                0.930683251     -149.291638
9.329                0.930583693     -149.576337
9.33                 0.930484751     -149.861426
9.331                 0.93038643     -150.146901
9.332                0.930288736      -150.43276
9.333                0.930191675        -150.719
9.334                0.930095254     -151.005618
9.335                0.929999479     -151.292611
9.336                0.929904355     -151.579976
9.337                0.929809889     -151.867712
9.338                0.929716087     -152.155814
9.339                0.929622955     -152.444281
9.34                 0.929530498     -152.733109
9.341                0.929438724     -153.022295
9.342                0.929347637     -153.311836
9.343                0.929257244     -153.601729
9.344                 0.92916755     -153.891972
9.345                0.929078562     -154.182561
9.346                0.928990285     -154.473493
9.347                0.928902726     -154.764765
9.348                0.928815889     -155.056375
9.349                0.928729781     -155.348318
9.35                 0.928644407     -155.640592
9.351                0.928559773     -155.933193
9.352                0.928475886     -156.226119
9.353                0.928392749     -156.519366
9.354                0.928310369     -156.812931
9.355                0.928228752     -157.106811
9.356                0.928147903     -157.401002
9.357                0.928067828     -157.695501
9.358                0.927988531     -157.990304
9.359                0.927910019     -158.285409
9.36                 0.927832296     -158.580812
9.361                0.927755369      -158.87651
9.362                0.927679242     -159.172498
9.363                 0.92760392     -159.468774
9.364                0.927529409     -159.765335
9.365                0.927455714     -160.062175
9.366                 0.92738284     -160.359294
9.367                0.927310792     -160.656685
9.368                0.927239574     -160.954347
9.369                0.927169193     -161.252275
9.37                 0.927099653     -161.550466
9.371                0.927030958     -161.848916
9.372                0.926963114     -162.147622
9.373                0.926896126     -162.446579
9.374                0.926829997     -162.745785
9.375                0.926764733     -163.045235
9.376                0.926700338     -163.344926
9.377                0.926636817     -163.644854
9.378                0.926574174     -163.945016
9.379                0.926512414     -164.245407
9.38                  0.92645154     -164.546023
9.381                0.926391558     -164.846862
9.382                0.926332472     -165.147918
9.383                0.926274286     -165.449189
9.384                0.926217003     -165.750669
9.385                0.926160628     -166.052357
9.386                0.926105166     -166.354247
9.387                0.926050619     -166.656335
9.388                0.925996992     -166.958618
9.389                0.925944288     -167.261092
9.39                 0.925892512     -167.563752
9.391                0.925841667     -167.866595
9.392                0.925791756     -168.169617
9.393                0.925742784     -168.472814
9.394                0.925694753     -168.776181
9.395                0.925647668     -169.079715
9.396                 0.92560153     -169.383411
