! TOUCHSTONE file generated by CST DESIGN STUDIO
! Date and time: Tue Feb  4 16:19:30 2025
! Project name: C:\Work\MatlabApps\UnitCellOptimizationMatlab\CST\unitcell.cst
! Tree item: Tasks\Sweep1\SPara1\S-Parameters
! Header version: 2024
! Port assignment regex: !\s*Touchstone port\s*([0-9]+)\s*=\s*(CST MWS port|CST DES external port|CST DES block port)\s*(.+)\s* \(\"(.*)\"\)(\s*mode\s*([0-9]+))?.*
! Touchstone port assignment:
! Touchstone port 1 = CST DES external port 1 ("")
# GHz S MA R 50
9                    0.941675845     -58.4710194
9.001                0.941512147     -58.5541391
9.002                 0.94134797     -58.6374624
9.003                0.941183312       -58.72099
9.004                0.941018172     -58.8047227
9.005                0.940852548     -58.8886613
9.006                0.940686438     -58.9728064
9.007                0.940519842     -59.0571588
9.008                0.940352757     -59.1417194
9.009                0.940185183     -59.2264887
9.01                 0.940017117     -59.3114677
9.011                0.939848559      -59.396657
9.012                0.939679506     -59.4820575
9.013                0.939509958     -59.5676699
9.014                0.939339912      -59.653495
9.015                0.939169367     -59.7395336
9.016                0.938998322     -59.8257864
9.017                0.938826775     -59.9122543
9.018                0.938654725      -59.998938
9.019                0.938482169     -60.0858383
9.02                 0.938309107      -60.172956
9.021                0.938135536     -60.2602919
9.022                0.937961456     -60.3478469
9.023                0.937786865     -60.4356217
9.024                 0.93761176     -60.5236171
9.025                0.937436141     -60.6118339
9.026                0.937260005     -60.7002731
9.027                0.937083352     -60.7889353
9.028                 0.93690618     -60.8778214
9.029                0.936728486     -60.9669323
9.03                  0.93655027     -61.0562687
9.031                0.936371529     -61.1458316
9.032                0.936192262     -61.2356217
9.033                0.936012468     -61.3256399
9.034                0.935832144      -61.415887
9.035                0.935651289     -61.5063639
9.036                0.935469901     -61.5970714
9.037                0.935287979     -61.6880104
9.038                0.935105521     -61.7791818
9.039                0.934922525     -61.8705864
9.04                  0.93473899     -61.9622251
9.041                0.934554913     -62.0540987
9.042                0.934370294     -62.1462082
9.043                0.934185129     -62.2385544
9.044                0.933999419     -62.3311382
9.045                 0.93381316     -62.4239604
9.046                0.933626351      -62.517022
9.047                 0.93343899     -62.6103239
9.048                0.933251076      -62.703867
9.049                0.933062606     -62.7976521
9.05                  0.93287358     -62.8916802
9.051                0.932683994     -62.9859522
9.052                0.932493848     -63.0804689
9.053                0.932303139     -63.1752314
9.054                0.932111866     -63.2702405
9.055                0.931920027     -63.3654972
9.056                 0.93172762     -63.4610024
9.057                0.931534643     -63.5567569
9.058                0.931341095     -63.6527619
9.059                0.931146972     -63.7490181
9.06                 0.930952275     -63.8455266
9.061                   0.930757     -63.9422883
9.062                0.930561146     -64.0393041
9.063                0.930364711      -64.136575
9.064                0.930167693      -64.234102
9.065                0.929970091     -64.3318861
9.066                0.929771901     -64.4299281
9.067                0.929573123     -64.5282291
9.068                0.929373755       -64.62679
9.069                0.929173794     -64.7256119
9.07                 0.928973238     -64.8246957
9.071                0.928772086     -64.9240424
9.072                0.928570336      -65.023653
9.073                0.928367985     -65.1235285
9.074                0.928165032     -65.2236699
9.075                0.927961475     -65.3240783
9.076                0.927757312     -65.4247545
9.077                 0.92755254     -65.5256997
9.078                0.927347159     -65.6269148
9.079                0.927141165     -65.7284009
9.08                 0.926934556      -65.830159
9.081                0.926727332     -65.9321902
9.082                0.926519489     -66.0344954
9.083                0.926311026     -66.1370758
9.084                0.926101941     -66.2399323
9.085                0.925892231      -66.343066
9.086                0.925681895      -66.446478
9.087                 0.92547093     -66.5501693
9.088                0.925259335      -66.654141
9.089                0.925047107     -66.7583942
9.09                 0.924834244     -66.8629298
9.091                0.924620744     -66.9677491
9.092                0.924406606      -67.072853
9.093                0.924191827     -67.1782428
9.094                0.923976404     -67.2839193
9.095                0.923760336     -67.3898838
9.096                0.923543621     -67.4961374
9.097                0.923326256     -67.6026811
9.098                 0.92310824      -67.709516
9.099                 0.92288957     -67.8166434
9.1                  0.922670244     -67.9240642
9.101                 0.92245026     -68.0317796
9.102                0.922229616     -68.1397907
9.103                0.922008309     -68.2480987
9.104                0.921786338     -68.3567047
9.105                  0.9215637     -68.4656098
9.106                0.921340393     -68.5748152
9.107                0.921116416      -68.684322
9.108                0.920891764     -68.7941314
9.109                0.920666438     -68.9042445
9.11                 0.920440433     -69.0146625
9.111                0.920213749     -69.1253865
9.112                0.919986382     -69.2364178
9.113                0.919758331     -69.3477576
9.114                0.919529594     -69.4594069
9.115                0.919300168     -69.5713669
9.116                 0.91907005      -69.683639
9.117                 0.91883924     -69.7962242
9.118                0.918607733     -69.9091237
9.119                0.918375529     -70.0223388
9.12                 0.918142625     -70.1358707
9.121                0.917909019     -70.2497206
9.122                0.917674707     -70.3638897
9.123                0.917439689     -70.4783792
9.124                0.917203962     -70.5931904
9.125                0.916967524     -70.7083245
9.126                0.916730371     -70.8237827
9.127                0.916492503     -70.9395662
9.128                0.916253916     -71.0556764
9.129                0.916014609     -71.1721145
9.13                 0.915774579     -71.2888817
9.131                0.915533823     -71.4059793
9.132                 0.91529234     -71.5234086
9.133                0.915050128     -71.6411707
9.134                0.914807183     -71.7592671
9.135                0.914563503      -71.877699
9.136                0.914319087     -71.9964677
9.137                0.914073932     -72.1155744
9.138                0.913828035     -72.2350205
9.139                0.913581394     -72.3548073
9.14                 0.913334007     -72.4749361
9.141                0.913085872     -72.5954081
9.142                0.912836986     -72.7162248
9.143                0.912587347     -72.8373873
9.144                0.912336952     -72.9588972
9.145                  0.9120858     -73.0807556
9.146                0.911833887     -73.2029639
9.147                0.911581212     -73.3255235
9.148                0.911327772     -73.4484357
9.149                0.911073565     -73.5717019
9.15                 0.910818588     -73.6953234
9.151                0.910562839     -73.8193015
9.152                0.910306316     -73.9436378
9.153                0.910049017     -74.0683334
9.154                0.909790938     -74.1933898
9.155                0.909532078     -74.3188085
9.156                0.909272435     -74.4445906
9.157                0.909012005     -74.5707378
9.158                0.908750787     -74.6972513
9.159                0.908488778     -74.8241325
9.16                 0.908225977      -74.951383
9.161                 0.90796238      -75.079004
9.162                0.907697985      -75.206997
9.163                 0.90743279     -75.3353634
9.164                0.907166792     -75.4641046
9.165                 0.90689999     -75.5932222
9.166                 0.90663238     -75.7227174
9.167                0.906363962     -75.8525918
9.168                0.906094731     -75.9828469
9.169                0.905824686     -76.1134839
9.17                 0.905553825     -76.2445046
9.171                0.905282145     -76.3759101
9.172                0.905009644     -76.5077022
9.173                0.904736319     -76.6398822
9.174                0.904462169     -76.7724515
9.175                 0.90418719     -76.9054118
9.176                0.903911382     -77.0387644
9.177                 0.90363474     -77.1725109
9.178                0.903357264     -77.3066528
9.179                0.903078951     -77.4411916
9.18                 0.902799798     -77.5761287
9.181                0.902519803     -77.7114658
9.182                0.902238964     -77.8472042
9.183                0.901957279     -77.9833456
9.184                0.901674746     -78.1198915
9.185                0.901391361     -78.2568434
9.186                0.901107124     -78.3942028
9.187                0.900822031     -78.5319714
9.188                0.900536081     -78.6701505
9.189                0.900249271     -78.8087419
9.19                 0.899961599      -78.947747
9.191                0.899673064     -79.0871675
9.192                0.899383661     -79.2270048
9.193                0.899093391     -79.3672606
9.194                 0.89880225     -79.5079365
9.195                0.898510236      -79.649034
9.196                0.898217347     -79.7905547
9.197                0.897923581     -79.9325002
9.198                0.897628935     -80.0748722
9.199                0.897333409     -80.2176722
9.2                  0.897036999     -80.3609018
9.201                0.896739704     -80.5045627
9.202                0.896441521     -80.6486564
9.203                0.896142449     -80.7931846
9.204                0.895842485      -80.938149
9.205                0.895541627     -81.0835511
9.206                0.895239873     -81.2293926
9.207                0.894937222     -81.3756752
9.208                0.894633672     -81.5224004
9.209                0.894329219       -81.66957
9.21                 0.894023863     -81.8171856
9.211                0.893717602     -81.9652488
9.212                0.893410433     -82.1137614
9.213                0.893102355      -82.262725
9.214                0.892793366     -82.4121413
9.215                0.892483464      -82.562012
9.216                0.892172647     -82.7123387
9.217                0.891860913     -82.8631231
9.218                 0.89154826      -83.014367
9.219                0.891234688     -83.1660721
9.22                 0.890920193       -83.31824
9.221                0.890604775     -83.4708724
9.222                0.890288431     -83.6239711
9.223                 0.88997116     -83.7775379
9.224                 0.88965296     -83.9315743
9.225                0.889333829     -84.0860822
9.226                0.889013767     -84.2410632
9.227                0.888692771     -84.3965192
9.228                0.888370839     -84.5524518
9.229                0.888047971     -84.7088629
9.23                 0.887724165      -84.865754
9.231                0.887399418     -85.0231271
9.232                0.887073731     -85.1809839
9.233                0.886747101      -85.339326
9.234                0.886419526     -85.4981554
9.235                0.886091006     -85.6574737
9.236                 0.88576154     -85.8172828
9.237                0.885431125     -85.9775844
9.238                0.885099761     -86.1383802
9.239                0.884767446     -86.2996722
9.24                  0.88443418      -86.461462
9.241                 0.88409996     -86.6237515
9.242                0.883764786     -86.7865425
9.243                0.883428657     -86.9498367
9.244                0.883091571     -87.1136361
9.245                0.882753528     -87.2779423
9.246                0.882414527     -87.4427572
9.247                0.882074566     -87.6080826
9.248                0.881733644     -87.7739203
9.249                0.881391762     -87.9402722
9.25                 0.881048917     -88.1071401
9.251                0.880705109     -88.2745258
9.252                0.880360338     -88.4424312
9.253                0.880014603      -88.610858
9.254                0.879667902     -88.7798082
9.255                0.879320235     -88.9492836
9.256                0.878971602     -89.1192859
9.257                0.878622002     -89.2898172
9.258                0.878271435     -89.4608791
9.259                  0.8779199     -89.6324736
9.26                 0.877567396     -89.8046026
9.261                0.877213924     -89.9772679
9.262                0.876859482     -90.1504713
9.263                0.876504072     -90.3242147
9.264                0.876147691        -90.4985
9.265                0.875790341     -90.6733291
9.266                0.875432021     -90.8487039
9.267                0.875072732     -91.0246261
9.268                0.874712472     -91.2010978
9.269                0.874351242     -91.3781207
9.27                 0.873989043     -91.5556967
9.271                0.873625873     -91.7338279
9.272                0.873261735     -91.9125159
9.273                0.872896627     -92.0917628
9.274                 0.87253055     -92.2715703
9.275                0.872163504     -92.4519405
9.276                0.871795491     -92.6328751
9.277                0.871426509     -92.8143762
9.278                0.871056561     -92.9964455
9.279                0.870685646      -93.179085
9.28                 0.870313766     -93.3622966
9.281                 0.86994092     -93.5460822
9.282                 0.86956711     -93.7304436
9.283                0.869192337     -93.9153829
9.284                0.868816602     -94.1009018
9.285                0.868439905     -94.2870023
9.286                0.868062248     -94.4736863
9.287                0.867683631     -94.6609558
9.288                0.867304057     -94.8488125
9.289                0.866923526     -95.0372584
9.29                  0.86654204     -95.2262955
9.291                  0.8661596     -95.4159256
9.292                0.865776208     -95.6061506
9.293                0.865391865     -95.7969725
9.294                0.865006573     -95.9883931
9.295                0.864620334     -96.1804143
9.296                0.864233149     -96.3730381
9.297                0.863845021     -96.5662664
9.298                0.863455951      -96.760101
9.299                0.863065942     -96.9545438
9.3                  0.862674995     -97.1495969
9.301                0.862283114      -97.345262
9.302                  0.8618903     -97.5415411
9.303                0.861496555      -97.738436
9.304                0.861101883     -97.9359487
9.305                0.860706285      -98.134081
9.306                0.860309765     -98.3328349
9.307                0.859912325     -98.5322122
9.308                0.859513968     -98.7322148
9.309                0.859114697     -98.9328446
9.31                 0.858714516     -99.1341036
9.311                0.858313426     -99.3359935
9.312                0.857911432     -99.5385162
9.313                0.857508537     -99.7416737
9.314                0.857104745     -99.9454677
9.315                0.856700058       -100.1499
9.316                 0.85629448     -100.354973
9.317                0.855888016     -100.560688
9.318                0.855480669     -100.767047
9.319                0.855072443     -100.974052
9.32                 0.854663342     -101.181705
9.321                0.854253371     -101.390007
9.322                0.853842532     -101.598961
9.323                0.853430832     -101.808568
9.324                0.853018275      -102.01883
9.325                0.852604864     -102.229749
9.326                0.852190605     -102.441327
9.327                0.851775502     -102.653566
9.328                0.851359562     -102.866467
9.329                0.850942787     -103.080032
9.33                 0.850525185     -103.294262
9.331                 0.85010676     -103.509161
9.332                0.849687517      -103.72473
9.333                0.849267462     -103.940969
9.334                0.848846601     -104.157882
9.335                 0.84842494      -104.37547
9.336                0.848002483     -104.593734
9.337                0.847579239     -104.812676
9.338                0.847155212     -105.032299
9.339                0.846730409     -105.252604
9.34                 0.846304837     -105.473592
9.341                0.845878501     -105.695266
9.342                0.845451409     -105.917626
9.343                0.845023567     -106.140675
9.344                0.844594983     -106.364415
9.345                0.844165664     -106.588847
9.346                0.843735616     -106.813972
9.347                0.843304847     -107.039793
9.348                0.842873365     -107.266311
9.349                0.842441177     -107.493528
9.35                 0.842008291     -107.721445
9.351                0.841574716     -107.950064
9.352                0.841140458     -108.179386
9.353                0.840705526     -108.409414
9.354                 0.84026993     -108.640149
9.355                0.839833676     -108.871591
9.356                0.839396774     -109.103744
9.357                0.838959233     -109.336608
9.358                0.838521062     -109.570185
9.359                0.838082269     -109.804477
9.36                 0.837642864     -110.039485
9.361                0.837202857      -110.27521
9.362                0.836762256     -110.511654
9.363                0.836321073     -110.748818
9.364                0.835879316     -110.986705
9.365                0.835436995     -111.225315
9.366                0.834994122     -111.464649
9.367                0.834550706      -111.70471
9.368                0.834106757     -111.945498
9.369                0.833662287     -112.187016
9.37                 0.833217307     -112.429263
9.371                0.832771826     -112.672242
9.372                0.832325858     -112.915954
9.373                0.831879412     -113.160401
9.374                  0.8314325     -113.405583
9.375                0.830985135     -113.651502
9.376                0.830537327     -113.898158
9.377                 0.83008909     -114.145555
9.378                0.829640434     -114.393691
9.379                0.829191373      -114.64257
9.38                 0.828741919     -114.892191
9.381                0.828292085     -115.142557
9.382                0.827841884     -115.393667
9.383                0.827391328     -115.645524
9.384                0.826940431     -115.898129
9.385                0.826489207     -116.151481
9.386                0.826037668     -116.405584
9.387                 0.82558583     -116.660437
9.388                0.825133705     -116.916041
9.389                0.824681307     -117.172398
9.39                 0.824228652     -117.429509
9.391                0.823775754     -117.687374
9.392                0.823322626     -117.945994
9.393                0.822869285     -118.205371
9.394                0.822415745     -118.465504
9.395                0.821962021     -118.726396
9.396                0.821508129     -118.988046
