! TOUCHSTONE file generated by CST DESIGN STUDIO
! Date and time: Tue Feb  4 16:19:19 2025
! Project name: C:\Work\MatlabApps\UnitCellOptimizationMatlab\CST\unitcell.cst
! Tree item: Tasks\Sweep1\SPara1\S-Parameters
! Header version: 2024
! Port assignment regex: !\s*Touchstone port\s*([0-9]+)\s*=\s*(CST MWS port|CST DES external port|CST DES block port)\s*(.+)\s* \(\"(.*)\"\)(\s*mode\s*([0-9]+))?.*
! Touchstone port assignment:
! Touchstone port 1 = CST DES external port 1 ("")
# GHz S MA R 50
9                    0.792642769     -139.351294
9.001                0.791858191     -139.704051
9.002                 0.79107454     -140.057698
9.003                0.790291869     -140.412232
9.004                0.789510235     -140.767651
9.005                0.788729691     -141.123952
9.006                0.787950292     -141.481132
9.007                0.787172095     -141.839188
9.008                0.786395154     -142.198119
9.009                0.785619526     -142.557919
9.01                 0.784845267     -142.918588
9.011                0.784072434      -143.28012
9.012                0.783301082     -143.642514
9.013                 0.78253127     -144.005765
9.014                0.781763054     -144.369871
9.015                0.780996492     -144.734828
9.016                0.780231641     -145.100632
9.017                 0.77946856      -145.46728
9.018                0.778707306     -145.834767
9.019                0.777947937     -146.203091
9.02                 0.777190513     -146.572246
9.021                0.776435091      -146.94223
9.022                0.775681731     -147.313038
9.023                 0.77493049     -147.684665
9.024                0.774181429     -148.057108
9.025                0.773434607     -148.430362
9.026                0.772690082     -148.804423
9.027                0.771947914     -149.179286
9.028                0.771208162     -149.554946
9.029                0.770470887     -149.931399
9.03                 0.769736147      -150.30864
9.031                0.769004002     -150.686664
9.032                0.768274513     -151.065465
9.033                0.767547738      -151.44504
9.034                0.766823738     -151.825382
9.035                0.766102573     -152.206486
9.036                0.765384302     -152.588347
9.037                0.764668985      -152.97096
9.038                0.763956682     -153.354318
9.039                0.763247452     -153.738417
9.04                 0.762541356      -154.12325
9.041                0.761838453     -154.508812
9.042                0.761138802     -154.895096
9.043                0.760442463     -155.282096
9.044                0.759749496     -155.669807
9.045                 0.75905996     -156.058222
9.046                0.758373914     -156.447335
9.047                0.757691416     -156.837139
9.048                0.757012527     -157.227628
9.049                0.756337304     -157.618795
9.05                 0.755665806     -158.010633
9.051                0.754998092     -158.403137
9.052                0.754334219     -158.796297
9.053                0.753674246     -159.190109
9.054                0.753018231     -159.584564
9.055                 0.75236623     -159.979656
9.056                0.751718302     -160.375377
9.057                0.751074503      -160.77172
9.058                0.750434889     -161.168676
9.059                0.749799518      -161.56624
9.06                 0.749168445     -161.964403
9.061                0.748541726     -162.363157
9.062                0.747919417     -162.762495
9.063                0.747301573     -163.162408
9.064                0.746688247     -163.562889
9.065                0.746079496     -163.963929
9.066                0.745475372     -164.365521
9.067                0.744875929     -164.767656
9.068                0.744281221     -165.170325
9.069                  0.7436913     -165.573521
9.07                 0.743106219     -165.977234
9.071                0.742526029     -166.381456
9.072                0.741950781     -166.786178
9.073                0.741380528     -167.191392
9.074                0.740815318     -167.597089
9.075                0.740255202     -168.003259
9.076                0.739700229     -168.409894
9.077                0.739150449     -168.816985
9.078                0.738605909     -169.224522
9.079                0.738066657     -169.632496
9.08                  0.73753274     -170.040897
9.081                0.737004206     -170.449717
9.082                  0.7364811     -170.858946
9.083                0.735963467     -171.268574
9.084                0.735451352     -171.678591
9.085                  0.7349448     -172.088988
9.086                0.734443853     -172.499755
9.087                0.733948556     -172.910883
9.088                 0.73345895     -173.322361
9.089                0.732975076     -173.734179
9.09                 0.732496976     -174.146327
9.091                 0.73202469     -174.558795
9.092                0.731558256     -174.971573
9.093                0.731097715     -175.384651
9.094                0.730643104     -175.798018
9.095                 0.73019446     -176.211664
9.096                 0.72975182     -176.625579
9.097                0.729315219     -177.039752
9.098                0.728884694     -177.454173
9.099                0.728460278      -177.86883
9.1                  0.728042004     -178.283714
9.101                0.727629905     -178.698814
9.102                0.727224014     -179.114119
9.103                0.726824361     -179.529618
9.104                0.726430977     -179.945301
9.105                0.726043891      179.638844
9.106                0.725663131      179.222827
9.107                0.725288727      178.806659
9.108                0.724920704      178.390351
9.109                 0.72455909      177.973914
9.11                 0.724203908      177.557359
9.111                0.723855184      177.140698
9.112                0.723512942       176.72394
9.113                0.723177203      176.307098
9.114                 0.72284799      175.890182
9.115                0.722525325      175.473204
9.116                0.722209226      175.056174
9.117                0.721899713      174.639104
9.118                0.721596805      174.222006
9.119                0.721300519      173.804889
9.12                 0.721010871      173.387766
9.121                0.720727877      172.970648
9.122                0.720451552      172.553546
9.123                 0.72018191      172.136471
9.124                0.719918964      171.719434
9.125                0.719662725      171.302447
9.126                0.719413205      170.885521
9.127                0.719170414      170.468667
9.128                0.718934361      170.051897
9.129                0.718705056      169.635221
9.13                 0.718482504      169.218651
9.131                0.718266713      168.802199
9.132                0.718057688      168.385874
9.133                0.717855435      167.969689
9.134                0.717659957      167.553655
9.135                0.717471256      167.137782
9.136                0.717289336      166.722083
9.137                0.717114197      166.306567
9.138                0.716945839      165.891247
9.139                0.716784262      165.476133
9.14                 0.716629464      165.061235
9.141                0.716481443      164.646567
9.142                0.716340196      164.232137
9.143                0.716205717      163.817957
9.144                0.716078003      163.404038
9.145                0.715957046      162.990391
9.146                0.715842841      162.577027
9.147                 0.71573538      162.163956
9.148                0.715634653      161.751189
9.149                0.715540652      161.338737
9.15                 0.715453367      160.926611
9.151                0.715372785       160.51482
9.152                0.715298896      160.103376
9.153                0.715231686      159.692289
9.154                0.715171142      159.281569
9.155                0.715117249      158.871228
9.156                0.715069992      158.461274
9.157                0.715029355      158.051718
9.158                0.714995322      157.642571
9.159                0.714967874      157.233843
9.16                 0.714946993      156.825543
9.161                 0.71493266      156.417682
9.162                0.714924855      156.010269
9.163                0.714923557      155.603315
9.164                0.714928745      155.196829
9.165                0.714940397      154.790821
9.166                0.714958489        154.3853
9.167                0.714982998      153.980277
9.168                  0.7150139      153.575759
9.169                 0.71505117      153.171758
9.17                 0.715094781      152.768282
9.171                0.715144708      152.365341
9.172                0.715200923      151.962943
9.173                0.715263399      151.561098
9.174                0.715332107      151.159814
9.175                0.715407018      150.759101
9.176                0.715488102      150.358967
9.177                 0.71557533      149.959422
9.178                0.715668669      149.560473
9.179                 0.71576809      149.162129
9.18                 0.715873559      148.764399
9.181                0.715985044      148.367291
9.182                0.716102512      147.970814
9.183                0.716225929      147.574975
9.184                 0.71635526      147.179783
9.185                0.716490471      146.785245
9.186                0.716631527       146.39137
9.187                0.716778391      145.998165
9.188                0.716931028      145.605637
9.189                0.717089399      145.213796
9.19                 0.717253469      144.822647
9.191                0.717423199      144.432199
9.192                0.717598551      144.042459
9.193                0.717779487      143.653434
9.194                0.717965966       143.26513
9.195                0.718157951      142.877556
9.196                  0.7183554      142.490718
9.197                0.718558274      142.104622
9.198                0.718766532      141.719276
9.199                0.718980132      141.334686
9.2                  0.719199034      140.950858
9.201                0.719423196        140.5678
9.202                0.719652575      140.185516
9.203                 0.71988713      139.804014
9.204                0.720126818      139.423299
9.205                0.720371595      139.043378
9.206                0.720621418      138.664255
9.207                0.720876244      138.285938
9.208                0.721136029      137.908432
9.209                0.721400729      137.531742
9.21                   0.7216703      137.155873
9.211                0.721944697      136.780831
9.212                0.722223876      136.406622
9.213                 0.72250779       136.03325
9.214                0.722796397      135.660721
9.215                0.723089649      135.289039
9.216                0.723387501      134.918209
9.217                0.723689909      134.548236
9.218                0.723996826      134.179125
9.219                0.724308205       133.81088
9.22                 0.724624002      133.443506
9.221                 0.72494417      133.077006
9.222                0.725268662      132.711385
9.223                0.725597433      132.346648
9.224                0.725930435      131.982798
9.225                0.726267622      131.619839
9.226                0.726608947      131.257775
9.227                0.726954365      130.896609
9.228                0.727303827      130.536346
9.229                0.727657288      130.176989
9.23                   0.7280147      129.818541
9.231                0.728376016      129.461006
9.232                 0.72874119      129.104386
9.233                0.729110175      128.748686
9.234                0.729482924      128.393908
9.235                0.729859391      128.040054
9.236                0.730239527      127.687129
9.237                0.730623287      127.335134
9.238                0.731010624      126.984072
9.239                 0.73140149      126.633947
9.24                 0.731795841       126.28476
9.241                0.732193628      125.936513
9.242                0.732594805       125.58921
9.243                0.732999326      125.242852
9.244                0.733407145      124.897441
9.245                0.733818215       124.55298
9.246                 0.73423249      124.209471
9.247                0.734649924      123.866915
9.248                0.735070471      123.525314
9.249                0.735494086       123.18467
9.25                 0.735920722      122.844984
9.251                0.736350335      122.506259
9.252                0.736782878      122.168495
9.253                0.737218306      121.831694
9.254                0.737656575      121.495857
9.255                0.738097639      121.160985
9.256                0.738541454       120.82708
9.257                0.738987974      120.494143
9.258                0.739437157      120.162174
9.259                0.739888956      119.831175
9.26                 0.740343329      119.501146
9.261                0.740800231      119.172088
9.262                0.741259618      118.844002
9.263                0.741721448      118.516889
9.264                0.742185677      118.190749
9.265                0.742652262      117.865582
9.266                0.743121159      117.541389
9.267                0.743592327       117.21817
9.268                0.744065723      116.895926
9.269                0.744541305      116.574656
9.27                  0.74501903      116.254362
9.271                0.745498858      115.935042
9.272                0.745980747      115.616697
9.273                0.746464655      115.299327
9.274                0.746950541      114.982932
9.275                0.747438366      114.667512
9.276                0.747928088      114.353065
9.277                0.748419666      114.039593
9.278                0.748913063      113.727095
9.279                0.749408236       113.41557
9.28                 0.749905148      113.105018
9.281                0.750403758      112.795438
9.282                0.750904029       112.48683
9.283                0.751405921      112.179193
9.284                0.751909397      111.872527
9.285                0.752414417       111.56683
9.286                0.752920944      111.262102
9.287                0.753428942      110.958342
9.288                0.753938372      110.655549
9.289                0.754449197      110.353722
9.29                 0.754961382      110.052861
9.291                0.755474889      109.752964
9.292                0.755989683      109.454029
9.293                0.756505727      109.156057
9.294                0.757022987      108.859046
9.295                0.757541428      108.562994
9.296                0.758061013        108.2679
9.297                0.758581709      107.973763
9.298                0.759103481      107.680582
9.299                0.759626296      107.388356
9.3                   0.76015012      107.097081
9.301                0.760674918      106.806759
9.302                0.761200659      106.517386
9.303                0.761727309      106.228961
9.304                0.762254837      105.941483
9.305                0.762783208       105.65495
9.306                0.763312393      105.369361
9.307                0.763842359      105.084713
9.308                0.764373074      104.801005
9.309                0.764904508      104.518235
9.31                 0.765436631      104.236402
9.311                0.765969411      103.955503
9.312                 0.76650282      103.675537
9.313                0.767036825      103.396501
9.314                  0.7675714      103.118395
9.315                0.768106513      102.841216
9.316                0.768642137      102.564961
9.317                0.769178243      102.289629
9.318                0.769714802      102.015219
9.319                0.770251787      101.741727
9.32                 0.770789169      101.469152
9.321                0.771326922      101.197492
9.322                0.771865018      100.926744
9.323                0.772403431      100.656906
9.324                0.772942134      100.387977
9.325                  0.7734811      100.119954
9.326                0.774020304       99.852834
9.327                0.774559721      99.5866158
9.328                0.775099324      99.3212967
9.329                 0.77563909      99.0568745
9.33                 0.776178992      98.7933469
9.331                0.776719007      98.5307115
9.332                0.777259111       98.268966
9.333                0.777799279      98.0081079
9.334                0.778339488       97.748135
9.335                0.778879715      97.4890447
9.336                0.779419936      97.2308347
9.337                0.779960129      96.9735025
9.338                0.780500272      96.7170456
9.339                0.781040342      96.4614616
9.34                 0.781580317       96.206748
9.341                0.782120176      95.9529022
9.342                0.782659897      95.6999218
9.343                0.783199459      95.4478042
9.344                0.783738841      95.1965468
9.345                0.784278023      94.9461472
9.346                0.784816985      94.6966027
9.347                0.785355706      94.4479107
9.348                0.785894166      94.2000687
9.349                0.786432347      93.9530741
9.35                 0.786970228      93.7069241
9.351                0.787507792      93.4616163
9.352                0.788045019      93.2171479
9.353                 0.78858189      92.9735164
9.354                0.789118388       92.730719
9.355                0.789654495      92.4887531
9.356                0.790190192      92.2476161
9.357                0.790725463      92.0073051
9.358                 0.79126029      91.7678177
9.359                0.791794657       91.529151
9.36                 0.792328545      91.2913024
9.361                 0.79286194      91.0542692
9.362                0.793394825      90.8180486
9.363                0.793927183      90.5826379
9.364                0.794458999      90.3480345
9.365                0.794990258      90.1142355
9.366                0.795520944      89.8812383
9.367                0.796051042      89.6490401
9.368                0.796580538      89.4176381
9.369                0.797109416      89.1870297
9.37                 0.797637662      88.9572121
9.371                0.798165263      88.7281825
9.372                0.798692204      88.4999382
9.373                0.799218471      88.2724764
9.374                0.799744051      88.0457944
9.375                0.800268931      87.8198893
9.376                0.800793097      87.5947586
9.377                0.801316537      87.3703993
9.378                0.801839239      87.1468087
9.379                0.802361189       86.923984
9.38                 0.802882375      86.7019226
9.381                0.803402786      86.4806216
9.382                0.803922409      86.2600782
9.383                0.804441233      86.0402897
9.384                0.804959247      85.8212533
9.385                0.805476439      85.6029663
9.386                0.805992798      85.3854259
9.387                0.806508314      85.1686294
9.388                0.807022975      84.9525739
9.389                0.807536772      84.7372567
9.39                 0.808049694       84.522675
9.391                0.808561731      84.3088262
9.392                0.809072872      84.0957074
9.393                0.809583109      83.8833159
9.394                0.810092432      83.6716489
9.395                0.810600831      83.4607038
9.396                0.811108297      83.2504776
