! TOUCHSTONE file generated by CST DESIGN STUDIO
! Date and time: Tue Feb  4 17:11:05 2025
! Project name: C:\Work\MatlabApps\UnitCellOptimizationMatlab\CST\unitcell.cst
! Tree item: Tasks\Sweep1\SPara1\S-Parameters
! Header version: 2024
! Port assignment regex: !\s*Touchstone port\s*([0-9]+)\s*=\s*(CST MWS port|CST DES external port|CST DES block port)\s*(.+)\s* \(\"(.*)\"\)(\s*mode\s*([0-9]+))?.*
! Touchstone port assignment:
! Touchstone port 1 = CST DES external port 1 ("")
# GHz S MA R 50
9                    0.990397135     -75.8642841
9.001                0.990374495     -75.9770424
9.002                0.990351788     -76.0900728
9.003                0.990329013     -76.2033759
9.004                0.990306171     -76.3169527
9.005                 0.99028326     -76.4308038
9.006                0.990260282       -76.54493
9.007                0.990237235     -76.6593323
9.008                 0.99021412     -76.7740113
9.009                0.990190937     -76.8889679
9.01                 0.990167685     -77.0042028
9.011                0.990144364     -77.1197169
9.012                0.990120974     -77.2355111
9.013                0.990097516      -77.351586
9.014                0.990073988     -77.4679425
9.015                0.990050391     -77.5845815
9.016                0.990026724     -77.7015036
9.017                0.990002988     -77.8187099
9.018                0.989979182      -77.936201
9.019                0.989955307     -78.0539778
9.02                 0.989931361      -78.172041
9.021                0.989907345     -78.2903917
9.022                0.989883259     -78.4090305
9.023                0.989859103     -78.5279582
9.024                0.989834876     -78.6471758
9.025                0.989810578      -78.766684
9.026                 0.98978621     -78.8864837
9.027                 0.98976177     -79.0065757
9.028                 0.98973726     -79.1269608
9.029                0.989712678     -79.2476399
9.03                 0.989688025     -79.3686139
9.031                0.989663301     -79.4898834
9.032                0.989638505     -79.6114495
9.033                0.989613637     -79.7333129
9.034                0.989588698     -79.8554745
9.035                0.989563686     -79.9779351
9.036                0.989538603     -80.1006956
9.037                0.989513447     -80.2237568
9.038                0.989488219     -80.3471195
9.039                0.989462918     -80.4707847
9.04                 0.989437546     -80.5947532
9.041                  0.9894121     -80.7190258
9.042                0.989386581     -80.8436034
9.043                 0.98936099     -80.9684868
9.044                0.989335326      -81.093677
9.045                0.989309588     -81.2191747
9.046                0.989283777     -81.3449808
9.047                0.989257893     -81.4710963
9.048                0.989231936     -81.5975219
9.049                0.989205905     -81.7242585
9.05                   0.9891798      -81.851307
9.051                0.989153621     -81.9786682
9.052                0.989127369     -82.1063431
9.053                0.989101043     -82.2343325
9.054                0.989074642     -82.3626373
9.055                0.989048167     -82.4912583
9.056                0.989021618     -82.6201965
9.057                0.988994995     -82.7494526
9.058                0.988968297     -82.8790276
9.059                0.988941525     -83.0089224
9.06                 0.988914678     -83.1391379
9.061                0.988887756     -83.2696748
9.062                0.988860759     -83.4005342
9.063                0.988833688     -83.5317168
9.064                0.988806541     -83.6632236
9.065                0.988779319     -83.7950555
9.066                0.988752022     -83.9272133
9.067                 0.98872465      -84.059698
9.068                0.988697203     -84.1925104
9.069                 0.98866968     -84.3256514
9.07                 0.988642081     -84.4591219
9.071                0.988614407     -84.5929228
9.072                0.988586658      -84.727055
9.073                0.988558832     -84.8615194
9.074                0.988530931     -84.9963168
9.075                0.988502954     -85.1314483
9.076                0.988474901     -85.2669146
9.077                0.988446772     -85.4027167
9.078                0.988418567     -85.5388555
9.079                0.988390286     -85.6753319
9.08                 0.988361929     -85.8121467
9.081                0.988333495     -85.9493009
9.082                0.988304986     -86.0867954
9.083                0.988276399      -86.224631
9.084                0.988247737     -86.3628088
9.085                0.988218998     -86.5013295
9.086                0.988190183     -86.6401941
9.087                0.988161291     -86.7794036
9.088                0.988132323     -86.9189587
9.089                0.988103278     -87.0588605
9.09                 0.988074157     -87.1991097
9.091                0.988044958     -87.3397074
9.092                0.988015684     -87.4806544
9.093                0.987986332     -87.6219517
9.094                0.987956904     -87.7636001
9.095                0.987927399     -87.9056006
9.096                0.987897817     -88.0479541
9.097                0.987868159     -88.1906614
9.098                0.987838423     -88.3337235
9.099                0.987808611     -88.4771414
9.1                  0.987778722     -88.6209158
9.101                0.987748757     -88.7650478
9.102                0.987718714     -88.9095382
9.103                0.987688595     -89.0543879
9.104                0.987658398     -89.1995979
9.105                0.987628125     -89.3451691
9.106                0.987597775     -89.4911024
9.107                0.987567349     -89.6373986
9.108                0.987536845     -89.7840588
9.109                0.987506265     -89.9310838
9.11                 0.987475608     -90.0784745
9.111                0.987444874     -90.2262318
9.112                0.987414064     -90.3743567
9.113                0.987383177     -90.5228501
9.114                0.987352213     -90.6717128
9.115                0.987321172     -90.8209458
9.116                0.987290055       -90.97055
9.117                0.987258862     -91.1205264
9.118                0.987227592     -91.2708757
9.119                0.987196246     -91.4215989
9.12                 0.987164823      -91.572697
9.121                0.987133324     -91.7241709
9.122                0.987101748     -91.8760213
9.123                0.987070097     -92.0282493
9.124                0.987038369     -92.1808558
9.125                0.987006565     -92.3338417
9.126                0.986974685     -92.4872078
9.127                0.986942729     -92.6409551
9.128                0.986910698     -92.7950845
9.129                0.986878591     -92.9495968
9.13                 0.986846407     -93.1044931
9.131                0.986814149     -93.2597741
9.132                0.986781815     -93.4154408
9.133                0.986749405     -93.5714941
9.134                0.986716921     -93.7279348
9.135                0.986684361     -93.8847639
9.136                0.986651726     -94.0419823
9.137                0.986619016     -94.1995909
9.138                0.986586231     -94.3575905
9.139                0.986553372     -94.5159821
9.14                 0.986520438     -94.6747665
9.141                0.986487429     -94.8339446
9.142                0.986454347     -94.9935174
9.143                 0.98642119     -95.1534856
9.144                0.986387959     -95.3138502
9.145                0.986354654     -95.4746121
9.146                0.986321276     -95.6357722
9.147                0.986287824     -95.7973312
9.148                0.986254298     -95.9592902
9.149                  0.9862207     -96.1216499
9.15                 0.986187028     -96.2844113
9.151                0.986153284     -96.4475752
9.152                0.986119467     -96.6111425
9.153                0.986085577     -96.7751141
9.154                0.986051615     -96.9394907
9.155                0.986017581     -97.1042734
9.156                0.985983476     -97.2694629
9.157                0.985949298     -97.4350601
9.158                0.985915049     -97.6010659
9.159                0.985880729      -97.767481
9.16                 0.985846338     -97.9343065
9.161                0.985811876      -98.101543
9.162                0.985777343     -98.2691916
9.163                 0.98574274     -98.4372529
9.164                0.985708067     -98.6057278
9.165                0.985673325     -98.7746173
9.166                0.985638512      -98.943922
9.167                0.985603631     -99.1136429
9.168                 0.98556868     -99.2837808
9.169                0.985533661     -99.4543364
9.17                 0.985498573     -99.6253107
9.171                0.985463417     -99.7967044
9.172                0.985428193     -99.9685184
9.173                0.985392901     -100.140753
9.174                0.985357542      -100.31341
9.175                0.985322116      -100.48649
9.176                0.985286624     -100.659993
9.177                0.985251065     -100.833921
9.178                 0.98521544     -101.008273
9.179                0.985179749     -101.183051
9.18                 0.985143993     -101.358256
9.181                0.985108172     -101.533889
9.182                0.985072286     -101.709949
9.183                0.985036336     -101.886439
9.184                0.985000322     -102.063358
9.185                0.984964244     -102.240708
9.186                0.984928103      -102.41849
9.187                  0.9848919     -102.596703
9.188                0.984855634     -102.775349
9.189                0.984819306     -102.954429
9.19                 0.984782916     -103.133943
9.191                0.984746465     -103.313892
9.192                0.984709953     -103.494276
9.193                0.984673381     -103.675098
9.194                0.984636749     -103.856356
9.195                0.984600057     -104.038053
9.196                0.984563306     -104.220188
9.197                0.984526497     -104.402762
9.198                 0.98448963     -104.585777
9.199                0.984452704     -104.769232
9.2                  0.984415722     -104.953129
9.201                0.984378683     -105.137468
9.202                0.984341587      -105.32225
9.203                0.984304436     -105.507475
9.204                 0.98426723     -105.693144
9.205                0.984229969     -105.879259
9.206                0.984192653     -106.065819
9.207                0.984155284     -106.252825
9.208                0.984117862     -106.440278
9.209                0.984080387     -106.628178
9.21                  0.98404286     -106.816526
9.211                0.984005281     -107.005323
9.212                0.983967652      -107.19457
9.213                0.983929972     -107.384266
9.214                0.983892242     -107.574413
9.215                0.983854463     -107.765011
9.216                0.983816636     -107.956061
9.217                 0.98377876     -108.147563
9.218                0.983740837     -108.339518
9.219                0.983702867     -108.531927
9.22                 0.983664851     -108.724789
9.221                 0.98362679     -108.918106
9.222                0.983588683     -109.111879
9.223                0.983550533     -109.306107
9.224                0.983512338     -109.500791
9.225                0.983474101     -109.695932
9.226                0.983435822     -109.891531
9.227                0.983397501     -110.087587
9.228                0.983359139     -110.284101
9.229                0.983320737     -110.481075
9.23                 0.983282295     -110.678507
9.231                0.983243815       -110.8764
9.232                0.983205297     -111.074752
9.233                0.983166742     -111.273565
9.234                 0.98312815      -111.47284
9.235                0.983089522     -111.672576
9.236                0.983050859     -111.872774
9.237                0.983012162     -112.073434
9.238                0.982973432     -112.274557
9.239                0.982934669     -112.476144
9.24                 0.982895874     -112.678194
9.241                0.982857048     -112.880708
9.242                0.982818192     -113.083687
9.243                0.982779307     -113.287131
9.244                0.982740393     -113.491039
9.245                0.982701451     -113.695414
9.246                0.982662482     -113.900254
9.247                0.982623487      -114.10556
9.248                0.982584468     -114.311333
9.249                0.982545423     -114.517572
9.25                 0.982506356     -114.724279
9.251                0.982467266     -114.931453
9.252                0.982428155     -115.139094
9.253                0.982389023     -115.347204
9.254                0.982349871     -115.555782
9.255                  0.9823107     -115.764828
9.256                0.982271512     -115.974343
9.257                0.982232307     -116.184327
9.258                0.982193086      -116.39478
9.259                 0.98215385     -116.605702
9.26                   0.9821146     -116.817094
9.261                0.982075337     -117.028955
9.262                0.982036062     -117.241286
9.263                0.981996776     -117.454087
9.264                 0.98195748     -117.667358
9.265                0.981918176       -117.8811
9.266                0.981878863     -118.095312
9.267                0.981839544     -118.309994
9.268                0.981800219     -118.525147
9.269                 0.98176089      -118.74077
9.27                 0.981721556     -118.956864
9.271                0.981682221     -119.173429
9.272                0.981642884     -119.390465
9.273                0.981603546     -119.607971
9.274                 0.98156421     -119.825948
9.275                0.981524876     -120.044396
9.276                0.981485544     -120.263315
9.277                0.981446217     -120.482705
9.278                0.981406896     -120.702565
9.279                 0.98136758     -120.922896
9.28                 0.981328273     -121.143698
9.281                0.981288975      -121.36497
9.282                0.981249686     -121.586712
9.283                 0.98121041     -121.808925
9.284                0.981171145     -122.031608
9.285                0.981131895     -122.254761
9.286                0.981092659     -122.478384
9.287                 0.98105344     -122.702476
9.288                0.981014238     -122.927039
9.289                0.980975055      -123.15207
9.29                 0.980935892     -123.377571
9.291                 0.98089675      -123.60354
9.292                0.980857631     -123.829978
9.293                0.980818536     -124.056884
9.294                0.980779466     -124.284259
9.295                0.980740423     -124.512101
9.296                0.980701407     -124.740411
9.297                0.980662421     -124.969188
9.298                0.980623465     -125.198432
9.299                0.980584541     -125.428142
9.3                  0.980545651     -125.658318
9.301                0.980506795      -125.88896
9.302                0.980467975     -126.120068
9.303                0.980429192      -126.35164
9.304                0.980390449     -126.583676
9.305                0.980351745     -126.816177
9.306                0.980313083     -127.049141
9.307                0.980274464     -127.282568
9.308                 0.98023589     -127.516458
9.309                0.980197361     -127.750809
9.31                  0.98015888     -127.985622
9.311                0.980120448     -128.220896
9.312                0.980082066     -128.456631
9.313                0.980043736     -128.692825
9.314                0.980005459     -128.929478
9.315                0.979967237     -129.166589
9.316                0.979929072     -129.404158
9.317                0.979890963     -129.642185
9.318                0.979852915     -129.880668
9.319                0.979814927     -130.119607
9.32                 0.979777001        -130.359
9.321                 0.97973914     -130.598848
9.322                0.979701343      -130.83915
9.323                0.979663614     -131.079905
9.324                0.979625954     -131.321111
9.325                0.979588363     -131.562768
9.326                0.979550844     -131.804876
9.327                0.979513399     -132.047434
9.328                0.979476028      -132.29044
9.329                0.979438734     -132.533893
9.33                 0.979401518     -132.777794
9.331                0.979364382      -133.02214
9.332                0.979327327     -133.266932
9.333                0.979290355     -133.512167
9.334                0.979253467     -133.757845
9.335                0.979216666     -134.003966
9.336                0.979179953     -134.250527
9.337                0.979143329     -134.497528
9.338                0.979106796     -134.744968
9.339                0.979070356     -134.992846
9.34                 0.979034011      -135.24116
9.341                0.978997762      -135.48991
9.342                0.978961611     -135.739095
9.343                0.978925559     -135.988712
9.344                0.978889609     -136.238762
9.345                0.978853761     -136.489242
9.346                0.978818019     -136.740152
9.347                0.978782382      -136.99149
9.348                0.978746854     -137.243255
9.349                0.978711435     -137.495447
9.35                 0.978676128     -137.748062
9.351                0.978640934     -138.001101
9.352                0.978605855     -138.254561
9.353                0.978570893     -138.508442
9.354                0.978536049     -138.762742
9.355                0.978501326      -139.01746
9.356                0.978466724     -139.272594
9.357                0.978432246     -139.528142
9.358                0.978397893     -139.784104
9.359                0.978363667     -140.040477
9.36                 0.978329571     -140.297261
9.361                0.978295604     -140.554453
9.362                0.978261771     -140.812053
9.363                0.978228071     -141.070058
9.364                0.978194508     -141.328467
9.365                0.978161082     -141.587278
9.366                0.978127796      -141.84649
9.367                 0.97809465     -142.106101
9.368                0.978061648     -142.366109
9.369                0.978028791     -142.626513
9.37                  0.97799608      -142.88731
9.371                0.977963518       -143.1485
9.372                0.977931105      -143.41008
9.373                0.977898845     -143.672049
9.374                0.977866738     -143.934404
9.375                0.977834786     -144.197145
9.376                0.977802992     -144.460268
9.377                0.977771357     -144.723772
9.378                0.977739882     -144.987656
9.379                 0.97770857     -145.251917
9.38                 0.977677422     -145.516553
9.381                0.977646441     -145.781563
9.382                0.977615627     -146.046944
9.383                0.977584982     -146.312694
9.384                0.977554509     -146.578812
9.385                0.977524209     -146.845295
9.386                0.977494084     -147.112141
9.387                0.977464136     -147.379349
9.388                0.977434366     -147.646915
9.389                0.977404776     -147.914839
9.39                 0.977375368     -148.183117
9.391                0.977346143     -148.451747
9.392                0.977317104     -148.720728
9.393                0.977288252     -148.990057
9.394                0.977259589     -149.259732
9.395                0.977231116     -149.529751
9.396                0.977202836     -149.800111
