! TOUCHSTONE file generated by CST DESIGN STUDIO
! Date and time: Tue Feb  4 17:11:12 2025
! Project name: C:\Work\MatlabApps\UnitCellOptimizationMatlab\CST\unitcell.cst
! Tree item: Tasks\Sweep1\SPara1\S-Parameters
! Header version: 2024
! Port assignment regex: !\s*Touchstone port\s*([0-9]+)\s*=\s*(CST MWS port|CST DES external port|CST DES block port)\s*(.+)\s* \(\"(.*)\"\)(\s*mode\s*([0-9]+))?.*
! Touchstone port assignment:
! Touchstone port 1 = CST DES external port 1 ("")
# GHz S MA R 50
9                    0.991098511     -72.6361747
9.001                0.991078585     -72.7418113
9.002                0.991058599     -72.8476999
9.003                0.991038553     -72.9538411
9.004                0.991018448     -73.0602358
9.005                0.990998282     -73.1668845
9.006                0.990978056     -73.2737881
9.007                 0.99095777     -73.3809474
9.008                0.990937423     -73.4883631
9.009                0.990917016     -73.5960359
9.01                 0.990896548     -73.7039667
9.011                0.990876019     -73.8121561
9.012                0.990855429      -73.920605
9.013                0.990834778     -74.0293141
9.014                0.990814065     -74.1382842
9.015                0.990793291      -74.247516
9.016                0.990772455     -74.3570103
9.017                0.990751558     -74.4667679
9.018                0.990730598     -74.5767896
9.019                0.990709577     -74.6870761
9.02                 0.990688493     -74.7976283
9.021                0.990667347     -74.9084468
9.022                0.990646139     -75.0195325
9.023                0.990624868     -75.1308862
9.024                0.990603535     -75.2425086
9.025                0.990582138     -75.3544006
9.026                0.990560678     -75.4665629
9.027                0.990539156     -75.5789964
9.028                 0.99051757     -75.6917017
9.029                0.990495921     -75.8046798
9.03                 0.990474208     -75.9179314
9.031                0.990452431     -76.0314573
9.032                0.990430591     -76.1452583
9.033                0.990408687     -76.2593352
9.034                0.990386718     -76.3736888
9.035                0.990364686       -76.48832
9.036                0.990342589     -76.6032295
9.037                0.990320428     -76.7184182
9.038                0.990298202     -76.8338868
9.039                0.990275911     -76.9496362
9.04                 0.990253556     -77.0656671
9.041                0.990231136     -77.1819805
9.042                 0.99020865     -77.2985771
9.043                0.990186099     -77.4154578
9.044                0.990163483     -77.5326233
9.045                0.990140802     -77.6500746
9.046                0.990118055     -77.7678123
9.047                0.990095242     -77.8858374
9.048                0.990072363     -78.0041507
9.049                0.990049419      -78.122753
9.05                 0.990026408     -78.2416451
9.051                0.990003331     -78.3608279
9.052                0.989980188     -78.4803023
9.053                0.989956978      -78.600069
9.054                0.989933702     -78.7201289
9.055                0.989910359     -78.8404828
9.056                0.989886949     -78.9611317
9.057                0.989863473     -79.0820762
9.058                0.989839929     -79.2033174
9.059                0.989816319     -79.3248559
9.06                 0.989792641     -79.4466928
9.061                0.989768895     -79.5688287
9.062                0.989745083     -79.6912647
9.063                0.989721202     -79.8140015
9.064                0.989697254     -79.9370399
9.065                0.989673238      -80.060381
9.066                0.989649155     -80.1840254
9.067                0.989625003     -80.3079742
9.068                0.989600783      -80.432228
9.069                0.989576495     -80.5567879
9.07                 0.989552139     -80.6816546
9.071                0.989527714     -80.8068291
9.072                 0.98950322     -80.9323122
9.073                0.989478659     -81.0581047
9.074                0.989454028     -81.1842076
9.075                0.989429329     -81.3106217
9.076                 0.98940456      -81.437348
9.077                0.989379723     -81.5643872
9.078                0.989354817     -81.6917402
9.079                0.989329841      -81.819408
9.08                 0.989304796     -81.9473914
9.081                0.989279682     -82.0756912
9.082                0.989254499     -82.2043085
9.083                0.989229245      -82.333244
9.084                0.989203923     -82.4624987
9.085                 0.98917853     -82.5920734
9.086                0.989153068      -82.721969
9.087                0.989127536     -82.8521864
9.088                0.989101934     -82.9827265
9.089                0.989076262     -83.1135903
9.09                  0.98905052     -83.2447785
9.091                0.989024708     -83.3762921
9.092                0.988998826      -83.508132
9.093                0.988972873      -83.640299
9.094                 0.98894685     -83.7727942
9.095                0.988920756     -83.9056183
9.096                0.988894593     -84.0387722
9.097                0.988868358      -84.172257
9.098                0.988842053     -84.3060734
9.099                0.988815677     -84.4402224
9.1                  0.988789231     -84.5747049
9.101                0.988762713     -84.7095218
9.102                0.988736125      -84.844674
9.103                0.988709466     -84.9801624
9.104                0.988682736     -85.1159879
9.105                0.988655935     -85.2521514
9.106                0.988629063     -85.3886538
9.107                 0.98860212     -85.5254961
9.108                0.988575106     -85.6626792
9.109                 0.98854802     -85.8002039
9.11                 0.988520863     -85.9380712
9.111                0.988493636      -86.076282
9.112                0.988466336     -86.2148372
9.113                0.988438966     -86.3537377
9.114                0.988411524     -86.4929845
9.115                0.988384011     -86.6325784
9.116                0.988356427     -86.7725204
9.117                0.988328771     -86.9128114
9.118                0.988301043     -87.0534523
9.119                0.988273244      -87.194444
9.12                 0.988245374     -87.3357875
9.121                0.988217432     -87.4774836
9.122                0.988189419     -87.6195333
9.123                0.988161334     -87.7619376
9.124                0.988133178     -87.9046973
9.125                 0.98810495     -88.0478133
9.126                0.988076651     -88.1912866
9.127                 0.98804828     -88.3351181
9.128                0.988019838     -88.4793087
9.129                0.987991324     -88.6238594
9.13                 0.987962739     -88.7687711
9.131                0.987934083     -88.9140446
9.132                0.987905354     -89.0596809
9.133                0.987876555      -89.205681
9.134                0.987847684     -89.3520457
9.135                0.987818742     -89.4987761
9.136                0.987789728     -89.6458729
9.137                0.987760643     -89.7933371
9.138                0.987731486     -89.9411698
9.139                0.987702259     -90.0893717
9.14                  0.98767296     -90.2379437
9.141                 0.98764359      -90.386887
9.142                0.987614149     -90.5362022
9.143                0.987584637     -90.6858904
9.144                0.987555053     -90.8359526
9.145                0.987525399     -90.9863895
9.146                0.987495674     -91.1372022
9.147                0.987465878     -91.2883915
9.148                0.987436011     -91.4399584
9.149                0.987406073     -91.5919038
9.15                 0.987376065     -91.7442286
9.151                0.987345986     -91.8969337
9.152                0.987315837     -92.0500201
9.153                0.987285617     -92.2034887
9.154                0.987255327     -92.3573404
9.155                0.987224967      -92.511576
9.156                0.987194537     -92.6661966
9.157                0.987164036      -92.821203
9.158                0.987133466     -92.9765962
9.159                0.987102825      -93.132377
9.16                 0.987072115     -93.2885464
9.161                0.987041336     -93.4451052
9.162                0.987010487     -93.6020545
9.163                0.986979568      -93.759395
9.164                 0.98694858     -93.9171278
9.165                0.986917523     -94.0752537
9.166                0.986886397     -94.2337736
9.167                0.986855203     -94.3926884
9.168                0.986823939     -94.5519991
9.169                0.986792607     -94.7117064
9.17                 0.986761206     -94.8718114
9.171                0.986729738     -95.0323149
9.172                0.986698201     -95.1932179
9.173                0.986666596     -95.3545211
9.174                0.986634923     -95.5162256
9.175                0.986603183     -95.6783321
9.176                0.986571375     -95.8408416
9.177                  0.9865395      -96.003755
9.178                0.986507558     -96.1670732
9.179                0.986475549      -96.330797
9.18                 0.986443473     -96.4949273
9.181                0.986411331      -96.659465
9.182                0.986379122      -96.824411
9.183                0.986346847     -96.9897661
9.184                0.986314507     -97.1555313
9.185                0.986282101     -97.3217073
9.186                0.986249629     -97.4882952
9.187                0.986217092     -97.6552956
9.188                0.986184491     -97.8227095
9.189                0.986151824     -97.9905378
9.19                 0.986119093     -98.1587813
9.191                0.986086298     -98.3274409
9.192                0.986053439     -98.4965174
9.193                0.986020516     -98.6660116
9.194                0.985987529     -98.8359245
9.195                 0.98595448     -99.0062568
9.196                0.985921367     -99.1770094
9.197                0.985888192     -99.3481831
9.198                0.985854954     -99.5197788
9.199                0.985821655     -99.6917973
9.2                  0.985788293     -99.8642394
9.201                0.985754871     -100.037106
9.202                0.985721387     -100.210398
9.203                0.985687842     -100.384116
9.204                0.985654237     -100.558261
9.205                0.985620571     -100.732833
9.206                0.985586846     -100.907834
9.207                0.985553061     -101.083265
9.208                0.985519217     -101.259125
9.209                0.985485314     -101.435416
9.21                 0.985451353     -101.612139
9.211                0.985417333     -101.789295
9.212                0.985383256     -101.966884
9.213                0.985349121     -102.144907
9.214                 0.98531493     -102.323364
9.215                0.985280682     -102.502258
9.216                0.985246378     -102.681587
9.217                0.985212017     -102.861354
9.218                0.985177602     -103.041559
9.219                0.985143132     -103.222202
9.22                 0.985108606     -103.403284
9.221                0.985074027     -103.584807
9.222                0.985039395     -103.766771
9.223                0.985004708     -103.949176
9.224                 0.98496997     -104.132023
9.225                0.984935178     -104.315314
9.226                0.984900335     -104.499048
9.227                0.984865441     -104.683226
9.228                0.984830495      -104.86785
9.229                0.984795499     -105.052919
9.23                 0.984760453     -105.238435
9.231                0.984725358     -105.424399
9.232                0.984690213      -105.61081
9.233                0.984655021      -105.79767
9.234                 0.98461978     -105.984979
9.235                0.984584491     -106.172737
9.236                0.984549156     -106.360947
9.237                0.984513775     -106.549607
9.238                0.984478348      -106.73872
9.239                0.984442875     -106.928285
9.24                 0.984407358     -107.118303
9.241                0.984371796     -107.308775
9.242                0.984336191     -107.499701
9.243                0.984300544     -107.691082
9.244                0.984264853     -107.882919
9.245                0.984229121     -108.075211
9.246                0.984193348     -108.267961
9.247                0.984157535     -108.461168
9.248                0.984121681     -108.654833
9.249                0.984085788     -108.848956
9.25                 0.984049856     -109.043538
9.251                0.984013887      -109.23858
9.252                 0.98397788     -109.434082
9.253                0.983941836     -109.630045
9.254                0.983905757     -109.826469
9.255                0.983869642     -110.023354
9.256                0.983833492     -110.220702
9.257                0.983797309     -110.418512
9.258                0.983761092     -110.616786
9.259                0.983724843     -110.815523
9.26                 0.983688562     -111.014725
9.261                 0.98365225     -111.214391
9.262                0.983615907     -111.414522
9.263                0.983579535     -111.615119
9.264                0.983543134     -111.816181
9.265                0.983506705      -112.01771
9.266                0.983470249     -112.219706
9.267                0.983433766     -112.422169
9.268                0.983397258       -112.6251
9.269                0.983360724     -112.828499
9.27                 0.983324167     -113.032366
9.271                0.983287586     -113.236702
9.272                0.983250982     -113.441508
9.273                0.983214357     -113.646782
9.274                0.983177711     -113.852527
9.275                0.983141046     -114.058742
9.276                0.983104361     -114.265427
9.277                0.983067657     -114.472583
9.278                0.983030937      -114.68021
9.279                  0.9829942     -114.888309
9.28                 0.982957447     -115.096879
9.281                 0.98292068     -115.305922
9.282                0.982883899     -115.515436
9.283                0.982847105     -115.725423
9.284                0.982810299     -115.935883
9.285                0.982773483     -116.146815
9.286                0.982736656     -116.358221
9.287                 0.98269982       -116.5701
9.288                0.982662976     -116.782453
9.289                0.982626125     -116.995279
9.29                 0.982589268     -117.208579
9.291                0.982552405     -117.422353
9.292                0.982515539     -117.636601
9.293                0.982478669     -117.851324
9.294                0.982441797     -118.066521
9.295                0.982404924     -118.282192
9.296                0.982368051     -118.498338
9.297                 0.98233118     -118.714959
9.298                 0.98229431     -118.932054
9.299                0.982257443     -119.149625
9.3                   0.98222058      -119.36767
9.301                0.982183723     -119.586189
9.302                0.982146872     -119.805184
9.303                0.982110029     -120.024654
9.304                0.982073194     -120.244598
9.305                0.982036369     -120.465017
9.306                0.981999555     -120.685911
9.307                0.981962753      -120.90728
9.308                0.981925964     -121.129123
9.309                0.981889189     -121.351441
9.31                  0.98185243     -121.574233
9.311                0.981815687     -121.797499
9.312                0.981778962      -122.02124
9.313                0.981742256     -122.245454
9.314                0.981705571     -122.470143
9.315                0.981668907     -122.695305
9.316                0.981632265     -122.920941
9.317                0.981595648      -123.14705
9.318                0.981559055     -123.373632
9.319                0.981522489     -123.600687
9.32                  0.98148595     -123.828214
9.321                0.981449441     -124.056214
9.322                0.981412961     -124.284686
9.323                0.981376513      -124.51363
9.324                0.981340098     -124.743045
9.325                0.981303717     -124.972931
9.326                0.981267371     -125.203288
9.327                0.981231061     -125.434115
9.328                 0.98119479     -125.665412
9.329                0.981158558     -125.897179
9.33                 0.981122367     -126.129415
9.331                0.981086217     -126.362119
9.332                0.981050111     -126.595292
9.333                 0.98101405     -126.828933
9.334                0.980978035     -127.063041
9.335                0.980942068     -127.297616
9.336                0.980906149     -127.532657
9.337                 0.98087028     -127.768164
9.338                0.980834464     -128.004136
9.339                  0.9807987     -128.240573
9.34                 0.980762991     -128.477474
9.341                0.980727338     -128.714838
9.342                0.980691742     -128.952665
9.343                0.980656205     -129.190955
9.344                0.980620728     -129.429706
9.345                0.980585314     -129.668917
9.346                0.980549962     -129.908589
9.347                0.980514675     -130.148721
9.348                0.980479454     -130.389311
9.349                0.980444301     -130.630359
9.35                 0.980409218     -130.871864
9.351                0.980374204     -131.113825
9.352                0.980339263     -131.356242
9.353                0.980304396     -131.599114
9.354                0.980269604     -131.842439
9.355                0.980234889     -132.086218
9.356                0.980200252     -132.330449
9.357                0.980165695     -132.575131
9.358                0.980131219     -132.820263
9.359                0.980096826     -133.065844
9.36                 0.980062518     -133.311874
9.361                0.980028296     -133.558351
9.362                0.979994162     -133.805275
9.363                0.979960116     -134.052644
9.364                0.979926162     -134.300457
9.365                  0.9798923     -134.548714
9.366                0.979858532     -134.797412
9.367                 0.97982486     -135.046552
9.368                0.979791285     -135.296131
9.369                0.979757808      -135.54615
9.37                 0.979724433     -135.796605
9.371                0.979691159     -136.047498
9.372                0.979657989     -136.298825
9.373                0.979624924     -136.550586
9.374                0.979591966      -136.80278
9.375                0.979559117     -137.055406
9.376                0.979526378     -137.308461
9.377                0.979493751     -137.561946
9.378                0.979461238     -137.815857
9.379                 0.97942884     -138.070195
9.38                 0.979396558     -138.324958
9.381                0.979364396     -138.580144
9.382                0.979332353     -138.835752
9.383                0.979300432      -139.09178
9.384                0.979268635     -139.348227
9.385                0.979236963     -139.605092
9.386                0.979205417     -139.862373
9.387                0.979174001     -140.120068
9.388                0.979142714     -140.378177
9.389                 0.97911156     -140.636696
9.39                 0.979080539     -140.895626
9.391                0.979049653     -141.154963
9.392                0.979018904     -141.414707
9.393                0.978988294     -141.674856
9.394                0.978957824     -141.935408
9.395                0.978927497     -142.196362
9.396                0.978897313     -142.457715
