! TOUCHSTONE file generated by CST DESIGN STUDIO
! Date and time: Tue Feb  4 17:11:03 2025
! Project name: C:\Work\MatlabApps\UnitCellOptimizationMatlab\CST\unitcell.cst
! Tree item: Tasks\Sweep1\SPara1\S-Parameters
! Header version: 2024
! Port assignment regex: !\s*Touchstone port\s*([0-9]+)\s*=\s*(CST MWS port|CST DES external port|CST DES block port)\s*(.+)\s* \(\"(.*)\"\)(\s*mode\s*([0-9]+))?.*
! Touchstone port assignment:
! Touchstone port 1 = CST DES external port 1 ("")
# GHz S MA R 50
9                     0.99022207     -76.6394936
9.001                0.990198764     -76.7540224
9.002                 0.99017539     -76.8688282
9.003                0.990151945     -76.9839117
9.004                0.990128431     -77.0992739
9.005                0.990104847     -77.2149154
9.006                0.990081192     -77.3308371
9.007                0.990057468     -77.4470399
9.008                0.990033673     -77.5635244
9.009                0.990009807     -77.6802916
9.01                 0.989985871     -77.7973422
9.011                0.989961864     -77.9146771
9.012                0.989937786      -78.032297
9.013                0.989913637     -78.1502029
9.014                0.989889417     -78.2683954
9.015                0.989865125     -78.3868755
9.016                0.989840762      -78.505644
9.017                0.989816327     -78.6247016
9.018                 0.98979182     -78.7440493
9.019                0.989767242     -78.8636878
9.02                 0.989742591      -78.983618
9.021                0.989717868     -79.1038407
9.022                0.989693073     -79.2243567
9.023                0.989668205     -79.3451669
9.024                0.989643265     -79.4662721
9.025                0.989618252     -79.5876732
9.026                0.989593166     -79.7093709
9.027                0.989568007     -79.8313662
9.028                0.989542776     -79.9536599
9.029                 0.98951747     -80.0762528
9.03                 0.989492092     -80.1991457
9.031                 0.98946664     -80.3223396
9.032                0.989441114     -80.4458352
9.033                0.989415515     -80.5696335
9.034                0.989389842     -80.6937352
9.035                0.989364094     -80.8181413
9.036                0.989338273     -80.9428525
9.037                0.989312378     -81.0678698
9.038                0.989286408      -81.193194
9.039                0.989260363     -81.3188259
9.04                 0.989234245     -81.4447664
9.041                0.989208051     -81.5710164
9.042                0.989181783     -81.6975768
9.043                0.989155439     -81.8244484
9.044                0.989129021      -81.951632
9.045                0.989102528     -82.0791286
9.046                0.989075959      -82.206939
9.047                0.989049315     -82.3350641
9.048                0.989022596     -82.4635048
9.049                0.988995801     -82.5922619
9.05                  0.98896893     -82.7213362
9.051                0.988941984     -82.8507288
9.052                0.988914962     -82.9804404
9.053                0.988887864      -83.110472
9.054                 0.98886069     -83.2408243
9.055                0.988833439     -83.3714984
9.056                0.988806113      -83.502495
9.057                 0.98877871     -83.6338152
9.058                0.988751231     -83.7654596
9.059                0.988723675     -83.8974293
9.06                 0.988696043     -84.0297251
9.061                0.988668334     -84.1623479
9.062                0.988640548     -84.2952986
9.063                0.988612686      -84.428578
9.064                0.988584746     -84.5621872
9.065                 0.98855673     -84.6961269
9.066                0.988528637      -84.830398
9.067                0.988500466     -84.9650016
9.068                0.988472218     -85.0999383
9.069                0.988443893     -85.2352092
9.07                 0.988415491     -85.3708151
9.071                0.988387011      -85.506757
9.072                0.988358454     -85.6430356
9.073                 0.98832982     -85.7796521
9.074                0.988301107     -85.9166071
9.075                0.988272317     -86.0539016
9.076                 0.98824345     -86.1915366
9.077                0.988214504     -86.3295129
9.078                0.988185481     -86.4678315
9.079                 0.98815638     -86.6064932
9.08                 0.988127201     -86.7454989
9.081                0.988097944     -86.8848495
9.082                 0.98806861      -87.024546
9.083                0.988039197     -87.1645892
9.084                0.988009706     -87.3049801
9.085                0.987980137     -87.4457196
9.086                 0.98795049     -87.5868085
9.087                0.987920765     -87.7282478
9.088                0.987890961     -87.8700384
9.089                 0.98786108     -88.0121812
9.09                  0.98783112      -88.154677
9.091                0.987801082     -88.2975269
9.092                0.987770965     -88.4407317
9.093                0.987740771     -88.5842923
9.094                0.987710498     -88.7282096
9.095                0.987680146     -88.8724846
9.096                0.987649717     -89.0171181
9.097                0.987619209     -89.1621111
9.098                0.987588623     -89.3074645
9.099                0.987557959     -89.4531791
9.1                  0.987527216      -89.599256
9.101                0.987496395     -89.7456959
9.102                0.987465496     -89.8924998
9.103                0.987434518     -90.0396687
9.104                0.987403462     -90.1872034
9.105                0.987372328     -90.3351048
9.106                0.987341116     -90.4833739
9.107                0.987309826     -90.6320115
9.108                0.987278457     -90.7810186
9.109                0.987247011      -90.930396
9.11                 0.987215486     -91.0801448
9.111                0.987183883     -91.2302657
9.112                0.987152203     -91.3807597
9.113                0.987120444     -91.5316278
9.114                0.987088608     -91.6828707
9.115                0.987056693     -91.8344895
9.116                0.987024701     -91.9864849
9.117                0.986992631      -92.138858
9.118                0.986960484     -92.2916096
9.119                0.986928259     -92.4447407
9.12                 0.986895956     -92.5982521
9.121                0.986863576     -92.7521447
9.122                0.986831119     -92.9064195
9.123                0.986798584     -93.0610773
9.124                0.986765973      -93.216119
9.125                0.986733284     -93.3715456
9.126                0.986700518     -93.5273579
9.127                0.986667675     -93.6835568
9.128                0.986634756     -93.8401432
9.129                0.986601759     -93.9971181
9.13                 0.986568687     -94.1544822
9.131                0.986535537     -94.3122366
9.132                0.986502312      -94.470382
9.133                 0.98646901     -94.6289194
9.134                0.986435632     -94.7878497
9.135                0.986402178     -94.9471738
9.136                0.986368649     -95.1068924
9.137                0.986335044     -95.2670066
9.138                0.986301363     -95.4275172
9.139                0.986267607      -95.588425
9.14                 0.986233775      -95.749731
9.141                0.986199869     -95.9114361
9.142                0.986165887      -96.073541
9.143                0.986131831     -96.2360467
9.144                0.986097701     -96.3989541
9.145                0.986063496      -96.562264
9.146                0.986029217     -96.7259772
9.147                0.985994864     -96.8900947
9.148                0.985960437     -97.0546173
9.149                0.985925936     -97.2195459
9.15                 0.985891362     -97.3848812
9.151                0.985856715     -97.5506243
9.152                0.985821995     -97.7167759
9.153                0.985787202     -97.8833369
9.154                0.985752337     -98.0503081
9.155                0.985717399     -98.2176903
9.156                 0.98568239     -98.3854845
9.157                0.985647308     -98.5536914
9.158                0.985612155      -98.722312
9.159                0.985576931     -98.8913469
9.16                 0.985541635     -99.0607971
9.161                0.985506269     -99.2306634
9.162                0.985470832     -99.4009466
9.163                0.985435325     -99.5716475
9.164                0.985399748      -99.742767
9.165                0.985364101     -99.9143058
9.166                0.985328385     -100.086265
9.167                  0.9852926     -100.258645
9.168                0.985256746     -100.431447
9.169                0.985220824     -100.604671
9.17                 0.985184833     -100.778319
9.171                0.985148774     -100.952391
9.172                0.985112648     -101.126888
9.173                0.985076455      -101.30181
9.174                0.985040195     -101.477159
9.175                0.985003869     -101.652936
9.176                0.984967476     -101.829141
9.177                0.984931017     -102.005774
9.178                0.984894494     -102.182837
9.179                0.984857905     -102.360331
9.18                 0.984821251     -102.538255
9.181                0.984784533     -102.716612
9.182                0.984747751     -102.895401
9.183                0.984710906     -103.074624
9.184                0.984673998     -103.254281
9.185                0.984637027     -103.434372
9.186                0.984599994       -103.6149
9.187                0.984562899     -103.795863
9.188                0.984525742     -103.977264
9.189                0.984488525     -104.159102
9.19                 0.984451247     -104.341379
9.191                0.984413909     -104.524095
9.192                0.984376512     -104.707251
9.193                0.984339055     -104.890848
9.194                 0.98430154     -105.074886
9.195                0.984263966     -105.259366
9.196                0.984226335     -105.444288
9.197                0.984188647     -105.629654
9.198                0.984150902     -105.815463
9.199                0.984113101     -106.001718
9.2                  0.984075245     -106.188417
9.201                0.984037333     -106.375563
9.202                0.983999367     -106.563155
9.203                0.983961347     -106.751194
9.204                0.983923273     -106.939681
9.205                0.983885147     -107.128616
9.206                0.983846968     -107.318001
9.207                0.983808737     -107.507835
9.208                0.983770456      -107.69812
9.209                0.983732123     -107.888855
9.21                 0.983693741     -108.080042
9.211                 0.98365531     -108.271681
9.212                0.983616829     -108.463772
9.213                0.983578301     -108.656317
9.214                0.983539725     -108.849316
9.215                0.983501102     -109.042768
9.216                0.983462433     -109.236676
9.217                0.983423719     -109.431039
9.218                0.983384959     -109.625858
9.219                0.983346156     -109.821133
9.22                 0.983307309     -110.016865
9.221                0.983268419     -110.213055
9.222                0.983229487     -110.409703
9.223                0.983190514     -110.606809
9.224                  0.9831515     -110.804374
9.225                0.983112446     -111.002398
9.226                0.983073353     -111.200882
9.227                0.983034221     -111.399827
9.228                0.982995052     -111.599232
9.229                0.982955845     -111.799098
9.23                 0.982916603     -111.999426
9.231                0.982877325     -112.200216
9.232                0.982838012     -112.401469
9.233                0.982798666     -112.603184
9.234                0.982759287     -112.805363
9.235                0.982719875     -113.008005
9.236                0.982680432     -113.211111
9.237                0.982640959     -113.414682
9.238                0.982601456     -113.618717
9.239                0.982561924     -113.823218
9.24                 0.982522364     -114.028183
9.241                0.982482777     -114.233615
9.242                0.982443164     -114.439512
9.243                0.982403525     -114.645876
9.244                0.982363863     -114.852706
9.245                0.982324176     -115.060003
9.246                0.982284467     -115.267768
9.247                0.982244736        -115.476
9.248                0.982204985     -115.684699
9.249                0.982165214     -115.893866
9.25                 0.982125424     -116.103502
9.251                0.982085616     -116.313606
9.252                0.982045791     -116.524178
9.253                 0.98200595     -116.735219
9.254                0.981966095     -116.946729
9.255                0.981926225     -117.158708
9.256                0.981886343     -117.371157
9.257                0.981846449     -117.584074
9.258                0.981806544     -117.797462
9.259                0.981766629     -118.011318
9.26                 0.981726706     -118.225645
9.261                0.981686775     -118.440441
9.262                0.981646837     -118.655708
9.263                0.981606894     -118.871444
9.264                0.981566946     -119.087651
9.265                0.981526995     -119.304327
9.266                0.981487042     -119.521474
9.267                0.981447088      -119.73909
9.268                0.981407134     -119.957177
9.269                0.981367181     -120.175734
9.27                  0.98132723     -120.394761
9.271                0.981287283     -120.614259
9.272                0.981247341     -120.834226
9.273                0.981207404     -121.054663
9.274                0.981167475      -121.27557
9.275                0.981127553     -121.496947
9.276                0.981087642     -121.718793
9.277                0.981047741      -121.94111
9.278                0.981007851     -122.163895
9.279                0.980967975      -122.38715
9.28                 0.980928114     -122.610874
9.281                0.980888268     -122.835067
9.282                0.980848438     -123.059728
9.283                0.980808627     -123.284858
9.284                0.980768836     -123.510457
9.285                0.980729065     -123.736523
9.286                0.980689317     -123.963058
9.287                0.980649592      -124.19006
9.288                0.980609891     -124.417529
9.289                0.980570217     -124.645465
9.29                  0.98053057     -124.873868
9.291                0.980490951     -125.102737
9.292                0.980451363     -125.332072
9.293                0.980411806     -125.561872
9.294                0.980372282     -125.792138
9.295                0.980332793     -126.022869
9.296                0.980293339     -126.254064
9.297                0.980253922     -126.485723
9.298                0.980214543     -126.717846
9.299                0.980175205     -126.950431
9.3                  0.980135907     -127.183479
9.301                0.980096653      -127.41699
9.302                0.980057442     -127.650962
9.303                0.980018278     -127.885395
9.304                 0.97997916     -128.120288
9.305                0.979940091     -128.355641
9.306                0.979901072     -128.591454
9.307                0.979862105     -128.827725
9.308                0.979823191     -129.064455
9.309                0.979784332     -129.301642
9.31                 0.979745528     -129.539286
9.311                0.979706783     -129.777385
9.312                0.979668096     -130.015941
9.313                 0.97962947     -130.254951
9.314                0.979590907     -130.494415
9.315                0.979552407     -130.734333
9.316                0.979513973     -130.974702
9.317                0.979475606     -131.215524
9.318                0.979437307     -131.456797
9.319                0.979399079     -131.698519
9.32                 0.979360922     -131.940691
9.321                0.979322839     -132.183311
9.322                 0.97928483     -132.426379
9.323                0.979246899     -132.669893
9.324                0.979209045     -132.913854
9.325                0.979171272     -133.158258
9.326                0.979133579     -133.403107
9.327                 0.97909597     -133.648399
9.328                0.979058446     -133.894132
9.329                0.979021008     -134.140306
9.33                 0.978983659      -134.38692
9.331                0.978946399     -134.633973
9.332                 0.97890923     -134.881463
9.333                0.978872155      -135.12939
9.334                0.978835175     -135.377752
9.335                0.978798291     -135.626549
9.336                0.978761505     -135.875778
9.337                 0.97872482      -136.12544
9.338                0.978688236     -136.375533
9.339                0.978651755     -136.626055
9.34                  0.97861538     -136.877005
9.341                0.978579111     -137.128383
9.342                0.978542951     -137.380186
9.343                0.978506901     -137.632414
9.344                0.978470963     -137.885065
9.345                0.978435139     -138.138138
9.346                0.978399431     -138.391632
9.347                 0.97836384     -138.645544
9.348                0.978328367     -138.899875
9.349                0.978293016     -139.154621
9.35                 0.978257787     -139.409783
9.351                0.978222683     -139.665357
9.352                0.978187704     -139.921344
9.353                0.978152854     -140.177741
9.354                0.978118133     -140.434547
9.355                0.978083544     -140.691761
9.356                0.978049087      -140.94938
9.357                0.978014766     -141.207403
9.358                0.977980582     -141.465829
9.359                0.977946536     -141.724655
9.36                  0.97791263     -141.983881
9.361                0.977878867     -142.243505
9.362                0.977845247     -142.503524
9.363                0.977811773     -142.763938
9.364                0.977778447     -143.024744
9.365                 0.97774527     -143.285941
9.366                0.977712245     -143.547526
9.367                0.977679372     -143.809499
9.368                0.977646653     -144.071857
9.369                0.977614092     -144.334598
9.37                 0.977581688     -144.597721
9.371                0.977549445     -144.861224
9.372                0.977517364     -145.125104
9.373                0.977485446      -145.38936
9.374                0.977453694      -145.65399
9.375                0.977422109     -145.918992
9.376                0.977390693     -146.184364
9.377                0.977359447     -146.450104
9.378                0.977328375     -146.716209
9.379                0.977297477     -146.982679
9.38                 0.977266755      -147.24951
9.381                0.977236211       -147.5167
9.382                0.977205847     -147.784248
9.383                0.977175664     -148.052152
9.384                0.977145665     -148.320409
9.385                 0.97711585     -148.589016
9.386                0.977086223     -148.857973
9.387                0.977056784     -149.127276
9.388                0.977027535     -149.396923
9.389                0.976998479     -149.666912
9.39                 0.976969616     -149.937241
9.391                0.976940949     -150.207908
9.392                0.976912479     -150.478909
9.393                0.976884208     -150.750243
9.394                0.976856138     -151.021908
9.395                0.976828271     -151.293901
9.396                0.976800607     -151.566219
