! TOUCHSTONE file generated by CST DESIGN STUDIO
! Date and time: Tue Feb  4 17:11:08 2025
! Project name: C:\Work\MatlabApps\UnitCellOptimizationMatlab\CST\unitcell.cst
! Tree item: Tasks\Sweep1\SPara1\S-Parameters
! Header version: 2024
! Port assignment regex: !\s*Touchstone port\s*([0-9]+)\s*=\s*(CST MWS port|CST DES external port|CST DES block port)\s*(.+)\s* \(\"(.*)\"\)(\s*mode\s*([0-9]+))?.*
! Touchstone port assignment:
! Touchstone port 1 = CST DES external port 1 ("")
# GHz S MA R 50
9                    0.990750324     -74.2646801
9.001                0.990729056     -74.3738586
9.002                0.990707724      -74.483299
9.003                0.990686329      -74.593002
9.004                0.990664869     -74.7029685
9.005                0.990643346     -74.8131992
9.006                0.990621759     -74.9236949
9.007                0.990600107     -75.0344564
9.008                0.990578391     -75.1454844
9.009                0.990556611     -75.2567797
9.01                 0.990534766     -75.3683432
9.011                0.990512856     -75.4801755
9.012                0.990490881     -75.5922775
9.013                0.990468841     -75.7046499
9.014                0.990446736     -75.8172936
9.015                0.990424565     -75.9302094
9.016                0.990402329      -76.043398
9.017                0.990380027     -76.1568602
9.018                 0.99035766     -76.2705969
9.019                0.990335226     -76.3846087
9.02                 0.990312727     -76.4988966
9.021                0.990290161     -76.6134614
9.022                0.990267529     -76.7283037
9.023                 0.99024483     -76.8434246
9.024                0.990222065     -76.9588246
9.025                0.990199233     -77.0745047
9.026                0.990176334     -77.1904657
9.027                0.990153368     -77.3067084
9.028                0.990130335     -77.4232336
9.029                0.990107234     -77.5400421
9.03                 0.990084066     -77.6571347
9.031                0.990060831     -77.7745123
9.032                0.990037528     -77.8921756
9.033                0.990014157     -78.0101256
9.034                0.989990718      -78.128363
9.035                0.989967211     -78.2468886
9.036                0.989943636     -78.3657033
9.037                0.989919993     -78.4848079
9.038                0.989896281     -78.6042033
9.039                  0.9898725     -78.7238903
9.04                 0.989848651     -78.8438696
9.041                0.989824733     -78.9641422
9.042                0.989800746     -79.0847089
9.043                 0.98977669     -79.2055706
9.044                0.989752565      -79.326728
9.045                 0.98972837      -79.448182
9.046                0.989704106     -79.5699335
9.047                0.989679773     -79.6919833
9.048                0.989655369     -79.8143322
9.049                0.989630896     -79.9369812
9.05                 0.989606353      -80.059931
9.051                 0.98958174     -80.1831826
9.052                0.989557057     -80.3067367
9.053                0.989532304     -80.4305942
9.054                 0.98950748      -80.554756
9.055                0.989482586      -80.679223
9.056                0.989457622     -80.8039959
9.057                0.989432586     -80.9290757
9.058                 0.98940748     -81.0544633
9.059                0.989382303     -81.1801594
9.06                 0.989357055     -81.3061651
9.061                0.989331736      -81.432481
9.062                0.989306346     -81.5591081
9.063                0.989280884     -81.6860473
9.064                0.989255351     -81.8132995
9.065                0.989229746     -81.9408655
9.066                 0.98920407     -82.0687461
9.067                0.989178323     -82.1969423
9.068                0.989152503      -82.325455
9.069                0.989126612      -82.454285
9.07                 0.989100648     -82.5834332
9.071                0.989074613     -82.7129005
9.072                0.989048505     -82.8426877
9.073                0.989022325     -82.9727959
9.074                0.988996073     -83.1032257
9.075                0.988969749     -83.2339782
9.076                0.988943352     -83.3650542
9.077                0.988916882     -83.4964546
9.078                 0.98889034     -83.6281802
9.079                0.988863725     -83.7602321
9.08                 0.988837038      -83.892611
9.081                0.988810277      -84.025318
9.082                0.988783444     -84.1583537
9.083                0.988756537     -84.2917193
9.084                0.988729558     -84.4254154
9.085                0.988702505     -84.5594432
9.086                0.988675379     -84.6938034
9.087                 0.98864818     -84.8284969
9.088                0.988620908     -84.9635247
9.089                0.988593562     -85.0988877
9.09                 0.988566143     -85.2345867
9.091                 0.98853865     -85.3706226
9.092                0.988511084     -85.5069964
9.093                0.988483444      -85.643709
9.094                 0.98845573     -85.7807613
9.095                0.988427943     -85.9181541
9.096                0.988400082     -86.0558884
9.097                0.988372148     -86.1939652
9.098                0.988344139     -86.3323852
9.099                0.988316057     -86.4711494
9.1                  0.988287901     -86.6102588
9.101                 0.98825967     -86.7497141
9.102                0.988231366     -86.8895165
9.103                0.988202988     -87.0296666
9.104                0.988174536     -87.1701656
9.105                 0.98814601     -87.3110142
9.106                 0.98811741     -87.4522134
9.107                0.988088735     -87.5937641
9.108                0.988059987     -87.7356673
9.109                0.988031164     -87.8779237
9.11                 0.988002268     -88.0205345
9.111                0.987973297     -88.1635003
9.112                0.987944252     -88.3068223
9.113                0.987915133     -88.4505013
9.114                 0.98788594     -88.5945381
9.115                0.987856673     -88.7389338
9.116                0.987827331     -88.8836893
9.117                0.987797916     -89.0288054
9.118                0.987768426     -89.1742831
9.119                0.987738862     -89.3201232
9.12                 0.987709224     -89.4663268
9.121                0.987679512     -89.6128947
9.122                0.987649726     -89.7598279
9.123                0.987619866     -89.9071272
9.124                0.987589932     -90.0547936
9.125                0.987559924      -90.202828
9.126                0.987529842     -90.3512313
9.127                0.987499686     -90.5000044
9.128                0.987469457     -90.6491483
9.129                0.987439153     -90.7986638
9.13                 0.987408776     -90.9485519
9.131                0.987378325     -91.0988135
9.132                  0.9873478     -91.2494495
9.133                0.987317202     -91.4004609
9.134                 0.98728653     -91.5518484
9.135                0.987255784     -91.7036131
9.136                0.987224966     -91.8557558
9.137                0.987194073     -92.0082775
9.138                0.987163108     -92.1611791
9.139                0.987132069     -92.3144615
9.14                 0.987100958     -92.4681256
9.141                0.987069773     -92.6221723
9.142                0.987038515     -92.7766025
9.143                0.987007184     -92.9314172
9.144                0.986975781     -93.0866171
9.145                0.986944305     -93.2422033
9.146                0.986912756     -93.3981767
9.147                0.986881135     -93.5545381
9.148                0.986849442     -93.7112884
9.149                0.986817676     -93.8684286
9.15                 0.986785839     -94.0259596
9.151                0.986753929     -94.1838822
9.152                0.986721947     -94.3421973
9.153                0.986689894     -94.5009059
9.154                0.986657769     -94.6600088
9.155                0.986625573     -94.8195069
9.156                0.986593305     -94.9794012
9.157                0.986560966     -95.1396925
9.158                0.986528557     -95.3003817
9.159                0.986496076     -95.4614696
9.16                 0.986463525     -95.6229573
9.161                0.986430903     -95.7848455
9.162                0.986398211     -95.9471351
9.163                0.986365448     -96.1098271
9.164                0.986332616     -96.2729223
9.165                0.986299714     -96.4364215
9.166                0.986266742     -96.6003257
9.167                0.986233701     -96.7646357
9.168                0.986200591     -96.9293524
9.169                0.986167411     -97.0944766
9.17                 0.986134163     -97.2600093
9.171                0.986100847     -97.4259512
9.172                0.986067461     -97.5923033
9.173                0.986034008     -97.7590664
9.174                0.986000487     -97.9262414
9.175                0.985966898      -98.093829
9.176                0.985933242     -98.2618302
9.177                0.985899519     -98.4302459
9.178                0.985865728     -98.5990768
9.179                0.985831871     -98.7683237
9.18                 0.985797948     -98.9379877
9.181                0.985763958     -99.1080694
9.182                0.985729902     -99.2785696
9.183                0.985695781     -99.4494894
9.184                0.985661595     -99.6208294
9.185                0.985627343     -99.7925904
9.186                0.985593027     -99.9647734
9.187                0.985558647     -100.137379
9.188                0.985524202     -100.310408
9.189                0.985489693     -100.483862
9.19                 0.985455121     -100.657741
9.191                0.985420486     -100.832045
9.192                0.985385788     -101.006777
9.193                0.985351028     -101.181936
9.194                0.985316205     -101.357523
9.195                 0.98528132     -101.533539
9.196                0.985246374     -101.709986
9.197                0.985211367     -101.886863
9.198                  0.9851763     -102.064171
9.199                0.985141172     -102.241912
9.2                  0.985105984     -102.420086
9.201                0.985070736     -102.598693
9.202                0.985035429     -102.777735
9.203                0.985000064     -102.957212
9.204                 0.98496464     -103.137125
9.205                0.984929158     -103.317475
9.206                0.984893618     -103.498263
9.207                0.984858022     -103.679489
9.208                0.984822368     -103.861153
9.209                0.984786659     -104.043258
9.21                 0.984750893     -104.225803
9.211                0.984715073     -104.408788
9.212                0.984679197     -104.592216
9.213                0.984643267     -104.776086
9.214                0.984607284       -104.9604
9.215                0.984571246     -105.145157
9.216                0.984535156     -105.330359
9.217                0.984499013     -105.516006
9.218                0.984462819     -105.702099
9.219                0.984426572     -105.888639
9.22                 0.984390275     -106.075626
9.221                0.984353928     -106.263061
9.222                0.984317531     -106.450945
9.223                0.984281084     -106.639278
9.224                0.984244588      -106.82806
9.225                0.984208045     -107.017293
9.226                0.984171454     -107.206978
9.227                0.984134815     -107.397113
9.228                 0.98409813     -107.587702
9.229                0.984061399     -107.778743
9.23                 0.984024623     -107.970238
9.231                0.983987803     -108.162187
9.232                0.983950938      -108.35459
9.233                0.983914029     -108.547449
9.234                0.983877078     -108.740764
9.235                0.983840084     -108.934535
9.236                0.983803049     -109.128763
9.237                0.983765973     -109.323449
9.238                0.983728857     -109.518592
9.239                0.983691701     -109.714195
9.24                 0.983654507     -109.910256
9.241                0.983617274     -110.106777
9.242                0.983580003     -110.303758
9.243                0.983542696     -110.501199
9.244                0.983505352     -110.699102
9.245                0.983467973     -110.897466
9.246                 0.98343056     -111.096293
9.247                0.983393112     -111.295581
9.248                0.983355631     -111.495333
9.249                0.983318118     -111.695548
9.25                 0.983280573     -111.896227
9.251                0.983242997     -112.097371
9.252                0.983205391     -112.298978
9.253                0.983167756     -112.501051
9.254                0.983130092      -112.70359
9.255                  0.9830924     -112.906594
9.256                0.983054682     -113.110065
9.257                0.983016937     -113.314002
9.258                0.982979167     -113.518406
9.259                0.982941373     -113.723278
9.26                 0.982903555     -113.928617
9.261                0.982865714     -114.134424
9.262                0.982827851     -114.340699
9.263                0.982789968     -114.547443
9.264                0.982752064     -114.754656
9.265                0.982714141     -114.962338
9.266                  0.9826762      -115.17049
9.267                0.982638241     -115.379111
9.268                0.982600266     -115.588203
9.269                0.982562275     -115.797764
9.27                  0.98252427     -116.007796
9.271                0.982486251     -116.218299
9.272                0.982448219     -116.429273
9.273                0.982410176     -116.640717
9.274                0.982372122     -116.852633
9.275                0.982334058     -117.065021
9.276                0.982295985      -117.27788
9.277                0.982257905      -117.49121
9.278                0.982219818     -117.705013
9.279                0.982181725     -117.919288
9.28                 0.982143628     -118.134034
9.281                0.982105527     -118.349253
9.282                0.982067423     -118.564945
9.283                0.982029317     -118.781108
9.284                0.981991212     -118.997745
9.285                0.981953107     -119.214853
9.286                0.981915003     -119.432434
9.287                0.981876903     -119.650488
9.288                0.981838806     -119.869014
9.289                0.981800714     -120.088013
9.29                 0.981762629     -120.307484
9.291                0.981724551     -120.527428
9.292                0.981686481     -120.747845
9.293                0.981648421     -120.968733
9.294                0.981610371     -121.190094
9.295                0.981572334     -121.411927
9.296                 0.98153431     -121.634233
9.297                  0.9814963      -121.85701
9.298                0.981458305     -122.080259
9.299                0.981420327      -122.30398
9.3                  0.981382368     -122.528173
9.301                0.981344427     -122.752837
9.302                0.981306507     -122.977972
9.303                0.981268608     -123.203578
9.304                0.981230733     -123.429655
9.305                0.981192881     -123.656202
9.306                0.981155055      -123.88322
9.307                0.981117256     -124.110707
9.308                0.981079485     -124.338665
9.309                0.981041743     -124.567092
9.31                 0.981004031     -124.795987
9.311                0.980966352     -125.025352
9.312                0.980928706     -125.255185
9.313                0.980891095     -125.485486
9.314                0.980853519     -125.716255
9.315                0.980815981     -125.947492
9.316                0.980778482     -126.179195
9.317                0.980741022     -126.411364
9.318                0.980703605     -126.643999
9.319                 0.98066623       -126.8771
9.32                 0.980628899     -127.110667
9.321                0.980591614     -127.344697
9.322                0.980554375     -127.579192
9.323                0.980517186      -127.81415
9.324                0.980480046     -128.049571
9.325                0.980442958     -128.285454
9.326                0.980405922       -128.5218
9.327                0.980368941     -128.758606
9.328                0.980332015     -128.995873
9.329                0.980295147       -129.2336
9.33                 0.980258337     -129.471786
9.331                0.980221588     -129.710431
9.332                  0.9801849     -129.949533
9.333                0.980148275     -130.189093
9.334                0.980111715      -130.42911
9.335                0.980075221     -130.669582
9.336                0.980038794     -130.910508
9.337                0.980002437      -131.15189
9.338                0.979966151     -131.393724
9.339                0.979929937     -131.636011
9.34                 0.979893797     -131.878749
9.341                0.979857732     -132.121939
9.342                0.979821745     -132.365578
9.343                0.979785835     -132.609667
9.344                0.979750007     -132.854203
9.345                0.979714259     -133.099187
9.346                0.979678595     -133.344616
9.347                0.979643016     -133.590491
9.348                0.979607524     -133.836811
9.349                 0.97957212     -134.083573
9.35                 0.979536805     -134.330777
9.351                0.979501582     -134.578423
9.352                0.979466452     -134.826509
9.353                0.979431416     -135.075033
9.354                0.979396477     -135.323996
9.355                0.979361636     -135.573395
9.356                0.979326894     -135.823229
9.357                0.979292253     -136.073498
9.358                0.979257716       -136.3242
9.359                0.979223283     -136.575334
9.36                 0.979188956     -136.826898
9.361                0.979154737     -137.078892
9.362                0.979120627     -137.331314
9.363                0.979086629     -137.584162
9.364                0.979052744     -137.837437
9.365                0.979018973     -138.091135
9.366                0.978985319     -138.345256
9.367                0.978951783     -138.599798
9.368                0.978918366      -138.85476
9.369                0.978885071     -139.110141
9.37                 0.978851899     -139.365939
9.371                0.978818852     -139.622152
9.372                0.978785931      -139.87878
9.373                0.978753139      -140.13582
9.374                0.978720477     -140.393271
9.375                0.978687946     -140.651132
9.376                0.978655549       -140.9094
9.377                0.978623286     -141.168075
9.378                0.978591161     -141.427154
9.379                0.978559174     -141.686637
9.38                 0.978527328     -141.946521
9.381                0.978495624     -142.206804
9.382                0.978464063     -142.467486
9.383                0.978432648     -142.728564
9.384                 0.97840138     -142.990036
9.385                0.978370261     -143.251901
9.386                0.978339293     -143.514156
9.387                0.978308478     -143.776801
9.388                0.978277816     -144.039833
9.389                 0.97824731     -144.303251
9.39                 0.978216962     -144.567052
9.391                0.978186774     -144.831235
9.392                0.978156746     -145.095797
9.393                0.978126881     -145.360737
9.394                0.978097181     -145.626053
9.395                0.978067647     -145.891743
9.396                0.978038281     -146.157804
