! TOUCHSTONE file generated by CST DESIGN STUDIO
! Date and time: Tue Feb  4 17:11:16 2025
! Project name: C:\Work\MatlabApps\UnitCellOptimizationMatlab\CST\unitcell.cst
! Tree item: Tasks\Sweep1\SPara1\S-Parameters
! Header version: 2024
! Port assignment regex: !\s*Touchstone port\s*([0-9]+)\s*=\s*(CST MWS port|CST DES external port|CST DES block port)\s*(.+)\s* \(\"(.*)\"\)(\s*mode\s*([0-9]+))?.*
! Touchstone port assignment:
! Touchstone port 1 = CST DES external port 1 ("")
# GHz S MA R 50
9                    0.991435271     -71.0059401
9.001                0.991416668     -71.1081386
9.002                0.991398008     -71.2105793
9.003                0.991379292     -71.3132629
9.004                0.991360519     -71.4161901
9.005                 0.99134169     -71.5193616
9.006                0.991322804     -71.6227782
9.007                0.991303861     -71.7264406
9.008                0.991284861     -71.8303495
9.009                0.991265804     -71.9345057
9.01                  0.99124669     -72.0389098
9.011                0.991227518     -72.1435627
9.012                0.991208288     -72.2484651
9.013                0.991189001     -72.3536177
9.014                0.991169656     -72.4590213
9.015                0.991150253     -72.5646766
9.016                0.991130792     -72.6705843
9.017                0.991111273     -72.7767452
9.018                0.991091695     -72.8831601
9.019                0.991072059     -72.9898297
9.02                 0.991052364     -73.0967548
9.021                 0.99103261     -73.2039361
9.022                0.991012798     -73.3113744
9.023                0.990992926     -73.4190705
9.024                0.990972995      -73.527025
9.025                0.990953005     -73.6352389
9.026                0.990932955     -73.7437127
9.027                0.990912845     -73.8524474
9.028                0.990892676     -73.9614437
9.029                0.990872447     -74.0707024
9.03                 0.990852158     -74.1802242
9.031                0.990831809     -74.2900099
9.032                0.990811399     -74.4000603
9.033                0.990790929     -74.5103762
9.034                0.990770399     -74.6209583
9.035                0.990749808     -74.7318075
9.036                0.990729156     -74.8429246
9.037                0.990708443     -74.9543102
9.038                0.990687669     -75.0659653
9.039                0.990666834     -75.1778905
9.04                 0.990645937     -75.2900868
9.041                0.990624979     -75.4025549
9.042                 0.99060396     -75.5152956
9.043                0.990582878     -75.6283096
9.044                0.990561735     -75.7415979
9.045                 0.99054053     -75.8551612
9.046                0.990519263     -75.9690003
9.047                0.990497934      -76.083116
9.048                0.990476542     -76.1975091
9.049                0.990455088     -76.3121805
9.05                 0.990433571     -76.4271309
9.051                0.990411992     -76.5423612
9.052                0.990390349     -76.6578722
9.053                0.990368644     -76.7736648
9.054                0.990346876     -76.8897396
9.055                0.990325044     -77.0060976
9.056                0.990303149     -77.1227396
9.057                0.990281191     -77.2396663
9.058                0.990259169     -77.3568788
9.059                0.990237083     -77.4743776
9.06                 0.990214934     -77.5921638
9.061                0.990192721     -77.7102381
9.062                0.990170444     -77.8286014
9.063                0.990148102     -77.9472544
9.064                0.990125696     -78.0661982
9.065                0.990103226     -78.1854334
9.066                0.990080692     -78.3049609
9.067                0.990058093     -78.4247816
9.068                0.990035429     -78.5448963
9.069                  0.9900127     -78.6653059
9.07                 0.989989907     -78.7860111
9.071                0.989967048      -78.907013
9.072                0.989944124     -79.0283123
9.073                0.989921135     -79.1499098
9.074                0.989898081     -79.2718065
9.075                0.989874961     -79.3940031
9.076                0.989851776     -79.5165006
9.077                0.989828525     -79.6392999
9.078                0.989805208     -79.7624016
9.079                0.989781825     -79.8858069
9.08                 0.989758376     -80.0095164
9.081                0.989734862     -80.1335311
9.082                0.989711281     -80.2578518
9.083                0.989687634     -80.3824794
9.084                 0.98966392     -80.5074148
9.085                 0.98964014     -80.6326589
9.086                0.989616294     -80.7582125
9.087                 0.98959238     -80.8840765
9.088                0.989568401     -81.0102518
9.089                0.989544354     -81.1367393
9.09                  0.98952024     -81.2635398
9.091                 0.98949606     -81.3906542
9.092                0.989471812     -81.5180835
9.093                0.989447497     -81.6458284
9.094                0.989423115       -81.77389
9.095                0.989398666      -81.902269
9.096                0.989374149     -82.0309663
9.097                0.989349565      -82.159983
9.098                0.989324913     -82.2893197
9.099                0.989300194     -82.4189776
9.1                  0.989275407     -82.5489573
9.101                0.989250552     -82.6792599
9.102                0.989225629     -82.8098862
9.103                0.989200638     -82.9408372
9.104                0.989175579     -83.0721137
9.105                0.989150453     -83.2037166
9.106                0.989125258     -83.3356468
9.107                0.989099995     -83.4679053
9.108                0.989074663      -83.600493
9.109                0.989049264     -83.7334107
9.11                 0.989023796     -83.8666593
9.111                0.988998259     -84.0002398
9.112                0.988972654     -84.1341531
9.113                0.988946981        -84.2684
9.114                0.988921239     -84.4029816
9.115                0.988895428     -84.5378987
9.116                0.988869549     -84.6731522
9.117                0.988843601      -84.808743
9.118                0.988817584     -84.9446721
9.119                0.988791498     -85.0809403
9.12                 0.988765344     -85.2175487
9.121                0.988739121      -85.354498
9.122                0.988712828     -85.4917893
9.123                0.988686467     -85.6294234
9.124                0.988660037     -85.7674013
9.125                0.988633537     -85.9057239
9.126                0.988606969      -86.044392
9.127                0.988580332     -86.1834067
9.128                0.988553625     -86.3227689
9.129                0.988526849     -86.4624794
9.13                 0.988500005     -86.6025393
9.131                0.988473091     -86.7429494
9.132                0.988446107     -86.8837106
9.133                0.988419055     -87.0248239
9.134                0.988391934     -87.1662902
9.135                0.988364743     -87.3081105
9.136                0.988337483     -87.4502856
9.137                0.988310154     -87.5928165
9.138                0.988282755     -87.7357042
9.139                0.988255288     -87.8789495
9.14                 0.988227751     -88.0225534
9.141                0.988200145     -88.1665168
9.142                 0.98817247     -88.3108406
9.143                0.988144726     -88.4555258
9.144                0.988116912     -88.6005734
9.145                 0.98808903     -88.7459841
9.146                0.988061078     -88.8917591
9.147                0.988033057     -89.0378991
9.148                0.988004968     -89.1844052
9.149                0.987976809     -89.3312782
9.15                 0.987948581     -89.4785191
9.151                0.987920284     -89.6261289
9.152                0.987891918     -89.7741084
9.153                0.987863484     -89.9224586
9.154                 0.98783498     -90.0711804
9.155                0.987806408     -90.2202748
9.156                0.987777767     -90.3697427
9.157                0.987749057      -90.519585
9.158                0.987720279     -90.6698026
9.159                0.987691432     -90.8203966
9.16                 0.987662516     -90.9713677
9.161                0.987633532     -91.1227169
9.162                 0.98760448     -91.2744453
9.163                 0.98757536     -91.4265536
9.164                0.987546171     -91.5790428
9.165                0.987516914     -91.7319139
9.166                0.987487589     -91.8851678
9.167                0.987458196     -92.0388054
9.168                0.987428735     -92.1928276
9.169                0.987399207     -92.3472354
9.17                  0.98736961     -92.5020296
9.171                0.987339946     -92.6572112
9.172                0.987310215     -92.8127812
9.173                0.987280416     -92.9687404
9.174                 0.98725055     -93.1250898
9.175                0.987220617     -93.2818303
9.176                0.987190617     -93.4389628
9.177                 0.98716055     -93.5964882
9.178                0.987130416     -93.7544074
9.179                0.987100215     -93.9127214
9.18                 0.987069948      -94.071431
9.181                0.987039615     -94.2305373
9.182                0.987009216      -94.390041
9.183                 0.98697875     -94.5499432
9.184                0.986948218     -94.7102446
9.185                0.986917621     -94.8709463
9.186                0.986886958      -95.032049
9.187                 0.98685623     -95.1935538
9.188                0.986825436     -95.3554616
9.189                0.986794577     -95.5177731
9.19                 0.986763654     -95.6804894
9.191                0.986732666     -95.8436113
9.192                0.986701613     -96.0071398
9.193                0.986670495     -96.1710756
9.194                0.986639314     -96.3354197
9.195                0.986608069      -96.500173
9.196                 0.98657676     -96.6653364
9.197                0.986545387     -96.8309108
9.198                0.986513951      -96.996897
9.199                0.986482452     -97.1632959
9.2                   0.98645089     -97.3301084
9.201                0.986419266     -97.4973354
9.202                0.986387579     -97.6649777
9.203                 0.98635583     -97.8330363
9.204                0.986324019     -98.0015119
9.205                0.986292146     -98.1704055
9.206                0.986260212     -98.3397179
9.207                0.986228217     -98.5094499
9.208                0.986196161     -98.6796025
9.209                0.986164045     -98.8501764
9.21                 0.986131868     -99.0211726
9.211                0.986099631     -99.1925918
9.212                0.986067334      -99.364435
9.213                0.986034977     -99.5367029
9.214                0.986002562     -99.7093964
9.215                0.985970088     -99.8825163
9.216                0.985937555     -100.056063
9.217                0.985904964     -100.230039
9.218                0.985872315     -100.404443
9.219                0.985839608     -100.579277
9.22                 0.985806845     -100.754541
9.221                0.985774024     -100.930237
9.222                0.985741147     -101.106365
9.223                0.985708213     -101.282926
9.224                0.985675224     -101.459921
9.225                0.985642179      -101.63735
9.226                0.985609079     -101.815214
9.227                0.985575924     -101.993515
9.228                0.985542715     -102.172253
9.229                0.985509452     -102.351428
9.23                 0.985476136     -102.531042
9.231                0.985442766     -102.711095
9.232                0.985409343     -102.891588
9.233                0.985375868     -103.072522
9.234                0.985342341     -103.253897
9.235                0.985308763     -103.435715
9.236                0.985275133     -103.617975
9.237                0.985241453      -103.80068
9.238                0.985207723     -103.983829
9.239                0.985173943     -104.167423
9.24                 0.985140113     -104.351463
9.241                0.985106235     -104.535949
9.242                0.985072309     -104.720884
9.243                0.985038334     -104.906266
9.244                0.985004313     -105.092097
9.245                0.984970244     -105.278377
9.246                0.984936129     -105.465108
9.247                0.984901968     -105.652289
9.248                0.984867762     -105.839922
9.249                 0.98483351     -106.028007
9.25                 0.984799215     -106.216545
9.251                0.984764876     -106.405537
9.252                0.984730493     -106.594982
9.253                0.984696068     -106.784883
9.254                0.984661601     -106.975239
9.255                0.984627092     -107.166051
9.256                0.984592543      -107.35732
9.257                0.984557952     -107.549046
9.258                0.984523323      -107.74123
9.259                0.984488653     -107.933873
9.26                 0.984453946     -108.126975
9.261                  0.9844192     -108.320536
9.262                0.984384417     -108.514558
9.263                0.984349597     -108.709041
9.264                0.984314741     -108.903985
9.265                 0.98427985     -109.099391
9.266                0.984244923      -109.29526
9.267                0.984209963     -109.491592
9.268                0.984174969     -109.688387
9.269                0.984139942     -109.885647
9.27                 0.984104884     -110.083372
9.271                0.984069793     -110.281561
9.272                0.984034672     -110.480217
9.273                0.983999521     -110.679338
9.274                0.983964341     -110.878926
9.275                0.983929132     -111.078982
9.276                0.983893895     -111.279505
9.277                0.983858631     -111.480496
9.278                0.983823341     -111.681956
9.279                0.983788025     -111.883884
9.28                 0.983752684     -112.086282
9.281                 0.98371732      -112.28915
9.282                0.983681931     -112.492488
9.283                0.983646521     -112.696297
9.284                0.983611088     -112.900577
9.285                0.983575635     -113.105328
9.286                0.983540162     -113.310551
9.287                0.983504669     -113.516246
9.288                0.983469158     -113.722413
9.289                 0.98343363     -113.929053
9.29                 0.983398084     -114.136167
9.291                0.983362523     -114.343754
9.292                0.983326947     -114.551815
9.293                0.983291356      -114.76035
9.294                0.983255753     -114.969359
9.295                0.983220137     -115.178843
9.296                 0.98318451     -115.388801
9.297                0.983148872     -115.599235
9.298                0.983113224     -115.810145
9.299                0.983077568      -116.02153
9.3                  0.983041904     -116.233391
9.301                0.983006233     -116.445727
9.302                0.982970556     -116.658541
9.303                0.982934875      -116.87183
9.304                0.982899189     -117.085596
9.305                0.982863501     -117.299839
9.306                0.982827811     -117.514559
9.307                 0.98279212     -117.729756
9.308                0.982756428      -117.94543
9.309                0.982720738     -118.161581
9.31                  0.98268505      -118.37821
9.311                0.982649366     -118.595316
9.312                0.982613685       -118.8129
9.313                 0.98257801     -119.030961
9.314                0.982542341       -119.2495
9.315                0.982506679     -119.468516
9.316                0.982471026      -119.68801
9.317                0.982435382     -119.907982
9.318                0.982399749     -120.128431
9.319                0.982364128     -120.349358
9.32                 0.982328519     -120.570763
9.321                0.982292925     -120.792645
9.322                0.982257346     -121.015004
9.323                0.982221783     -121.237841
9.324                0.982186237     -121.461156
9.325                 0.98215071     -121.684947
9.326                0.982115203     -121.909215
9.327                0.982079717      -122.13396
9.328                0.982044253     -122.359182
9.329                0.982008812     -122.584881
9.33                 0.981973396     -122.811056
9.331                0.981938005     -123.037707
9.332                0.981902642     -123.264834
9.333                0.981867306     -123.492437
9.334                   0.981832     -123.720515
9.335                0.981796725     -123.949068
9.336                0.981761481     -124.178096
9.337                0.981726271     -124.407599
9.338                0.981691095     -124.637576
9.339                0.981655955     -124.868027
9.34                 0.981620852     -125.098952
9.341                0.981585788      -125.33035
9.342                0.981550763     -125.562221
9.343                0.981515779     -125.794564
9.344                0.981480837     -126.027379
9.345                0.981445939     -126.260666
9.346                0.981411085     -126.494424
9.347                0.981376278     -126.728653
9.348                0.981341519     -126.963352
9.349                0.981306808     -127.198521
9.35                 0.981272148     -127.434159
9.351                 0.98123754     -127.670266
9.352                0.981202985      -127.90684
9.353                0.981168484     -128.143883
9.354                 0.98113404     -128.381392
9.355                0.981099652     -128.619367
9.356                0.981065324     -128.857809
9.357                0.981031055     -129.096715
9.358                0.980996849     -129.336086
9.359                0.980962705      -129.57592
9.36                 0.980928626     -129.816217
9.361                0.980894612     -130.056977
9.362                0.980860666     -130.298198
9.363                0.980826789     -130.539881
9.364                0.980792982     -130.782023
9.365                0.980759247     -131.024624
9.366                0.980725586     -131.267684
9.367                0.980691999     -131.511201
9.368                0.980658488     -131.755175
9.369                0.980625056     -131.999605
9.37                 0.980591702      -132.24449
9.371                 0.98055843     -132.489829
9.372                0.980525239     -132.735621
9.373                0.980492133     -132.981865
9.374                0.980459112      -133.22856
9.375                0.980426178     -133.475706
9.376                0.980393333       -133.7233
9.377                0.980360577     -133.971343
9.378                0.980327913     -134.219833
9.379                0.980295343     -134.468769
9.38                 0.980262867      -134.71815
9.381                0.980230487     -134.967974
9.382                0.980198205     -135.218242
9.383                0.980166023      -135.46895
9.384                0.980133942     -135.720099
9.385                0.980101964     -135.971688
9.386                0.980070089     -136.223714
9.387                0.980038321     -136.476177
9.388                 0.98000666     -136.729075
9.389                0.979975108     -136.982407
9.39                 0.979943667     -137.236173
9.391                0.979912338     -137.490369
9.392                0.979881123     -137.744996
9.393                0.979850023     -138.000052
9.394                0.979819041     -138.255535
9.395                0.979788177     -138.511444
9.396                0.979757434     -138.767777
