! TOUCHSTONE file generated by CST DESIGN STUDIO
! Date and time: Tue Feb  4 17:11:18 2025
! Project name: C:\Work\MatlabApps\UnitCellOptimizationMatlab\CST\unitcell.cst
! Tree item: Tasks\Sweep1\SPara1\S-Parameters
! Header version: 2024
! Port assignment regex: !\s*Touchstone port\s*([0-9]+)\s*=\s*(CST MWS port|CST DES external port|CST DES block port)\s*(.+)\s* \(\"(.*)\"\)(\s*mode\s*([0-9]+))?.*
! Touchstone port assignment:
! Touchstone port 1 = CST DES external port 1 ("")
# GHz S MA R 50
9                    0.991598157     -70.1957394
9.001                0.991580093     -70.2962536
9.002                0.991561976     -70.3970053
9.003                0.991543804     -70.4979951
9.004                0.991525579     -70.5992238
9.005                  0.9915073     -70.7006922
9.006                0.991488967     -70.8024008
9.007                0.991470579     -70.9043505
9.008                0.991452137      -71.006542
9.009                 0.99143364      -71.108976
9.01                 0.991415089     -71.2116532
9.011                0.991396482     -71.3145743
9.012                0.991377821     -71.4177401
9.013                0.991359104     -71.5211512
9.014                0.991340332     -71.6248086
9.015                0.991321505     -71.7287128
9.016                0.991302622     -71.8328646
9.017                0.991283684     -71.9372647
9.018                0.991264689     -72.0419139
9.019                0.991245639      -72.146813
9.02                 0.991226532     -72.2519626
9.021                 0.99120737     -72.3573635
9.022                 0.99118815     -72.4630165
9.023                0.991168875     -72.5689223
9.024                0.991149543     -72.6750817
9.025                0.991130153     -72.7814955
9.026                0.991110708     -72.8881643
9.027                0.991091204     -72.9950889
9.028                0.991071644     -73.1022701
9.029                0.991052027     -73.2097088
9.03                 0.991032352     -73.3174055
9.031                0.991012619     -73.4253611
9.032                0.990992829     -73.5335764
9.033                0.990972981     -73.6420522
9.034                0.990953074     -73.7507891
9.035                 0.99093311      -73.859788
9.036                0.990913088     -73.9690497
9.037                0.990893007     -74.0785749
9.038                0.990872867     -74.1883644
9.039                0.990852669     -74.2984191
9.04                 0.990832412     -74.4087396
9.041                0.990812096     -74.5193268
9.042                0.990791722     -74.6301814
9.043                0.990771288     -74.7413043
9.044                0.990750794     -74.8526962
9.045                0.990730242      -74.964358
9.046                0.990709629     -75.0762904
9.047                0.990688958     -75.1884942
9.048                0.990668226     -75.3009703
9.049                0.990647434     -75.4137194
9.05                 0.990626582     -75.5267423
9.051                0.990605671     -75.6400399
9.052                0.990584698     -75.7536129
9.053                0.990563666     -75.8674621
9.054                0.990542572     -75.9815885
9.055                0.990521419     -76.0959927
9.056                0.990500204     -76.2106756
9.057                0.990478928      -76.325638
9.058                0.990457592     -76.4408808
9.059                0.990436194     -76.5564047
9.06                 0.990414735     -76.6722106
9.061                0.990393214     -76.7882992
9.062                0.990371632     -76.9046715
9.063                0.990349988     -77.0213283
9.064                0.990328283     -77.1382703
9.065                0.990306515     -77.2554985
9.066                0.990284686     -77.3730136
9.067                0.990262794     -77.4908165
9.068                0.990240841      -77.608908
9.069                0.990218825      -77.727289
9.07                 0.990196746     -77.8459602
9.071                0.990174605     -77.9649226
9.072                0.990152401      -78.084177
9.073                0.990130135     -78.2037243
9.074                0.990107805     -78.3235652
9.075                0.990085413     -78.4437006
9.076                0.990062957     -78.5641315
9.077                0.990040438     -78.6848585
9.078                0.990017856     -78.8058827
9.079                 0.98999521     -78.9272048
9.08                 0.989972501     -79.0488257
9.081                0.989949728     -79.1707463
9.082                0.989926891     -79.2929674
9.083                0.989903991     -79.4154898
9.084                0.989881026     -79.5383146
9.085                0.989857998     -79.6614424
9.086                0.989834905     -79.7848743
9.087                0.989811748      -79.908611
9.088                0.989788527     -80.0326534
9.089                0.989765241     -80.1570024
9.09                 0.989741891     -80.2816589
9.091                0.989718476     -80.4066238
9.092                0.989694996     -80.5318979
9.093                0.989671451     -80.6574821
9.094                0.989647842     -80.7833773
9.095                0.989624167     -80.9095843
9.096                0.989600428     -81.0361041
9.097                0.989576623     -81.1629376
9.098                0.989552753     -81.2900855
9.099                0.989528818     -81.4175489
9.1                  0.989504817     -81.5453286
9.101                 0.98948075     -81.6734255
9.102                0.989456618     -81.8018405
9.103                0.989432421     -81.9305744
9.104                0.989408157     -82.0596283
9.105                0.989383828     -82.1890029
9.106                0.989359433     -82.3186992
9.107                0.989334972      -82.448718
9.108                0.989310445     -82.5790603
9.109                0.989285851      -82.709727
9.11                 0.989261192      -82.840719
9.111                0.989236466     -82.9720371
9.112                0.989211674     -83.1036823
9.113                0.989186815     -83.2356555
9.114                 0.98916189     -83.3679577
9.115                0.989136899     -83.5005896
9.116                0.989111841     -83.6335522
9.117                0.989086716     -83.7668465
9.118                0.989061525     -83.9004733
9.119                0.989036267     -84.0344336
9.12                 0.989010942     -84.1687282
9.121                 0.98898555     -84.3033581
9.122                0.988960091     -84.4383242
9.123                0.988934566     -84.5736275
9.124                0.988908973     -84.7092688
9.125                0.988883314      -84.845249
9.126                0.988857587     -84.9815691
9.127                0.988831793     -85.1182301
9.128                0.988805932     -85.2552327
9.129                0.988780004      -85.392578
9.13                 0.988754009     -85.5302669
9.131                0.988727946     -85.6683002
9.132                0.988701816      -85.806679
9.133                0.988675619     -85.9454042
9.134                0.988649355     -86.0844766
9.135                0.988623023     -86.2238972
9.136                0.988596624      -86.363667
9.137                0.988570157     -86.5037868
9.138                0.988543623     -86.6442576
9.139                0.988517021     -86.7850803
9.14                 0.988490353     -86.9262559
9.141                0.988463616     -87.0677853
9.142                0.988436812     -87.2096694
9.143                0.988409941     -87.3519092
9.144                0.988383002     -87.4945055
9.145                0.988355996     -87.6374594
9.146                0.988328923     -87.7807717
9.147                0.988301781     -87.9244434
9.148                0.988274573     -88.0684754
9.149                0.988247297     -88.2128687
9.15                 0.988219954     -88.3576242
9.151                0.988192543     -88.5027428
9.152                0.988165065     -88.6482255
9.153                0.988137519     -88.7940732
9.154                0.988109906     -88.9402868
9.155                0.988082226     -89.0868673
9.156                0.988054479     -89.2338156
9.157                0.988026664     -89.3811327
9.158                0.987998782     -89.5288194
9.159                0.987970833     -89.6768768
9.16                 0.987942817     -89.8253058
9.161                0.987914733     -89.9741072
9.162                0.987886583      -90.123282
9.163                0.987858365     -90.2728313
9.164                0.987830081     -90.4227558
9.165                 0.98780173     -90.5730566
9.166                0.987773312     -90.7237345
9.167                0.987744827     -90.8747906
9.168                0.987716276     -91.0262257
9.169                0.987687657     -91.1780408
9.17                 0.987658973     -91.3302368
9.171                0.987630222     -91.4828146
9.172                0.987601404     -91.6357753
9.173                 0.98757252     -91.7891196
9.174                 0.98754357     -91.9428486
9.175                0.987514554     -92.0969631
9.176                0.987485472     -92.2514642
9.177                0.987456323     -92.4063527
9.178                0.987427109     -92.5616295
9.179                0.987397829     -92.7172957
9.18                 0.987368484      -92.873352
9.181                0.987339073     -93.0297995
9.182                0.987309596     -93.1866391
9.183                0.987280055     -93.3438716
9.184                0.987250448     -93.5014981
9.185                0.987220776     -93.6595194
9.186                0.987191039     -93.8179365
9.187                0.987161237     -93.9767502
9.188                0.987131371     -94.1359615
9.189                 0.98710144     -94.2955714
9.19                 0.987071445     -94.4555806
9.191                0.987041386     -94.6159902
9.192                0.987011263     -94.7768011
9.193                0.986981076     -94.9380141
9.194                0.986950825     -95.0996301
9.195                 0.98692051     -95.2616502
9.196                0.986890132     -95.4240751
9.197                0.986859691     -95.5869058
9.198                0.986829187     -95.7501432
9.199                 0.98679862     -95.9137882
9.2                  0.986767991     -96.0778417
9.201                0.986737299     -96.2423046
9.202                0.986706545     -96.4071777
9.203                0.986675729      -96.572462
9.204                 0.98664485     -96.7381584
9.205                0.986613911     -96.9042677
9.206                 0.98658291     -97.0707908
9.207                0.986551847     -97.2377287
9.208                0.986520724     -97.4050821
9.209                 0.98648954      -97.572852
9.21                 0.986458296     -97.7410393
9.211                0.986426991     -97.9096447
9.212                0.986395627     -98.0786693
9.213                0.986364202     -98.2481138
9.214                0.986332719     -98.4179792
9.215                0.986301176     -98.5882662
9.216                0.986269574     -98.7589757
9.217                0.986237913     -98.9301087
9.218                0.986206194     -99.1016659
9.219                0.986174417     -99.2736482
9.22                 0.986142582     -99.4460564
9.221                 0.98611069     -99.6188914
9.222                 0.98607874     -99.7921541
9.223                0.986046734     -99.9658452
9.224                 0.98601467     -100.139966
9.225                0.985982551     -100.314516
9.226                0.985950376     -100.489498
9.227                0.985918145     -100.664911
9.228                0.985885859     -100.840757
9.229                0.985853517     -101.017036
9.23                 0.985821122     -101.193749
9.231                0.985788672     -101.370898
9.232                0.985756168     -101.548482
9.233                 0.98572361     -101.726503
9.234                   0.985691     -101.904961
9.235                0.985658337     -102.083857
9.236                0.985625621     -102.263193
9.237                0.985592853     -102.442968
9.238                0.985560034     -102.623184
9.239                0.985527164     -102.803841
9.24                 0.985494242      -102.98494
9.241                0.985461271     -103.166482
9.242                0.985428249     -103.348467
9.243                0.985395178     -103.530897
9.244                0.985362058     -103.713772
9.245                0.985328889     -103.897093
9.246                0.985295673      -104.08086
9.247                0.985262408     -104.265074
9.248                0.985229096     -104.449737
9.249                0.985195737     -104.634848
9.25                 0.985162332     -104.820409
9.251                0.985128881      -105.00642
9.252                0.985095385     -105.192881
9.253                0.985061844     -105.379794
9.254                0.985028258      -105.56716
9.255                0.984994629     -105.754978
9.256                0.984960956      -105.94325
9.257                0.984927241     -106.131976
9.258                0.984893483     -106.321157
9.259                0.984859683     -106.510794
9.26                 0.984825842     -106.700887
9.261                0.984791961     -106.891437
9.262                 0.98475804     -107.082444
9.263                0.984724079     -107.273909
9.264                0.984690079     -107.465834
9.265                 0.98465604     -107.658217
9.266                0.984621964     -107.851061
9.267                0.984587851     -108.044365
9.268                0.984553702      -108.23813
9.269                0.984519516     -108.432357
9.27                 0.984485295     -108.627047
9.271                0.984451039     -108.822199
9.272                0.984416749     -109.017815
9.273                0.984382426     -109.213895
9.274                 0.98434807      -109.41044
9.275                0.984313682     -109.607449
9.276                0.984279262     -109.804925
9.277                0.984244812     -110.002866
9.278                0.984210332     -110.201274
9.279                0.984175822      -110.40015
9.28                 0.984141284     -110.599493
9.281                0.984106717     -110.799304
9.282                0.984072124     -110.999584
9.283                0.984037503     -111.200333
9.284                0.984002857     -111.401552
9.285                0.983968186     -111.603241
9.286                0.983933491       -111.8054
9.287                0.983898772     -112.008031
9.288                 0.98386403     -112.211132
9.289                0.983829266     -112.414706
9.29                 0.983794481     -112.618751
9.291                0.983759676      -112.82327
9.292                 0.98372485     -113.028261
9.293                0.983690006     -113.233725
9.294                0.983655144     -113.439663
9.295                0.983620265     -113.646076
9.296                0.983585369     -113.852962
9.297                0.983550458     -114.060324
9.298                0.983515532      -114.26816
9.299                0.983480593     -114.476472
9.3                   0.98344564      -114.68526
9.301                0.983410675     -114.894523
9.302                0.983375699     -115.104263
9.303                0.983340713     -115.314479
9.304                0.983305717     -115.525173
9.305                0.983270713     -115.736343
9.306                0.983235702      -115.94799
9.307                0.983200683     -116.160115
9.308                0.983165659     -116.372717
9.309                 0.98313063     -116.585798
9.31                 0.983095598     -116.799356
9.311                0.983060562     -117.013393
9.312                0.983025525     -117.227908
9.313                0.982990486     -117.442902
9.314                0.982955448     -117.658374
9.315                0.982920411     -117.874325
9.316                0.982885376     -118.090755
9.317                0.982850344     -118.307664
9.318                0.982815316     -118.525052
9.319                0.982780294      -118.74292
9.32                 0.982745277     -118.961266
9.321                0.982710268     -119.180092
9.322                0.982675267     -119.399397
9.323                0.982640276     -119.619182
9.324                0.982605295     -119.839446
9.325                0.982570325     -120.060189
9.326                0.982535369     -120.281411
9.327                0.982500426     -120.503113
9.328                0.982465497     -120.725294
9.329                0.982430585     -120.947954
9.33                  0.98239569     -121.171093
9.331                0.982360813     -121.394711
9.332                0.982325956     -121.618808
9.333                0.982291119     -121.843383
9.334                0.982256304     -122.068438
9.335                0.982221511      -122.29397
9.336                0.982186743     -122.519981
9.337                   0.982152      -122.74647
9.338                0.982117284     -122.973437
9.339                0.982082595     -123.200881
9.34                 0.982047935     -123.428803
9.341                0.982013305     -123.657202
9.342                0.981978706     -123.886078
9.343                 0.98194414     -124.115431
9.344                0.981909608     -124.345259
9.345                0.981875111     -124.575564
9.346                0.981840651     -124.806345
9.347                0.981806228       -125.0376
9.348                0.981771843     -125.269331
9.349                0.981737499     -125.501537
9.35                 0.981703197     -125.734216
9.351                0.981668937     -125.967369
9.352                0.981634722     -126.200996
9.353                0.981600552     -126.435096
9.354                0.981566429     -126.669667
9.355                0.981532353     -126.904711
9.356                0.981498328     -127.140227
9.357                0.981464353     -127.376213
9.358                 0.98143043     -127.612669
9.359                0.981396561     -127.849596
9.36                 0.981362747     -128.086991
9.361                0.981328989     -128.324856
9.362                0.981295289     -128.563188
9.363                0.981261647     -128.801988
9.364                0.981228067     -129.041254
9.365                0.981194548     -129.280987
9.366                0.981161093     -129.521185
9.367                0.981127702     -129.761847
9.368                0.981094378     -130.002974
9.369                0.981061121     -130.244564
9.37                 0.981027934     -130.486616
9.371                0.980994816     -130.729131
9.372                0.980961771     -130.972106
9.373                  0.9809288     -131.215541
9.374                0.980895903     -131.459435
9.375                0.980863083     -131.703788
9.376                0.980830341     -131.948598
9.377                0.980797678     -132.193865
9.378                0.980765096     -132.439588
9.379                0.980732596     -132.685766
9.38                 0.980700181     -132.932397
9.381                0.980667851     -133.179481
9.382                0.980635607     -133.427017
9.383                0.980603453     -133.675004
9.384                0.980571388      -133.92344
9.385                0.980539415     -134.172326
9.386                0.980507535     -134.421659
9.387                 0.98047575     -134.671438
9.388                0.980444061     -134.921663
9.389                 0.98041247     -135.172332
9.39                 0.980380978     -135.423445
9.391                0.980349587     -135.674999
9.392                0.980318298     -135.926994
9.393                0.980287114     -136.179429
9.394                0.980256035     -136.432302
9.395                0.980225063     -136.685612
9.396                  0.9801942     -136.939357
