! TOUCHSTONE file generated by CST DESIGN STUDIO
! Date and time: Tue Feb  4 15:44:53 2025
! Project name: C:\Work\MatlabApps\UnitCellOptimizationMatlab\CST\unitcell.cst
! Tree item: Tasks\Sweep1\SPara1\S-Parameters
! Header version: 2024
! Port assignment regex: !\s*Touchstone port\s*([0-9]+)\s*=\s*(CST MWS port|CST DES external port|CST DES block port)\s*(.+)\s* \(\"(.*)\"\)(\s*mode\s*([0-9]+))?.*
! Touchstone port assignment:
! Touchstone port 1 = CST DES external port 1 ("")
# GHz S MA R 50
9                    0.960210734     -89.7453949
9.001                0.959984022     -89.9074016
9.002                0.959756548     -90.0698326
9.003                0.959528314     -90.2326891
9.004                0.959299321     -90.3959721
9.005                0.959069569     -90.5596828
9.006                0.958839057     -90.7238224
9.007                0.958607788      -90.888392
9.008                0.958375762     -91.0533928
9.009                0.958142978     -91.2188259
9.01                 0.957909439     -91.3846925
9.011                0.957675144     -91.5509938
9.012                0.957440095     -91.7177308
9.013                0.957204293     -91.8849048
9.014                0.956967737     -92.0525168
9.015                0.956730429     -92.2205681
9.016                0.956492371     -92.3890598
9.017                0.956253562      -92.557993
9.018                0.956014004     -92.7273689
9.019                0.955773698     -92.8971886
9.02                 0.955532645     -93.0674533
9.021                0.955290847     -93.2381642
9.022                0.955048303     -93.4093223
9.023                0.954805016     -93.5809289
9.024                0.954560987      -93.752985
9.025                0.954316217     -93.9254919
9.026                0.954070707     -94.0984506
9.027                0.953824459     -94.2718623
9.028                0.953577473     -94.4457281
9.029                0.953329753     -94.6200493
9.03                 0.953081298     -94.7948269
9.031                0.952832111      -94.970062
9.032                0.952582193     -95.1457559
9.033                0.952331545     -95.3219096
9.034                 0.95208017     -95.4985242
9.035                0.951828069      -95.675601
9.036                0.951575244      -95.853141
9.037                0.951321697     -96.0311454
9.038                0.951067429     -96.2096152
9.039                0.950812442     -96.3885517
9.04                 0.950556739     -96.5679559
9.041                0.950300321      -96.747829
9.042                 0.95004319     -96.9281721
9.043                0.949785348     -97.1089862
9.044                0.949526799     -97.2902726
9.045                0.949267542     -97.4720323
9.046                0.949007582     -97.6542665
9.047                 0.94874692     -97.8369762
9.048                0.948485559     -98.0201625
9.049                  0.9482235     -98.2038266
9.05                 0.947960747     -98.3879696
9.051                0.947697302     -98.5725925
9.052                0.947433167     -98.7576965
9.053                0.947168345     -98.9432826
9.054                0.946902839     -99.1293519
9.055                0.946636651     -99.3159055
9.056                0.946369785     -99.5029446
9.057                0.946102242     -99.6904701
9.058                0.945834026     -99.8784831
9.059                0.945565139     -100.066985
9.06                 0.945295585     -100.255976
9.061                0.945025367     -100.445458
9.062                0.944754488     -100.635432
9.063                0.944482951     -100.825899
9.064                0.944210758      -101.01686
9.065                0.943937914     -101.208315
9.066                0.943664422     -101.400267
9.067                0.943390285     -101.592716
9.068                0.943115507     -101.785663
9.069                 0.94284009     -101.979108
9.07                 0.942564039     -102.173055
9.071                0.942287358     -102.367502
9.072                0.942010049     -102.562451
9.073                0.941732117     -102.757904
9.074                0.941453565     -102.953861
9.075                0.941174398     -103.150323
9.076                0.940894619     -103.347291
9.077                0.940614232     -103.544766
9.078                0.940333242      -103.74275
9.079                0.940051652     -103.941242
9.08                 0.939769466     -104.140245
9.081                 0.93948669     -104.339759
9.082                0.939203327     -104.539785
9.083                0.938919381     -104.740324
9.084                0.938634858     -104.941377
9.085                0.938349761     -105.142944
9.086                0.938064095     -105.345028
9.087                0.937777865     -105.547628
9.088                0.937491076     -105.750746
9.089                0.937203732     -105.954383
9.09                 0.936915838     -106.158539
9.091                  0.9366274     -106.363215
9.092                0.936338422     -106.568413
9.093                0.936048908     -106.774133
9.094                0.935758866     -106.980376
9.095                0.935468299     -107.187143
9.096                0.935177213     -107.394435
9.097                0.934885613     -107.602253
9.098                0.934593505     -107.810596
9.099                0.934300894     -108.019468
9.1                  0.934007786     -108.228867
9.101                0.933714186     -108.438796
9.102                0.933420101     -108.649254
9.103                0.933125536     -108.860243
9.104                0.932830496     -109.071763
9.105                0.932534989     -109.283815
9.106                0.932239019     -109.496401
9.107                0.931942593      -109.70952
9.108                0.931645717     -109.923174
9.109                0.931348398     -110.137363
9.11                 0.931050642     -110.352088
9.111                0.930752454     -110.567349
9.112                0.930453843     -110.783148
9.113                0.930154813     -110.999485
9.114                0.929855373     -111.216361
9.115                0.929555528     -111.433777
9.116                0.929255285     -111.651733
9.117                0.928954652      -111.87023
9.118                0.928653635     -112.089268
9.119                0.928352241     -112.308848
9.12                 0.928050478     -112.528971
9.121                0.927748352     -112.749638
9.122                0.927445871     -112.970849
9.123                0.927143043     -113.192604
9.124                0.926839874     -113.414904
9.125                0.926536372     -113.637751
9.126                0.926232545     -113.861143
9.127                0.925928401     -114.085083
9.128                0.925623947      -114.30957
9.129                0.925319191     -114.534605
9.13                 0.925014142     -114.760188
9.131                0.924708806     -114.986321
9.132                0.924403193     -115.213003
9.133                 0.92409731     -115.440235
9.134                0.923791165     -115.668017
9.135                0.923484768      -115.89635
9.136                0.923178126     -116.125234
9.137                0.922871248      -116.35467
9.138                0.922564143     -116.584658
9.139                0.922256819     -116.815198
9.14                 0.921949285     -117.046292
9.141                 0.92164155     -117.277938
9.142                0.921333623     -117.510138
9.143                0.921025512     -117.742892
9.144                0.920717227       -117.9762
9.145                0.920408778     -118.210062
9.146                0.920100173      -118.44448
9.147                0.919791422     -118.679452
9.148                0.919482533     -118.914979
9.149                0.919173518     -119.151062
9.15                 0.918864385       -119.3877
9.151                0.918555144     -119.624895
9.152                0.918245804     -119.862645
9.153                0.917936377     -120.100952
9.154                0.917626871     -120.339815
9.155                0.917317296     -120.579234
9.156                0.917007663     -120.819211
9.157                0.916697982     -121.059743
9.158                0.916388264     -121.300833
9.159                0.916078518     -121.542479
9.16                 0.915768755     -121.784682
9.161                0.915458985     -122.027442
9.162                 0.91514922     -122.270759
9.163                0.914839469     -122.514633
9.164                0.914529744     -122.759064
9.165                0.914220055     -123.004051
9.166                0.913910414     -123.249595
9.167                0.913600832     -123.495696
9.168                0.913291318     -123.742353
9.169                0.912981886     -123.989566
9.17                 0.912672545     -124.237336
9.171                0.912363308     -124.485662
9.172                0.912054186     -124.734543
9.173                 0.91174519      -124.98398
9.174                0.911436331     -125.233972
9.175                0.911127622      -125.48452
9.176                0.910819074     -125.735622
9.177                  0.9105107     -125.987278
9.178                 0.91020251     -126.239489
9.179                0.909894517     -126.492254
9.18                 0.909586733     -126.745572
9.181                 0.90927917     -126.999443
9.182                0.908971841     -127.253866
9.183                0.908664757     -127.508842
9.184                 0.90835793      -127.76437
9.185                0.908051374     -128.020449
9.186                0.907745101     -128.277078
9.187                0.907439124     -128.534258
9.188                0.907133454     -128.791987
9.189                0.906828105     -129.050266
9.19                 0.906523089     -129.309093
9.191                 0.90621842     -129.568468
9.192                 0.90591411      -129.82839
9.193                0.905610172     -130.088858
9.194                 0.90530662     -130.349872
9.195                0.905003466     -130.611432
9.196                0.904700723     -130.873535
9.197                0.904398406     -131.136183
9.198                0.904096526     -131.399373
9.199                0.903795099     -131.663105
9.2                  0.903494136     -131.927378
9.201                0.903193651     -132.192191
9.202                0.902893659     -132.457543
9.203                0.902594172     -132.723434
9.204                0.902295205     -132.989862
9.205                0.901996771     -133.256827
9.206                0.901698883     -133.524327
9.207                0.901401557     -133.792362
9.208                0.901104805     -134.060929
9.209                0.900808641     -134.330029
9.21                 0.900513081     -134.599661
9.211                0.900218136     -134.869822
9.212                0.899923823     -135.140511
9.213                0.899630155     -135.411729
9.214                0.899337145     -135.683473
9.215                 0.89904481     -135.955741
9.216                0.898753161     -136.228534
9.217                0.898462215     -136.501849
9.218                0.898171986     -136.775685
9.219                0.897882487     -137.050041
9.22                 0.897593733     -137.324916
9.221                0.897305739     -137.600307
9.222                 0.89701852     -137.876214
9.223                0.896732089     -138.152635
9.224                0.896446463     -138.429568
9.225                0.896161654     -138.707012
9.226                0.895877678     -138.984966
9.227                 0.89559455     -139.263427
9.228                0.895312284     -139.542394
9.229                0.895030895     -139.821866
9.23                 0.894750398     -140.101841
9.231                0.894470807     -140.382317
9.232                0.894192139     -140.663292
9.233                0.893914406     -140.944764
9.234                0.893637625     -141.226732
9.235                0.893361809     -141.509194
9.236                0.893086975     -141.792148
9.237                0.892813137     -142.075592
9.238                 0.89254031     -142.359524
9.239                0.892268508     -142.643942
9.24                 0.891997747     -142.928844
9.241                0.891728042     -143.214229
9.242                0.891459408     -143.500093
9.243                0.891191859     -143.786436
9.244                0.890925411     -144.073254
9.245                0.890660079     -144.360546
9.246                0.890395877      -144.64831
9.247                 0.89013282     -144.936543
9.248                0.889870925     -145.225242
9.249                0.889610204     -145.514407
9.25                 0.889350674     -145.804034
9.251                0.889092349     -146.094121
9.252                0.888835245     -146.384666
9.253                0.888579375     -146.675666
9.254                0.888324756      -146.96712
9.255                0.888071402     -147.259023
9.256                0.887819327     -147.551375
9.257                0.887568547     -147.844172
9.258                0.887319076     -148.137411
9.259                0.887070929     -148.431091
9.26                 0.886824122     -148.725209
9.261                0.886578667     -149.019762
9.262                0.886334581     -149.314747
9.263                0.886091878     -149.610161
9.264                0.885850573     -149.906003
9.265                0.885610679     -150.202268
9.266                0.885372212     -150.498955
9.267                0.885135187      -150.79606
9.268                0.884899616     -151.093581
9.269                0.884665516     -151.391514
9.27                 0.884432899     -151.689857
9.271                0.884201782     -151.988607
9.272                0.883972177      -152.28776
9.273                0.883744098     -152.587314
9.274                0.883517561     -152.887266
9.275                0.883292579     -153.187613
9.276                0.883069166     -153.488351
9.277                0.882847336     -153.789477
9.278                0.882627103     -154.090988
9.279                 0.88240848     -154.392881
9.28                 0.882191482     -154.695153
9.281                0.881976121       -154.9978
9.282                0.881762412      -155.30082
9.283                0.881550368     -155.604208
9.284                0.881340003     -155.907962
9.285                0.881131329     -156.212077
9.286                 0.88092436     -156.516551
9.287                0.880719109     -156.821381
9.288                 0.88051559     -157.126562
9.289                0.880313814     -157.432092
9.29                 0.880113796     -157.737966
9.291                0.879915547     -158.044181
9.292                0.879719081     -158.350733
9.293                 0.87952441      -158.65762
9.294                0.879331546     -158.964837
9.295                0.879140502      -159.27238
9.296                 0.87895129     -159.580247
9.297                0.878763923     -159.888432
9.298                0.878578412     -160.196933
9.299                0.878394769     -160.505746
9.3                  0.878213006     -160.814866
9.301                0.878033135     -161.124291
9.302                0.877855167     -161.434015
9.303                0.877679115     -161.744036
9.304                0.877504988     -162.054349
9.305                0.877332798     -162.364951
9.306                0.877162557     -162.675837
9.307                0.876994276     -162.987004
9.308                0.876827964     -163.298447
9.309                0.876663634     -163.610162
9.31                 0.876501295     -163.922146
9.311                0.876340958     -164.234394
9.312                0.876182632     -164.546902
9.313                0.876026329     -164.859666
9.314                0.875872059     -165.172683
9.315                 0.87571983     -165.485947
9.316                0.875569653     -165.799454
9.317                0.875421538     -166.113201
9.318                0.875275493     -166.427182
9.319                0.875131528     -166.741395
9.32                 0.874989652     -167.055834
9.321                0.874849874     -167.370495
9.322                0.874712203     -167.685375
9.323                0.874576647     -168.000467
9.324                0.874443215     -168.315769
9.325                0.874311915     -168.631276
9.326                0.874182755     -168.946983
9.327                0.874055744     -169.262886
9.328                0.873930888     -169.578981
9.329                0.873808196     -169.895263
9.33                 0.873687675     -170.211727
9.331                0.873569333     -170.528369
9.332                0.873453176     -170.845185
9.333                0.873339211     -171.162171
9.334                0.873227446      -171.47932
9.335                0.873117886      -171.79663
9.336                0.873010539     -172.114095
9.337                 0.87290541     -172.431711
9.338                0.872802505     -172.749473
9.339                 0.87270183     -173.067376
9.34                 0.872603392     -173.385417
9.341                0.872507195      -173.70359
9.342                0.872413245     -174.021891
9.343                0.872321546     -174.340314
9.344                0.872232105     -174.658856
9.345                0.872144925     -174.977512
9.346                0.872060011     -175.296276
9.347                0.871977368     -175.615145
9.348                0.871896999     -175.934113
9.349                0.871818909     -176.253176
9.35                 0.871743101     -176.572329
9.351                 0.87166958     -176.891568
9.352                0.871598348     -177.210887
9.353                0.871529408     -177.530281
9.354                0.871462765     -177.849747
9.355                0.871398419     -178.169278
9.356                0.871336375     -178.488871
9.357                0.871276634     -178.808521
9.358                0.871219199     -179.128223
9.359                0.871164072     -179.447971
9.36                 0.871111254     -179.767762
9.361                0.871060748       179.91241
9.362                0.871012554       179.59255
9.363                0.870966674      179.272662
9.364                0.870923109      178.952751
9.365                0.870881859      178.632821
9.366                0.870842926      178.312879
9.367                 0.87080631      177.992928
9.368                0.870772011      177.672974
9.369                0.870740028      177.353021
9.37                 0.870710363      177.033074
9.371                0.870683014      176.713138
9.372                0.870657981      176.393218
9.373                0.870635263      176.073319
9.374                0.870614859      175.753445
9.375                0.870596768      175.433601
9.376                0.870580989      175.113793
9.377                0.870567519      174.794024
9.378                0.870556358      174.474301
9.379                0.870547503      174.154626
9.38                 0.870540953      173.835007
9.381                0.870536704      173.515446
9.382                0.870534754       173.19595
9.383                  0.8705351      172.876522
9.384                0.870537741      172.557169
9.385                0.870542671      172.237893
9.386                0.870549888      171.918701
9.387                0.870559389      171.599597
9.388                 0.87057117      171.280585
9.389                0.870585226      170.961671
9.39                 0.870601554       170.64286
9.391                0.870620149      170.324155
9.392                0.870641008      170.005562
9.393                0.870664124      169.687086
9.394                0.870689494      169.368731
9.395                0.870717112      169.050501
9.396                0.870746973      168.732403
