! TOUCHSTONE file generated by CST DESIGN STUDIO
! Date and time: Tue Feb  4 15:44:58 2025
! Project name: C:\Work\MatlabApps\UnitCellOptimizationMatlab\CST\unitcell.cst
! Tree item: Tasks\Sweep1\SPara1\S-Parameters
! Header version: 2024
! Port assignment regex: !\s*Touchstone port\s*([0-9]+)\s*=\s*(CST MWS port|CST DES external port|CST DES block port)\s*(.+)\s* \(\"(.*)\"\)(\s*mode\s*([0-9]+))?.*
! Touchstone port assignment:
! Touchstone port 1 = CST DES external port 1 ("")
# GHz S MA R 50
9                    0.961642453     -77.3624641
9.001                0.961455255     -77.4889946
9.002                0.961267488     -77.6158428
9.003                0.961079149     -77.7430097
9.004                0.960890241     -77.8704963
9.005                0.960700762     -77.9983036
9.006                0.960510712     -78.1264327
9.007                0.960320092     -78.2548846
9.008                  0.9601289     -78.3836603
9.009                0.959937137     -78.5127608
9.01                 0.959744803     -78.6421871
9.011                0.959551898     -78.7719403
9.012                0.959358421     -78.9020214
9.013                0.959164372     -79.0324314
9.014                0.958969752     -79.1631714
9.015                 0.95877456     -79.2942424
9.016                0.958578796     -79.4256454
9.017                 0.95838246     -79.5573815
9.018                0.958185553     -79.6894518
9.019                0.957988074     -79.8218572
9.02                 0.957790022     -79.9545989
9.021                0.957591399     -80.0876779
9.022                0.957392204     -80.2210952
9.023                0.957192438     -80.3548519
9.024                0.956992099     -80.4889491
9.025                0.956791189     -80.6233879
9.026                0.956589707     -80.7581692
9.027                0.956387654     -80.8932942
9.028                 0.95618503      -81.028764
9.029                0.955981834     -81.1645796
9.03                 0.955778067      -81.300742
9.031                 0.95557373     -81.4372525
9.032                0.955368821      -81.574112
9.033                0.955163342     -81.7113217
9.034                0.954957293     -81.8488826
9.035                0.954750674     -81.9867959
9.036                0.954543484     -82.1250625
9.037                0.954335726     -82.2636837
9.038                0.954127397     -82.4026605
9.039                  0.9539185      -82.541994
9.04                 0.953709034     -82.6816853
9.041                   0.953499     -82.8217355
9.042                0.953288397     -82.9621458
9.043                0.953077227     -83.1029172
9.044                0.952865489     -83.2440508
9.045                0.952653185     -83.3855478
9.046                0.952440314     -83.5274093
9.047                0.952226877     -83.6696364
9.048                0.952012874     -83.8122302
9.049                0.951798306     -83.9551918
9.05                 0.951583174     -84.0985224
9.051                0.951367477     -84.2422231
9.052                0.951151217      -84.386295
9.053                0.950934393     -84.5307393
9.054                0.950717007      -84.675557
9.055                0.950499059     -84.8207494
9.056                 0.95028055     -84.9663175
9.057                 0.95006148     -85.1122625
9.058                 0.94984185     -85.2585856
9.059                0.949621661     -85.4052879
9.06                 0.949400913     -85.5523705
9.061                0.949179607     -85.6998345
9.062                0.948957743     -85.8476812
9.063                0.948735324     -85.9959117
9.064                0.948512348     -86.1445271
9.065                0.948288818     -86.2935286
9.066                0.948064733     -86.4429174
9.067                0.947840096     -86.5926945
9.068                0.947614906     -86.7428612
9.069                0.947389164     -86.8934187
9.07                 0.947162872      -87.044368
9.071                 0.94693603     -87.1957104
9.072                 0.94670864      -87.347447
9.073                0.946480702      -87.499579
9.074                0.946252218     -87.6521075
9.075                0.946023187     -87.8050338
9.076                0.945793613      -87.958359
9.077                0.945563495     -88.1120843
9.078                0.945332834     -88.2662108
9.079                0.945101632     -88.4207398
9.08                 0.944869891     -88.5756723
9.081                 0.94463761     -88.7310097
9.082                0.944404792      -88.886753
9.083                0.944171438     -89.0429035
9.084                0.943937548     -89.1994623
9.085                0.943703125     -89.3564307
9.086                0.943468169     -89.5138097
9.087                0.943232682     -89.6716007
9.088                0.942996666     -89.8298047
9.089                0.942760121      -89.988423
9.09                 0.942523049     -90.1474568
9.091                0.942285452     -90.3069072
9.092                0.942047332     -90.4667754
9.093                0.941808688     -90.6270627
9.094                0.941569525     -90.7877702
9.095                0.941329841     -90.9488991
9.096                0.941089641     -91.1104507
9.097                0.940848924      -91.272426
9.098                0.940607694     -91.4348264
9.099                 0.94036595      -91.597653
9.1                  0.940123696     -91.7609069
9.101                0.939880933     -91.9245894
9.102                0.939637663     -92.0887018
9.103                0.939393888     -92.2532451
9.104                0.939149609     -92.4182206
9.105                0.938904829     -92.5836295
9.106                0.938659549     -92.7494729
9.107                0.938413772     -92.9157522
9.108                0.938167499     -93.0824684
9.109                0.937920733     -93.2496228
9.11                 0.937673475     -93.4172165
9.111                0.937425728     -93.5852509
9.112                0.937177494     -93.7537269
9.113                0.936928775      -93.922646
9.114                0.936679573     -94.0920092
9.115                 0.93642989     -94.2618178
9.116                 0.93617973     -94.4320729
9.117                0.935929093     -94.6027757
9.118                0.935677984     -94.7739275
9.119                0.935426403     -94.9455295
9.12                 0.935174353     -95.1175827
9.121                0.934921838     -95.2900885
9.122                0.934668859      -95.463048
9.123                0.934415419     -95.6364624
9.124                 0.93416152     -95.8103329
9.125                0.933907166     -95.9846606
9.126                0.933652359     -96.1594469
9.127                0.933397101     -96.3346928
9.128                0.933141396     -96.5103995
9.129                0.932885246     -96.6865682
9.13                 0.932628655     -96.8632002
9.131                0.932371624     -97.0402965
9.132                0.932114157     -97.2178584
9.133                0.931856257     -97.3958871
9.134                0.931597927     -97.5743836
9.135                 0.93133917     -97.7533493
9.136                0.931079989     -97.9327852
9.137                0.930820387     -98.1126925
9.138                0.930560368     -98.2930725
9.139                0.930299934     -98.4739262
9.14                  0.93003909     -98.6552548
9.141                0.929777837     -98.8370595
9.142                 0.92951618     -99.0193415
9.143                0.929254123     -99.2021018
9.144                0.928991667     -99.3853418
9.145                0.928728818     -99.5690624
9.146                0.928465579     -99.7532649
9.147                0.928201952     -99.9379503
9.148                0.927937943      -100.12312
9.149                0.927673554     -100.308775
9.15                 0.927408789     -100.494916
9.151                0.927143653     -100.681545
9.152                0.926878148     -100.868663
9.153                0.926612279      -101.05627
9.154                 0.92634605     -101.244368
9.155                0.926079465     -101.432958
9.156                0.925812528     -101.622042
9.157                0.925545242      -101.81162
9.158                0.925277613     -102.001693
9.159                0.925009644     -102.192262
9.16                 0.924741339     -102.383329
9.161                0.924472703     -102.574895
9.162                0.924203741     -102.766961
9.163                0.923934455     -102.959527
9.164                0.923664852     -103.152595
9.165                0.923394936     -103.346167
9.166                 0.92312471     -103.540242
9.167                 0.92285418     -103.734822
9.168                0.922583351     -103.929909
9.169                0.922312227     -104.125503
9.17                 0.922040812     -104.321605
9.171                0.921769113     -104.518217
9.172                0.921497133     -104.715339
9.173                0.921224877     -104.912972
9.174                0.920952351     -105.111118
9.175                 0.92067956     -105.309777
9.176                0.920406509     -105.508951
9.177                0.920133202      -105.70864
9.178                0.919859646     -105.908846
9.179                0.919585845     -106.109569
9.18                 0.919311804     -106.310811
9.181                 0.91903753     -106.512572
9.182                0.918763028     -106.714853
9.183                0.918488303     -106.917656
9.184                 0.91821336     -107.120982
9.185                0.917938206      -107.32483
9.186                0.917662846     -107.529203
9.187                0.917387286     -107.734101
9.188                0.917111531     -107.939525
9.189                0.916835588     -108.145477
9.19                 0.916559463     -108.351956
9.191                0.916283161     -108.558964
9.192                0.916006688     -108.766502
9.193                0.915730052     -108.974571
9.194                0.915453257     -109.183171
9.195                 0.91517631     -109.392303
9.196                0.914899217     -109.601969
9.197                0.914621986     -109.812169
9.198                0.914344621     -110.022905
9.199                 0.91406713     -110.234175
9.2                   0.91378952     -110.445983
9.201                0.913511796     -110.658328
9.202                0.913233966     -110.871211
9.203                0.912956036     -111.084634
9.204                0.912678014     -111.298596
9.205                0.912399905     -111.513099
9.206                0.912121717     -111.728144
9.207                0.911843458      -111.94373
9.208                0.911565133      -112.15986
9.209                 0.91128675     -112.376533
9.21                 0.911008317     -112.593751
9.211                0.910729841     -112.811513
9.212                0.910451328     -113.029822
9.213                0.910172787     -113.248677
9.214                0.909894224     -113.468079
9.215                0.909615648     -113.688029
9.216                0.909337066     -113.908528
9.217                0.909058485     -114.129576
9.218                0.908779914     -114.351173
9.219                0.908501359     -114.573321
9.22                  0.90822283      -114.79602
9.221                0.907944333     -115.019271
9.222                0.907665877     -115.243073
9.223                 0.90738747     -115.467429
9.224                0.907109121     -115.692338
9.225                0.906830836       -115.9178
9.226                0.906552625     -116.143817
9.227                0.906274495     -116.370389
9.228                0.905996456     -116.597516
9.229                0.905718515     -116.825199
9.23                 0.905440681     -117.053439
9.231                0.905162963     -117.282235
9.232                0.904885369     -117.511588
9.233                0.904607909     -117.741499
9.234                 0.90433059     -117.971968
9.235                0.904053422     -118.202995
9.236                0.903776413     -118.434582
9.237                0.903499573     -118.666727
9.238                 0.90322291     -118.899432
9.239                0.902946434     -119.132697
9.24                 0.902670154     -119.366522
9.241                0.902394079     -119.600907
9.242                0.902118219     -119.835853
9.243                0.901842582      -120.07136
9.244                0.901567179     -120.307429
9.245                0.901292018     -120.544058
9.246                0.901017109      -120.78125
9.247                0.900742463     -121.019003
9.248                0.900468088     -121.257319
9.249                0.900193994     -121.496196
9.25                 0.899920191     -121.735636
9.251                 0.89964669     -121.975638
9.252                0.899373499     -122.216203
9.253                 0.89910063     -122.457331
9.254                0.898828091     -122.699021
9.255                0.898555894     -122.941274
9.256                0.898284048     -123.184089
9.257                0.898012564     -123.427468
9.258                0.897741452     -123.671409
9.259                0.897470722     -123.915913
9.26                 0.897200385     -124.160979
9.261                0.896930451     -124.406608
9.262                0.896660931       -124.6528
9.263                0.896391835     -124.899554
9.264                0.896123174      -125.14687
9.265                 0.89585496     -125.394748
9.266                0.895587202     -125.643188
9.267                0.895319911     -125.892189
9.268                0.895053099     -126.141752
9.269                0.894786776     -126.391877
9.27                 0.894520954     -126.642562
9.271                0.894255643     -126.893807
9.272                0.893990854     -127.145613
9.273                0.893726599     -127.397979
9.274                 0.89346289     -127.650905
9.275                0.893199736      -127.90439
9.276                 0.89293715     -128.158433
9.277                0.892675143     -128.413035
9.278                0.892413727     -128.668195
9.279                0.892152912     -128.923912
9.28                 0.891892711     -129.180186
9.281                0.891633135     -129.437017
9.282                0.891374195     -129.694403
9.283                0.891115904     -129.952345
9.284                0.890858273     -130.210841
9.285                0.890601314     -130.469891
9.286                0.890345038     -130.729495
9.287                0.890089458     -130.989651
9.288                0.889834585     -131.250359
9.289                0.889580432     -131.511619
9.29                  0.88932701     -131.773429
9.291                0.889074331     -132.035788
9.292                0.888822408     -132.298697
9.293                0.888571253     -132.562153
9.294                0.888320877     -132.826157
9.295                0.888071292     -133.090707
9.296                0.887822512     -133.355803
9.297                0.887574549     -133.621442
9.298                0.887327414     -133.887626
9.299                0.887081119     -134.154351
9.3                  0.886835678     -134.421618
9.301                0.886591103     -134.689426
9.302                0.886347406     -134.957773
9.303                0.886104599     -135.226658
9.304                0.885862695     -135.496079
9.305                0.885621706     -135.766037
9.306                0.885381645      -136.03653
9.307                0.885142525     -136.307555
9.308                0.884904357     -136.579113
9.309                0.884667155     -136.851202
9.31                 0.884430932     -137.123821
9.311                0.884195699     -137.396967
9.312                0.883961469     -137.670641
9.313                0.883728255      -137.94484
9.314                 0.88349607     -138.219563
9.315                0.883264926     -138.494808
9.316                0.883034836     -138.770575
9.317                0.882805813     -139.046861
9.318                0.882577869     -139.323665
9.319                0.882351018     -139.600985
9.32                 0.882125271      -139.87882
9.321                0.881900641     -140.157168
9.322                0.881677142     -140.436028
9.323                0.881454785     -140.715397
9.324                0.881233585     -140.995275
9.325                0.881013552     -141.275658
9.326                0.880794701     -141.556546
9.327                0.880577043     -141.837937
9.328                0.880360592     -142.119828
9.329                 0.88014536     -142.402218
9.33                 0.879931359     -142.685105
9.331                0.879718603     -142.968487
9.332                0.879507105     -143.252362
9.333                0.879296876     -143.536727
9.334                0.879087929     -143.821582
9.335                0.878880278     -144.106923
9.336                0.878673934     -144.392749
9.337                 0.87846891     -144.679058
9.338                0.878265219     -144.965847
9.339                0.878062873     -145.253114
9.34                 0.877861884     -145.540857
9.341                0.877662266     -145.829073
9.342                0.877464031     -146.117761
9.343                 0.87726719     -146.406917
9.344                0.877071757     -146.696541
9.345                0.876877744     -146.986628
9.346                0.876685162     -147.277177
9.347                0.876494025     -147.568185
9.348                0.876304344      -147.85965
9.349                0.876116132     -148.151569
9.35                   0.8759294      -148.44394
9.351                0.875744162      -148.73676
9.352                0.875560428     -149.030026
9.353                0.875378211     -149.323736
9.354                0.875197523     -149.617887
9.355                0.875018375     -149.912476
9.356                 0.87484078     -150.207501
9.357                0.874664749     -150.502958
9.358                0.874490294     -150.798846
9.359                0.874317427      -151.09516
9.36                 0.874146159     -151.391899
9.361                0.873976501     -151.689058
9.362                0.873808466     -151.986636
9.363                0.873642064      -152.28463
9.364                0.873477306     -152.583035
9.365                0.873314205      -152.88185
9.366                0.873152771     -153.181071
9.367                0.872993015     -153.480695
9.368                0.872834949     -153.780719
9.369                0.872678582      -154.08114
9.37                 0.872523927     -154.381954
9.371                0.872370993     -154.683158
9.372                0.872219792     -154.984749
9.373                0.872070333     -155.286724
9.374                0.871922629      -155.58908
9.375                0.871776688     -155.891812
9.376                0.871632521     -156.194918
9.377                0.871490139     -156.498394
9.378                0.871349551     -156.802237
9.379                0.871210767     -157.106443
9.38                 0.871073798     -157.411009
9.381                0.870938653     -157.715931
9.382                0.870805342     -158.021206
9.383                0.870673875      -158.32683
9.384                0.870544261     -158.632799
9.385                0.870416508      -158.93911
9.386                0.870290628     -159.245759
9.387                0.870166628     -159.552743
9.388                0.870044518     -159.860056
9.389                0.869924306     -160.167697
9.39                 0.869806002     -160.475661
9.391                0.869689614     -160.783944
9.392                0.869575151     -161.092543
9.393                0.869462621     -161.401453
9.394                0.869352032      -161.71067
9.395                0.869243392     -162.020191
9.396                 0.86913671     -162.330012
