! TOUCHSTONE file generated by CST DESIGN STUDIO
! Date and time: Tue Feb  4 15:44:51 2025
! Project name: C:\Work\MatlabApps\UnitCellOptimizationMatlab\CST\unitcell.cst
! Tree item: Tasks\Sweep1\SPara1\S-Parameters
! Header version: 2024
! Port assignment regex: !\s*Touchstone port\s*([0-9]+)\s*=\s*(CST MWS port|CST DES external port|CST DES block port)\s*(.+)\s* \(\"(.*)\"\)(\s*mode\s*([0-9]+))?.*
! Touchstone port assignment:
! Touchstone port 1 = CST DES external port 1 ("")
# GHz S MA R 50
9                    0.960015031     -93.6835328
9.001                0.959778912     -93.8575127
9.002                 0.95954195     -94.0319481
9.003                0.959304147     -94.2068399
9.004                0.959065504     -94.3821895
9.005                0.958826024     -94.5579979
9.006                0.958585706     -94.7342663
9.007                0.958344553     -94.9109957
9.008                0.958102565     -95.0881874
9.009                0.957859745     -95.2658424
9.01                 0.957616093     -95.4439619
9.011                0.957371612      -95.622547
9.012                0.957126303     -95.8015988
9.013                0.956880167     -95.9811184
9.014                0.956633207      -96.161107
9.015                0.956385423     -96.3415657
9.016                0.956136818     -96.5224956
9.017                0.955887394     -96.7038977
9.018                0.955637152     -96.8857733
9.019                0.955386095     -97.0681234
9.02                 0.955134224     -97.2509491
9.021                0.954881541     -97.4342516
9.022                0.954628049     -97.6180319
9.023                 0.95437375     -97.8022911
9.024                0.954118645     -97.9870303
9.025                0.953862738     -98.1722506
9.026                 0.95360603     -98.3579532
9.027                0.953348524     -98.5441391
9.028                0.953090221     -98.7308093
9.029                0.952831126      -98.917965
9.03                  0.95257124     -99.1056072
9.031                0.952310565      -99.293737
9.032                0.952049104     -99.4823556
9.033                0.951786861     -99.6714638
9.034                0.951523837     -99.8610629
9.035                0.951260036     -100.051154
9.036                 0.95099546     -100.241738
9.037                0.950730113     -100.432816
9.038                0.950463997     -100.624389
9.039                0.950197115     -100.816458
9.04                  0.94992947     -101.009024
9.041                0.949661066     -101.202088
9.042                0.949391906     -101.395651
9.043                0.949121993     -101.589715
9.044                 0.94885133      -101.78428
9.045                0.948579921     -101.979347
9.046                0.948307769     -102.174918
9.047                0.948034878     -102.370992
9.048                0.947761251     -102.567572
9.049                0.947486892     -102.764659
9.05                 0.947211805     -102.962252
9.051                0.946935993     -103.160354
9.052                 0.94665946     -103.358965
9.053                0.946382211     -103.558086
9.054                0.946104248     -103.757719
9.055                0.945825577     -103.957863
9.056                0.945546201     -104.158521
9.057                0.945266125     -104.359693
9.058                0.944985353      -104.56138
9.059                0.944703888     -104.763582
9.06                 0.944421736     -104.966302
9.061                0.944138901     -105.169539
9.062                0.943855387     -105.373296
9.063                0.943571199     -105.577571
9.064                0.943286341     -105.782368
9.065                0.943000819     -105.987686
9.066                0.942714638     -106.193526
9.067                0.942427801     -106.399889
9.068                0.942140314     -106.606777
9.069                0.941852182     -106.814189
9.07                  0.94156341     -107.022128
9.071                0.941274004     -107.230593
9.072                0.940983968     -107.439585
9.073                0.940693308     -107.649106
9.074                0.940402029     -107.859157
9.075                0.940110137     -108.069737
9.076                0.939817637     -108.280848
9.077                0.939524535     -108.492491
9.078                0.939230836     -108.704666
9.079                0.938936547     -108.917375
9.08                 0.938641673     -109.130617
9.081                 0.93834622     -109.344394
9.082                0.938050194     -109.558707
9.083                0.937753602     -109.773556
9.084                0.937456448     -109.988942
9.085                0.937158741     -110.204866
9.086                0.936860485     -110.421329
9.087                0.936561688      -110.63833
9.088                0.936262355     -110.855872
9.089                0.935962494     -111.073954
9.09                 0.935662111     -111.292577
9.091                0.935361212     -111.511742
9.092                0.935059805      -111.73145
9.093                0.934757897     -111.951701
9.094                0.934455494     -112.172496
9.095                0.934152604     -112.393836
9.096                0.933849233      -112.61572
9.097                0.933545389      -112.83815
9.098                0.933241079     -113.061127
9.099                0.932936311      -113.28465
9.1                  0.932631092     -113.508721
9.101                 0.93232543     -113.733339
9.102                0.932019332     -113.958507
9.103                0.931712805     -114.184223
9.104                0.931405859     -114.410489
9.105                  0.9310985     -114.637305
9.106                0.930790737     -114.864671
9.107                0.930482578     -115.092588
9.108                0.930174031     -115.321057
9.109                0.929865104     -115.550078
9.11                 0.929555805     -115.779651
9.111                0.929246144     -116.009777
9.112                0.928936127     -116.240456
9.113                0.928625765     -116.471688
9.114                0.928315066     -116.703474
9.115                0.928004038     -116.935815
9.116                 0.92769269      -117.16871
9.117                0.927381032     -117.402161
9.118                0.927069072     -117.636166
9.119                 0.92675682     -117.870727
9.12                 0.926444284     -118.105844
9.121                0.926131474     -118.341517
9.122                  0.9258184     -118.577746
9.123                 0.92550507     -118.814532
9.124                0.925191495     -119.051875
9.125                0.924877683     -119.289775
9.126                0.924563646     -119.528231
9.127                0.924249392     -119.767246
9.128                0.923934931     -120.006817
9.129                0.923620274     -120.246947
9.13                 0.923305431     -120.487634
9.131                0.922990411     -120.728879
9.132                0.922675225     -120.970681
9.133                0.922359884     -121.213042
9.134                0.922044398     -121.455961
9.135                0.921728777     -121.699438
9.136                0.921413031     -121.943473
9.137                0.921097173     -122.188065
9.138                0.920781212     -122.433216
9.139                0.920465159     -122.678925
9.14                 0.920149026     -122.925192
9.141                0.919832823     -123.172016
9.142                0.919516561     -123.419398
9.143                0.919200252     -123.667338
9.144                0.918883907     -123.915835
9.145                0.918567538     -124.164889
9.146                0.918251155       -124.4145
9.147                0.917934771     -124.664668
9.148                0.917618396     -124.915392
9.149                0.917302044     -125.166673
9.15                 0.916985725      -125.41851
9.151                0.916669452     -125.670902
9.152                0.916353236      -125.92385
9.153                 0.91603709     -126.177353
9.154                0.915721025     -126.431411
9.155                0.915405055     -126.686022
9.156                0.915089191     -126.941188
9.157                0.914773445     -127.196907
9.158                 0.91445783      -127.45318
9.159                0.914142359     -127.710004
9.16                 0.913827045     -127.967381
9.161                0.913511899     -128.225309
9.162                0.913196935     -128.483788
9.163                0.912882166     -128.742818
9.164                0.912567604     -129.002397
9.165                0.912253263     -129.262525
9.166                0.911939156     -129.523202
9.167                0.911625295     -129.784427
9.168                0.911311695     -130.046199
9.169                0.910998367     -130.308517
9.17                 0.910685327     -130.571381
9.171                0.910372587     -130.834789
9.172                 0.91006016     -131.098742
9.173                0.909748061     -131.363238
9.174                0.909436303     -131.628277
9.175                  0.9091249     -131.893857
9.176                0.908813865     -132.159977
9.177                0.908503213     -132.426638
9.178                0.908192957     -132.693837
9.179                0.907883111     -132.961574
9.18                 0.907573689     -133.229848
9.181                0.907264707     -133.498657
9.182                0.906956176     -133.768002
9.183                0.906648113     -134.037879
9.184                0.906340531      -134.30829
9.185                0.906033445     -134.579231
9.186                0.905726868     -134.850703
9.187                0.905420816     -135.122704
9.188                0.905115303     -135.395232
9.189                0.904810344     -135.668288
9.19                 0.904505953     -135.941868
9.191                0.904202145     -136.215972
9.192                0.903898934     -136.490599
9.193                0.903596336     -136.765747
9.194                0.903294365     -137.041415
9.195                0.902993037     -137.317601
9.196                0.902692365     -137.594304
9.197                0.902392366     -137.871522
9.198                0.902093053     -138.149255
9.199                0.901794443       -138.4275
9.2                   0.90149655     -138.706256
9.201                0.901199389      -138.98552
9.202                0.900902975     -139.265293
9.203                0.900607325     -139.545571
9.204                0.900312452     -139.826354
9.205                0.900018372     -140.107639
9.206                0.899725101     -140.389425
9.207                0.899432653      -140.67171
9.208                0.899141045     -140.954492
9.209                0.898850291      -141.23777
9.21                 0.898560407     -141.521541
9.211                0.898271409     -141.805803
9.212                0.897983311     -142.090555
9.213                0.897696129     -142.375795
9.214                0.897409879     -142.661521
9.215                0.897124576      -142.94773
9.216                0.896840236      -143.23442
9.217                0.896556874     -143.521591
9.218                0.896274506     -143.809238
9.219                0.895993147     -144.097361
9.22                 0.895712812     -144.385957
9.221                0.895433518     -144.675023
9.222                 0.89515528     -144.964558
9.223                0.894878114      -145.25456
9.224                0.894602034     -145.545025
9.225                0.894327057     -145.835952
9.226                0.894053197     -146.127339
9.227                0.893780472     -146.419182
9.228                0.893508895      -146.71148
9.229                0.893238483     -147.004229
9.23                 0.892969251     -147.297429
9.231                0.892701215     -147.591075
9.232                 0.89243439     -147.885165
9.233                0.892168791     -148.179698
9.234                0.891904434     -148.474669
9.235                0.891641334     -148.770077
9.236                0.891379507     -149.065919
9.237                0.891118968     -149.362192
9.238                0.890859733     -149.658894
9.239                0.890601816     -149.956021
9.24                 0.890345232      -150.25357
9.241                0.890089998      -150.55154
9.242                0.889836128     -150.849927
9.243                0.889583638     -151.148728
9.244                0.889332542      -151.44794
9.245                0.889082855     -151.747561
9.246                0.888834593     -152.047587
9.247                0.888587771     -152.348015
9.248                0.888342403     -152.648842
9.249                0.888098504     -152.950065
9.25                 0.887856089     -153.251681
9.251                0.887615173     -153.553687
9.252                 0.88737577      -153.85608
9.253                0.887137895     -154.158856
9.254                0.886901563     -154.462013
9.255                0.886666788     -154.765546
9.256                0.886433584     -155.069453
9.257                0.886201966      -155.37373
9.258                0.885971948     -155.678374
9.259                0.885743545     -155.983381
9.26                 0.885516769     -156.288749
9.261                0.885291636     -156.594473
9.262                 0.88506816     -156.900551
9.263                0.884846353     -157.206978
9.264                0.884626231     -157.513751
9.265                0.884407806     -157.820867
9.266                0.884191092     -158.128322
9.267                0.883976103     -158.436112
9.268                0.883762852     -158.744234
9.269                0.883551352     -159.052684
9.27                 0.883341617     -159.361458
9.271                 0.88313366     -159.670552
9.272                0.882927493     -159.979964
9.273                 0.88272313     -160.289688
9.274                0.882520584     -160.599722
9.275                0.882319866     -160.910061
9.276                 0.88212099     -161.220701
9.277                0.881923968     -161.531639
9.278                0.881728812     -161.842871
9.279                0.881535535     -162.154393
9.28                 0.881344148       -162.4662
9.281                0.881154664     -162.778289
9.282                0.880967094     -163.090656
9.283                 0.88078145     -163.403296
9.284                0.880597744     -163.716206
9.285                0.880415986     -164.029382
9.286                 0.88023619     -164.342819
9.287                0.880058364     -164.656513
9.288                0.879882521      -164.97046
9.289                0.879708671     -165.284656
9.29                 0.879536826     -165.599097
9.291                0.879366995     -165.913778
9.292                0.879199189     -166.228696
9.293                0.879033419     -166.543845
9.294                0.878869694     -166.859223
9.295                0.878708025     -167.174823
9.296                0.878548421     -167.490642
9.297                0.878390892     -167.806676
9.298                0.878235448      -168.12292
9.299                0.878082098      -168.43937
9.3                  0.877930851     -168.756022
9.301                0.877781716      -169.07287
9.302                0.877634702     -169.389911
9.303                0.877489818      -169.70714
9.304                0.877347073     -170.024552
9.305                0.877206474     -170.342144
9.306                0.877068029      -170.65991
9.307                0.876931748     -170.977845
9.308                0.876797638     -171.295947
9.309                0.876665706     -171.614209
9.31                  0.87653596     -171.932627
9.311                0.876408407     -172.251197
9.312                0.876283055     -172.569914
9.313                 0.87615991     -172.888773
9.314                0.876038979      -173.20777
9.315                0.875920269       -173.5269
9.316                0.875803786     -173.846158
9.317                0.875689537      -174.16554
9.318                0.875577527     -174.485041
9.319                0.875467762     -174.804656
9.32                 0.875360249     -175.124381
9.321                0.875254991     -175.444211
9.322                0.875151996      -175.76414
9.323                0.875051267     -176.084165
9.324                 0.87495281      -176.40428
9.325                 0.87485663     -176.724481
9.326                 0.87476273     -177.044763
9.327                0.874671115     -177.365122
9.328                 0.87458179     -177.685551
9.329                0.874494759     -178.006047
9.33                 0.874410024     -178.326605
9.331                 0.87432759      -178.64722
9.332                0.874247459     -178.967886
9.333                0.874169636       -179.2886
9.334                0.874094122     -179.609357
9.335                0.874020921     -179.930151
9.336                0.873950036      179.749022
9.337                0.873881467      179.428168
9.338                0.873815219       179.10729
9.339                0.873751291      178.786395
9.34                 0.873689688      178.465486
9.341                0.873630408      178.144569
9.342                0.873573455      177.823648
9.343                0.873518829      177.502728
9.344                0.873466531      177.181815
9.345                0.873416562      176.860912
9.346                0.873368922      176.540026
9.347                0.873323612       176.21916
9.348                0.873280631       175.89832
9.349                 0.87323998      175.577511
9.35                 0.873201658      175.256737
9.351                0.873165664      174.936003
9.352                0.873131999      174.615314
9.353                0.873100661      174.294675
9.354                0.873071649      173.974091
9.355                0.873044961      173.653567
9.356                0.873020597      173.333107
9.357                0.872998553      173.012717
9.358                 0.87297883        172.6924
9.359                0.872961423      172.372163
9.36                 0.872946332      172.052009
9.361                0.872933553      171.731944
9.362                0.872923084      171.411972
9.363                0.872914922      171.092098
9.364                0.872909063      170.772328
9.365                0.872905505      170.452665
9.366                0.872904244      170.133114
9.367                0.872905276      169.813681
9.368                0.872908598       169.49437
9.369                0.872914205      169.175185
9.37                 0.872922092      168.856132
9.371                0.872932256      168.537215
9.372                0.872944693      168.218439
9.373                0.872959396      167.899809
9.374                0.872976361      167.581328
9.375                0.872995583      167.263003
9.376                0.873017056      166.944837
9.377                0.873040776      166.626835
9.378                0.873066735      166.309002
9.379                0.873094928      165.991342
9.38                  0.87312535       165.67386
9.381                0.873157993      165.356561
9.382                0.873192851      165.039449
9.383                0.873229918      164.722528
9.384                0.873269187      164.405804
9.385                 0.87331065       164.08928
9.386                0.873354301      163.772962
9.387                0.873400132      163.456853
9.388                0.873448136      163.140958
9.389                0.873498305      162.825281
9.39                 0.873550632      162.509827
9.391                0.873605107      162.194601
9.392                0.873661724      161.879606
9.393                0.873720473      161.564847
9.394                0.873781347      161.250329
9.395                0.873844337      160.936055
9.396                0.873909433      160.622031
