! TOUCHSTONE file generated by CST DESIGN STUDIO
! Date and time: Tue Feb  4 15:45:07 2025
! Project name: C:\Work\MatlabApps\UnitCellOptimizationMatlab\CST\unitcell.cst
! Tree item: Tasks\Sweep1\SPara1\S-Parameters
! Header version: 2024
! Port assignment regex: !\s*Touchstone port\s*([0-9]+)\s*=\s*(CST MWS port|CST DES external port|CST DES block port)\s*(.+)\s* \(\"(.*)\"\)(\s*mode\s*([0-9]+))?.*
! Touchstone port assignment:
! Touchstone port 1 = CST DES external port 1 ("")
# GHz S MA R 50
9                    0.967200447     -54.8569218
9.001                0.967095495     -54.9297165
9.002                0.966990355     -55.0026656
9.003                0.966885027     -55.0757695
9.004                 0.96677951     -55.1490289
9.005                0.966673806     -55.2224441
9.006                0.966567913     -55.2960158
9.007                0.966461832     -55.3697446
9.008                0.966355562     -55.4436308
9.009                0.966249104     -55.5176751
9.01                 0.966142457      -55.591878
9.011                0.966035622     -55.6662401
9.012                0.965928598     -55.7407619
9.013                0.965821386     -55.8154438
9.014                0.965713985     -55.8902866
9.015                0.965606395     -55.9652907
9.016                0.965498616     -56.0404568
9.017                0.965390649     -56.1157852
9.018                0.965282492     -56.1912767
9.019                0.965174146     -56.2669317
9.02                 0.965065611     -56.3427508
9.021                0.964956887     -56.4187346
9.022                0.964847974     -56.4948837
9.023                0.964738871     -56.5711986
9.024                0.964629579     -56.6476799
9.025                0.964520097     -56.7243282
9.026                0.964410426      -56.801144
9.027                0.964300565     -56.8781279
9.028                0.964190514     -56.9552805
9.029                0.964080273     -57.0326024
9.03                 0.963969842     -57.1100941
9.031                0.963859221     -57.1877563
9.032                 0.96374841     -57.2655896
9.033                0.963637408     -57.3435944
9.034                0.963526216     -57.4217715
9.035                0.963414833     -57.5001215
9.036                 0.96330326     -57.5786448
9.037                0.963191496     -57.6573421
9.038                 0.96307954     -57.7362141
9.039                0.962967394     -57.8152613
9.04                 0.962855057     -57.8944843
9.041                0.962742528     -57.9738838
9.042                0.962629808     -58.0534603
9.043                0.962516896     -58.1332145
9.044                0.962403792      -58.213147
9.045                0.962290497     -58.2932584
9.046                0.962177009     -58.3735493
9.047                0.962063329     -58.4540204
9.048                0.961949457     -58.5346723
9.049                0.961835393     -58.6155056
9.05                 0.961721136     -58.6965209
9.051                0.961606686     -58.7777189
9.052                0.961492043     -58.8591002
9.053                0.961377207     -58.9406654
9.054                0.961262178     -59.0224153
9.055                0.961146955     -59.1043504
9.056                0.961031539     -59.1864714
9.057                0.960915929     -59.2687789
9.058                0.960800125     -59.3512736
9.059                0.960684127     -59.4339561
9.06                 0.960567934     -59.5168271
9.061                0.960451547     -59.5998873
9.062                0.960334966     -59.6831374
9.063                0.960218189     -59.7665778
9.064                0.960101218     -59.8502095
9.065                0.959984051      -59.934033
9.066                0.959866688     -60.0180489
9.067                 0.95974913      -60.102258
9.068                0.959631376      -60.186661
9.069                0.959513426     -60.2712585
9.07                  0.95939528     -60.3560512
9.071                0.959276937     -60.4410398
9.072                0.959158397     -60.5262249
9.073                0.959039661     -60.6116074
9.074                0.958920727     -60.6971878
9.075                0.958801596     -60.7829668
9.076                0.958682267     -60.8689452
9.077                0.958562741     -60.9551237
9.078                0.958443016     -61.0415029
9.079                0.958323093     -61.1280836
9.08                 0.958202972     -61.2148665
9.081                0.958082652     -61.3018523
9.082                0.957962133     -61.3890416
9.083                0.957841414     -61.4764353
9.084                0.957720496      -61.564034
9.085                0.957599379     -61.6518385
9.086                0.957478061     -61.7398495
9.087                0.957356543     -61.8280677
9.088                0.957234824     -61.9164938
9.089                0.957112905     -62.0051287
9.09                 0.956990785     -62.0939729
9.091                0.956868463     -62.1830273
9.092                 0.95674594     -62.2722926
9.093                0.956623215     -62.3617695
9.094                0.956500288     -62.4514589
9.095                0.956377158     -62.5413614
9.096                0.956253826     -62.6314777
9.097                0.956130291     -62.7218087
9.098                0.956006553     -62.8123552
9.099                0.955882611     -62.9031178
9.1                  0.955758465     -62.9940973
9.101                0.955634116     -63.0852946
9.102                0.955509562     -63.1767103
9.103                0.955384803     -63.2683453
9.104                0.955259839     -63.3602002
9.105                 0.95513467      -63.452276
9.106                0.955009295     -63.5445734
9.107                0.954883715     -63.6370932
9.108                0.954757928     -63.7298361
9.109                0.954631935     -63.8228029
9.11                 0.954505735     -63.9159945
9.111                0.954379328     -64.0094116
9.112                0.954252714     -64.1030551
9.113                0.954125891     -64.1969257
9.114                0.953998861     -64.2910243
9.115                0.953871622     -64.3853516
9.116                0.953744175     -64.4799085
9.117                0.953616518     -64.5746957
9.118                0.953488653     -64.6697141
9.119                0.953360577     -64.7649646
9.12                 0.953232291     -64.8604479
9.121                0.953103796     -64.9561649
9.122                0.952975089     -65.0521163
9.123                0.952846171     -65.1483031
9.124                0.952717042     -65.2447261
9.125                0.952587701      -65.341386
9.126                0.952458148     -65.4382838
9.127                0.952328383     -65.5354203
9.128                0.952198405     -65.6327963
9.129                0.952068214     -65.7304127
9.13                 0.951937809     -65.8282704
9.131                 0.95180719     -65.9263701
9.132                0.951676357     -66.0247128
9.133                 0.95154531     -66.1232993
9.134                0.951414048     -66.2221305
9.135                 0.95128257     -66.3212073
9.136                0.951150877     -66.4205304
9.137                0.951018968     -66.5201009
9.138                0.950886843     -66.6199196
9.139                  0.9507545     -66.7199873
9.14                 0.950621941     -66.8203049
9.141                0.950489164     -66.9208734
9.142                0.950356169     -67.0216937
9.143                0.950222956     -67.1227665
9.144                0.950089525     -67.2240929
9.145                0.949955874     -67.3256736
9.146                0.949822004     -67.4275097
9.147                0.949687915     -67.5296021
9.148                0.949553605     -67.6319515
9.149                0.949419075      -67.734559
9.15                 0.949284323     -67.8374255
9.151                0.949149351     -67.9405519
9.152                0.949014157     -68.0439391
9.153                0.948878741      -68.147588
9.154                0.948743102     -68.2514996
9.155                0.948607241     -68.3556747
9.156                0.948471156     -68.4601144
9.157                0.948334848     -68.5648196
9.158                0.948198315     -68.6697912
9.159                0.948061558     -68.7750302
9.16                 0.947924577     -68.8805375
9.161                 0.94778737      -68.986314
9.162                0.947649938     -69.0923608
9.163                 0.94751228     -69.1986787
9.164                0.947374395     -69.3052688
9.165                0.947236283     -69.4121319
9.166                0.947097945     -69.5192692
9.167                0.946959379     -69.6266815
9.168                0.946820584     -69.7343698
9.169                0.946681562     -69.8423351
9.17                 0.946542311     -69.9505784
9.171                 0.94640283     -70.0591006
9.172                 0.94626312     -70.1679028
9.173                 0.94612318      -70.276986
9.174                0.945983009      -70.386351
9.175                0.945842608     -70.4959991
9.176                0.945701976      -70.605931
9.177                0.945561112     -70.7161479
9.178                0.945420016     -70.8266508
9.179                0.945278688     -70.9374406
9.18                 0.945137126     -71.0485183
9.181                0.944995332     -71.1598851
9.182                0.944853304     -71.2715419
9.183                0.944711042     -71.3834898
9.184                0.944568546     -71.4957297
9.185                0.944425815     -71.6082627
9.186                0.944282849     -71.7210898
9.187                0.944139647     -71.8342121
9.188                 0.94399621     -71.9476307
9.189                0.943852536     -72.0613464
9.19                 0.943708625     -72.1753605
9.191                0.943564477      -72.289674
9.192                0.943420092     -72.4042879
9.193                0.943275468     -72.5192032
9.194                0.943130606     -72.6344211
9.195                0.942985506     -72.7499426
9.196                0.942840167     -72.8657687
9.197                0.942694588     -72.9819006
9.198                0.942548769     -73.0983393
9.199                 0.94240271     -73.2150859
9.2                   0.94225641     -73.3321415
9.201                 0.94210987     -73.4495071
9.202                0.941963088     -73.5671838
9.203                0.941816064     -73.6851729
9.204                0.941668798     -73.8034752
9.205                 0.94152129      -73.922092
9.206                0.941373538     -74.0410243
9.207                0.941225544     -74.1602733
9.208                0.941077306       -74.27984
9.209                0.940928824     -74.3997255
9.21                 0.940780098     -74.5199311
9.211                0.940631127     -74.6404577
9.212                0.940481911     -74.7613065
9.213                0.940332449     -74.8824787
9.214                0.940182742     -75.0039754
9.215                0.940032789     -75.1257976
9.216                 0.93988259     -75.2479466
9.217                0.939732144     -75.3704235
9.218                 0.93958145     -75.4932294
9.219                 0.93943051     -75.6163654
9.22                 0.939279321     -75.7398328
9.221                0.939127885     -75.8636326
9.222                  0.9389762      -75.987766
9.223                0.938824266     -76.1122342
9.224                0.938672084     -76.2370383
9.225                0.938519652     -76.3621796
9.226                 0.93836697     -76.4876591
9.227                0.938214039      -76.613478
9.228                0.938060857     -76.7396376
9.229                0.937907425     -76.8661389
9.23                 0.937753742     -76.9929833
9.231                0.937599808     -77.1201717
9.232                0.937445623     -77.2477056
9.233                0.937291186     -77.3755859
9.234                0.937136497      -77.503814
9.235                0.936981556      -77.632391
9.236                0.936826362     -77.7613181
9.237                0.936670916     -77.8905966
9.238                0.936515217     -78.0202276
9.239                0.936359265     -78.1502123
9.24                 0.936203059      -78.280552
9.241                  0.9360466     -78.4112479
9.242                0.935889887     -78.5423012
9.243                 0.93573292      -78.673713
9.244                0.935575699     -78.8054848
9.245                0.935418223     -78.9376175
9.246                0.935260493     -79.0701126
9.247                0.935102508     -79.2029712
9.248                0.934944267     -79.3361946
9.249                0.934785772      -79.469784
9.25                 0.934627021     -79.6037406
9.251                0.934468015     -79.7380658
9.252                0.934308753     -79.8727607
9.253                0.934149235     -80.0078266
9.254                0.933989461     -80.1432647
9.255                0.933829431     -80.2790764
9.256                0.933669145     -80.4152628
9.257                0.933508603     -80.5518253
9.258                0.933347804     -80.6887651
9.259                0.933186749     -80.8260834
9.26                 0.933025437     -80.9637817
9.261                0.932863868      -81.101861
9.262                0.932702043     -81.2403227
9.263                0.932539961     -81.3791681
9.264                0.932377622     -81.5183985
9.265                0.932215026     -81.6580152
9.266                0.932052173     -81.7980193
9.267                0.931889063     -81.9384124
9.268                0.931725696     -82.0791955
9.269                0.931562073     -82.2203701
9.27                 0.931398192     -82.3619373
9.271                0.931234054     -82.5038987
9.272                 0.93106966     -82.6462553
9.273                0.930905009     -82.7890086
9.274                  0.9307401     -82.9321598
9.275                0.930574936     -83.0757103
9.276                0.930409514     -83.2196614
9.277                0.930243836     -83.3640143
9.278                0.930077901     -83.5087705
9.279                 0.92991171     -83.6539312
9.28                 0.929745263     -83.7994978
9.281                 0.92957856     -83.9454715
9.282                0.929411601     -84.0918538
9.283                0.929244386     -84.2386459
9.284                0.929076915     -84.3858492
9.285                0.928909189      -84.533465
9.286                0.928741208     -84.6814946
9.287                0.928572972     -84.8299395
9.288                0.928404481     -84.9788008
9.289                0.928235735     -85.1280801
9.29                 0.928066736     -85.2777786
9.291                0.927897482     -85.4278976
9.292                0.927727975     -85.5784386
9.293                0.927558214     -85.7294028
9.294                  0.9273882     -85.8807917
9.295                0.927217934     -86.0326065
9.296                0.927047415     -86.1848487
9.297                0.926876644     -86.3375196
9.298                0.926705622     -86.4906205
9.299                0.926534348     -86.6441529
9.3                  0.926362823     -86.7981181
9.301                0.926191048     -86.9525174
9.302                0.926019024     -87.1073522
9.303                0.925846749     -87.2626239
9.304                0.925674226     -87.4183338
9.305                0.925501454     -87.5744834
9.306                0.925328435      -87.731074
9.307                0.925155168      -87.888107
9.308                0.924981654     -88.0455837
9.309                0.924807894     -88.2035055
9.31                 0.924633888     -88.3618739
9.311                0.924459637     -88.5206901
9.312                0.924285141     -88.6799556
9.313                0.924110402     -88.8396717
9.314                 0.92393542     -88.9998398
9.315                0.923760196     -89.1604614
9.316                0.923584729     -89.3215378
9.317                0.923409022     -89.4830703
9.318                0.923233075     -89.6450604
9.319                0.923056888     -89.8075094
9.32                 0.922880462     -89.9704188
9.321                0.922703799     -90.1337898
9.322                0.922526899      -90.297624
9.323                0.922349763     -90.4619227
9.324                0.922172392     -90.6266873
9.325                0.921994786     -90.7919191
9.326                0.921816947     -90.9576196
9.327                0.921638876     -91.1237901
9.328                0.921460573     -91.2904321
9.329                 0.92128204     -91.4575468
9.33                 0.921103277     -91.6251358
9.331                0.920924286     -91.7932004
9.332                0.920745069      -91.961742
9.333                0.920565624      -92.130762
9.334                0.920385955     -92.3002617
9.335                0.920206063     -92.4702426
9.336                0.920025947      -92.640706
9.337                 0.91984561     -92.8116534
9.338                0.919665053      -92.983086
9.339                0.919484277     -93.1550054
9.34                 0.919303284     -93.3274128
9.341                0.919122074     -93.5003097
9.342                0.918940649     -93.6736974
9.343                0.918759011     -93.8475774
9.344                 0.91857716      -94.021951
9.345                0.918395099     -94.1968195
9.346                0.918212828     -94.3721844
9.347                 0.91803035     -94.5480471
9.348                0.917847666     -94.7244089
9.349                0.917664776     -94.9012711
9.35                 0.917481684     -95.0786353
9.351                 0.91729839     -95.2565026
9.352                0.917114897     -95.4348746
9.353                0.916931205     -95.6137525
9.354                0.916747316     -95.7931377
9.355                0.916563233     -95.9730317
9.356                0.916378957     -96.1534356
9.357                 0.91619449      -96.334351
9.358                0.916009834     -96.5157792
9.359                 0.91582499     -96.6977215
9.36                 0.915639961     -96.8801792
9.361                0.915454748     -97.0631537
9.362                0.915269353     -97.2466464
9.363                0.915083779     -97.4306587
9.364                0.914898027     -97.6151917
9.365                  0.9147121     -97.8002469
9.366                   0.914526     -97.9858256
9.367                0.914339728     -98.1719292
9.368                0.914153287     -98.3585589
9.369                0.913966679     -98.5457161
9.37                 0.913779907     -98.7334021
9.371                0.913592973     -98.9216182
9.372                0.913405878     -99.1103657
9.373                0.913218627      -99.299646
9.374                 0.91303122     -99.4894603
9.375                 0.91284366     -99.6798099
9.376                 0.91265595     -99.8706962
9.377                0.912468093      -100.06212
9.378                 0.91228009     -100.254084
9.379                0.912091945     -100.446588
9.38                  0.91190366     -100.639633
9.381                0.911715238     -100.833222
9.382                0.911526682     -101.027355
9.383                0.911337994     -101.222033
9.384                0.911149177     -101.417258
9.385                0.910960234     -101.613032
9.386                0.910771168     -101.809354
9.387                0.910581982     -102.006227
9.388                0.910392679     -102.203652
9.389                0.910203262      -102.40163
9.39                 0.910013733     -102.600162
9.391                0.909824097     -102.799249
9.392                0.909634356     -102.998893
9.393                0.909444513     -103.199095
9.394                0.909254572     -103.399856
9.395                0.909064536     -103.601177
9.396                0.908874408     -103.803059
