! TOUCHSTONE file generated by CST DESIGN STUDIO
! Date and time: Tue Feb  4 17:04:21 2025
! Project name: C:\Work\MatlabApps\UnitCellOptimizationMatlab\CST\unitcell.cst
! Tree item: Tasks\Sweep1\SPara1\S-Parameters
! Header version: 2024
! Port assignment regex: !\s*Touchstone port\s*([0-9]+)\s*=\s*(CST MWS port|CST DES external port|CST DES block port)\s*(.+)\s* \(\"(.*)\"\)(\s*mode\s*([0-9]+))?.*
! Touchstone port assignment:
! Touchstone port 1 = CST DES external port 1 ("")
# GHz S MA R 50
9                    0.948618493     -66.9886787
9.001                0.948493074     -67.0873891
9.002                0.948367257     -67.1863444
9.003                0.948241039     -67.2855452
9.004                0.948114419     -67.3849925
9.005                0.947987396     -67.4846869
9.006                0.947859968     -67.5846293
9.007                0.947732136     -67.6848206
9.008                0.947603897     -67.7852614
9.009                0.947475249     -67.8859527
9.01                 0.947346193     -67.9868952
9.011                0.947216726     -68.0880898
9.012                0.947086847     -68.1895373
9.013                0.946956556     -68.2912385
9.014                 0.94682585     -68.3931941
9.015                0.946694728     -68.4954052
9.016                 0.94656319     -68.5978724
9.017                0.946431234     -68.7005967
9.018                0.946298859     -68.8035788
9.019                0.946166064     -68.9068196
9.02                 0.946032846     -69.0103199
9.021                0.945899206     -69.1140807
9.022                0.945765141     -69.2181026
9.023                0.945630651     -69.3223867
9.024                0.945495734     -69.4269337
9.025                0.945360389     -69.5317444
9.026                0.945224614     -69.6368198
9.027                0.945088409     -69.7421608
9.028                0.944951773     -69.8477681
9.029                0.944814703     -69.9536426
9.03                 0.944677199     -70.0597852
9.031                0.944539259     -70.1661969
9.032                0.944400882     -70.2728784
9.033                0.944262067     -70.3798306
9.034                0.944122813     -70.4870544
9.035                0.943983118     -70.5945508
9.036                0.943842981     -70.7023205
9.037                0.943702401     -70.8103645
9.038                0.943561377     -70.9186836
9.039                0.943419907     -71.0272789
9.04                  0.94327799      -71.136151
9.041                0.943135624     -71.2453011
9.042                 0.94299281     -71.3547299
9.043                0.942849544     -71.4644383
9.044                0.942705826     -71.5744274
9.045                0.942561656     -71.6846979
9.046                 0.94241703     -71.7952508
9.047                0.942271949     -71.9060871
9.048                0.942126411     -72.0172076
9.049                0.941980414     -72.1286132
9.05                 0.941833958     -72.2403049
9.051                0.941687042     -72.3522837
9.052                0.941539663     -72.4645504
9.053                0.941391821     -72.5771059
9.054                0.941243514     -72.6899513
9.055                0.941094742     -72.8030875
9.056                0.940945502     -72.9165153
9.057                0.940795795     -73.0302358
9.058                0.940645618     -73.1442498
9.059                 0.94049497     -73.2585584
9.06                  0.94034385     -73.3731625
9.061                0.940192257     -73.4880631
9.062                0.940040189      -73.603261
9.063                0.939887646     -73.7187574
9.064                0.939734626      -73.834553
9.065                0.939581128      -73.950649
9.066                 0.93942715     -74.0670462
9.067                0.939272692     -74.1837457
9.068                0.939117752     -74.3007484
9.069                 0.93896233     -74.4180554
9.07                 0.938806423     -74.5356674
9.071                 0.93865003     -74.6535857
9.072                0.938493151     -74.7718111
9.073                0.938335784     -74.8903447
9.074                0.938177929     -75.0091874
9.075                0.938019583     -75.1283402
9.076                0.937860745     -75.2478041
9.077                0.937701415     -75.3675802
9.078                0.937541592     -75.4876694
9.079                0.937381273     -75.6080728
9.08                 0.937220458     -75.7287913
9.081                0.937059146      -75.849826
9.082                0.936897336     -75.9711778
9.083                0.936735026     -76.0928479
9.084                0.936572215     -76.2148371
9.085                0.936408902     -76.3371466
9.086                0.936245086     -76.4597773
9.087                0.936080766     -76.5827304
9.088                0.935915941     -76.7060067
9.089                0.935750609     -76.8296075
9.09                  0.93558477     -76.9535336
9.091                0.935418422     -77.0777861
9.092                0.935251564     -77.2023661
9.093                0.935084195     -77.3272746
9.094                0.934916314     -77.4525127
9.095                 0.93474792     -77.5780814
9.096                0.934579012     -77.7039818
9.097                0.934409588     -77.8302149
9.098                0.934239648     -77.9567817
9.099                0.934069191     -78.0836834
9.1                  0.933898215      -78.210921
9.101                0.933726719     -78.3384956
9.102                0.933554703     -78.4664082
9.103                0.933382165     -78.5946599
9.104                0.933209105     -78.7232518
9.105                 0.93303552     -78.8521849
9.106                0.932861411     -78.9814604
9.107                0.932686776     -79.1110793
9.108                0.932511615     -79.2410427
9.109                0.932335925     -79.3713517
9.11                 0.932159707     -79.5020073
9.111                0.931982959     -79.6330107
9.112                0.931805681      -79.764363
9.113                 0.93162787     -79.8960652
9.114                0.931449527     -80.0281185
9.115                0.931270651     -80.1605239
9.116                 0.93109124     -80.2932826
9.117                0.930911293     -80.4263956
9.118                 0.93073081     -80.5598641
9.119                 0.93054979     -80.6936892
9.12                 0.930368232     -80.8278719
9.121                0.930186135     -80.9624135
9.122                0.930003497      -81.097315
9.123                0.929820319     -81.2325776
9.124                  0.9296366     -81.3682023
9.125                0.929452338     -81.5041903
9.126                0.929267532     -81.6405427
9.127                0.929082183     -81.7772607
9.128                0.928896288     -81.9143453
9.129                0.928709848     -82.0517978
9.13                 0.928522861     -82.1896191
9.131                0.928335327     -82.3278106
9.132                0.928147245     -82.4663733
9.133                0.927958615     -82.6053084
9.134                0.927769434      -82.744617
9.135                0.927579704     -82.8843002
9.136                0.927389422     -83.0243592
9.137                0.927198589     -83.1647952
9.138                0.927007204     -83.3056093
9.139                0.926815266     -83.4468026
9.14                 0.926622774     -83.5883764
9.141                0.926429727     -83.7303317
9.142                0.926236126     -83.8726698
9.143                 0.92604197     -84.0153917
9.144                0.925847257     -84.1584987
9.145                0.925651988      -84.301992
9.146                0.925456161     -84.4458726
9.147                0.925259777     -84.5901418
9.148                0.925062835     -84.7348007
9.149                0.924865333     -84.8798505
9.15                 0.924667273     -85.0252924
9.151                0.924468652     -85.1711275
9.152                0.924269472     -85.3173571
9.153                0.924069731     -85.4639823
9.154                0.923869428     -85.6110043
9.155                0.923668565     -85.7584242
9.156                0.923467139     -85.9062433
9.157                0.923265151     -86.0544628
9.158                0.923062601     -86.2030837
9.159                0.922859487     -86.3521074
9.16                 0.922655811      -86.501535
9.161                0.922451571     -86.6513677
9.162                0.922246767     -86.8016067
9.163                0.922041399     -86.9522531
9.164                0.921835467     -87.1033083
9.165                 0.92162897     -87.2547733
9.166                0.921421909     -87.4066494
9.167                0.921214282     -87.5589377
9.168                0.921006091     -87.7116395
9.169                0.920797335      -87.864756
9.17                 0.920588013     -88.0182883
9.171                0.920378127     -88.1722377
9.172                0.920167674     -88.3266054
9.173                0.919956657     -88.4813926
9.174                0.919745074     -88.6366004
9.175                0.919532926     -88.7922301
9.176                0.919320212      -88.948283
9.177                0.919106933     -89.1047601
9.178                0.918893089     -89.2616627
9.179                 0.91867868      -89.418992
9.18                 0.918463706     -89.5767493
9.181                0.918248167     -89.7349357
9.182                0.918032063     -89.8935524
9.183                0.917815396     -90.0526007
9.184                0.917598164     -90.2120818
9.185                0.917380368     -90.3719968
9.186                0.917162009      -90.532347
9.187                0.916943086     -90.6931336
9.188                0.916723601     -90.8543578
9.189                0.916503553     -91.0160208
9.19                 0.916282943     -91.1781239
9.191                0.916061772     -91.3406682
9.192                0.915840039      -91.503655
9.193                0.915617746     -91.6670854
9.194                0.915394893     -91.8309607
9.195                 0.91517148      -91.995282
9.196                0.914947508     -92.1600507
9.197                0.914722977     -92.3252679
9.198                0.914497889     -92.4909348
9.199                0.914272244     -92.6570526
9.2                  0.914046043     -92.8236226
9.201                0.913819286     -92.9906459
9.202                0.913591975     -93.1581238
9.203                 0.91336411     -93.3260574
9.204                0.913135691     -93.4944479
9.205                0.912906721     -93.6632967
9.206                0.912677199     -93.8326048
9.207                0.912447127     -94.0023735
9.208                0.912216505     -94.1726039
9.209                0.911985335     -94.3432974
9.21                 0.911753619      -94.514455
9.211                0.911521356      -94.686078
9.212                0.911288548     -94.8581676
9.213                0.911055196     -95.0307249
9.214                0.910821302     -95.2037512
9.215                0.910586866     -95.3772476
9.216                0.910351891     -95.5512154
9.217                0.910116376     -95.7256558
9.218                0.909880325     -95.9005698
9.219                0.909643737     -96.0759588
9.22                 0.909406616     -96.2518238
9.221                0.909168961     -96.4281661
9.222                0.908930775     -96.6049869
9.223                0.908692059     -96.7822873
9.224                0.908452814     -96.9600685
9.225                0.908213044     -97.1383316
9.226                0.907972748      -97.317078
9.227                0.907731929     -97.4963086
9.228                0.907490589     -97.6760247
9.229                 0.90724873     -97.8562274
9.23                 0.907006353     -98.0369179
9.231                 0.90676346     -98.2180974
9.232                0.906520054      -98.399767
9.233                0.906276135     -98.5819278
9.234                0.906031708      -98.764581
9.235                0.905786773     -98.9477278
9.236                0.905541332     -99.1313693
9.237                0.905295388     -99.3155066
9.238                0.905048944     -99.5001408
9.239                0.904802001     -99.6852731
9.24                 0.904554561     -99.8709046
9.241                0.904306628     -100.057036
9.242                0.904058204      -100.24367
9.243                 0.90380929     -100.430806
9.244                0.903559891     -100.618445
9.245                0.903310007     -100.806589
9.246                0.903059643     -100.995239
9.247                  0.9028088     -101.184397
9.248                0.902557481     -101.374062
9.249                 0.90230569     -101.564236
9.25                 0.902053429     -101.754921
9.251                0.901800701     -101.946116
9.252                0.901547509     -102.137825
9.253                0.901293856     -102.330046
9.254                0.901039745     -102.522782
9.255                0.900785179     -102.716034
9.256                0.900530162     -102.909802
9.257                0.900274696     -103.104088
9.258                0.900018785     -103.298893
9.259                0.899762433     -103.494217
9.26                 0.899505643     -103.690062
9.261                0.899248417     -103.886429
9.262                0.898990761     -104.083319
9.263                0.898732677     -104.280732
9.264                0.898474169      -104.47867
9.265                0.898215241     -104.677134
9.266                0.897955897     -104.876125
9.267                 0.89769614     -105.075643
9.268                0.897435974      -105.27569
9.269                0.897175404     -105.476267
9.27                 0.896914433     -105.677375
9.271                0.896653065     -105.879014
9.272                0.896391305     -106.081185
9.273                0.896129157      -106.28389
9.274                0.895866625      -106.48713
9.275                0.895603714     -106.690905
9.276                0.895340427     -106.895216
9.277                0.895076769     -107.100064
9.278                0.894812746      -107.30545
9.279                0.894548361     -107.511375
9.28                 0.894283619      -107.71784
9.281                0.894018525     -107.924845
9.282                0.893753084     -108.132392
9.283                  0.8934873     -108.340482
9.284                0.893221179     -108.549114
9.285                0.892954725     -108.758291
9.286                0.892687945     -108.968012
9.287                0.892420841     -109.178279
9.288                0.892153421     -109.389093
9.289                 0.89188569     -109.600454
9.29                 0.891617651     -109.812363
9.291                0.891349312     -110.024821
9.292                0.891080678     -110.237828
9.293                0.890811754     -110.451385
9.294                0.890542545     -110.665494
9.295                0.890273058     -110.880154
9.296                0.890003299     -111.095367
9.297                0.889733272     -111.311133
9.298                0.889462985     -111.527453
9.299                0.889192443     -111.744328
9.3                  0.888921652     -111.961758
9.301                0.888650619     -112.179744
9.302                0.888379349     -112.398286
9.303                0.888107849     -112.617385
9.304                0.887836126     -112.837043
9.305                0.887564185     -113.057258
9.306                0.887292033     -113.278033
9.307                0.887019678     -113.499367
9.308                0.886747125     -113.721262
9.309                0.886474381     -113.943717
9.31                 0.886201454     -114.166733
9.311                 0.88592835     -114.390311
9.312                0.885655075     -114.614451
9.313                0.885381638     -114.839155
9.314                0.885108046     -115.064421
9.315                0.884834304     -115.290251
9.316                0.884560422     -115.516645
9.317                0.884286406     -115.743604
9.318                0.884012263     -115.971128
9.319                0.883738002     -116.199218
9.32                 0.883463629     -116.427873
9.321                0.883189153     -116.657094
9.322                0.882914582     -116.886882
9.323                0.882639922     -117.117237
9.324                0.882365183      -117.34816
9.325                0.882090371      -117.57965
9.326                0.881815496     -117.811707
9.327                0.881540565     -118.044333
9.328                0.881265586     -118.277527
9.329                0.880990569      -118.51129
9.33                  0.88071552     -118.745622
9.331                 0.88044045     -118.980523
9.332                0.880165365     -119.215993
9.333                0.879890276     -119.452033
9.334                 0.87961519     -119.688642
9.335                0.879340117     -119.925821
9.336                0.879065065      -120.16357
9.337                0.878790044     -120.401889
9.338                0.878515062     -120.640778
9.339                0.878240128     -120.880237
9.34                 0.877965252     -121.120266
9.341                0.877690443     -121.360865
9.342                 0.87741571     -121.602035
9.343                0.877141063     -121.843774
9.344                0.876866511     -122.086084
9.345                0.876592064     -122.328964
9.346                0.876317731     -122.572414
9.347                0.876043523     -122.816434
9.348                0.875769448     -123.061024
9.349                0.875495518     -123.306183
9.35                 0.875221742     -123.551912
9.351                0.874948129      -123.79821
9.352                0.874674691     -124.045077
9.353                0.874401437     -124.292513
9.354                0.874128377     -124.540518
9.355                0.873855523     -124.789091
9.356                0.873582884     -125.038232
9.357                0.873310471     -125.287941
9.358                0.873038294     -125.538217
9.359                0.872766365      -125.78906
9.36                 0.872494693      -126.04047
9.361                 0.87222329     -126.292446
9.362                0.871952167     -126.544988
9.363                0.871681334     -126.798096
9.364                0.871410803     -127.051768
9.365                0.871140584     -127.306004
9.366                 0.87087069     -127.560805
9.367                 0.87060113     -127.816169
9.368                0.870331917     -128.072095
9.369                0.870063062     -128.328584
9.37                 0.869794575     -128.585634
9.371                 0.86952647     -128.843245
9.372                0.869258757     -129.101416
9.373                0.868991448     -129.360146
9.374                0.868724554     -129.619436
9.375                0.868458089     -129.879283
9.376                0.868192062     -130.139687
9.377                0.867926487     -130.400648
9.378                0.867661375     -130.662164
9.379                0.867396738     -130.924235
9.38                 0.867132589      -131.18686
9.381                0.866868939     -131.450038
9.382                0.866605801     -131.713767
9.383                0.866343187     -131.978048
9.384                 0.86608111     -132.242878
9.385                0.865819581     -132.508258
9.386                0.865558613     -132.774185
9.387                 0.86529822     -133.040659
9.388                0.865038413     -133.307679
9.389                0.864779205     -133.575243
9.39                 0.864520608     -133.843351
9.391                0.864262636     -134.112001
9.392                0.864005301     -134.381191
9.393                0.863748616     -134.650922
9.394                0.863492594     -134.921191
9.395                0.863237248     -135.191997
9.396                0.862982591     -135.463338
