! TOUCHSTONE file generated by CST DESIGN STUDIO
! Date and time: Tue Feb  4 17:04:15 2025
! Project name: C:\Work\MatlabApps\UnitCellOptimizationMatlab\CST\unitcell.cst
! Tree item: Tasks\Sweep1\SPara1\S-Parameters
! Header version: 2024
! Port assignment regex: !\s*Touchstone port\s*([0-9]+)\s*=\s*(CST MWS port|CST DES external port|CST DES block port)\s*(.+)\s* \(\"(.*)\"\)(\s*mode\s*([0-9]+))?.*
! Touchstone port assignment:
! Touchstone port 1 = CST DES external port 1 ("")
# GHz S MA R 50
9                    0.934839152     -86.5700382
9.001                0.934655367     -86.7198904
9.002                0.934471039     -86.8701507
9.003                0.934286168     -87.0208202
9.004                0.934100753     -87.1719001
9.005                0.933914795     -87.3233918
9.006                0.933728292     -87.4752963
9.007                0.933541244     -87.6276149
9.008                0.933353652     -87.7803488
9.009                0.933165513     -87.9334991
9.01                 0.932976829     -88.0870672
9.011                0.932787599     -88.2410543
9.012                0.932597822     -88.3954614
9.013                0.932407498       -88.55029
9.014                0.932216626     -88.7055411
9.015                0.932025208      -88.861216
9.016                0.931833241     -89.0173158
9.017                0.931640727      -89.173842
9.018                0.931447665     -89.3307955
9.019                0.931254054     -89.4881777
9.02                 0.931059895     -89.6459898
9.021                0.930865187      -89.804233
9.022                0.930669931     -89.9629086
9.023                0.930474125     -90.1220176
9.024                0.930277771     -90.2815615
9.025                0.930080868     -90.4415413
9.026                0.929883416     -90.6019584
9.027                0.929685415     -90.7628138
9.028                0.929486866      -90.924109
9.029                0.929287767      -91.085845
9.03                  0.92908812     -91.2480231
9.031                0.928887923     -91.4106445
9.032                0.928687179     -91.5737105
9.033                0.928485886     -91.7372223
9.034                0.928284045      -91.901181
9.035                0.928081656      -92.065588
9.036                0.927878719     -92.2304444
9.037                0.927675234     -92.3957515
9.038                0.927471203     -92.5615104
9.039                0.927266624     -92.7277225
9.04                 0.927061499     -92.8943889
9.041                0.926855828     -93.0615108
9.042                0.926649611     -93.2290895
9.043                0.926442849     -93.3971262
9.044                0.926235542      -93.565622
9.045                 0.92602769     -93.7345783
9.046                0.925819295     -93.9039962
9.047                0.925610356      -94.073877
9.048                0.925400875     -94.2442218
9.049                0.925190852     -94.4150319
9.05                 0.924980287     -94.5863085
9.051                0.924769182     -94.7580528
9.052                0.924557536      -94.930266
9.053                0.924345351     -95.1029493
9.054                0.924132628      -95.276104
9.055                0.923919367     -95.4497311
9.056                0.923705569      -95.623832
9.057                0.923491236     -95.7984078
9.058                0.923276367     -95.9734597
9.059                0.923060964      -96.148989
9.06                 0.922845028     -96.3249968
9.061                0.922628561     -96.5014842
9.062                0.922411562     -96.6784526
9.063                0.922194033     -96.8559031
9.064                0.921975976     -97.0338369
9.065                0.921757391     -97.2122551
9.066                 0.92153828      -97.391159
9.067                0.921318644     -97.5705497
9.068                0.921098484     -97.7504284
9.069                0.920877801     -97.9307963
9.07                 0.920656598     -98.1116546
9.071                0.920434875     -98.2930043
9.072                0.920212633     -98.4748467
9.073                0.919989875      -98.657183
9.074                0.919766602     -98.8400143
9.075                0.919542815     -99.0233417
9.076                0.919318517     -99.2071665
9.077                0.919093708     -99.3914897
9.078                 0.91886839     -99.5763125
9.079                0.918642566      -99.761636
9.08                 0.918416237     -99.9474615
9.081                0.918189404      -100.13379
9.082                0.917962071     -100.320623
9.083                0.917734238      -100.50796
9.084                0.917505907     -100.695805
9.085                0.917277081     -100.884156
9.086                0.917047762     -101.073017
9.087                0.916817952     -101.262387
9.088                0.916587653     -101.452268
9.089                0.916356867     -101.642661
9.09                 0.916125597     -101.833567
9.091                0.915893844     -102.024987
9.092                0.915661612     -102.216922
9.093                0.915428902     -102.409373
9.094                0.915195717     -102.602342
9.095                 0.91496206     -102.795829
9.096                0.914727933     -102.989836
9.097                0.914493339     -103.184363
9.098                 0.91425828     -103.379412
9.099                0.914022759     -103.574983
9.1                   0.91378678     -103.771079
9.101                0.913550344     -103.967698
9.102                0.913313454     -104.164844
9.103                0.913076114     -104.362516
9.104                0.912838327     -104.560716
9.105                0.912600096     -104.759445
9.106                0.912361423     -104.958703
9.107                0.912122312     -105.158493
9.108                0.911882766     -105.358814
9.109                0.911642788     -105.559667
9.11                 0.911402382     -105.761055
9.111                0.911161551     -105.962977
9.112                0.910920299     -106.165434
9.113                0.910678629     -106.368429
9.114                0.910436544      -106.57196
9.115                0.910194048      -106.77603
9.116                0.909951146      -106.98064
9.117                 0.90970784     -107.185789
9.118                0.909464134      -107.39148
9.119                0.909220033     -107.597713
9.12                  0.90897554     -107.804489
9.121                0.908730659     -108.011809
9.122                0.908485394     -108.219673
9.123                 0.90823975     -108.428083
9.124                 0.90799373     -108.637039
9.125                0.907747339     -108.846543
9.126                0.907500581     -109.056594
9.127                0.907253461     -109.267195
9.128                0.907005982     -109.478345
9.129                 0.90675815     -109.690046
9.13                 0.906509969     -109.902298
9.131                0.906261443     -110.115102
9.132                0.906012578     -110.328459
9.133                0.905763378      -110.54237
9.134                0.905513847     -110.756835
9.135                0.905263991     -110.971855
9.136                0.905013815     -111.187431
9.137                0.904763324     -111.403564
9.138                0.904512523     -111.620254
9.139                0.904261416     -111.837501
9.14                  0.90401001     -112.055308
9.141                 0.90375831     -112.273674
9.142                 0.90350632     -112.492599
9.143                0.903254047     -112.712085
9.144                0.903001495     -112.932133
9.145                0.902748671     -113.152742
9.146                0.902495581     -113.373914
9.147                0.902242229     -113.595649
9.148                0.901988622     -113.817947
9.149                0.901734765      -114.04081
9.15                 0.901480665     -114.264237
9.151                0.901226327     -114.488229
9.152                0.900971758     -114.712788
9.153                0.900716964     -114.937912
9.154                0.900461951     -115.163604
9.155                0.900206725     -115.389862
9.156                0.899951293     -115.616689
9.157                0.899695662     -115.844083
9.158                0.899439836     -116.072046
9.159                0.899183825     -116.300578
9.16                 0.898927633      -116.52968
9.161                0.898671268     -116.759351
9.162                0.898414736     -116.989593
9.163                0.898158045     -117.220405
9.164                0.897901202     -117.451788
9.165                0.897644213     -117.683742
9.166                0.897387086     -117.916268
9.167                0.897129827     -118.149365
9.168                0.896872445     -118.383035
9.169                0.896614946     -118.617277
9.17                 0.896357339     -118.852091
9.171                 0.89609963     -119.087478
9.172                0.895841827     -119.323439
9.173                0.895583937     -119.559972
9.174                0.895325969     -119.797078
9.175                0.895067931     -120.034759
9.176                0.894809829     -120.273012
9.177                0.894551673      -120.51184
9.178                 0.89429347     -120.751241
9.179                0.894035229     -120.991216
9.18                 0.893776957     -121.231765
9.181                0.893518663     -121.472887
9.182                0.893260355     -121.714584
9.183                0.893002041     -121.956855
9.184                0.892743731       -122.1997
9.185                0.892485432     -122.443118
9.186                0.892227154      -122.68711
9.187                0.891968905     -122.931676
9.188                0.891710694     -123.176816
9.189                 0.89145253     -123.422529
9.19                 0.891194421     -123.668815
9.191                0.890936377     -123.915675
9.192                0.890678407     -124.163107
9.193                0.890420521     -124.411112
9.194                0.890162726      -124.65969
9.195                0.889905034     -124.908839
9.196                0.889647452     -125.158561
9.197                0.889389991     -125.408854
9.198                 0.88913266     -125.659719
9.199                0.888875469     -125.911154
9.2                  0.888618428      -126.16316
9.201                0.888361546     -126.415736
9.202                0.888104833     -126.668882
9.203                0.887848299     -126.922597
9.204                0.887591954      -127.17688
9.205                0.887335809     -127.431732
9.206                0.887079872     -127.687152
9.207                0.886824156     -127.943139
9.208                0.886568669     -128.199693
9.209                0.886313422     -128.456812
9.21                 0.886058425     -128.714497
9.211                 0.88580369     -128.972747
9.212                0.885549227     -129.231561
9.213                0.885295045     -129.490938
9.214                0.885041157     -129.750878
9.215                0.884787572     -130.011379
9.216                0.884534302     -130.272442
9.217                0.884281357     -130.534065
9.218                0.884028748     -130.796248
9.219                0.883776487     -131.058989
9.22                 0.883524585     -131.322288
9.221                0.883273052     -131.586144
9.222                  0.8830219     -131.850555
9.223                 0.88277114     -132.115522
9.224                0.882520783     -132.381042
9.225                0.882270841     -132.647115
9.226                0.882021326      -132.91374
9.227                0.881772248     -133.180916
9.228                 0.88152362     -133.448642
9.229                0.881275452     -133.716915
9.23                 0.881027758     -133.985737
9.231                0.880780547     -134.255104
9.232                0.880533833     -134.525016
9.233                0.880287627     -134.795472
9.234                0.880041941     -135.066471
9.235                0.879796787      -135.33801
9.236                0.879552176     -135.610089
9.237                0.879308122     -135.882706
9.238                0.879064635     -136.155861
9.239                0.878821729      -136.42955
9.24                 0.878579415     -136.703774
9.241                0.878337705     -136.978531
9.242                0.878096613     -137.253818
9.243                0.877856149     -137.529635
9.244                0.877616327      -137.80598
9.245                0.877377159     -138.082851
9.246                0.877138657     -138.360247
9.247                0.876900834     -138.638165
9.248                0.876663703     -138.916605
9.249                0.876427275     -139.195564
9.25                 0.876191564     -139.475041
9.251                0.875956581     -139.755034
9.252                0.875722341     -140.035541
9.253                0.875488855     -140.316561
9.254                0.875256136      -140.59809
9.255                0.875024197     -140.880128
9.256                 0.87479305     -141.162673
9.257                0.874562709     -141.445722
9.258                0.874333187     -141.729273
9.259                0.874104495     -142.013325
9.26                 0.873876647     -142.297875
9.261                0.873649656     -142.582921
9.262                0.873423534     -142.868461
9.263                0.873198295     -143.154493
9.264                0.872973952     -143.441014
9.265                0.872750517     -143.728023
9.266                0.872528003     -144.015517
9.267                0.872306424     -144.303494
9.268                0.872085791     -144.591951
9.269                 0.87186612     -144.880886
9.27                 0.871647421     -145.170297
9.271                0.871429708     -145.460181
9.272                0.871212995     -145.750535
9.273                0.870997294     -146.041358
9.274                0.870782617     -146.332646
9.275                0.870568979     -146.624397
9.276                0.870356392     -146.916609
9.277                0.870144869     -147.209279
9.278                0.869934423     -147.502404
9.279                0.869725067     -147.795981
9.28                 0.869516813     -148.090008
9.281                0.869309675     -148.384481
9.282                0.869103666     -148.679399
9.283                0.868898799     -148.974758
9.284                0.868695085     -149.270556
9.285                0.868492539     -149.566789
9.286                0.868291173     -149.863454
9.287                   0.868091     -150.160549
9.288                0.867892032     -150.458071
9.289                0.867694283     -150.756016
9.29                 0.867497764     -151.054382
9.291                0.867302489     -151.353165
9.292                0.867108471     -151.652362
9.293                0.866915721     -151.951971
9.294                0.866724253     -152.251987
9.295                0.866534078     -152.552408
9.296                 0.86634521     -152.853231
9.297                0.866157661     -153.154452
9.298                0.865971443     -153.456067
9.299                0.865786569     -153.758074
9.3                  0.865603051      -154.06047
9.301                  0.8654209      -154.36325
9.302                 0.86524013     -154.666411
9.303                0.865060753      -154.96995
9.304                0.864882779     -155.273863
9.305                0.864706222     -155.578147
9.306                0.864531094     -155.882798
9.307                0.864357406     -156.187813
9.308                 0.86418517     -156.493188
9.309                0.864014397     -156.798919
9.31                   0.8638451     -157.105003
9.311                0.863677291     -157.411436
9.312                0.863510979     -157.718214
9.313                0.863346178     -158.025333
9.314                0.863182899     -158.332791
9.315                0.863021151     -158.640581
9.316                0.862860948     -158.948702
9.317                  0.8627023     -159.257149
9.318                0.862545218     -159.565918
9.319                0.862389713     -159.875006
9.32                 0.862235796     -160.184407
9.321                0.862083477     -160.494119
9.322                0.861932768     -160.804138
9.323                0.861783678     -161.114458
9.324                0.861636219     -161.425076
9.325                0.861490401     -161.735989
9.326                0.861346234     -162.047192
9.327                0.861203727      -162.35868
9.328                0.861062892      -162.67045
9.329                0.860923739     -162.982497
9.33                 0.860786276     -163.294818
9.331                0.860650514     -163.607407
9.332                0.860516463     -163.920261
9.333                0.860384131     -164.233376
9.334                0.860253529     -164.546746
9.335                0.860124666     -164.860369
9.336                 0.85999755     -165.174238
9.337                0.859872191     -165.488351
9.338                0.859748598     -165.802702
9.339                 0.85962678     -166.117288
9.34                 0.859506744     -166.432103
9.341                  0.8593885     -166.747143
9.342                0.859272057     -167.062404
9.343                0.859157422     -167.377881
9.344                0.859044603      -167.69357
9.345                0.858933609     -168.009466
9.346                0.858824448     -168.325564
9.347                0.858717126     -168.641861
9.348                0.858611653      -168.95835
9.349                0.858508034     -169.275029
9.35                 0.858406279     -169.591892
9.351                0.858306393     -169.908934
9.352                0.858208383     -170.226151
9.353                0.858112257     -170.543537
9.354                0.858018022      -170.86109
9.355                0.857925683     -171.178802
9.356                0.857835248     -171.496671
9.357                0.857746723     -171.814691
9.358                0.857660113     -172.132857
9.359                0.857575425     -172.451165
9.36                 0.857492665     -172.769609
9.361                0.857411837     -173.088186
9.362                0.857332949     -173.406889
9.363                0.857256004     -173.725715
9.364                0.857181009     -174.044659
9.365                0.857107968     -174.363715
9.366                0.857036887     -174.682878
9.367                0.856967769     -175.002145
9.368                0.856900619     -175.321509
9.369                0.856835443     -175.640967
9.37                 0.856772243     -175.960513
9.371                0.856711024     -176.280142
9.372                0.856651791     -176.599849
9.373                0.856594546      -176.91963
9.374                0.856539293     -177.239479
9.375                0.856486035     -177.559391
9.376                0.856434777     -177.879362
9.377                 0.85638552     -178.199387
9.378                0.856338268     -178.519461
9.379                0.856293023     -178.839578
9.38                 0.856249788     -179.159733
9.381                0.856208566     -179.479923
9.382                0.856169358     -179.800141
9.383                0.856132166      179.879617
9.384                0.856096992      179.559356
9.385                0.856063839      179.239082
9.386                0.856032707      178.918799
9.387                0.856003597      178.598512
9.388                0.855976512      178.278226
9.389                0.855951451      177.957946
9.39                 0.855928416      177.637678
9.391                0.855907407      177.317425
9.392                0.855888425      176.997194
9.393                 0.85587147      176.676989
9.394                0.855856542      176.356815
9.395                0.855843641      176.036677
9.396                0.855832766       175.71658
