! TOUCHSTONE file generated by CST DESIGN STUDIO
! Date and time: Wed Feb  5 13:44:13 2025
! Project name: C:\Work\MatlabApps\UnitCellOptimizationMatlab\CST\unitcell.cst
! Tree item: Tasks\Sweep1\SPara1\S-Parameters
! Header version: 2024
! Port assignment regex: !\s*Touchstone port\s*([0-9]+)\s*=\s*(CST MWS port|CST DES external port|CST DES block port)\s*(.+)\s* \(\"(.*)\"\)(\s*mode\s*([0-9]+))?.*
! Touchstone port assignment:
! Touchstone port 1 = CST DES external port 1 ("")
# GHz S MA R 50
9                    0.901097978     -92.6998231
9.001                0.900861382     -92.8766904
9.002                0.900624085     -93.0540991
9.003                0.900386085     -93.2320509
9.004                0.900147383     -93.4105475
9.005                0.899907978     -93.5895905
9.006                0.899667872     -93.7691816
9.007                0.899427064     -93.9493225
9.008                0.899185553     -94.1300148
9.009                0.898943341     -94.3112602
9.01                 0.898700428     -94.4930603
9.011                0.898456813     -94.6754169
9.012                0.898212498     -94.8583316
9.013                0.897967482      -95.041806
9.014                0.897721765     -95.2258418
9.015                 0.89747535     -95.4104407
9.016                0.897228235     -95.5956044
9.017                0.896980421     -95.7813345
9.018                0.896731909     -95.9676326
9.019                  0.8964827     -96.1545004
9.02                 0.896232795     -96.3419396
9.021                0.895982193     -96.5299518
9.022                0.895730896     -96.7185387
9.023                0.895478905     -96.9077019
9.024                0.895226221      -97.097443
9.025                0.894972844     -97.2877638
9.026                0.894718776     -97.4786659
9.027                0.894464018     -97.6701508
9.028                 0.89420857     -97.8622203
9.029                0.893952434     -98.0548759
9.03                 0.893695612     -98.2481194
9.031                0.893438104     -98.4419523
9.032                0.893179912     -98.6363763
9.033                0.892921037     -98.8313929
9.034                0.892661481     -99.0270039
9.035                0.892401245     -99.2232108
9.036                0.892140331     -99.4200152
9.037                 0.89187874     -99.6174188
9.038                0.891616475     -99.8154231
9.039                0.891353537      -100.01403
9.04                 0.891089928      -100.21324
9.041                0.890825649     -100.413057
9.042                0.890560704      -100.61348
9.043                0.890295093     -100.814512
9.044                0.890028819     -101.016154
9.045                0.889761884     -101.218408
9.046                0.889494291     -101.421276
9.047                0.889226041     -101.624759
9.048                0.888957138     -101.828858
9.049                0.888687583     -102.033575
9.05                 0.888417379     -102.238912
9.051                0.888146528     -102.444871
9.052                0.887875034     -102.651452
9.053                  0.8876029     -102.858657
9.054                0.887330127     -103.066488
9.055                0.887056719     -103.274946
9.056                0.886782679     -103.484033
9.057                0.886508009     -103.693751
9.058                0.886232714       -103.9041
9.059                0.885956796     -104.115082
9.06                 0.885680259       -104.3267
9.061                0.885403105     -104.538953
9.062                0.885125339     -104.751844
9.063                0.884846964     -104.965375
9.064                0.884567983     -105.179546
9.065                0.884288401     -105.394359
9.066                0.884008221     -105.609815
9.067                0.883727447     -105.825917
9.068                0.883446082     -106.042664
9.069                0.883164132      -106.26006
9.07                 0.882881599     -106.478104
9.071                0.882598489     -106.696799
9.072                0.882314806     -106.916146
9.073                0.882030554     -107.136146
9.074                0.881745737       -107.3568
9.075                 0.88146036     -107.578111
9.076                0.881174428     -107.800079
9.077                0.880887946     -108.022705
9.078                0.880600919     -108.245991
9.079                 0.88031335     -108.469938
9.08                 0.880025246     -108.694547
9.081                0.879736612     -108.919821
9.082                0.879447453     -109.145759
9.083                0.879157774     -109.372363
9.084                0.878867581     -109.599635
9.085                0.878576879     -109.827576
9.086                0.878285674     -110.056186
9.087                0.877993972     -110.285467
9.088                0.877701778     -110.515421
9.089                0.877409098     -110.746048
9.09                 0.877115939     -110.977349
9.091                0.876822307     -111.209326
9.092                0.876528208      -111.44198
9.093                0.876233648     -111.675312
9.094                0.875938634     -111.909323
9.095                0.875643173     -112.144013
9.096                 0.87534727     -112.379385
9.097                0.875050933     -112.615439
9.098                0.874754169     -112.852176
9.099                0.874456985     -113.089598
9.1                  0.874159388     -113.327704
9.101                0.873861385     -113.566497
9.102                0.873562984     -113.805977
9.103                0.873264192     -114.046144
9.104                0.872965016     -114.287001
9.105                0.872665464     -114.528548
9.106                0.872365545     -114.770785
9.107                0.872065265     -115.013714
9.108                0.871764634     -115.257335
9.109                0.871463658      -115.50165
9.11                 0.871162348     -115.746658
9.111                0.870860709     -115.992362
9.112                0.870558752     -116.238761
9.113                0.870256485     -116.485856
9.114                0.869953917     -116.733649
9.115                0.869651056     -116.982139
9.116                0.869347912     -117.231328
9.117                0.869044493     -117.481215
9.118                0.868740809     -117.731803
9.119                0.868436868     -117.983091
9.12                 0.868132682     -118.235079
9.121                0.867828258      -118.48777
9.122                0.867523607     -118.741162
9.123                0.867218739     -118.995257
9.124                0.866913663     -119.250055
9.125                 0.86660839     -119.505556
9.126                 0.86630293     -119.761762
9.127                0.865997292     -120.018671
9.128                0.865691488     -120.276286
9.129                0.865385528     -120.534606
9.13                 0.865079423     -120.793631
9.131                0.864773183     -121.053362
9.132                 0.86446682     -121.313799
9.133                0.864160344     -121.574942
9.134                0.863853767     -121.836792
9.135                0.863547099     -122.099348
9.136                0.863240353     -122.362612
9.137                 0.86293354     -122.626583
9.138                0.862626671      -122.89126
9.139                0.862319759     -123.156645
9.14                 0.862012814     -123.422738
9.141                 0.86170585     -123.689538
9.142                0.861398879     -123.957045
9.143                0.861091912      -124.22526
9.144                0.860784962     -124.494181
9.145                0.860478042     -124.763811
9.146                0.860171164     -125.034147
9.147                0.859864342      -125.30519
9.148                0.859557587     -125.576939
9.149                0.859250913     -125.849396
9.15                 0.858944334     -126.122558
9.151                0.858637862     -126.396427
9.152                0.858331511     -126.671001
9.153                0.858025294      -126.94628
9.154                0.857719225     -127.222265
9.155                0.857413318     -127.498953
9.156                0.857107586     -127.776346
9.157                0.856802045     -128.054442
9.158                0.856496707     -128.333242
9.159                0.856191587     -128.612744
9.16                 0.855886699     -128.892947
9.161                0.855582058     -129.173852
9.162                0.855277679     -129.455457
9.163                0.854973575     -129.737762
9.164                0.854669763     -130.020767
9.165                0.854366257     -130.304469
9.166                0.854063071     -130.588869
9.167                0.853760222     -130.873966
9.168                0.853457724     -131.159758
9.169                0.853155593     -131.446245
9.17                 0.852853844     -131.733426
9.171                0.852552493     -132.021299
9.172                0.852251556     -132.309864
9.173                0.851951048      -132.59912
9.174                0.851650986     -132.889066
9.175                0.851351385     -133.179699
9.176                0.851052261      -133.47102
9.177                0.850753631     -133.763026
9.178                0.850455512     -134.055717
9.179                0.850157918     -134.349091
9.18                 0.849860868     -134.643147
9.181                0.849564378     -134.937883
9.182                0.849268464     -135.233298
9.183                0.848973144     -135.529391
9.184                0.848678434     -135.826159
9.185                0.848384351     -136.123601
9.186                0.848090912     -136.421716
9.187                0.847798135     -136.720502
9.188                0.847506037     -137.019957
9.189                0.847214635     -137.320079
9.19                 0.846923947     -137.620867
9.191                0.846633989     -137.922318
9.192                0.846344781     -138.224431
9.193                0.846056339     -138.527204
9.194                0.845768681     -138.830634
9.195                0.845481825      -139.13472
9.196                0.845195789      -139.43946
9.197                0.844910591     -139.744851
9.198                0.844626249     -140.050892
9.199                0.844342782      -140.35758
9.2                  0.844060206     -140.664912
9.201                0.843778541     -140.972887
9.202                0.843497805     -141.281501
9.203                0.843218015     -141.590754
9.204                0.842939192     -141.900641
9.205                0.842661352     -142.211161
9.206                0.842384515     -142.522311
9.207                0.842108699     -142.834088
9.208                0.841833923     -143.146491
9.209                0.841560204     -143.459515
9.21                 0.841287563     -143.773158
9.211                0.841016018     -144.087418
9.212                0.840745587     -144.402292
9.213                0.840476289     -144.717776
9.214                0.840208143     -145.033868
9.215                0.839941169     -145.350564
9.216                0.839675383     -145.667862
9.217                0.839410807     -145.985759
9.218                0.839147458     -146.304251
9.219                0.838885356     -146.623335
9.22                 0.838624519     -146.943009
9.221                0.838364966     -147.263267
9.222                0.838106717     -147.584108
9.223                 0.83784979     -147.905528
9.224                0.837594204     -148.227524
9.225                0.837339979     -148.550091
9.226                0.837087132     -148.873226
9.227                0.836835684     -149.196926
9.228                0.836585652     -149.521188
9.229                0.836337056     -149.846006
9.23                 0.836089916     -150.171379
9.231                0.835844248     -150.497301
9.232                0.835600074     -150.823769
9.233                0.835357411     -151.150779
9.234                0.835116277     -151.478327
9.235                0.834876693      -151.80641
9.236                0.834638676     -152.135022
9.237                0.834402246     -152.464161
9.238                 0.83416742     -152.793821
9.239                0.833934218     -153.123999
9.24                 0.833702658      -153.45469
9.241                0.833472759      -153.78589
9.242                0.833244538     -154.117596
9.243                0.833018015     -154.449801
9.244                0.832793207     -154.782503
9.245                0.832570133     -155.115696
9.246                0.832348812     -155.449376
9.247                 0.83212926     -155.783538
9.248                0.831911496     -156.118178
9.249                0.831695538     -156.453291
9.25                 0.831481404     -156.788872
9.251                0.831269112     -157.124917
9.252                0.831058678     -157.461421
9.253                0.830850122     -157.798379
9.254                 0.83064346     -158.135785
9.255                0.830438709     -158.473636
9.256                0.830235887     -158.811926
9.257                0.830035011     -159.150649
9.258                0.829836098     -159.489802
9.259                0.829639165     -159.829378
9.26                 0.829444228     -160.169374
9.261                0.829251305     -160.509782
9.262                0.829060411     -160.850599
9.263                0.828871564     -161.191818
9.264                0.828684779     -161.533435
9.265                0.828500073     -161.875444
9.266                0.828317461      -162.21784
9.267                 0.82813696     -162.560617
9.268                0.827958585      -162.90377
9.269                0.827782351     -163.247293
9.27                 0.827608275     -163.591181
9.271                 0.82743637     -163.935428
9.272                0.827266653     -164.280028
9.273                0.827099138     -164.624975
9.274                 0.82693384     -164.970264
9.275                0.826770773      -165.31589
9.276                0.826609952     -165.661846
9.277                0.826451391     -166.008126
9.278                0.826295104     -166.354725
9.279                0.826141105     -166.701636
9.28                 0.825989407     -167.048854
9.281                0.825840024     -167.396372
9.282                0.825692969     -167.744186
9.283                0.825548255     -168.092287
9.284                0.825405895     -168.440672
9.285                0.825265902     -168.789332
9.286                0.825128288     -169.138263
9.287                0.824993065     -169.487458
9.288                0.824860245     -169.836911
9.289                0.824729841     -170.186615
9.29                 0.824601863     -170.536564
9.291                0.824476324     -170.886753
9.292                0.824353233     -171.237174
9.293                0.824232603     -171.587821
9.294                0.824114443     -171.938689
9.295                0.823998764      -172.28977
9.296                0.823885577     -172.641058
9.297                0.823774892     -172.992546
9.298                0.823666717     -173.344229
9.299                0.823561063       -173.6961
9.3                   0.82345794     -174.048151
9.301                0.823357355     -174.400377
9.302                0.823259317     -174.752772
9.303                0.823163836     -175.105327
9.304                 0.82307092     -175.458038
9.305                0.822980576     -175.810896
9.306                0.822892812     -176.163897
9.307                0.822807636     -176.517032
9.308                0.822725055     -176.870295
9.309                0.822645075     -177.223681
9.31                 0.822567705      -177.57718
9.311                 0.82249295     -177.930789
9.312                0.822420816     -178.284498
9.313                0.822351309     -178.638302
9.314                0.822284436     -178.992194
9.315                  0.8222202     -179.346168
9.316                0.822158608     -179.700216
9.317                0.822099665      179.945669
9.318                0.822043374      179.591493
9.319                 0.82198974      179.237262
9.32                 0.821938768      178.882985
9.321                0.821890461      178.528667
9.322                0.821844822      178.174315
9.323                0.821801854      177.819937
9.324                0.821761562      177.465538
9.325                0.821723946      177.111126
9.326                 0.82168901      176.756708
9.327                0.821656756      176.402291
9.328                0.821627185       176.04788
9.329                0.821600299      175.693484
9.33                   0.8215761      175.339109
9.331                0.821554588      174.984761
9.332                0.821535763      174.630448
9.333                0.821519627      174.276177
9.334                 0.82150618      173.921953
9.335                0.821495421      173.567785
9.336                0.821487349      173.213678
9.337                0.821481965       172.85964
9.338                0.821479267      172.505677
9.339                0.821479255      172.151796
9.34                 0.821481925      171.798005
9.341                0.821487278      171.444308
9.342                0.821495309      171.090714
9.343                0.821506018      170.737229
9.344                0.821519402       170.38386
9.345                0.821535457      170.030614
9.346                 0.82155418      169.677496
9.347                0.821575569      169.324515
9.348                0.821599619      168.971676
9.349                0.821626326      168.618986
9.35                 0.821655686      168.266451
9.351                0.821687694      167.914079
9.352                0.821722346      167.561876
9.353                0.821759637      167.209849
9.354                0.821799561      166.858003
9.355                0.821842113      166.506346
9.356                0.821887286      166.154884
9.357                0.821935075      165.803624
9.358                0.821985474      165.452572
9.359                0.822038476      165.101734
9.36                 0.822094073      164.751116
9.361                0.822152259      164.400726
9.362                0.822213027       164.05057
9.363                0.822276369      163.700653
9.364                0.822342276      163.350982
9.365                0.822410742      163.001564
9.366                0.822481757      162.652405
9.367                0.822555313       162.30351
9.368                0.822631401      161.954887
9.369                0.822710013       161.60654
9.37                 0.822791138      161.258477
9.371                0.822874768      160.910703
9.372                0.822960892      160.563225
9.373                0.823049501      160.216048
9.374                0.823140585      159.869179
9.375                0.823234133      159.522623
9.376                0.823330135      159.176387
9.377                0.823428579      158.830475
9.378                0.823529456      158.484895
9.379                0.823632752      158.139651
9.38                 0.823738458       157.79475
9.381                0.823846562      157.450198
9.382                0.823957051         157.106
9.383                0.824069914      156.762161
9.384                0.824185139      156.418687
9.385                0.824302712      156.075585
9.386                0.824422622      155.732859
9.387                0.824544856      155.390515
9.388                0.824669401      155.048558
9.389                0.824796243      154.706995
9.39                 0.824925369      154.365829
9.391                0.825056767      154.025067
9.392                0.825190422      153.684714
9.393                 0.82532632      153.344774
9.394                0.825464448      153.005254
9.395                0.825604791      152.666159
9.396                0.825747336      152.327493
