! TOUCHSTONE file generated by CST DESIGN STUDIO
! Date and time: Wed Feb  5 13:44:25 2025
! Project name: C:\Work\MatlabApps\UnitCellOptimizationMatlab\CST\unitcell.cst
! Tree item: Tasks\Sweep1\SPara1\S-Parameters
! Header version: 2024
! Port assignment regex: !\s*Touchstone port\s*([0-9]+)\s*=\s*(CST MWS port|CST DES external port|CST DES block port)\s*(.+)\s* \(\"(.*)\"\)(\s*mode\s*([0-9]+))?.*
! Touchstone port assignment:
! Touchstone port 1 = CST DES external port 1 ("")
# GHz S MA R 50
9                    0.962772084     -51.9510737
9.001                0.962693299     -52.0202244
9.002                0.962614178     -52.0895274
9.003                0.962534718     -52.1589835
9.004                 0.96245492      -52.228593
9.005                0.962374781     -52.2983563
9.006                0.962294301     -52.3682741
9.007                0.962213478     -52.4383466
9.008                0.962132312     -52.5085745
9.009                0.962050801     -52.5789583
9.01                 0.961968945     -52.6494983
9.011                0.961886742     -52.7201951
9.012                0.961804191     -52.7910491
9.013                0.961721291      -52.862061
9.014                0.961638041      -52.933231
9.015                0.961554439     -53.0045599
9.016                0.961470486     -53.0760479
9.017                0.961386178     -53.1476957
9.018                0.961301516     -53.2195037
9.019                0.961216499     -53.2914725
9.02                 0.961131124     -53.3636025
9.021                0.961045391     -53.4358942
9.022                0.960959299     -53.5083482
9.023                0.960872847     -53.5809649
9.024                0.960786033     -53.6537449
9.025                0.960698857     -53.7266887
9.026                0.960611316     -53.7997967
9.027                0.960523411     -53.8730696
9.028                 0.96043514     -53.9465078
9.029                0.960346501     -54.0201119
9.03                 0.960257494     -54.0938823
9.031                0.960168118     -54.1678197
9.032                 0.96007837     -54.2419244
9.033                0.959988251     -54.3161971
9.034                0.959897758     -54.3906383
9.035                0.959806891     -54.4652485
9.036                0.959715649     -54.5400283
9.037                 0.95962403     -54.6149781
9.038                0.959532032     -54.6900986
9.039                0.959439656     -54.7653902
9.04                   0.9593469     -54.8408536
9.041                0.959253762     -54.9164892
9.042                0.959160241     -54.9922976
9.043                0.959066336     -55.0682794
9.044                0.958972046      -55.144435
9.045                 0.95887737     -55.2207652
9.046                0.958782306     -55.2972703
9.047                0.958686854      -55.373951
9.048                0.958591011     -55.4508079
9.049                0.958494777     -55.5278414
9.05                 0.958398151     -55.6050522
9.051                0.958301131     -55.6824409
9.052                0.958203716     -55.7600079
9.053                0.958105904     -55.8377539
9.054                0.958007695     -55.9156794
9.055                0.957909088     -55.9937851
9.056                 0.95781008     -56.0720715
9.057                0.957710672     -56.1505391
9.058                 0.95761086     -56.2291886
9.059                0.957510646     -56.3080205
9.06                 0.957410026     -56.3870355
9.061                0.957308999     -56.4662341
9.062                0.957207565     -56.5456169
9.063                0.957105723     -56.6251845
9.064                 0.95700347     -56.7049375
9.065                0.956900806     -56.7848765
9.066                0.956797729     -56.8650021
9.067                0.956694238      -56.945315
9.068                0.956590332     -57.0258156
9.069                0.956486009     -57.1065047
9.07                 0.956381269     -57.1873827
9.071                0.956276109     -57.2684505
9.072                0.956170529     -57.3497084
9.073                0.956064527     -57.4311573
9.074                0.955958101     -57.5127976
9.075                0.955851252     -57.5946301
9.076                0.955743976     -57.6766553
9.077                0.955636274     -57.7588739
9.078                0.955528143     -57.8412865
9.079                0.955419582     -57.9238937
9.08                 0.955310591     -58.0066962
9.081                0.955201167     -58.0896946
9.082                0.955091309     -58.1728895
9.083                0.954981016     -58.2562816
9.084                0.954870286     -58.3398715
9.085                0.954759119     -58.4236599
9.086                0.954647513     -58.5076475
9.087                0.954535466     -58.5918348
9.088                0.954422977     -58.6762225
9.089                0.954310045     -58.7608114
9.09                 0.954196668      -58.845602
9.091                0.954082845      -58.930595
9.092                0.953968575      -59.015791
9.093                0.953853857     -59.1011909
9.094                0.953738688     -59.1867951
9.095                0.953623067     -59.2726044
9.096                0.953506994     -59.3586195
9.097                0.953390466      -59.444841
9.098                0.953273483     -59.5312696
9.099                0.953156042      -59.617906
9.1                  0.953038143      -59.704751
9.101                0.952919784     -59.7918051
9.102                0.952800964      -59.879069
9.103                0.952681681     -59.9665435
9.104                0.952561934     -60.0542293
9.105                0.952441721     -60.1421271
9.106                0.952321041     -60.2302375
9.107                0.952199893     -60.3185612
9.108                0.952078275      -60.407099
9.109                0.951956186     -60.4958516
9.11                 0.951833624     -60.5848197
9.111                0.951710587      -60.674004
9.112                0.951587076     -60.7634052
9.113                0.951463087     -60.8530241
9.114                0.951338619     -60.9428613
9.115                0.951213672     -61.0329177
9.116                0.951088243     -61.1231938
9.117                0.950962331     -61.2136905
9.118                0.950835935     -61.3044085
9.119                0.950709053     -61.3953486
9.12                 0.950581684     -61.4865114
9.121                0.950453826     -61.5778977
9.122                0.950325478     -61.6695083
9.123                0.950196638     -61.7613438
9.124                0.950067305     -61.8534052
9.125                0.949937477      -61.945693
9.126                0.949807153     -62.0382082
9.127                0.949676332     -62.1309513
9.128                0.949545011     -62.2239233
9.129                 0.94941319     -62.3171248
9.13                 0.949280866     -62.4105566
9.131                0.949148039     -62.5042196
9.132                0.949014706     -62.5981144
9.133                0.948880867     -62.6922419
9.134                 0.94874652     -62.7866028
9.135                0.948611663      -62.881198
9.136                0.948476295     -62.9760281
9.137                0.948340414     -63.0710941
9.138                0.948204018     -63.1663966
9.139                0.948067107     -63.2619365
9.14                 0.947929679     -63.3577146
9.141                0.947791732     -63.4537317
9.142                0.947653264     -63.5499886
9.143                0.947514274     -63.6464861
9.144                0.947374761      -63.743225
9.145                0.947234723     -63.8402061
9.146                0.947094158     -63.9374303
9.147                0.946953066     -64.0348984
9.148                0.946811443     -64.1326111
9.149                0.946669289     -64.2305693
9.15                 0.946526603     -64.3287739
9.151                0.946383382     -64.4272257
9.152                0.946239625     -64.5259254
9.153                0.946095331      -64.624874
9.154                0.945950498     -64.7240723
9.155                0.945805124     -64.8235212
9.156                0.945659207     -64.9232214
9.157                0.945512748     -65.0231739
9.158                0.945365742     -65.1233794
9.159                 0.94521819     -65.2238389
9.16                  0.94507009     -65.3245532
9.161                0.944921439     -65.4255232
9.162                0.944772237     -65.5267498
9.163                0.944622481     -65.6282337
9.164                0.944472171     -65.7299759
9.165                0.944321304     -65.8319773
9.166                0.944169879     -65.9342388
9.167                0.944017894     -66.0367611
9.168                0.943865348     -66.1395453
9.169                 0.94371224     -66.2425922
9.17                 0.943558567     -66.3459026
9.171                0.943404328     -66.4494776
9.172                0.943249521      -66.553318
9.173                0.943094145     -66.6574246
9.174                0.942938199     -66.7617985
9.175                 0.94278168     -66.8664404
9.176                0.942624586     -66.9713514
9.177                0.942466917     -67.0765324
9.178                0.942308671     -67.1819842
9.179                0.942149846     -67.2877077
9.18                 0.941990441      -67.393704
9.181                0.941830453      -67.499974
9.182                0.941669882     -67.6065185
9.183                0.941508725     -67.7133385
9.184                0.941346981     -67.8204349
9.185                0.941184649     -67.9278088
9.186                0.941021726      -68.035461
9.187                0.940858212     -68.1433924
9.188                0.940694104     -68.2516042
9.189                0.940529401     -68.3600971
9.19                 0.940364101     -68.4688721
9.191                0.940198203     -68.5779303
9.192                0.940031705     -68.6872726
9.193                0.939864605        -68.7969
9.194                0.939696902     -68.9068133
9.195                0.939528595     -69.0170137
9.196                 0.93935968     -69.1275021
9.197                0.939190158     -69.2382794
9.198                0.939020026     -69.3493467
9.199                0.938849283      -69.460705
9.2                  0.938677926     -69.5723552
9.201                0.938505956     -69.6842983
9.202                0.938333368     -69.7965354
9.203                0.938160163     -69.9090675
9.204                0.937986339     -70.0218955
9.205                0.937811893     -70.1350204
9.206                0.937636825     -70.2484434
9.207                0.937461132     -70.3621654
9.208                0.937284814     -70.4761873
9.209                0.937107867     -70.5905104
9.21                 0.936930292     -70.7051355
9.211                0.936752085     -70.8200637
9.212                0.936573247     -70.9352961
9.213                0.936393774     -71.0508337
9.214                0.936213665     -71.1666775
9.215                 0.93603292     -71.2828286
9.216                0.935851535      -71.399288
9.217                 0.93566951     -71.5160568
9.218                0.935486842     -71.6331361
9.219                0.935303531     -71.7505268
9.22                 0.935119575     -71.8682301
9.221                0.934934972     -71.9862471
9.222                 0.93474972     -72.1045787
9.223                0.934563818     -72.2232262
9.224                0.934377264     -72.3421905
9.225                0.934190057     -72.4614727
9.226                0.934002196      -72.581074
9.227                0.933813677     -72.7009954
9.228                0.933624501     -72.8212379
9.229                0.933434665     -72.9418028
9.23                 0.933244168     -73.0626911
9.231                0.933053008      -73.183904
9.232                0.932861183     -73.3054424
9.233                0.932668693     -73.4273075
9.234                0.932475535     -73.5495005
9.235                0.932281708     -73.6720225
9.236                0.932087211     -73.7948745
9.237                0.931892041     -73.9180578
9.238                0.931696198     -74.0415733
9.239                 0.93149968     -74.1654224
9.24                 0.931302485      -74.289606
9.241                0.931104611     -74.4141254
9.242                0.930906058     -74.5389816
9.243                0.930706823     -74.6641759
9.244                0.930506906     -74.7897094
9.245                0.930306304     -74.9155832
9.246                0.930105017     -75.0417984
9.247                0.929903042     -75.1683563
9.248                0.929700378     -75.2952581
9.249                0.929497024     -75.4225048
9.25                 0.929292978     -75.5500976
9.251                0.929088239     -75.6780378
9.252                0.928882805     -75.8063264
9.253                0.928676675     -75.9349648
9.254                0.928469848      -76.063954
9.255                0.928262321     -76.1932953
9.256                0.928054094     -76.3229898
9.257                0.927845165     -76.4530387
9.258                0.927635532     -76.5834433
9.259                0.927425195     -76.7142047
9.26                 0.927214151     -76.8453242
9.261                  0.9270024     -76.9768029
9.262                0.926789941      -77.108642
9.263                 0.92657677     -77.2408429
9.264                0.926362888     -77.3734067
9.265                0.926148294     -77.5063345
9.266                0.925932984     -77.6396278
9.267                0.925716959     -77.7732876
9.268                0.925500217     -77.9073152
9.269                0.925282757     -78.0417119
9.27                 0.925064577     -78.1764788
9.271                0.924845675     -78.3116173
9.272                0.924626052     -78.4471285
9.273                0.924405705     -78.5830138
9.274                0.924184633     -78.7192744
9.275                0.923962836     -78.8559114
9.276                 0.92374031     -78.9929263
9.277                0.923517057     -79.1303202
9.278                0.923293074     -79.2680945
9.279                0.923068359     -79.4062503
9.28                 0.922842913      -79.544789
9.281                0.922616733     -79.6837119
9.282                0.922389819     -79.8230201
9.283                0.922162169     -79.9627151
9.284                0.921933783      -80.102798
9.285                0.921704658     -80.2432702
9.286                0.921474795     -80.3841329
9.287                0.921244191     -80.5253876
9.288                0.921012847     -80.6670353
9.289                 0.92078076     -80.8090776
9.29                  0.92054793     -80.9515156
9.291                0.920314356     -81.0943506
9.292                0.920080036      -81.237584
9.293                 0.91984497     -81.3812172
9.294                0.919609157     -81.5252513
9.295                0.919372595     -81.6696877
9.296                0.919135284     -81.8145278
9.297                0.918897223     -81.9597729
9.298                0.918658412     -82.1054242
9.299                0.918418848     -82.2514832
9.3                  0.918178531     -82.3979511
9.301                0.917937461     -82.5448294
9.302                0.917695636     -82.6921193
9.303                0.917453056     -82.8398221
9.304                 0.91720972     -82.9879393
9.305                0.916965627     -83.1364721
9.306                0.916720776     -83.2854219
9.307                0.916475167     -83.4347902
9.308                0.916228799     -83.5845781
9.309                0.915981671     -83.7347871
9.31                 0.915733783     -83.8854186
9.311                0.915485134     -84.0364739
9.312                0.915235723     -84.1879543
9.313                0.914985549     -84.3398613
9.314                0.914734613     -84.4921962
9.315                0.914482913     -84.6449603
9.316                0.914230449     -84.7981551
9.317                0.913977221      -84.951782
9.318                0.913723228     -85.1058423
9.319                 0.91346847     -85.2603373
9.32                 0.913212945     -85.4152685
9.321                0.912956654     -85.5706373
9.322                0.912699597     -85.7264451
9.323                0.912441773     -85.8826931
9.324                0.912183182      -86.039383
9.325                0.911923823     -86.1965159
9.326                0.911663696     -86.3540934
9.327                0.911402801     -86.5121168
9.328                0.911141137     -86.6705875
9.329                0.910878706     -86.8295069
9.33                 0.910615505     -86.9888765
9.331                0.910351536     -87.1486976
9.332                0.910086798     -87.3089716
9.333                0.909821292        -87.4697
9.334                0.909555016     -87.6308842
9.335                0.909287972     -87.7925255
9.336                0.909020158     -87.9546254
9.337                0.908751576     -88.1171853
9.338                0.908482225     -88.2802067
9.339                0.908212106     -88.4436908
9.34                 0.907941218     -88.6076393
9.341                0.907669563     -88.7720534
9.342                0.907397139     -88.9369346
9.343                0.907123948     -89.1022843
9.344                0.906849989      -89.268104
9.345                0.906575264     -89.4343951
9.346                0.906299772     -89.6011589
9.347                0.906023513      -89.768397
9.348                 0.90574649     -89.9361107
9.349                0.905468701     -90.1043015
9.35                 0.905190147     -90.2729709
9.351                 0.90491083     -90.4421201
9.352                0.904630749     -90.6117507
9.353                0.904349906     -90.7818642
9.354                  0.9040683     -90.9524619
9.355                0.903785933     -91.1235452
9.356                0.903502806     -91.2951156
9.357                0.903218919     -91.4671746
9.358                0.902934274     -91.6397235
9.359                0.902648871     -91.8127639
9.36                 0.902362711     -91.9862971
9.361                0.902075795     -92.1603245
9.362                0.901788124     -92.3348476
9.363                  0.9014997     -92.5098679
9.364                0.901210523     -92.6853867
9.365                0.900920595     -92.8614055
9.366                0.900629917     -93.0379258
9.367                 0.90033849     -93.2149489
9.368                0.900046316     -93.3924763
9.369                0.899753396     -93.5705094
9.37                 0.899459731     -93.7490497
9.371                0.899165323     -93.9280985
9.372                0.898870174     -94.1076574
9.373                0.898574285     -94.2877276
9.374                0.898277657     -94.4683108
9.375                0.897980293     -94.6494082
9.376                0.897682195     -94.8310213
9.377                0.897383363     -95.0131516
9.378                  0.8970838     -95.1958004
9.379                0.896783508     -95.3789692
9.38                 0.896482489     -95.5626593
9.381                0.896180745     -95.7468723
9.382                0.895878278     -95.9316094
9.383                 0.89557509     -96.1168722
9.384                0.895271184     -96.3026621
9.385                0.894966561     -96.4889803
9.386                0.894661223     -96.6758285
9.387                0.894355175     -96.8632078
9.388                0.894048417     -97.0511198
9.389                0.893740952     -97.2395659
9.39                 0.893432784     -97.4285474
9.391                0.893123914     -97.6180658
9.392                0.892814345     -97.8081223
9.393                 0.89250408     -97.9987185
9.394                0.892193122     -98.1898557
9.395                0.891881474     -98.3815352
9.396                0.891569139     -98.5737586
