! TOUCHSTONE file generated by CST DESIGN STUDIO
! Date and time: Wed Feb  5 13:44:27 2025
! Project name: C:\Work\MatlabApps\UnitCellOptimizationMatlab\CST\unitcell.cst
! Tree item: Tasks\Sweep1\SPara1\S-Parameters
! Header version: 2024
! Port assignment regex: !\s*Touchstone port\s*([0-9]+)\s*=\s*(CST MWS port|CST DES external port|CST DES block port)\s*(.+)\s* \(\"(.*)\"\)(\s*mode\s*([0-9]+))?.*
! Touchstone port assignment:
! Touchstone port 1 = CST DES external port 1 ("")
# GHz S MA R 50
9                     0.96754574     -48.0154489
9.001                0.967476872     -48.0769954
9.002                 0.96740772     -48.1386681
9.003                0.967338283     -48.2004675
9.004                0.967268561      -48.262394
9.005                0.967198553     -48.3244479
9.006                0.967128257     -48.3866297
9.007                0.967057674     -48.4489396
9.008                0.966986802     -48.5113781
9.009                0.966915641     -48.5739456
9.01                 0.966844191     -48.6366424
9.011                0.966772449     -48.6994691
9.012                0.966700416     -48.7624258
9.013                 0.96662809     -48.8255131
9.014                0.966555472     -48.8887314
9.015                 0.96648256      -48.952081
9.016                0.966409353     -49.0155623
9.017                0.966335852     -49.0791757
9.018                0.966262054     -49.1429217
9.019                0.966187959     -49.2068007
9.02                 0.966113567      -49.270813
9.021                0.966038876      -49.334959
9.022                0.965963887     -49.3992392
9.023                0.965888597      -49.463654
9.024                0.965813007     -49.5282038
9.025                0.965737115      -49.592889
9.026                0.965660922       -49.65771
9.027                0.965584425     -49.7226672
9.028                0.965507624      -49.787761
9.029                0.965430519      -49.852992
9.03                 0.965353108     -49.9183604
9.031                0.965275392     -49.9838667
9.032                0.965197368     -50.0495114
9.033                0.965119036     -50.1152948
9.034                0.965040396     -50.1812175
9.035                0.964961446     -50.2472797
9.036                0.964882187      -50.313482
9.037                0.964802616     -50.3798248
9.038                0.964722733     -50.4463085
9.039                0.964642538     -50.5129336
9.04                 0.964562029     -50.5797005
9.041                0.964481206     -50.6466096
9.042                0.964400067     -50.7136613
9.043                0.964318613     -50.7808562
9.044                0.964236842     -50.8481947
9.045                0.964154753     -50.9156772
9.046                0.964072345     -50.9833041
9.047                0.963989619      -51.051076
9.048                0.963906572     -51.1189932
9.049                0.963823204     -51.1870563
9.05                 0.963739514     -51.2552656
9.051                0.963655502     -51.3236217
9.052                0.963571166     -51.3921249
9.053                0.963486505     -51.4607758
9.054                0.963401519     -51.5295748
9.055                0.963316207     -51.5985225
9.056                0.963230567     -51.6676191
9.057                  0.9631446     -51.7368653
9.058                0.963058304     -51.8062614
9.059                0.962971679     -51.8758081
9.06                 0.962884722     -51.9455056
9.061                0.962797434     -52.0153546
9.062                0.962709814     -52.0853555
9.063                0.962621861     -52.1555087
9.064                0.962533573     -52.2258148
9.065                0.962444951     -52.2962742
9.066                0.962355992     -52.3668874
9.067                0.962266697     -52.4376549
9.068                0.962177063     -52.5085773
9.069                0.962087092     -52.5796549
9.07                  0.96199678     -52.6508883
9.071                0.961906128      -52.722278
9.072                0.961815135     -52.7938244
9.073                0.961723799     -52.8655281
9.074                 0.96163212     -52.9373896
9.075                0.961540097     -53.0094094
9.076                0.961447728      -53.081588
9.077                0.961355014     -53.1539258
9.078                0.961261952     -53.2264235
9.079                0.961168542     -53.2990814
9.08                 0.961074784     -53.3719002
9.081                0.960980676     -53.4448803
9.082                0.960886216     -53.5180223
9.083                0.960791405     -53.5913266
9.084                0.960696242     -53.6647938
9.085                0.960600724     -53.7384245
9.086                0.960504852     -53.8122191
9.087                0.960408624     -53.8861781
9.088                 0.96031204     -53.9603022
9.089                0.960215098     -54.0345918
9.09                 0.960117797     -54.1090474
9.091                0.960020137     -54.1836697
9.092                0.959922116     -54.2584591
9.093                0.959823734     -54.3334162
9.094                0.959724989     -54.4085414
9.095                 0.95962588     -54.4838355
9.096                0.959526407     -54.5592989
9.097                0.959426569     -54.6349321
9.098                0.959326364     -54.7107358
9.099                0.959225791     -54.7867104
9.1                   0.95912485     -54.8628565
9.101                0.959023539     -54.9391747
9.102                0.958921857     -55.0156655
9.103                0.958819804     -55.0923295
9.104                0.958717378     -55.1691673
9.105                0.958614578     -55.2461795
9.106                0.958511404     -55.3233665
9.107                0.958407853      -55.400729
9.108                0.958303926     -55.4782675
9.109                0.958199621     -55.5559826
9.11                 0.958094937     -55.6338749
9.111                0.957989873      -55.711945
9.112                0.957884427     -55.7901935
9.113                  0.9577786     -55.8686209
9.114                 0.95767239     -55.9472278
9.115                0.957565795     -56.0260148
9.116                0.957458814     -56.1049825
9.117                0.957351448     -56.1841315
9.118                0.957243694     -56.2634625
9.119                0.957135551     -56.3429759
9.12                 0.957027018     -56.4226724
9.121                0.956918095     -56.5025526
9.122                 0.95680878      -56.582617
9.123                0.956699072     -56.6628664
9.124                0.956588969     -56.7433014
9.125                0.956478472     -56.8239224
9.126                0.956367578     -56.9047302
9.127                0.956256287     -56.9857253
9.128                0.956144597     -57.0669085
9.129                0.956032508     -57.1482802
9.13                 0.955920018     -57.2298412
9.131                0.955807125      -57.311592
9.132                 0.95569383     -57.3935333
9.133                0.955580131     -57.4756657
9.134                0.955466026     -57.5579898
9.135                0.955351515     -57.6405064
9.136                0.955236596      -57.723216
9.137                0.955121268     -57.8061192
9.138                0.955005531     -57.8892167
9.139                0.954889382     -57.9725093
9.14                 0.954772821     -58.0559974
9.141                0.954655847     -58.1396818
9.142                0.954538458     -58.2235631
9.143                0.954420653     -58.3076419
9.144                0.954302431      -58.391919
9.145                0.954183791      -58.476395
9.146                0.954064732     -58.5610706
9.147                0.953945252     -58.6459463
9.148                0.953825351      -58.731023
9.149                0.953705026     -58.8163012
9.15                 0.953584278     -58.9017817
9.151                0.953463104     -58.9874651
9.152                0.953341504     -59.0733521
9.153                0.953219476     -59.1594434
9.154                0.953097019     -59.2457396
9.155                0.952974131     -59.3322416
9.156                0.952850813     -59.4189498
9.157                0.952727062     -59.5058651
9.158                0.952602877     -59.5929882
9.159                0.952478256     -59.6803197
9.16                   0.9523532     -59.7678603
9.161                0.952227706     -59.8556107
9.162                0.952101773     -59.9435718
9.163                  0.9519754      -60.031744
9.164                0.951848586     -60.1201283
9.165                0.951721329     -60.2087252
9.166                0.951593628     -60.2975356
9.167                0.951465482     -60.3865601
9.168                 0.95133689     -60.4757994
9.169                 0.95120785     -60.5652543
9.17                 0.951078362     -60.6549256
9.171                0.950948423     -60.7448139
9.172                0.950818032     -60.8349199
9.173                0.950687189     -60.9252445
9.174                0.950555892     -61.0157883
9.175                 0.95042414     -61.1065521
9.176                 0.95029193     -61.1975367
9.177                0.950159263     -61.2887427
9.178                0.950026137     -61.3801711
9.179                 0.94989255     -61.4718224
9.18                 0.949758501     -61.5636974
9.181                0.949623989      -61.655797
9.182                0.949489013     -61.7481219
9.183                 0.94935357     -61.8406729
9.184                0.949217661     -61.9334506
9.185                0.949081283      -62.026456
9.186                0.948944436     -62.1196897
9.187                0.948807117     -62.2131525
9.188                0.948669325     -62.3068453
9.189                 0.94853106     -62.4007689
9.19                  0.94839232     -62.4949239
9.191                0.948253103     -62.5893112
9.192                0.948113409     -62.6839316
9.193                0.947973235     -62.7787859
9.194                0.947832581     -62.8738748
9.195                0.947691444     -62.9691993
9.196                0.947549825       -63.06476
9.197                0.947407721     -63.1605578
9.198                 0.94726513     -63.2565936
9.199                0.947122053      -63.352868
9.2                  0.946978486     -63.4493821
9.201                 0.94683443     -63.5461364
9.202                0.946689882      -63.643132
9.203                0.946544841     -63.7403696
9.204                0.946399305       -63.83785
9.205                0.946253274     -63.9355741
9.206                0.946106746     -64.0335427
9.207                 0.94595972     -64.1317567
9.208                0.945812193     -64.2302168
9.209                0.945664165      -64.328924
9.21                 0.945515635     -64.4278791
9.211                  0.9453666      -64.527083
9.212                 0.94521706     -64.6265364
9.213                0.945067013     -64.7262403
9.214                0.944916458     -64.8261955
9.215                0.944765393      -64.926403
9.216                0.944613817     -65.0268634
9.217                0.944461728     -65.1275778
9.218                0.944309125      -65.228547
9.219                0.944156006     -65.3297718
9.22                 0.944002371     -65.4312532
9.221                0.943848217     -65.5329921
9.222                0.943693544     -65.6349893
9.223                 0.94353835     -65.7372457
9.224                0.943382632     -65.8397622
9.225                0.943226391     -65.9425397
9.226                0.943069624     -66.0455792
9.227                0.942912331     -66.1488814
9.228                0.942754508     -66.2524474
9.229                0.942596156      -66.356278
9.23                 0.942437273     -66.4603742
9.231                0.942277857     -66.5647368
9.232                0.942117907     -66.6693668
9.233                0.941957421     -66.7742651
9.234                0.941796397     -66.8794327
9.235                0.941634836     -66.9848704
9.236                0.941472734     -67.0905792
9.237                 0.94131009     -67.1965601
9.238                0.941146904     -67.3028139
9.239                0.940983173     -67.4093417
9.24                 0.940818897     -67.5161444
9.241                0.940654073     -67.6232228
9.242                  0.9404887     -67.7305781
9.243                0.940322776      -67.838211
9.244                0.940156301     -67.9461227
9.245                0.939989273      -68.054314
9.246                 0.93982169      -68.162786
9.247                 0.93965355     -68.2715395
9.248                0.939484853     -68.3805757
9.249                0.939315597     -68.4898953
9.25                  0.93914578     -68.5994995
9.251                0.938975401     -68.7093893
9.252                0.938804458     -68.8195655
9.253                0.938632951     -68.9300293
9.254                0.938460876     -69.0407815
9.255                0.938288234     -69.1518232
9.256                0.938115022     -69.2631555
9.257                0.937941239     -69.3747792
9.258                0.937766884     -69.4866954
9.259                0.937591954     -69.5989052
9.26                  0.93741645     -69.7114095
9.261                0.937240368     -69.8242094
9.262                0.937063708     -69.9373058
9.263                0.936886468     -70.0506999
9.264                0.936708646     -70.1643926
9.265                0.936530242      -70.278385
9.266                0.936351254     -70.3926781
9.267                0.936171679      -70.507273
9.268                0.935991518     -70.6221707
9.269                0.935810767     -70.7373722
9.27                 0.935629427     -70.8528786
9.271                0.935447495      -70.968691
9.272                0.935264969     -71.0848104
9.273                0.935081849     -71.2012378
9.274                0.934898133     -71.3179744
9.275                 0.93471382     -71.4350213
9.276                0.934528907     -71.5523794
9.277                0.934343394     -71.6700499
9.278                0.934157279     -71.7880338
9.279                0.933970561     -71.9063322
9.28                 0.933783238     -72.0249463
9.281                0.933595308     -72.1438771
9.282                0.933406771     -72.2631256
9.283                0.933217624     -72.3826931
9.284                0.933027867     -72.5025806
9.285                0.932837498     -72.6227892
9.286                0.932646516       -72.74332
9.287                0.932454918     -72.8641741
9.288                0.932262704     -72.9853527
9.289                0.932069872     -73.1068568
9.29                 0.931876421     -73.2286876
9.291                 0.93168235     -73.3508462
9.292                0.931487656     -73.4733338
9.293                0.931292339     -73.5961514
9.294                0.931096396     -73.7193003
9.295                0.930899828     -73.8427815
9.296                0.930702632     -73.9665962
9.297                0.930504807     -74.0907456
9.298                0.930306351     -74.2152308
9.299                0.930107263     -74.3400529
9.3                  0.929907542     -74.4652131
9.301                0.929707187     -74.5907126
9.302                0.929506195     -74.7165526
9.303                0.929304567     -74.8427341
9.304                0.929102299     -74.9692585
9.305                0.928899391     -75.0961268
9.306                0.928695842     -75.2233402
9.307                 0.92849165        -75.3509
9.308                0.928286814     -75.4788073
9.309                0.928081333     -75.6070633
9.31                 0.927875205     -75.7356692
9.311                0.927668428     -75.8646262
9.312                0.927461003     -75.9939354
9.313                0.927252926     -76.1235982
9.314                0.927044198     -76.2536157
9.315                0.926834816     -76.3839891
9.316                 0.92662478     -76.5147197
9.317                0.926414088     -76.6458086
9.318                0.926202739     -76.7772571
9.319                0.925990732     -76.9090663
9.32                 0.925778065     -77.0412377
9.321                0.925564738     -77.1737722
9.322                0.925350748     -77.3066713
9.323                0.925136095     -77.4399361
9.324                0.924920777     -77.5735679
9.325                0.924704794      -77.707568
9.326                0.924488144     -77.8419375
9.327                0.924270827     -77.9766777
9.328                0.924052839       -78.11179
9.329                0.923834182     -78.2472754
9.33                 0.923614853     -78.3831354
9.331                0.923394852     -78.5193712
9.332                0.923174176      -78.655984
9.333                0.922952826     -78.7929751
9.334                  0.9227308     -78.9303459
9.335                0.922508097     -79.0680975
9.336                0.922284716     -79.2062312
9.337                0.922060656     -79.3447484
9.338                0.921835915     -79.4836504
9.339                0.921610493     -79.6229383
9.34                 0.921384389     -79.7626136
9.341                0.921157602     -79.9026775
9.342                 0.92093013     -80.0431314
9.343                0.920701973     -80.1839764
9.344                 0.92047313      -80.325214
9.345                0.920243599     -80.4668455
9.346                0.920013381     -80.6088721
9.347                0.919782473     -80.7512952
9.348                0.919550876     -80.8941161
9.349                0.919318587     -81.0373361
9.35                 0.919085607     -81.1809566
9.351                0.918851935     -81.3249788
9.352                0.918617569     -81.4694042
9.353                0.918382508      -81.614234
9.354                0.918146753     -81.7594696
9.355                0.917910302     -81.9051123
9.356                0.917673154     -82.0511635
9.357                0.917435309     -82.1976246
9.358                0.917196766     -82.3444968
9.359                0.916957524     -82.4917815
9.36                 0.916717582     -82.6394801
9.361                 0.91647694      -82.787594
9.362                0.916235598     -82.9361244
9.363                0.915993554     -83.0850729
9.364                0.915750808     -83.2344406
9.365                0.915507359     -83.3842291
9.366                0.915263207     -83.5344396
9.367                0.915018351     -83.6850736
9.368                0.914772791     -83.8361323
9.369                0.914526526     -83.9876173
9.37                 0.914279555     -84.1395299
9.371                0.914031879     -84.2918715
9.372                0.913783497     -84.4446434
9.373                0.913534408      -84.597847
9.374                0.913284611     -84.7514838
9.375                0.913034108     -84.9055551
9.376                0.912782897     -85.0600624
9.377                0.912530977     -85.2150069
9.378                 0.91227835     -85.3703902
9.379                0.912025014     -85.5262136
9.38                 0.911770969     -85.6824786
9.381                0.911516214     -85.8391864
9.382                0.911260751     -85.9963387
9.383                0.911004578     -86.1539367
9.384                0.910747696     -86.3119818
9.385                0.910490104     -86.4704756
9.386                0.910231802     -86.6294193
9.387                0.909972791     -86.7888145
9.388                 0.90971307     -86.9486625
9.389                0.909452639     -87.1089647
9.39                 0.909191499     -87.2697227
9.391                0.908929648     -87.4309377
9.392                0.908667089     -87.5926113
9.393                 0.90840382     -87.7547449
9.394                0.908139842     -87.9173398
9.395                0.907875155     -88.0803976
9.396                0.907609759     -88.2439196
