! TOUCHSTONE file generated by CST DESIGN STUDIO
! Date and time: Wed Feb  5 13:44:18 2025
! Project name: C:\Work\MatlabApps\UnitCellOptimizationMatlab\CST\unitcell.cst
! Tree item: Tasks\Sweep1\SPara1\S-Parameters
! Header version: 2024
! Port assignment regex: !\s*Touchstone port\s*([0-9]+)\s*=\s*(CST MWS port|CST DES external port|CST DES block port)\s*(.+)\s* \(\"(.*)\"\)(\s*mode\s*([0-9]+))?.*
! Touchstone port assignment:
! Touchstone port 1 = CST DES external port 1 ("")
# GHz S MA R 50
9                    0.933984509     -72.2504541
9.001                0.933832972     -72.3679526
9.002                0.933680807     -72.4857782
9.003                0.933528014     -72.6039321
9.004                0.933374589     -72.7224154
9.005                 0.93322053     -72.8412293
9.006                0.933065836     -72.9603748
9.007                0.932910504     -73.0798532
9.008                0.932754531     -73.1996655
9.009                0.932597917      -73.319813
9.01                 0.932440657     -73.4402968
9.011                 0.93228275      -73.561118
9.012                0.932124195     -73.6822778
9.013                0.931964988     -73.8037773
9.014                0.931805127     -73.9256179
9.015                0.931644611     -74.0478005
9.016                0.931483436     -74.1703264
9.017                0.931321602     -74.2931968
9.018                0.931159104     -74.4164129
9.019                0.930995942     -74.5399758
9.02                 0.930832114     -74.6638867
9.021                0.930667615     -74.7881469
9.022                0.930502446     -74.9127575
9.023                0.930336603     -75.0377198
9.024                0.930170084     -75.1630349
9.025                0.930002887     -75.2887041
9.026                 0.92983501     -75.4147285
9.027                0.929666451     -75.5411095
9.028                0.929497206     -75.6678481
9.029                0.929327275     -75.7949457
9.03                 0.929156655     -75.9224035
9.031                0.928985343     -76.0502227
9.032                0.928813338     -76.1784045
9.033                0.928640637     -76.3069501
9.034                0.928467238      -76.435861
9.035                0.928293139     -76.5651381
9.036                0.928118338     -76.6947829
9.037                0.927942832     -76.8247966
9.038                 0.92776662     -76.9551805
9.039                0.927589699     -77.0859357
9.04                 0.927412066     -77.2170636
9.041                0.927233721     -77.3485654
9.042                 0.92705466     -77.4804425
9.043                0.926874881      -77.612696
9.044                0.926694383     -77.7453273
9.045                0.926513163     -77.8783376
9.046                0.926331219     -78.0117283
9.047                0.926148549     -78.1455006
9.048                 0.92596515     -78.2796559
9.049                0.925781021     -78.4141953
9.05                  0.92559616     -78.5491203
9.051                0.925410563     -78.6844322
9.052                 0.92522423     -78.8201321
9.053                0.925037158     -78.9562216
9.054                0.924849345     -79.0927018
9.055                0.924660789      -79.229574
9.056                0.924471488     -79.3668397
9.057                 0.92428144     -79.5045002
9.058                0.924090642     -79.6425567
9.059                0.923899093     -79.7810105
9.06                  0.92370679     -79.9198632
9.061                0.923513732     -80.0591159
9.062                0.923319916       -80.19877
9.063                0.923125341     -80.3388269
9.064                0.922930004     -80.4792879
9.065                0.922733904     -80.6201544
9.066                0.922537038     -80.7614278
9.067                0.922339404     -80.9031093
9.068                0.922141001     -81.0452003
9.069                0.921941826     -81.1877023
9.07                 0.921741878     -81.3306165
9.071                0.921541155     -81.4739444
9.072                0.921339654     -81.6176874
9.073                0.921137374     -81.7618468
9.074                0.920934313     -81.9064239
9.075                0.920730468     -82.0514203
9.076                0.920525839     -82.1968372
9.077                0.920320423      -82.342676
9.078                0.920114218     -82.4889383
9.079                0.919907223     -82.6356252
9.08                 0.919699435     -82.7827384
9.081                0.919490853     -82.9302791
9.082                0.919281475     -83.0782487
9.083                  0.9190713     -83.2266487
9.084                0.918860325     -83.3754806
9.085                0.918648548     -83.5247456
9.086                0.918435969     -83.6744452
9.087                0.918222585     -83.8245809
9.088                0.918008394      -83.975154
9.089                0.917793396      -84.126166
9.09                 0.917577588     -84.2776183
9.091                0.917360968     -84.4295124
9.092                0.917143535     -84.5818497
9.093                0.916925287     -84.7346315
9.094                0.916706224     -84.8878595
9.095                0.916486342     -85.0415349
9.096                0.916265641     -85.1956593
9.097                0.916044119      -85.350234
9.098                0.915821775     -85.5052606
9.099                0.915598607     -85.6607405
9.1                  0.915374613     -85.8166751
9.101                0.915149792     -85.9730659
9.102                0.914924144     -86.1299144
9.103                0.914697665      -86.287222
9.104                0.914470356     -86.4449902
9.105                0.914242214     -86.6032204
9.106                0.914013238     -86.7619141
9.107                0.913783427     -86.9210728
9.108                 0.91355278     -87.0806979
9.109                0.913321295      -87.240791
9.11                 0.913088972     -87.4013535
9.111                0.912855808     -87.5623868
9.112                0.912621804     -87.7238925
9.113                0.912386957      -87.885872
9.114                0.912151266     -88.0483268
9.115                0.911914731     -88.2112584
9.116                 0.91167735     -88.3746683
9.117                0.911439123     -88.5385579
9.118                0.911200048     -88.7029288
9.119                0.910960124     -88.8677825
9.12                  0.91071935     -89.0331203
9.121                0.910477726     -89.1989439
9.122                0.910235251     -89.3652547
9.123                0.909991923     -89.5320542
9.124                0.909747743     -89.6993439
9.125                0.909502708     -89.8671253
9.126                0.909256819     -90.0353999
9.127                0.909010074     -90.2041692
9.128                0.908762474     -90.3734346
9.129                0.908514016     -90.5431978
9.13                 0.908264702     -90.7134601
9.131                0.908014529     -90.8842232
9.132                0.907763499     -91.0554884
9.133                0.907511609     -91.2272573
9.134                 0.90725886     -91.3995315
9.135                0.907005251     -91.5723123
9.136                0.906750782     -91.7456013
9.137                0.906495452        -91.9194
9.138                0.906239262     -92.0937099
9.139                0.905982211     -92.2685326
9.14                 0.905724298     -92.4438694
9.141                0.905465524      -92.619722
9.142                0.905205888     -92.7960918
9.143                0.904945391     -92.9729803
9.144                0.904684031      -93.150389
9.145                 0.90442181     -93.3283195
9.146                0.904158728     -93.5067732
9.147                0.903894783     -93.6857516
9.148                0.903629978     -93.8652562
9.149                 0.90336431     -94.0452886
9.15                 0.903097782     -94.2258502
9.151                0.902830393     -94.4069425
9.152                0.902562144     -94.5885671
9.153                0.902293034     -94.7707253
9.154                0.902023065     -94.9534188
9.155                0.901752237     -95.1366489
9.156                 0.90148055     -95.3204173
9.157                0.901208005     -95.5047253
9.158                0.900934603     -95.6895745
9.159                0.900660343     -95.8749664
9.16                 0.900385228     -96.0609024
9.161                0.900109258      -96.247384
9.162                0.899832434     -96.4344127
9.163                0.899554756       -96.62199
9.164                0.899276225     -96.8101174
9.165                0.898996843     -96.9987963
9.166                0.898716611     -97.1880281
9.167                 0.89843553     -97.3778145
9.168                0.898153601     -97.5681568
9.169                0.897870825     -97.7590564
9.17                 0.897587204     -97.9505149
9.171                0.897302739     -98.1425338
9.172                0.897017431     -98.3351144
9.173                0.896731283     -98.5282582
9.174                0.896444295     -98.7219666
9.175                0.896156469     -98.9162412
9.176                0.895867808     -99.1110833
9.177                0.895578312     -99.3064944
9.178                0.895287984     -99.5024759
9.179                0.894996826     -99.6990292
9.18                 0.894704839     -99.8961557
9.181                0.894412026     -100.093857
9.182                0.894118388     -100.292134
9.183                0.893823929     -100.490989
9.184                0.893528649     -100.690423
9.185                0.893232553     -100.890437
9.186                0.892935642     -101.091033
9.187                0.892637918     -101.292211
9.188                0.892339384     -101.493975
9.189                0.892040043     -101.696324
9.19                 0.891739897      -101.89926
9.191                 0.89143895     -102.102785
9.192                0.891137204       -102.3069
9.193                0.890834663     -102.511606
9.194                0.890531328     -102.716904
9.195                0.890227204     -102.922797
9.196                0.889922294     -103.129285
9.197                  0.8896166      -103.33637
9.198                0.889310127     -103.544053
9.199                0.889002877     -103.752334
9.2                  0.888694855     -103.961217
9.201                0.888386064     -104.170701
9.202                0.888076507     -104.380789
9.203                0.887766188     -104.591481
9.204                0.887455112     -104.802779
9.205                0.887143283     -105.014683
9.206                0.886830703     -105.227196
9.207                0.886517379     -105.440319
9.208                0.886203313     -105.654052
9.209                 0.88588851     -105.868397
9.21                 0.885572975     -106.083355
9.211                0.885256712     -106.298928
9.212                0.884939726     -106.515117
9.213                0.884622022     -106.731922
9.214                0.884303604     -106.949345
9.215                0.883984477     -107.167387
9.216                0.883664646      -107.38605
9.217                0.883344117     -107.605334
9.218                0.883022894     -107.825241
9.219                0.882700984     -108.045772
9.22                 0.882378391     -108.266927
9.221                0.882055121     -108.488708
9.222                0.881731179     -108.711117
9.223                0.881406571     -108.934154
9.224                0.881081304      -109.15782
9.225                0.880755383     -109.382116
9.226                0.880428814     -109.607044
9.227                0.880101603     -109.832604
9.228                0.879773757     -110.058797
9.229                0.879445281     -110.285625
9.23                 0.879116183     -110.513088
9.231                0.878786469     -110.741188
9.232                0.878456145     -110.969925
9.233                0.878125219       -111.1993
9.234                0.877793697     -111.429315
9.235                0.877461587      -111.65997
9.236                0.877128895     -111.891266
9.237                0.876795629     -112.123204
9.238                0.876461796     -112.355786
9.239                0.876127404      -112.58901
9.24                  0.87579246      -112.82288
9.241                0.875456972     -113.057395
9.242                0.875120947     -113.292556
9.243                0.874784395     -113.528364
9.244                0.874447322     -113.764821
9.245                0.874109737     -114.001926
9.246                0.873771649      -114.23968
9.247                0.873433065     -114.478084
9.248                0.873093995      -114.71714
9.249                0.872754446     -114.956847
9.25                 0.872414428     -115.197206
9.251                 0.87207395     -115.438218
9.252                0.871733021     -115.679884
9.253                0.871391649     -115.922204
9.254                0.871049845     -116.165178
9.255                0.870707617     -116.408809
9.256                0.870364975     -116.653095
9.257                0.870021929     -116.898037
9.258                0.869678488     -117.143637
9.259                0.869334663     -117.389894
9.26                 0.868990463      -117.63681
9.261                0.868645899     -117.884384
9.262                 0.86830098     -118.132616
9.263                0.867955718     -118.381509
9.264                0.867610123     -118.631061
9.265                0.867264205     -118.881273
9.266                0.866917975     -119.132146
9.267                0.866571445     -119.383679
9.268                0.866224625     -119.635874
9.269                0.865877526      -119.88873
9.27                  0.86553016     -120.142249
9.271                0.865182538     -120.396429
9.272                0.864834672     -120.651271
9.273                0.864486573     -120.906776
9.274                0.864138254     -121.162943
9.275                0.863789725     -121.419773
9.276                0.863441001     -121.677266
9.277                0.863092091     -121.935422
9.278                 0.86274301     -122.194241
9.279                0.862393769     -122.453723
9.28                  0.86204438     -122.713868
9.281                0.861694858     -122.974676
9.282                0.861345214     -123.236147
9.283                0.860995461     -123.498281
9.284                0.860645614     -123.761079
9.285                0.860295684     -124.024538
9.286                0.859945686     -124.288661
9.287                0.859595632     -124.553446
9.288                0.859245537     -124.818893
9.289                0.858895414     -125.085002
9.29                 0.858545277     -125.351773
9.291                 0.85819514     -125.619206
9.292                0.857845018     -125.887299
9.293                0.857494924     -126.156054
9.294                0.857144874     -126.425469
9.295                0.856794881     -126.695544
9.296                 0.85644496     -126.966278
9.297                0.856095126     -127.237672
9.298                0.855745394     -127.509724
9.299                0.855395779     -127.782435
9.3                  0.855046296     -128.055802
9.301                0.854696961     -128.329827
9.302                0.854347788     -128.604508
9.303                0.853998794     -128.879845
9.304                0.853649994     -129.155837
9.305                0.853301403     -129.432482
9.306                0.852953038     -129.709782
9.307                0.852604915     -129.987733
9.308                 0.85225705     -130.266337
9.309                0.851909459     -130.545592
9.31                 0.851562158     -130.825496
9.311                0.851215164      -131.10605
9.312                0.850868493     -131.387252
9.313                0.850522163     -131.669101
9.314                 0.85017619     -131.951596
9.315                0.849830591     -132.234736
9.316                0.849485383     -132.518521
9.317                0.849140583     -132.802947
9.318                0.848796208     -133.088016
9.319                0.848452276     -133.373724
9.32                 0.848108804     -133.660072
9.321                0.847765811     -133.947058
9.322                0.847423312      -134.23468
9.323                0.847081327     -134.522937
9.324                0.846739873     -134.811828
9.325                0.846398969      -135.10135
9.326                0.846058631     -135.391504
9.327                0.845718879     -135.682287
9.328                 0.84537973     -135.973698
9.329                0.845041204     -136.265734
9.33                 0.844703318     -136.558395
9.331                 0.84436609     -136.851678
9.332                0.844029541     -137.145583
9.333                0.843693688     -137.440107
9.334                 0.84335855     -137.735248
9.335                0.843024145     -138.031005
9.336                0.842690494     -138.327375
9.337                0.842357615     -138.624357
9.338                0.842025527     -138.921949
9.339                0.841694248     -139.220148
9.34                   0.8413638     -139.518954
9.341                  0.8410342     -139.818363
9.342                0.840705469     -140.118373
9.343                0.840377625     -140.418983
9.344                0.840050688     -140.720189
9.345                0.839724678     -141.021991
9.346                0.839399614     -141.324385
9.347                0.839075517     -141.627369
9.348                0.838752405     -141.930941
9.349                0.838430298     -142.235099
9.35                 0.838109218     -142.539839
9.351                0.837789182      -142.84516
9.352                0.837470212     -143.151058
9.353                0.837152327     -143.457532
9.354                0.836835548     -143.764578
9.355                0.836519893     -144.072194
9.356                0.836205385     -144.380377
9.357                0.835892041     -144.689124
9.358                0.835579884     -144.998433
9.359                0.835268932     -145.308301
9.36                 0.834959206     -145.618724
9.361                0.834650727       -145.9297
9.362                0.834343514     -146.241226
9.363                0.834037588     -146.553299
9.364                0.833732969     -146.865916
9.365                0.833429677     -147.179073
9.366                0.833127733     -147.492767
9.367                0.832827157     -147.806996
9.368                0.832527969     -148.121755
9.369                0.832230189     -148.437042
9.37                 0.831933838     -148.752853
9.371                0.831638936     -149.069185
9.372                0.831345503     -149.386035
9.373                 0.83105356     -149.703398
9.374                0.830763126     -150.021272
9.375                0.830474222     -150.339653
9.376                0.830186868     -150.658537
9.377                0.829901084      -150.97792
9.378                 0.82961689       -151.2978
9.379                0.829334306     -151.618171
9.38                 0.829053353     -151.939031
9.381                 0.82877405     -152.260376
9.382                0.828496418     -152.582201
9.383                0.828220476     -152.904503
9.384                0.827946243     -153.227277
9.385                 0.82767374     -153.550521
9.386                0.827402987     -153.874229
9.387                0.827134003     -154.198398
9.388                0.826866808     -154.523023
9.389                0.826601421     -154.848101
9.39                 0.826337862     -155.173626
9.391                 0.82607615     -155.499596
9.392                0.825816305     -155.826005
9.393                0.825558345      -156.15285
9.394                 0.82530229     -156.480125
9.395                0.825048159     -156.807827
9.396                0.824795971     -157.135951
