! TOUCHSTONE file generated by CST DESIGN STUDIO
! Date and time: Wed Feb  5 13:44:20 2025
! Project name: C:\Work\MatlabApps\UnitCellOptimizationMatlab\CST\unitcell.cst
! Tree item: Tasks\Sweep1\SPara1\S-Parameters
! Header version: 2024
! Port assignment regex: !\s*Touchstone port\s*([0-9]+)\s*=\s*(CST MWS port|CST DES external port|CST DES block port)\s*(.+)\s* \(\"(.*)\"\)(\s*mode\s*([0-9]+))?.*
! Touchstone port assignment:
! Touchstone port 1 = CST DES external port 1 ("")
# GHz S MA R 50
9                    0.942837146     -66.4214917
9.001                0.942707418      -66.523828
9.002                0.942577157      -66.626434
9.003                 0.94244636     -66.7293107
9.004                0.942315024     -66.8324591
9.005                0.942183149     -66.9358799
9.006                0.942050731     -67.0395743
9.007                 0.94191777     -67.1435431
9.008                0.941784262     -67.2477872
9.009                0.941650206     -67.3523077
9.01                   0.9415156     -67.4571054
9.011                0.941380442     -67.5621813
9.012                0.941244729     -67.6675364
9.013                0.941108459     -67.7731716
9.014                0.940971632     -67.8790879
9.015                0.940834243     -67.9852863
9.016                0.940696292     -68.0917677
9.017                0.940557776      -68.198533
9.018                0.940418693     -68.3055834
9.019                0.940279042     -68.4129197
9.02                 0.940138819     -68.5205429
9.021                0.939998023     -68.6284541
9.022                0.939856652     -68.7366542
9.023                0.939714703     -68.8451442
9.024                0.939572175     -68.9539251
9.025                0.939429065     -69.0629978
9.026                0.939285372     -69.1723635
9.027                0.939141093     -69.2820232
9.028                0.938996225     -69.3919777
9.029                0.938850768     -69.5022282
9.03                 0.938704718     -69.6127756
9.031                0.938558074      -69.723621
9.032                0.938410834     -69.8347655
9.033                0.938262995     -69.9462099
9.034                0.938114555     -70.0579555
9.035                0.937965512     -70.1700031
9.036                0.937815864     -70.2823538
9.037                0.937665609     -70.3950088
9.038                0.937514744      -70.507969
9.039                0.937363268     -70.6212354
9.04                 0.937211178     -70.7348092
9.041                0.937058472     -70.8486914
9.042                0.936905148      -70.962883
9.043                0.936751204     -71.0773852
9.044                0.936596638     -71.1921989
9.045                0.936441447     -71.3073253
9.046                0.936285629     -71.4227653
9.047                0.936129183     -71.5385203
9.048                0.935972105      -71.654591
9.049                0.935814394     -71.7709788
9.05                 0.935656048     -71.8876846
9.051                0.935497064     -72.0047096
9.052                0.935337441     -72.1220548
9.053                0.935177175     -72.2397214
9.054                0.935016265     -72.3577104
9.055                 0.93485471      -72.476023
9.056                0.934692505     -72.5946602
9.057                 0.93452965     -72.7136232
9.058                0.934366142     -72.8329132
9.059                0.934201979     -72.9525311
9.06                 0.934037159     -73.0724782
9.061                0.933871679     -73.1927556
9.062                0.933705538     -73.3133644
9.063                0.933538733     -73.4343057
9.064                0.933371262     -73.5555807
9.065                0.933203123     -73.6771905
9.066                0.933034314     -73.7991363
9.067                0.932864832     -73.9214192
9.068                0.932694675     -74.0440404
9.069                0.932523842     -74.1670011
9.07                 0.932352329     -74.2903023
9.071                0.932180136     -74.4139452
9.072                0.932007259     -74.5379311
9.073                0.931833696     -74.6622611
9.074                0.931659446     -74.7869364
9.075                0.931484505     -74.9119581
9.076                0.931308873     -75.0373275
9.077                0.931132547     -75.1630457
9.078                0.930955523     -75.2891138
9.079                0.930777802     -75.4155332
9.08                  0.93059938      -75.542305
9.081                0.930420254     -75.6694304
9.082                0.930240424     -75.7969105
9.083                0.930059887     -75.9247467
9.084                 0.92987864     -76.0529401
9.085                0.929696682     -76.1814919
9.086                 0.92951401     -76.3104034
9.087                0.929330622     -76.4396758
9.088                0.929146517     -76.5693102
9.089                0.928961691      -76.699308
9.09                 0.928776144     -76.8296704
9.091                0.928589872     -76.9603985
9.092                0.928402874     -77.0914937
9.093                0.928215147     -77.2229571
9.094                 0.92802669     -77.3547901
9.095                  0.9278375     -77.4869938
9.096                0.927647575     -77.6195696
9.097                0.927456913     -77.7525186
9.098                0.927265513     -77.8858422
9.099                0.927073371     -78.0195416
9.1                  0.926880487      -78.153618
9.101                0.926686857     -78.2880728
9.102                 0.92649248     -78.4229072
9.103                0.926297354     -78.5581225
9.104                0.926101477     -78.6937199
9.105                0.925904846     -78.8297008
9.106                 0.92570746     -78.9660665
9.107                0.925509316     -79.1028181
9.108                0.925310414     -79.2399571
9.109                 0.92511075     -79.3774847
9.11                 0.924910322     -79.5154023
9.111                 0.92470913      -79.653711
9.112                 0.92450717     -79.7924123
9.113                0.924304441     -79.9315075
9.114                 0.92410094     -80.0709977
9.115                0.923896667     -80.2108845
9.116                0.923691618      -80.351169
9.117                0.923485792     -80.4918527
9.118                0.923279188     -80.6329367
9.119                0.923071803     -80.7744226
9.12                 0.922863635     -80.9163115
9.121                0.922654682     -81.0586049
9.122                0.922444943     -81.2013041
9.123                0.922234416     -81.3444103
9.124                0.922023099     -81.4879251
9.125                 0.92181099     -81.6318496
9.126                0.921598087     -81.7761853
9.127                0.921384389     -81.9209335
9.128                0.921169893     -82.0660955
9.129                0.920954598     -82.2116728
9.13                 0.920738503     -82.3576667
9.131                0.920521604     -82.5040785
9.132                0.920303902     -82.6509096
9.133                0.920085393     -82.7981615
9.134                0.919866077     -82.9458354
9.135                0.919645952     -83.0939327
9.136                0.919425015     -83.2424549
9.137                0.919203266     -83.3914032
9.138                0.918980703     -83.5407791
9.139                0.918757323     -83.6905841
9.14                 0.918533126     -83.8408193
9.141                 0.91830811     -83.9914863
9.142                0.918082274     -84.1425865
9.143                0.917855615     -84.2941212
9.144                0.917628133     -84.4460919
9.145                0.917399825     -84.5984999
9.146                0.917170691     -84.7513467
9.147                0.916940729     -84.9046336
9.148                0.916709938     -85.0583621
9.149                0.916478315     -85.2125336
9.15                  0.91624586     -85.3671495
9.151                0.916012572     -85.5222112
9.152                0.915778448     -85.6777201
9.153                0.915543488     -85.8336777
9.154                0.915307691     -85.9900854
9.155                0.915071055     -86.1469445
9.156                0.914833578     -86.3042566
9.157                 0.91459526     -86.4620231
9.158                  0.9143561     -86.6202453
9.159                0.914116096     -86.7789247
9.16                 0.913875247     -86.9380628
9.161                0.913633552      -87.097661
9.162                 0.91339101     -87.2577208
9.163                 0.91314762     -87.4182435
9.164                 0.91290338     -87.5792306
9.165                0.912658291     -87.7406835
9.166                 0.91241235     -87.9026038
9.167                0.912165557     -88.0649928
9.168                0.911917911      -88.227852
9.169                0.911669412     -88.3911829
9.17                 0.911420057     -88.5549869
9.171                0.911169847     -88.7192654
9.172                 0.91091878     -88.8840199
9.173                0.910666856     -89.0492518
9.174                0.910414075     -89.2149627
9.175                0.910160434     -89.3811539
9.176                0.909905935      -89.547827
9.177                0.909650575     -89.7149833
9.178                0.909394356     -89.8826244
9.179                0.909137275     -90.0507518
9.18                 0.908879332     -90.2193667
9.181                0.908620528     -90.3884708
9.182                0.908360861     -90.5580655
9.183                0.908100331     -90.7281523
9.184                0.907838938     -90.8987326
9.185                0.907576681     -91.0698078
9.186                 0.90731356     -91.2413795
9.187                0.907049575     -91.4134492
9.188                0.906784726     -91.5860182
9.189                0.906519012      -91.759088
9.19                 0.906252434     -91.9326602
9.191                0.905984991     -92.1067361
9.192                0.905716683     -92.2813173
9.193                 0.90544751     -92.4564052
9.194                0.905177473     -92.6320012
9.195                 0.90490657     -92.8081069
9.196                0.904634804     -92.9847238
9.197                0.904362173     -93.1618531
9.198                0.904088678     -93.3394965
9.199                0.903814319     -93.5176554
9.2                  0.903539096     -93.6963313
9.201                 0.90326301     -93.8755256
9.202                0.902986062     -94.0552397
9.203                0.902708251     -94.2354752
9.204                0.902429578     -94.4162335
9.205                0.902150045      -94.597516
9.206                0.901869651     -94.7793243
9.207                0.901588396     -94.9616597
9.208                0.901306283     -95.1445238
9.209                0.901023311     -95.3279179
9.21                 0.900739482     -95.5118435
9.211                0.900454796     -95.6963021
9.212                0.900169254     -95.8812952
9.213                0.899882858      -96.066824
9.214                0.899595608     -96.2528902
9.215                0.899307505     -96.4394952
9.216                0.899018551     -96.6266403
9.217                0.898728747     -96.8143271
9.218                0.898438094     -97.0025569
9.219                0.898146594     -97.1913312
9.22                 0.897854247     -97.3806514
9.221                0.897561056     -97.5705189
9.222                0.897267022     -97.7609352
9.223                0.896972147     -97.9519017
9.224                0.896676431     -98.1434198
9.225                0.896379878     -98.3354909
9.226                0.896082488     -98.5281164
9.227                0.895784264     -98.7212978
9.228                0.895485208     -98.9150364
9.229                0.895185321     -99.1093336
9.23                 0.894884606     -99.3041909
9.231                0.894583064     -99.4996096
9.232                0.894280699      -99.695591
9.233                0.893977512     -99.8921367
9.234                0.893673505     -100.089248
9.235                0.893368682     -100.286926
9.236                0.893063044     -100.485173
9.237                0.892756594     -100.683989
9.238                0.892449335     -100.883376
9.239                0.892141269     -101.083336
9.24                   0.8918324     -101.283869
9.241                0.891522729     -101.484977
9.242                0.891212261     -101.686662
9.243                0.890900998     -101.888925
9.244                0.890588944     -102.091766
9.245                0.890276101     -102.295188
9.246                0.889962472     -102.499192
9.247                0.889648062     -102.703779
9.248                0.889332873      -102.90895
9.249                0.889016909     -103.114707
9.25                 0.888700174     -103.321051
9.251                0.888382671     -103.527983
9.252                0.888064404     -103.735504
9.253                0.887745377     -103.943616
9.254                0.887425594      -104.15232
9.255                0.887105059     -104.361617
9.256                0.886783776     -104.571509
9.257                 0.88646175     -104.781997
9.258                0.886138984     -104.993081
9.259                0.885815482     -105.204764
9.26                 0.885491251     -105.417046
9.261                0.885166293     -105.629929
9.262                0.884840615     -105.843413
9.263                0.884514219     -106.057501
9.264                0.884187112     -106.272193
9.265                0.883859299     -106.487489
9.266                0.883530783     -106.703393
9.267                0.883201572     -106.919904
9.268                0.882871669     -107.137024
9.269                 0.88254108     -107.354754
9.27                 0.882209811     -107.573094
9.271                0.881877867     -107.792047
9.272                0.881545253     -108.011613
9.273                0.881211976     -108.231794
9.274                0.880878042      -108.45259
9.275                0.880543456     -108.674002
9.276                0.880208224     -108.896032
9.277                0.879872353      -109.11868
9.278                0.879535849     -109.341948
9.279                0.879198717     -109.565837
9.28                 0.878860966     -109.790347
9.281                0.878522601     -110.015479
9.282                0.878183629     -110.241236
9.283                0.877844056     -110.467616
9.284                0.877503891     -110.694623
9.285                0.877163139     -110.922255
9.286                0.876821808     -111.150515
9.287                0.876479905     -111.379404
9.288                0.876137437     -111.608921
9.289                0.875794413     -111.839069
9.29                 0.875450839     -112.069847
9.291                0.875106723     -112.301258
9.292                0.874762074       -112.5333
9.293                0.874416898     -112.765977
9.294                0.874071205     -112.999287
9.295                0.873725001     -113.233233
9.296                0.873378296     -113.467814
9.297                0.873031098     -113.703033
9.298                0.872683416     -113.938888
9.299                0.872335258     -114.175381
9.3                  0.871986632     -114.412514
9.301                0.871637548     -114.650285
9.302                0.871288015     -114.888697
9.303                0.870938041      -115.12775
9.304                0.870587637     -115.367444
9.305                0.870236811      -115.60778
9.306                0.869885573     -115.848759
9.307                0.869533933     -116.090381
9.308                0.869181899     -116.332647
9.309                0.868829483     -116.575558
9.31                 0.868476694     -116.819113
9.311                0.868123542     -117.063314
9.312                0.867770037     -117.308161
9.313                 0.86741619     -117.553654
9.314                0.867062011     -117.799794
9.315                0.866707511     -118.046581
9.316                0.866352701     -118.294016
9.317                0.865997591       -118.5421
9.318                0.865642192     -118.790831
9.319                0.865286516     -119.040211
9.32                 0.864930573     -119.290241
9.321                0.864574376      -119.54092
9.322                0.864217935     -119.792249
9.323                0.863861262     -120.044227
9.324                0.863504369     -120.296856
9.325                0.863147268     -120.550135
9.326                0.862789971     -120.804065
9.327                 0.86243249     -121.058645
9.328                0.862074836     -121.313877
9.329                0.861717024     -121.569759
9.33                 0.861359064     -121.826293
9.331                 0.86100097     -122.083478
9.332                0.860642755     -122.341314
9.333                 0.86028443     -122.599801
9.334                0.859926011     -122.858939
9.335                0.859567508     -123.118729
9.336                0.859208937     -123.379169
9.337                 0.85885031     -123.640261
9.338                 0.85849164     -123.902004
9.339                0.858132942     -124.164397
9.34                 0.857774229     -124.427441
9.341                0.857415515     -124.691135
9.342                0.857056814      -124.95548
9.343                0.856698141     -125.220474
9.344                0.856339509     -125.486118
9.345                0.855980933     -125.752411
9.346                0.855622427     -126.019354
9.347                0.855264007     -126.286945
9.348                0.854905687     -126.555184
9.349                0.854547482     -126.824071
9.35                 0.854189406     -127.093605
9.351                0.853831476     -127.363786
9.352                0.853473706     -127.634613
9.353                0.853116112     -127.906086
9.354                0.852758709     -128.178205
9.355                0.852401513     -128.450968
9.356                 0.85204454     -128.724374
9.357                0.851687806     -128.998424
9.358                0.851331326     -129.273117
9.359                0.850975116     -129.548451
9.36                 0.850619194     -129.824426
9.361                0.850263575     -130.101042
9.362                0.849908275     -130.378297
9.363                0.849553312      -130.65619
9.364                0.849198702     -130.934721
9.365                0.848844461     -131.213889
9.366                0.848490608     -131.493692
9.367                0.848137158      -131.77413
9.368                0.847784128     -132.055201
9.369                0.847431537     -132.336905
9.37                 0.847079401     -132.619241
9.371                0.846727738     -132.902206
9.372                0.846376566     -133.185801
9.373                0.846025901     -133.470023
9.374                0.845675762     -133.754872
9.375                0.845326166     -134.040347
9.376                0.844977133     -134.326445
9.377                0.844628678     -134.613166
9.378                0.844280822     -134.900508
9.379                0.843933581      -135.18847
9.38                 0.843586975     -135.477049
9.381                0.843241021     -135.766246
9.382                0.842895738     -136.056058
9.383                0.842551145     -136.346483
9.384                0.842207261     -136.637521
9.385                0.841864103     -136.929168
9.386                0.841521692     -137.221424
9.387                0.841180045     -137.514287
9.388                0.840839183     -137.807755
9.389                0.840499123     -138.101826
9.39                 0.840159885     -138.396498
9.391                0.839821489      -138.69177
9.392                0.839483953     -138.987639
9.393                0.839147297     -139.284104
9.394                0.838811541     -139.581162
9.395                0.838476703     -139.878811
9.396                0.838142804      -140.17705
