! TOUCHSTONE file generated by CST DESIGN STUDIO
! Date and time: Tue Feb  4 13:56:48 2025
! Project name: C:\Work\MatlabApps\UnitCellOptimizationMatlab\CST\unitcell.cst
! Tree item: Tasks\Sweep1\SPara1\S-Parameters
! Header version: 2024
! Port assignment regex: !\s*Touchstone port\s*([0-9]+)\s*=\s*(CST MWS port|CST DES external port|CST DES block port)\s*(.+)\s* \(\"(.*)\"\)(\s*mode\s*([0-9]+))?.*
! Touchstone port assignment:
! Touchstone port 1 = CST DES external port 1 ("")
# GHz S MA R 50
9                    0.981775769     -76.8953379
9.001                0.981731026     -77.0123901
9.002                 0.98168615     -77.1297313
9.003                 0.98164114     -77.2473623
9.004                0.981595997      -77.365284
9.005                0.981550718     -77.4834972
9.006                0.981505306     -77.6020028
9.007                0.981459758     -77.7208017
9.008                0.981414075     -77.8398946
9.009                0.981368257     -77.9592825
9.01                 0.981322302     -78.0789662
9.011                0.981276212     -78.1989467
9.012                0.981229986     -78.3192247
9.013                0.981183622     -78.4398011
9.014                0.981137122     -78.5606769
9.015                0.981090485     -78.6818528
9.016                 0.98104371     -78.8033298
9.017                0.980996798     -78.9251088
9.018                0.980949747     -79.0471906
9.019                0.980902559     -79.1695761
9.02                 0.980855232     -79.2922662
9.021                0.980807766     -79.4152617
9.022                0.980760161     -79.5385637
9.023                0.980712417     -79.6621729
9.024                0.980664533     -79.7860902
9.025                0.980616509     -79.9103166
9.026                0.980568345     -80.0348529
9.027                0.980520041     -80.1597001
9.028                0.980471597      -80.284859
9.029                0.980423011     -80.4103305
9.03                 0.980374285     -80.5361156
9.031                0.980325417      -80.662215
9.032                0.980276408     -80.7886299
9.033                0.980227256     -80.9153609
9.034                0.980177963     -81.0424091
9.035                0.980128528     -81.1697754
9.036                 0.98007895     -81.2974607
9.037                0.980029229     -81.4254658
9.038                0.979979365     -81.5537918
9.039                0.979929358     -81.6824394
9.04                 0.979879208     -81.8114097
9.041                0.979828914     -81.9407036
9.042                0.979778476     -82.0703219
9.043                0.979727894     -82.2002656
9.044                0.979677168     -82.3305356
9.045                0.979626297     -82.4611329
9.046                0.979575282     -82.5920583
9.047                0.979524122     -82.7233128
9.048                0.979472816     -82.8548974
9.049                0.979421365     -82.9868129
9.05                 0.979369769     -83.1190603
9.051                0.979318027     -83.2516405
9.052                0.979266139     -83.3845545
9.053                0.979214105     -83.5178031
9.054                0.979161925     -83.6513874
9.055                0.979109598     -83.7853082
9.056                0.979057125     -83.9195665
9.057                0.979004505     -84.0541633
9.058                0.978951738     -84.1890994
9.059                0.978898823     -84.3243759
9.06                 0.978845762     -84.4599936
9.061                0.978792553     -84.5959536
9.062                0.978739196     -84.7322567
9.063                0.978685692     -84.8689039
9.064                0.978632039     -85.0058962
9.065                0.978578239     -85.1432345
9.066                 0.97852429     -85.2809197
9.067                0.978470193     -85.4189528
9.068                0.978415948     -85.5573348
9.069                0.978361554     -85.6960666
9.07                 0.978307011     -85.8351491
9.071                 0.97825232     -85.9745834
9.072                0.978197479     -86.1143703
9.073                0.978142489     -86.2545109
9.074                 0.97808735     -86.3950061
9.075                0.978032062     -86.5358568
9.076                0.977976625      -86.677064
9.077                0.977921037     -86.8186286
9.078                0.977865301     -86.9605517
9.079                0.977809414     -87.1028342
9.08                 0.977753378      -87.245477
9.081                0.977697192     -87.3884811
9.082                0.977640856     -87.5318475
9.083                 0.97758437     -87.6755771
9.084                0.977527735     -87.8196709
9.085                0.977470949     -87.9641298
9.086                0.977414012     -88.1089549
9.087                0.977356926     -88.2541471
9.088                 0.97729969     -88.3997073
9.089                0.977242303     -88.5456366
9.09                 0.977184765     -88.6919358
9.091                0.977127078      -88.838606
9.092                 0.97706924      -88.985648
9.093                0.977011252      -89.133063
9.094                0.976953113     -89.2808518
9.095                0.976894824     -89.4290155
9.096                0.976836385     -89.5775549
9.097                0.976777795      -89.726471
9.098                0.976719055     -89.8757649
9.099                0.976660165     -90.0254375
9.1                  0.976601124     -90.1754897
9.101                0.976541933     -90.3259225
9.102                0.976482592     -90.4767369
9.103                  0.9764231     -90.6279339
9.104                0.976363458     -90.7795143
9.105                0.976303667     -90.9314793
9.106                0.976243725     -91.0838297
9.107                0.976183633     -91.2365665
9.108                0.976123392     -91.3896906
9.109                   0.976063     -91.5432032
9.11                 0.976002459      -91.697105
9.111                0.975941768     -91.8513971
9.112                0.975880928     -92.0060804
9.113                0.975819939     -92.1611559
9.114                  0.9757588     -92.3166246
9.115                0.975697512     -92.4724873
9.116                0.975636075     -92.6287452
9.117                0.975574489     -92.7853991
9.118                0.975512754       -92.94245
9.119                0.975450871     -93.0998988
9.12                  0.97538884     -93.2577465
9.121                 0.97532666     -93.4159941
9.122                0.975264332     -93.5746425
9.123                0.975201856     -93.7336927
9.124                0.975139233     -93.8931456
9.125                0.975076462     -94.0530022
9.126                0.975013544     -94.2132633
9.127                0.974950479     -94.3739301
9.128                0.974887267     -94.5350034
9.129                0.974823909     -94.6964841
9.13                 0.974760404     -94.8583733
9.131                0.974696753     -95.0206718
9.132                0.974632956     -95.1833806
9.133                0.974569014     -95.3465006
9.134                0.974504927     -95.5100328
9.135                0.974440694      -95.673978
9.136                0.974376317     -95.8383374
9.137                0.974311796     -96.0031117
9.138                 0.97424713     -96.1683019
9.139                0.974182321     -96.3339089
9.14                 0.974117369     -96.4999336
9.141                0.974052273     -96.6663771
9.142                0.973987035     -96.8332402
9.143                0.973921655     -97.0005237
9.144                0.973856132     -97.1682287
9.145                0.973790468     -97.3363561
9.146                0.973724663     -97.5049067
9.147                0.973658717     -97.6738815
9.148                0.973592631     -97.8432814
9.149                0.973526405     -98.0131073
9.15                  0.97346004       -98.18336
9.151                0.973393535     -98.3540406
9.152                0.973326892     -98.5251498
9.153                0.973260111     -98.6966886
9.154                0.973193192     -98.8686579
9.155                0.973126137     -99.0410585
9.156                0.973058944     -99.2138914
9.157                0.972991616     -99.3871574
9.158                0.972924152     -99.5608573
9.159                0.972856553     -99.7349922
9.16                 0.972788819     -99.9095628
9.161                0.972720951      -100.08457
9.162                0.972652951     -100.260015
9.163                0.972584817     -100.435898
9.164                0.972516551      -100.61222
9.165                0.972448154     -100.788982
9.166                0.972379625     -100.966185
9.167                0.972310967      -101.14383
9.168                0.972242178     -101.321918
9.169                0.972173261     -101.500449
9.17                 0.972104215     -101.679424
9.171                0.972035042     -101.858844
9.172                0.971965742      -102.03871
9.173                0.971896315     -102.219023
9.174                0.971826763     -102.399783
9.175                0.971757086     -102.580992
9.176                0.971687285      -102.76265
9.177                0.971617361     -102.944758
9.178                0.971547314     -103.127316
9.179                0.971477145     -103.310326
9.18                 0.971406856     -103.493789
9.181                0.971336446     -103.677704
9.182                0.971265917     -103.862074
9.183                 0.97119527     -104.046898
9.184                0.971124505     -104.232177
9.185                0.971053623     -104.417913
9.186                0.970982625     -104.604105
9.187                0.970911512     -104.790756
9.188                0.970840286     -104.977864
9.189                0.970768946     -105.165432
9.19                 0.970697494      -105.35346
9.191                0.970625931     -105.541948
9.192                0.970554257     -105.730898
9.193                0.970482474     -105.920309
9.194                0.970410583     -106.110184
9.195                0.970338585     -106.300521
9.196                 0.97026648     -106.491323
9.197                0.970194271      -106.68259
9.198                0.970121957     -106.874322
9.199                 0.97004954     -107.066521
9.2                  0.969977021     -107.259186
9.201                0.969904402     -107.452319
9.202                0.969831682      -107.64592
9.203                0.969758864     -107.839989
9.204                0.969685949     -108.034528
9.205                0.969612937     -108.229537
9.206                0.969539831     -108.425017
9.207                 0.96946663     -108.620968
9.208                0.969393337     -108.817391
9.209                0.969319953     -109.014286
9.21                 0.969246478     -109.211655
9.211                0.969172914     -109.409497
9.212                0.969099263     -109.607813
9.213                0.969025526     -109.806604
9.214                0.968951704     -110.005871
9.215                0.968877798     -110.205613
9.216                0.968803809     -110.405832
9.217                 0.96872974     -110.606527
9.218                0.968655592     -110.807701
9.219                0.968581365     -111.009352
9.22                 0.968507062     -111.211481
9.221                0.968432683      -111.41409
9.222                0.968358231     -111.617178
9.223                0.968283706     -111.820746
9.224                 0.96820911     -112.024794
9.225                0.968134446     -112.229324
9.226                0.968059713     -112.434334
9.227                0.967984914     -112.639827
9.228                0.967910051     -112.845801
9.229                0.967835125     -113.052258
9.23                 0.967760137     -113.259198
9.231                0.967685089     -113.466622
9.232                0.967609983     -113.674529
9.233                0.967534821      -113.88292
9.234                0.967459604     -114.091796
9.235                0.967384333     -114.301157
9.236                0.967309011     -114.511002
9.237                 0.96723364     -114.721334
9.238                 0.96715822     -114.932151
9.239                0.967082754     -115.143454
9.24                 0.967007244     -115.355244
9.241                0.966931692      -115.56752
9.242                0.966856098     -115.780284
9.243                0.966780466     -115.993534
9.244                0.966704796     -116.207272
9.245                0.966629091     -116.421498
9.246                0.966553353     -116.636212
9.247                0.966477584     -116.851414
9.248                0.966401785     -117.067104
9.249                0.966325959     -117.283283
9.25                 0.966250107      -117.49995
9.251                0.966174232     -117.717106
9.252                0.966098335     -117.934752
9.253                0.966022418     -118.152886
9.254                0.965946485      -118.37151
9.255                0.965870536     -118.590623
9.256                0.965794574     -118.810226
9.257                  0.9657186     -119.030318
9.258                0.965642618     -119.250899
9.259                0.965566629     -119.471971
9.26                 0.965490635     -119.693532
9.261                0.965414639     -119.915582
9.262                0.965338643     -120.138123
9.263                0.965262648     -120.361153
9.264                0.965186658     -120.584672
9.265                0.965110674     -120.808682
9.266                0.965034699     -121.033181
9.267                0.964958735     -121.258169
9.268                0.964882784     -121.483647
9.269                0.964806849     -121.709614
9.27                 0.964730933     -121.936071
9.271                0.964655036     -122.163016
9.272                0.964579163     -122.390451
9.273                0.964503315     -122.618374
9.274                0.964427494     -122.846786
9.275                0.964351704     -123.075687
9.276                0.964275947     -123.305075
9.277                0.964200224     -123.534952
9.278                 0.96412454     -123.765316
9.279                0.964048895     -123.996168
9.28                 0.963973294     -124.227507
9.281                0.963897738     -124.459333
9.282                0.963822229     -124.691646
9.283                0.963746771     -124.924445
9.284                0.963671367      -125.15773
9.285                0.963596018       -125.3915
9.286                0.963520728     -125.625756
9.287                0.963445499     -125.860497
9.288                0.963370333     -126.095722
9.289                0.963295235     -126.331431
9.29                 0.963220206     -126.567623
9.291                0.963145248     -126.804299
9.292                0.963070366     -127.041457
9.293                0.962995561     -127.279097
9.294                0.962920837     -127.517219
9.295                0.962846196     -127.755822
9.296                0.962771641     -127.994905
9.297                0.962697175     -128.234469
9.298                0.962622801     -128.474511
9.299                0.962548522     -128.715033
9.3                   0.96247434     -128.956032
9.301                0.962400259     -129.197509
9.302                0.962326282     -129.439462
9.303                0.962252411     -129.681891
9.304                0.962178649     -129.924796
9.305                   0.962105     -130.168176
9.306                0.962031467     -130.412029
9.307                0.961958052     -130.656355
9.308                0.961884758     -130.901154
9.309                0.961811589     -131.146424
9.31                 0.961738548     -131.392164
9.311                0.961665637     -131.638375
9.312                0.961592861     -131.885054
9.313                0.961520221     -132.132202
9.314                0.961447722     -132.379816
9.315                0.961375365     -132.627897
9.316                0.961303155     -132.876443
9.317                0.961231095     -133.125453
9.318                0.961159187     -133.374927
9.319                0.961087436     -133.624862
9.32                 0.961015843     -133.875259
9.321                0.960944413     -134.126116
9.322                0.960873149     -134.377432
9.323                0.960802054     -134.629207
9.324                 0.96073113     -134.881437
9.325                0.960660382     -135.134124
9.326                0.960589813     -135.387265
9.327                0.960519426      -135.64086
9.328                0.960449224     -135.894906
9.329                0.960379211     -136.149404
9.33                  0.96030939     -136.404351
9.331                0.960239764     -136.659746
9.332                0.960170336     -136.915589
9.333                0.960101111     -137.171877
9.334                0.960032091     -137.428609
9.335                 0.95996328     -137.685785
9.336                0.959894681     -137.943402
9.337                0.959826298      -138.20146
9.338                0.959758134     -138.459956
9.339                0.959690192      -138.71889
9.34                 0.959622476      -138.97826
9.341                0.959554989     -139.238064
9.342                0.959487734       -139.4983
9.343                0.959420716     -139.758968
9.344                0.959353938     -140.020066
9.345                0.959287402     -140.281592
9.346                0.959221113     -140.543544
9.347                0.959155074     -140.805922
9.348                0.959089288     -141.068722
9.349                 0.95902376     -141.331944
9.35                 0.958958491     -141.595586
9.351                0.958893487     -141.859646
9.352                 0.95882875     -142.124123
9.353                0.958764283     -142.389013
9.354                0.958700091     -142.654317
9.355                0.958636177     -142.920032
9.356                0.958572544     -143.186155
9.357                0.958509196     -143.452686
9.358                0.958446136     -143.719623
9.359                0.958383368     -143.986962
9.36                 0.958320896     -144.254704
9.361                0.958258722     -144.522844
9.362                0.958196851     -144.791383
9.363                0.958135285     -145.060317
9.364                0.958074029     -145.329644
9.365                0.958013086     -145.599363
9.366                0.957952459     -145.869471
9.367                0.957892151     -146.139966
9.368                0.957832167     -146.410847
9.369                 0.95777251      -146.68211
9.37                 0.957713183     -146.953755
9.371                 0.95765419     -147.225778
9.372                0.957595534     -147.498177
9.373                0.957537219     -147.770951
9.374                0.957479248     -148.044096
9.375                0.957421625     -148.317611
9.376                0.957364353     -148.591494
9.377                0.957307435     -148.865741
9.378                0.957250875     -149.140351
9.379                0.957194677     -149.415322
9.38                 0.957138843      -149.69065
9.381                0.957083378     -149.966334
9.382                0.957028284      -150.24237
9.383                0.956973565     -150.518758
9.384                0.956919225     -150.795493
9.385                0.956865266     -151.072573
9.386                0.956811693     -151.349997
9.387                0.956758508     -151.627761
9.388                0.956705715     -151.905863
9.389                0.956653317     -152.184301
9.39                 0.956601317     -152.463071
9.391                 0.95654972     -152.742171
9.392                0.956498527     -153.021598
9.393                0.956447742      -153.30135
9.394                0.956397369     -153.581423
9.395                0.956347411     -153.861816
9.396                0.956297871     -154.142526
