! TOUCHSTONE file generated by CST DESIGN STUDIO
! Date and time: Tue Feb  4 13:56:52 2025
! Project name: C:\Work\MatlabApps\UnitCellOptimizationMatlab\CST\unitcell.cst
! Tree item: Tasks\Sweep1\SPara1\S-Parameters
! Header version: 2024
! Port assignment regex: !\s*Touchstone port\s*([0-9]+)\s*=\s*(CST MWS port|CST DES external port|CST DES block port)\s*(.+)\s* \(\"(.*)\"\)(\s*mode\s*([0-9]+))?.*
! Touchstone port assignment:
! Touchstone port 1 = CST DES external port 1 ("")
# GHz S MA R 50
9                    0.982263415     -72.2545438
9.001                0.982222282     -72.3609291
9.002                0.982181025     -72.4675723
9.003                0.982139643     -72.5744742
9.004                0.982098138     -72.6816355
9.005                0.982056507      -72.789057
9.006                0.982014751     -72.8967395
9.007                 0.98197287     -73.0046837
9.008                0.981930863     -73.1128906
9.009                0.981888729     -73.2213608
9.01                  0.98184647     -73.3300951
9.011                0.981804083     -73.4390945
9.012                 0.98176157     -73.5483596
9.013                0.981718929     -73.6578912
9.014                0.981676161     -73.7676902
9.015                0.981633264     -73.8777574
9.016                 0.98159024     -73.9880935
9.017                0.981547086     -74.0986994
9.018                0.981503804      -74.209576
9.019                0.981460393     -74.3207239
9.02                 0.981416852      -74.432144
9.021                0.981373181     -74.5438372
9.022                 0.98132938     -74.6558043
9.023                0.981285449      -74.768046
9.024                0.981241387     -74.8805633
9.025                0.981197194     -74.9933569
9.026                 0.98115287     -75.1064276
9.027                0.981108414     -75.2197763
9.028                0.981063826     -75.3334039
9.029                0.981019106     -75.4473111
9.03                 0.980974253     -75.5614988
9.031                0.980929267     -75.6759678
9.032                0.980884149     -75.7907191
9.033                0.980838897     -75.9057533
9.034                0.980793511     -76.0210714
9.035                0.980747991     -76.1366742
9.036                0.980702337     -76.2525625
9.037                0.980656549     -76.3687373
9.038                0.980610625     -76.4851993
9.039                0.980564567     -76.6019494
9.04                 0.980518373     -76.7189885
9.041                0.980472043     -76.8363174
9.042                0.980425577      -76.953937
9.043                0.980378975     -77.0718481
9.044                0.980332236     -77.1900517
9.045                0.980285361     -77.3085485
9.046                0.980238348     -77.4273395
9.047                0.980191198     -77.5464255
9.048                 0.98014391     -77.6658074
9.049                0.980096484     -77.7854861
9.05                 0.980048921     -77.9054624
9.051                0.980001218     -78.0257372
9.052                0.979953377     -78.1463114
9.053                0.979905396     -78.2671859
9.054                0.979857277     -78.3883616
9.055                0.979809018     -78.5098393
9.056                0.979760618     -78.6316199
9.057                0.979712079     -78.7537044
9.058                  0.9796634     -78.8760936
9.059                 0.97961458     -78.9987883
9.06                 0.979565619     -79.1217896
9.061                0.979516516     -79.2450983
9.062                0.979467273     -79.3687153
9.063                0.979417888     -79.4926414
9.064                0.979368361     -79.6168777
9.065                0.979318692      -79.741425
9.066                 0.97926888     -79.8662842
9.067                0.979218926     -79.9914561
9.068                0.979168829     -80.1169419
9.069                0.979118589     -80.2427422
9.07                 0.979068206     -80.3688581
9.071                0.979017679     -80.4952904
9.072                0.978967008     -80.6220401
9.073                0.978916193     -80.7491081
9.074                0.978865234     -80.8764953
9.075                0.978814131     -81.0042027
9.076                0.978762883     -81.1322311
9.077                 0.97871149     -81.2605814
9.078                0.978659952     -81.3892547
9.079                0.978608269     -81.5182518
9.08                  0.97855644     -81.6475736
9.081                0.978504465     -81.7772212
9.082                0.978452345     -81.9071953
9.083                0.978400078      -82.037497
9.084                0.978347665     -82.1681272
9.085                0.978295105     -82.2990868
9.086                0.978242399     -82.4303767
9.087                0.978189546     -82.5619979
9.088                0.978136546     -82.6939514
9.089                0.978083398      -82.826238
9.09                 0.978030103     -82.9588588
9.091                0.977976661     -83.0918146
9.092                 0.97792307     -83.2251065
9.093                0.977869332     -83.3587353
9.094                0.977815446     -83.4927019
9.095                0.977761411     -83.6270075
9.096                0.977707227     -83.7616528
9.097                0.977652896     -83.8966389
9.098                0.977598415     -84.0319667
9.099                0.977543786     -84.1676372
9.1                  0.977489007     -84.3036513
9.101                0.977434079     -84.4400099
9.102                0.977379002     -84.5767141
9.103                0.977323776     -84.7137648
9.104                  0.9772684     -84.8511629
9.105                0.977212874     -84.9889094
9.106                0.977157198     -85.1270054
9.107                0.977101372     -85.2654516
9.108                0.977045397     -85.4042491
9.109                0.976989271      -85.543399
9.11                 0.976932995      -85.682902
9.111                0.976876568     -85.8227592
9.112                0.976819991     -85.9629716
9.113                0.976763264     -86.1035402
9.114                0.976706386     -86.2444658
9.115                0.976649357     -86.3857495
9.116                0.976592178     -86.5273923
9.117                0.976534847     -86.6693951
9.118                0.976477366     -86.8117588
9.119                0.976419733     -86.9544846
9.12                  0.97636195     -87.0975732
9.121                0.976304016     -87.2410258
9.122                 0.97624593     -87.3848432
9.123                0.976187693     -87.5290266
9.124                0.976129305     -87.6735767
9.125                0.976070766     -87.8184947
9.126                0.976012075     -87.9637814
9.127                0.975953234     -88.1094379
9.128                0.975894241     -88.2554652
9.129                0.975835096     -88.4018642
9.13                 0.975775801     -88.5486358
9.131                0.975716354     -88.6957812
9.132                0.975656755     -88.8433012
9.133                0.975597006     -88.9911969
9.134                0.975537105     -89.1394691
9.135                0.975477053      -89.288119
9.136                 0.97541685     -89.4371474
9.137                0.975356495     -89.5865554
9.138                 0.97529599     -89.7363439
9.139                0.975235334      -89.886514
9.14                 0.975174526     -90.0370665
9.141                0.975113568     -90.1880025
9.142                0.975052458      -90.339323
9.143                0.974991198     -90.4910289
9.144                0.974929788     -90.6431212
9.145                0.974868226     -90.7956009
9.146                0.974806515     -90.9484689
9.147                0.974744653     -91.1017263
9.148                 0.97468264     -91.2553741
9.149                0.974620478     -91.4094131
9.15                 0.974558165     -91.5638444
9.151                0.974495703      -91.718669
9.152                 0.97443309     -91.8738878
9.153                0.974370329     -92.0295018
9.154                0.974307417     -92.1855119
9.155                0.974244357     -92.3419193
9.156                0.974181147     -92.4987247
9.157                0.974117789     -92.6559293
9.158                0.974054282     -92.8135339
9.159                0.973990626     -92.9715396
9.16                 0.973926822     -93.1299473
9.161                 0.97386287     -93.2887579
9.162                 0.97379877     -93.4479725
9.163                0.973734523     -93.6075921
9.164                0.973670128     -93.7676174
9.165                0.973605586     -93.9280497
9.166                0.973540896     -94.0888897
9.167                0.973476061     -94.2501385
9.168                0.973411079     -94.4117971
9.169                0.973345951     -94.5738663
9.17                 0.973280677     -94.7363471
9.171                0.973215258     -94.8992406
9.172                0.973149693     -95.0625476
9.173                0.973083984     -95.2262691
9.174                 0.97301813     -95.3904061
9.175                0.972952132     -95.5549595
9.176                0.972885991     -95.7199302
9.177                0.972819705     -95.8853192
9.178                0.972753277     -96.0511275
9.179                0.972686706     -96.2173559
9.18                 0.972619993     -96.3840055
9.181                0.972553137     -96.5510771
9.182                0.972486141     -96.7185717
9.183                0.972419003     -96.8864902
9.184                0.972351724     -97.0548336
9.185                0.972284306     -97.2236028
9.186                0.972216747     -97.3927986
9.187                0.972149049     -97.5624221
9.188                0.972081213     -97.7324742
9.189                0.972013238     -97.9029557
9.19                 0.971945125     -98.0738676
9.191                0.971876875     -98.2452108
9.192                0.971808488     -98.4169862
9.193                0.971739965     -98.5891947
9.194                0.971671306     -98.7618372
9.195                0.971602512     -98.9349146
9.196                0.971533583     -99.1084279
9.197                 0.97146452     -99.2823778
9.198                0.971395323     -99.4567653
9.199                0.971325994     -99.6315913
9.2                  0.971256533     -99.8068567
9.201                 0.97118694     -99.9825623
9.202                0.971117215     -100.158709
9.203                0.971047361     -100.335298
9.204                0.970977377     -100.512329
9.205                0.970907264     -100.689805
9.206                0.970837022     -100.867725
9.207                0.970766653      -101.04609
9.208                0.970696157     -101.224901
9.209                0.970625535      -101.40416
9.21                 0.970554787     -101.583867
9.211                0.970483914     -101.764023
9.212                0.970412918     -101.944628
9.213                0.970341799     -102.125683
9.214                0.970270557     -102.307191
9.215                0.970199193      -102.48915
9.216                0.970127709     -102.671562
9.217                0.970056105     -102.854428
9.218                0.969984382     -103.037748
9.219                0.969912541     -103.221524
9.22                 0.969840582     -103.405756
9.221                0.969768507     -103.590445
9.222                0.969696317     -103.775592
9.223                0.969624011     -103.961197
9.224                0.969551593     -104.147262
9.225                0.969479061     -104.333786
9.226                0.969406418     -104.520772
9.227                0.969333664     -104.708219
9.228                  0.9692608     -104.896129
9.229                0.969187827     -105.084501
9.23                 0.969114747     -105.273338
9.231                 0.96904156     -105.462639
9.232                0.968968267     -105.652405
9.233                 0.96889487     -105.842637
9.234                0.968821369     -106.033336
9.235                0.968747766     -106.224503
9.236                0.968674062     -106.416137
9.237                0.968600257     -106.608241
9.238                0.968526353     -106.800814
9.239                0.968452352     -106.993857
9.24                 0.968378254     -107.187371
9.241                0.968304061     -107.381356
9.242                0.968229773     -107.575814
9.243                0.968155392     -107.770745
9.244                 0.96808092     -107.966149
9.245                0.968006357     -108.162027
9.246                0.967931705     -108.358381
9.247                0.967856965     -108.555209
9.248                0.967782138     -108.752513
9.249                0.967707227     -108.950295
9.25                 0.967632231     -109.148553
9.251                0.967557153     -109.347289
9.252                0.967481993     -109.546503
9.253                0.967406754     -109.746197
9.254                0.967331437      -109.94637
9.255                0.967256043     -110.147023
9.256                0.967180573     -110.348156
9.257                0.967105029     -110.549771
9.258                0.967029413     -110.751867
9.259                0.966953726     -110.954446
9.26                  0.96687797     -111.157507
9.261                0.966802146     -111.361051
9.262                0.966726255     -111.565079
9.263                  0.9666503     -111.769592
9.264                0.966574281     -111.974589
9.265                0.966498201     -112.180071
9.266                0.966422062     -112.386038
9.267                0.966345864     -112.592492
9.268                0.966269609     -112.799432
9.269                  0.9661933     -113.006858
9.27                 0.966116937     -113.214772
9.271                0.966040524     -113.423174
9.272                 0.96596406     -113.632064
9.273                0.965887549     -113.841442
9.274                0.965810991     -114.051308
9.275                 0.96573439     -114.261664
9.276                0.965657746      -114.47251
9.277                0.965581061     -114.683845
9.278                0.965504338      -114.89567
9.279                0.965427577     -115.107986
9.28                 0.965350782     -115.320792
9.281                0.965273954      -115.53409
9.282                0.965197095     -115.747878
9.283                0.965120206     -115.962158
9.284                0.965043291      -116.17693
9.285                 0.96496635     -116.392194
9.286                0.964889386     -116.607951
9.287                0.964812402     -116.824199
9.288                0.964735398     -117.040941
9.289                0.964658377     -117.258175
9.29                 0.964581342     -117.475902
9.291                0.964504293     -117.694122
9.292                0.964427235     -117.912836
9.293                0.964350167     -118.132043
9.294                0.964273094     -118.351743
9.295                0.964196017     -118.571937
9.296                0.964118937     -118.792625
9.297                0.964041859     -119.013807
9.298                0.963964783     -119.235483
9.299                0.963887712     -119.457652
9.3                  0.963810648     -119.680316
9.301                0.963733594     -119.903473
9.302                0.963656551     -120.127125
9.303                0.963579523      -120.35127
9.304                0.963502512     -120.575909
9.305                 0.96342552     -120.801043
9.306                0.963348549      -121.02667
9.307                0.963271602     -121.252791
9.308                0.963194682     -121.479405
9.309                 0.96311779     -121.706513
9.31                  0.96304093     -121.934115
9.311                0.962964104      -122.16221
9.312                0.962887314     -122.390798
9.313                0.962810563     -122.619879
9.314                0.962733853     -122.849453
9.315                0.962657188      -123.07952
9.316                 0.96258057     -123.310079
9.317                   0.962504      -123.54113
9.318                0.962427483     -123.772673
9.319                0.962351021     -124.004708
9.32                 0.962274616     -124.237234
9.321                0.962198271     -124.470251
9.322                0.962121988     -124.703759
9.323                0.962045772     -124.937758
9.324                0.961969624     -125.172246
9.325                0.961893546     -125.407225
9.326                0.961817543     -125.642692
9.327                0.961741617     -125.878649
9.328                 0.96166577     -126.115094
9.329                0.961590005     -126.352027
9.33                 0.961514326     -126.589447
9.331                0.961438735     -126.827355
9.332                0.961363235     -127.065749
9.333                 0.96128783      -127.30463
9.334                0.961212521     -127.543996
9.335                0.961137312     -127.783847
9.336                0.961062206     -128.024182
9.337                0.960987206     -128.265001
9.338                0.960912315     -128.506304
9.339                0.960837537     -128.748089
9.34                 0.960762873     -128.990356
9.341                0.960688327     -129.233105
9.342                0.960613902     -129.476333
9.343                0.960539602     -129.720042
9.344                0.960465429      -129.96423
9.345                0.960391387     -130.208897
9.346                0.960317479     -130.454041
9.347                0.960243707     -130.699662
9.348                0.960170075     -130.945758
9.349                0.960096587     -131.192331
9.35                 0.960023245     -131.439377
9.351                0.959950053     -131.686897
9.352                0.959877014      -131.93489
9.353                0.959804131     -132.183354
9.354                0.959731407     -132.432289
9.355                0.959658846     -132.681693
9.356                0.959586451     -132.931567
9.357                0.959514226     -133.181908
9.358                0.959442173     -133.432717
9.359                0.959370296      -133.68399
9.36                 0.959298598     -133.935729
9.361                0.959227084     -134.187931
9.362                0.959155755     -134.440596
9.363                0.959084616     -134.693722
9.364                0.959013669     -134.947308
9.365                0.958942919     -135.201354
9.366                0.958872369     -135.455857
9.367                0.958802021     -135.710817
9.368                0.958731881     -135.966232
9.369                 0.95866195     -136.222101
9.37                 0.958592233     -136.478423
9.371                0.958522733     -136.735197
9.372                0.958453453     -136.992421
9.373                0.958384397     -137.250094
9.374                0.958315569     -137.508214
9.375                0.958246971      -137.76678
9.376                0.958178608     -138.025792
9.377                0.958110483     -138.285246
9.378                  0.9580426     -138.545142
9.379                0.957974962     -138.805478
9.38                 0.957907572     -139.066253
9.381                0.957840434     -139.327466
9.382                0.957773553     -139.589114
9.383                 0.95770693     -139.851196
9.384                 0.95764057     -140.113711
9.385                0.957574477     -140.376656
9.386                0.957508654     -140.640031
9.387                0.957443104     -140.903833
9.388                0.957377832     -141.168061
9.389                 0.95731284     -141.432713
9.39                 0.957248133     -141.697788
9.391                0.957183714     -141.963283
9.392                0.957119586     -142.229197
9.393                0.957055754     -142.495528
9.394                 0.95699222     -142.762274
9.395                0.956928989     -143.029434
9.396                0.956866064     -143.297005
