! TOUCHSTONE file generated by CST DESIGN STUDIO
! Date and time: Tue Feb  4 17:37:49 2025
! Project name: C:\Work\MatlabApps\UnitCellOptimizationMatlab\CST\unitcell.cst
! Tree item: Tasks\Sweep1\SPara1\S-Parameters
! Header version: 2024
! Port assignment regex: !\s*Touchstone port\s*([0-9]+)\s*=\s*(CST MWS port|CST DES external port|CST DES block port)\s*(.+)\s* \(\"(.*)\"\)(\s*mode\s*([0-9]+))?.*
! Touchstone port assignment:
! Touchstone port 1 = CST DES external port 1 ("")
# GHz S MA R 50
9                    0.904774115     -80.9343483
9.001                0.904501999      -81.075078
9.002                0.904228979     -81.2162094
9.003                0.903955054      -81.357744
9.004                0.903680221      -81.499683
9.005                0.903404479     -81.6420279
9.006                0.903127825     -81.7847801
9.007                0.902850259     -81.9279408
9.008                0.902571778     -82.0715115
9.009                0.902292381     -82.2154936
9.01                 0.902012066     -82.3598884
9.011                0.901730831     -82.5046973
9.012                0.901448674     -82.6499217
9.013                0.901165595      -82.795563
9.014                0.900881591     -82.9416227
9.015                0.900596661      -83.088102
9.016                0.900310803     -83.2350024
9.017                0.900024015     -83.3823252
9.018                0.899736296      -83.530072
9.019                0.899447645     -83.6782442
9.02                  0.89915806      -83.826843
9.021                 0.89886754       -83.97587
9.022                0.898576083     -84.1253265
9.023                0.898283687     -84.2752141
9.024                0.897990352      -84.425534
9.025                0.897696075     -84.5762878
9.026                0.897400856     -84.7274769
9.027                0.897104693     -84.8791026
9.028                0.896807585     -85.0311666
9.029                0.896509531     -85.1836701
9.03                  0.89621053     -85.3366146
9.031                0.895910579     -85.4900016
9.032                0.895609679     -85.6438325
9.033                0.895307827     -85.7981088
9.034                0.895005023     -85.9528319
9.035                0.894701266     -86.1080033
9.036                0.894396554     -86.2636244
9.037                0.894090887     -86.4196968
9.038                0.893784263     -86.5762218
9.039                0.893476682     -86.7332009
9.04                 0.893168143     -86.8906356
9.041                0.892858644     -87.0485274
9.042                0.892548185     -87.2068778
9.043                0.892236765     -87.3656881
9.044                0.891924384       -87.52496
9.045                0.891611039     -87.6846948
9.046                0.891296732     -87.8448941
9.047                 0.89098146     -88.0055593
9.048                0.890665224      -88.166692
9.049                0.890348023     -88.3282936
9.05                 0.890029855     -88.4903655
9.051                0.889710722     -88.6529094
9.052                0.889390621     -88.8159267
9.053                0.889069553     -88.9794189
9.054                0.888747517     -89.1433874
9.055                0.888424513     -89.3078339
9.056                 0.88810054     -89.4727597
9.057                0.887775599     -89.6381664
9.058                0.887449688     -89.8040555
9.059                0.887122808     -89.9704285
9.06                 0.886794959      -90.137287
9.061                 0.88646614     -90.3046323
9.062                0.886136352     -90.4724661
9.063                0.885805593     -90.6407898
9.064                0.885473865     -90.8096049
9.065                0.885141167      -90.978913
9.066                  0.8848075     -91.1487156
9.067                0.884472863     -91.3190142
9.068                0.884137257     -91.4898103
9.069                0.883800682     -91.6611054
9.07                 0.883463139     -91.8329011
9.071                0.883124627     -92.0051988
9.072                0.882785147     -92.1780001
9.073                  0.8824447     -92.3513066
9.074                0.882103286     -92.5251196
9.075                0.881760906     -92.6994408
9.076                 0.88141756     -92.8742717
9.077                0.881073249     -93.0496137
9.078                0.880727973     -93.2254685
9.079                0.880381734     -93.4018375
9.08                 0.880034533     -93.5787223
9.081                0.879686369     -93.7561243
9.082                0.879337245     -93.9340452
9.083                0.878987161     -94.1124863
9.084                0.878636119     -94.2914493
9.085                0.878284118     -94.4709357
9.086                0.877931162      -94.650947
9.087                 0.87757725     -94.8314847
9.088                0.877222385     -95.0125503
9.089                0.876866567     -95.1941454
9.09                 0.876509799     -95.3762714
9.091                0.876152081       -95.55893
9.092                0.875793416     -95.7421225
9.093                0.875433804     -95.9258505
9.094                0.875073248     -96.1101156
9.095                 0.87471175     -96.2949193
9.096                 0.87434931     -96.4802629
9.097                0.873985933     -96.6661482
9.098                0.873621618     -96.8525766
9.099                0.873256369     -97.0395495
9.1                  0.872890187     -97.2270685
9.101                0.872523075     -97.4151351
9.102                0.872155036     -97.6037508
9.103                 0.87178607     -97.7929171
9.104                0.871416182     -97.9826355
9.105                0.871045373     -98.1729075
9.106                0.870673647     -98.3637346
9.107                0.870301005     -98.5551182
9.108                 0.86992745     -98.7470599
9.109                0.869552986     -98.9395612
9.11                 0.869177615     -99.1326235
9.111                0.868801341     -99.3262482
9.112                0.868424166      -99.520437
9.113                0.868046094     -99.7151912
9.114                0.867667128     -99.9105123
9.115                0.867287271     -100.106402
9.116                0.866906527     -100.302861
9.117                0.866524899     -100.499892
9.118                0.866142391     -100.697495
9.119                0.865759006     -100.895673
9.12                 0.865374749     -101.094426
9.121                0.864989623     -101.293756
9.122                0.864603633     -101.493665
9.123                0.864216782     -101.694154
9.124                0.863829074     -101.895224
9.125                0.863440514     -102.096877
9.126                0.863051106     -102.299115
9.127                0.862660855     -102.501938
9.128                0.862269765     -102.705348
9.129                0.861877841     -102.909346
9.13                 0.861485087     -103.113934
9.131                0.861091509     -103.319114
9.132                 0.86069711     -103.524886
9.133                0.860301898     -103.731252
9.134                0.859905876     -103.938213
9.135                0.859509049     -104.145772
9.136                0.859111424     -104.353928
9.137                0.858713006     -104.562683
9.138                0.858313799      -104.77204
9.139                0.857913811     -104.981999
9.14                 0.857513046     -105.192561
9.141                 0.85711151     -105.403727
9.142                0.856709211       -105.6155
9.143                0.856306153      -105.82788
9.144                0.855902343     -106.040869
9.145                0.855497787     -106.254468
9.146                0.855092491     -106.468678
9.147                0.854686463     -106.683501
9.148                0.854279709     -106.898938
9.149                0.853872236     -107.114989
9.15                 0.853464051     -107.331657
9.151                 0.85305516     -107.548942
9.152                 0.85264557     -107.766846
9.153                 0.85223529     -107.985371
9.154                0.851824327     -108.204516
9.155                0.851412687     -108.424283
9.156                0.851000379     -108.644675
9.157                0.850587411     -108.865691
9.158                0.850173789     -109.087332
9.159                0.849759523     -109.309601
9.16                 0.849344621     -109.532499
9.161                0.848929089     -109.756025
9.162                0.848512938     -109.980182
9.163                0.848096176      -110.20497
9.164                 0.84767881     -110.430391
9.165                 0.84726085     -110.656446
9.166                0.846842305     -110.883136
9.167                0.846423184     -111.110461
9.168                0.846003496     -111.338424
9.169                 0.84558325     -111.567024
9.17                 0.845162456     -111.796264
9.171                0.844741122     -112.026143
9.172                 0.84431926     -112.256663
9.173                0.843896878     -112.487826
9.174                0.843473987     -112.719631
9.175                0.843050596      -112.95208
9.176                0.842626716     -113.185173
9.177                0.842202358     -113.418913
9.178                0.841777531     -113.653299
9.179                0.841352246     -113.888332
9.18                 0.840926515     -114.124014
9.181                0.840500348     -114.360345
9.182                0.840073756     -114.597327
9.183                 0.83964675     -114.834959
9.184                0.839219341     -115.073242
9.185                0.838791542     -115.312179
9.186                0.838363363     -115.551768
9.187                0.837934817     -115.792011
9.188                0.837505915     -116.032909
9.189                0.837076669     -116.274463
9.19                 0.836647092     -116.516673
9.191                0.836217196     -116.759539
9.192                0.835786993     -117.003063
9.193                0.835356496     -117.247245
9.194                0.834925717     -117.492086
9.195                0.834494671     -117.737586
9.196                0.834063368     -117.983746
9.197                0.833631824     -118.230567
9.198                0.833200051     -118.478049
9.199                0.832768063     -118.726192
9.2                  0.832335873     -118.974997
9.201                0.831903495     -119.224465
9.202                0.831470943     -119.474595
9.203                0.831038231     -119.725389
9.204                0.830605373     -119.976847
9.205                0.830172384     -120.228969
9.206                0.829739278     -120.481756
9.207                0.829306071     -120.735208
9.208                0.828872776     -120.989324
9.209                0.828439408     -121.244107
9.21                 0.828005983     -121.499555
9.211                0.827572517     -121.755669
9.212                0.827139024     -122.012449
9.213                0.826705519     -122.269896
9.214                 0.82627202      -122.52801
9.215                0.825838541      -122.78679
9.216                0.825405098     -123.046237
9.217                0.824971708     -123.306351
9.218                0.824538388     -123.567132
9.219                0.824105152      -123.82858
9.22                 0.823672018     -124.090695
9.221                0.823239004     -124.353478
9.222                0.822806124     -124.616927
9.223                0.822373398     -124.881044
9.224                0.821940841     -125.145827
9.225                0.821508471     -125.411277
9.226                0.821076305     -125.677393
9.227                0.820644362     -125.944176
9.228                0.820212659     -126.211625
9.229                0.819781213      -126.47974
9.23                 0.819350043     -126.748521
9.231                0.818919166     -127.017967
9.232                0.818488602     -127.288078
9.233                0.818058369     -127.558853
9.234                0.817628484     -127.830293
9.235                0.817198968     -128.102397
9.236                0.816769838     -128.375164
9.237                0.816341114     -128.648594
9.238                0.815912814     -128.922686
9.239                0.815484959      -129.19744
9.24                 0.815057567     -129.472855
9.241                0.814630658      -129.74893
9.242                0.814204252     -130.025666
9.243                0.813778368      -130.30306
9.244                0.813353026     -130.581114
9.245                0.812928247     -130.859824
9.246                 0.81250405     -131.139192
9.247                0.812080456     -131.419216
9.248                0.811657485     -131.699894
9.249                0.811235157     -131.981227
9.25                 0.810813494     -132.263214
9.251                0.810392516     -132.545852
9.252                0.809972244     -132.829143
9.253                0.809552699     -133.113083
9.254                0.809133902     -133.397672
9.255                0.808715874      -133.68291
9.256                0.808298637     -133.968794
9.257                0.807882211     -134.255324
9.258                 0.80746662     -134.542499
9.259                0.807051883     -134.830316
9.26                 0.806638024     -135.118776
9.261                0.806225063     -135.407876
9.262                0.805813024     -135.697615
9.263                0.805401927     -135.987991
9.264                0.804991795     -136.279004
9.265                 0.80458265     -136.570652
9.266                0.804174515     -136.862932
9.267                0.803767412     -137.155844
9.268                0.803361364     -137.449386
9.269                0.802956393     -137.743556
9.27                 0.802552521     -138.038352
9.271                0.802149772     -138.333773
9.272                0.801748169     -138.629817
9.273                0.801347734     -138.926482
9.274                 0.80094849     -139.223766
9.275                0.800550461     -139.521667
9.276                0.800153669     -139.820183
9.277                0.799758138     -140.119313
9.278                0.799363891     -140.419053
9.279                0.798970951     -140.719403
9.28                 0.798579342     -141.020359
9.281                0.798189087      -141.32192
9.282                 0.79780021     -141.624084
9.283                0.797412733     -141.926848
9.284                0.797026682     -142.230209
9.285                0.796642078     -142.534166
9.286                0.796258947     -142.838716
9.287                0.795877311     -143.143857
9.288                0.795497195     -143.449586
9.289                0.795118622       -143.7559
9.29                 0.794741615     -144.062797
9.291                  0.7943662     -144.370274
9.292                0.793992399     -144.678329
9.293                0.793620236     -144.986959
9.294                0.793249736     -145.296161
9.295                0.792880922     -145.605933
9.296                0.792513818      -145.91627
9.297                0.792148448     -146.227172
9.298                0.791784836     -146.538633
9.299                0.791423005     -146.850653
9.3                   0.79106298     -147.163226
9.301                0.790704785     -147.476352
9.302                0.790348443     -147.790025
9.303                0.789993978     -148.104244
9.304                0.789641414     -148.419004
9.305                0.789290775     -148.734303
9.306                0.788942085     -149.050137
9.307                0.788595367     -149.366503
9.308                0.788250645     -149.683397
9.309                0.787907943     -150.000817
9.31                 0.787567285     -150.318758
9.311                0.787228693     -150.637216
9.312                0.786892192      -150.95619
9.313                0.786557804     -151.275673
9.314                0.786225555     -151.595664
9.315                0.785895466     -151.916158
9.316                0.785567561     -152.237151
9.317                0.785241863      -152.55864
9.318                0.784918396      -152.88062
9.319                0.784597182     -153.203089
9.32                 0.784278245     -153.526041
9.321                0.783961607     -153.849473
9.322                0.783647291     -154.173381
9.323                0.783335321      -154.49776
9.324                0.783025718     -154.822607
9.325                0.782718505     -155.147917
9.326                0.782413705     -155.473686
9.327                 0.78211134      -155.79991
9.328                0.781811431     -156.126585
9.329                0.781514002     -156.453705
9.33                 0.781219074     -156.781267
9.331                0.780926669     -157.109266
9.332                0.780636809     -157.437698
9.333                0.780349515     -157.766558
9.334                0.780064809     -158.095842
9.335                0.779782711     -158.425544
9.336                0.779503244     -158.755661
9.337                0.779226428     -159.086187
9.338                0.778952284     -159.417119
9.339                0.778680832      -159.74845
9.34                 0.778412093     -160.080176
9.341                0.778146089     -160.412292
9.342                0.777882837     -160.744794
9.343                 0.77762236     -161.077676
9.344                0.777364676     -161.410933
9.345                0.777109805     -161.744561
9.346                0.776857767     -162.078553
9.347                0.776608581     -162.412906
9.348                0.776362265     -162.747614
9.349                 0.77611884     -163.082672
9.35                 0.775878323     -163.418074
9.351                0.775640734     -163.753815
9.352                0.775406089     -164.089891
9.353                0.775174408     -164.426294
9.354                0.774945709     -164.763021
9.355                0.774720008     -165.100066
9.356                0.774497323     -165.437423
9.357                0.774277671     -165.775087
9.358                 0.77406107     -166.113052
9.359                0.773847536     -166.451313
9.36                 0.773637086     -166.789865
9.361                0.773429735       -167.1287
9.362                0.773225499     -167.467815
9.363                0.773024395     -167.807203
9.364                0.772826438     -168.146858
9.365                0.772631643     -168.486775
9.366                0.772440025     -168.826948
9.367                0.772251599     -169.167371
9.368                0.772066379     -169.508039
9.369                0.771884379     -169.848945
9.37                 0.771705613     -170.190084
9.371                0.771530095     -170.531449
9.372                0.771357839     -170.873035
9.373                0.771188856     -171.214836
9.374                0.771023161     -171.556845
9.375                0.770860765     -171.899058
9.376                 0.77070168     -172.241467
9.377                 0.77054592     -172.584066
9.378                0.770393494     -172.926851
9.379                0.770244415     -173.269813
9.38                 0.770098694     -173.612948
9.381                0.769956341      -173.95625
9.382                0.769817366     -174.299711
9.383                0.769681781     -174.643326
9.384                0.769549594     -174.987088
9.385                0.769420815     -175.330992
9.386                0.769295454     -175.675031
9.387                0.769173518     -176.019199
9.388                0.769055018      -176.36349
9.389                 0.76893996     -176.707897
9.39                 0.768828353     -177.052414
9.391                0.768720205     -177.397035
9.392                0.768615523     -177.741753
9.393                0.768514313     -178.086562
9.394                0.768416583     -178.431455
9.395                0.768322339     -178.776427
9.396                0.768231586     -179.121471
