! TOUCHSTONE file generated by CST DESIGN STUDIO
! Date and time: Tue Feb  4 13:16:03 2025
! Project name: C:\Work\MatlabApps\UnitCellOptimizationMatlab\CST\unitcell.cst
! Tree item: Tasks\Sweep1\SPara1\S-Parameters
! Header version: 2024
! Port assignment regex: !\s*Touchstone port\s*([0-9]+)\s*=\s*(CST MWS port|CST DES external port|CST DES block port)\s*(.+)\s* \(\"(.*)\"\)(\s*mode\s*([0-9]+))?.*
! Touchstone port assignment:
! Touchstone port 1 = CST DES external port 1 ("")
# GHz S MA R 50
9                    0.972662028     -76.0483798
9.001                0.972598558     -76.1671924
9.002                0.972534929     -76.2863121
9.003                0.972471139     -76.4057399
9.004                0.972407188     -76.5254768
9.005                0.972343075     -76.6455238
9.006                  0.9722788     -76.7658818
9.007                0.972214363     -76.8865517
9.008                0.972149762     -77.0075347
9.009                0.972084998     -77.1288315
9.01                 0.972020069     -77.2504433
9.011                0.971954976      -77.372371
9.012                0.971889717     -77.4946155
9.013                0.971824292     -77.6171779
9.014                  0.9717587     -77.7400592
9.015                0.971692942     -77.8632602
9.016                0.971627016     -77.9867821
9.017                0.971560922     -78.1106258
9.018                 0.97149466     -78.2347923
9.019                0.971428228     -78.3592827
9.02                 0.971361626     -78.4840978
9.021                0.971294855     -78.6092387
9.022                0.971227913     -78.7347064
9.023                0.971160799      -78.860502
9.024                0.971093514     -78.9866264
9.025                0.971026057     -79.1130806
9.026                0.970958427     -79.2398657
9.027                0.970890623     -79.3669826
9.028                0.970822646     -79.4944324
9.029                0.970754495     -79.6222161
9.03                 0.970686169     -79.7503348
9.031                0.970617668     -79.8787894
9.032                 0.97054899     -80.0075809
9.033                0.970480137     -80.1367105
9.034                0.970411107     -80.2661791
9.035                  0.9703419     -80.3959878
9.036                0.970272515     -80.5261375
9.037                0.970202952     -80.6566294
9.038                 0.97013321     -80.7874645
9.039                 0.97006329     -80.9186438
9.04                 0.969993189     -81.0501683
9.041                0.969922909     -81.1820392
9.042                0.969852448     -81.3142574
9.043                0.969781807     -81.4468239
9.044                0.969710984       -81.57974
9.045                0.969639979     -81.7130065
9.046                0.969568791     -81.8466246
9.047                0.969497422     -81.9805953
9.048                0.969425868     -82.1149197
9.049                0.969354132     -82.2495988
9.05                 0.969282211     -82.3846336
9.051                0.969210106     -82.5200254
9.052                0.969137816      -82.655775
9.053                0.969065341     -82.7918836
9.054                 0.96899268     -82.9283523
9.055                0.968919833     -83.0651821
9.056                0.968846799     -83.2023741
9.057                0.968773579     -83.3399294
9.058                0.968700171      -83.477849
9.059                0.968626576      -83.616134
9.06                 0.968552793     -83.7547856
9.061                0.968478821     -83.8938047
9.062                0.968404661     -84.0331925
9.063                0.968330311       -84.17295
9.064                0.968255772     -84.3130783
9.065                0.968181043     -84.4535786
9.066                0.968106123     -84.5944519
9.067                0.968031013     -84.7356992
9.068                0.967955713     -84.8773218
9.069                0.967880221     -85.0193206
9.07                 0.967804537     -85.1616968
9.071                0.967728661     -85.3044514
9.072                0.967652594     -85.4475856
9.073                0.967576334     -85.5911005
9.074                0.967499881     -85.7349971
9.075                0.967423234     -85.8792766
9.076                0.967346395       -86.02394
9.077                0.967269362     -86.1689885
9.078                0.967192134     -86.3144231
9.079                0.967114713      -86.460245
9.08                 0.967037097     -86.6064553
9.081                0.966959286      -86.753055
9.082                 0.96688128     -86.9000453
9.083                0.966803079     -87.0474274
9.084                0.966724683     -87.1952022
9.085                0.966646091     -87.3433709
9.086                0.966567303     -87.4919346
9.087                0.966488318     -87.6408945
9.088                0.966409138     -87.7902516
9.089                 0.96632976     -87.9400071
9.09                 0.966250186      -88.090162
9.091                0.966170415     -88.2407175
9.092                0.966090447     -88.3916747
9.093                0.966010282     -88.5430347
9.094                0.965929919     -88.6947987
9.095                0.965849359     -88.8469677
9.096                0.965768601     -88.9995428
9.097                0.965687645     -89.1525252
9.098                0.965606491     -89.3059161
9.099                0.965525139     -89.4597164
9.1                  0.965443589     -89.6139274
9.101                 0.96536184     -89.7685501
9.102                0.965279893     -89.9235857
9.103                0.965197747     -90.0790352
9.104                0.965115403     -90.2348999
9.105                0.965032861     -90.3911808
9.106                 0.96495012      -90.547879
9.107                 0.96486718     -90.7049957
9.108                0.964784041      -90.862532
9.109                0.964700703     -91.0204889
9.11                 0.964617167     -91.1788677
9.111                0.964533432     -91.3376694
9.112                0.964449498     -91.4968951
9.113                0.964365366      -91.656546
9.114                0.964281034     -91.8166232
9.115                0.964196505     -91.9771278
9.116                0.964111776     -92.1380609
9.117                0.964026849     -92.2994237
9.118                0.963941723     -92.4612171
9.119                0.963856399     -92.6234425
9.12                 0.963770877     -92.7861008
9.121                0.963685157     -92.9491931
9.122                0.963599238     -93.1127207
9.123                0.963513122     -93.2766846
9.124                0.963426808     -93.4410858
9.125                0.963340296     -93.6059256
9.126                0.963253587      -93.771205
9.127                 0.96316668     -93.9369252
9.128                0.963079577     -94.1030872
9.129                0.962992276     -94.2696921
9.13                 0.962904779      -94.436741
9.131                0.962817086     -94.6042351
9.132                0.962729196     -94.7721754
9.133                 0.96264111     -94.9405631
9.134                0.962552829     -95.1093992
9.135                0.962464353     -95.2786848
9.136                0.962375681      -95.448421
9.137                0.962286815     -95.6186089
9.138                0.962197754     -95.7892497
9.139                0.962108499     -95.9603443
9.14                 0.962019051     -96.1318938
9.141                0.961929409     -96.3038994
9.142                0.961839574     -96.4763622
9.143                0.961749547     -96.6492831
9.144                0.961659327     -96.8226633
9.145                0.961568916     -96.9965038
9.146                0.961478314     -97.1708058
9.147                0.961387521     -97.3455703
9.148                0.961296538     -97.5207982
9.149                0.961205364     -97.6964909
9.15                 0.961114002     -97.8726491
9.151                0.961022451     -98.0492741
9.152                0.960930711     -98.2263669
9.153                0.960838784     -98.4039285
9.154                 0.96074667       -98.58196
9.155                0.960654369     -98.7604624
9.156                0.960561883     -98.9394367
9.157                0.960469211      -99.118884
9.158                0.960376355     -99.2988054
9.159                0.960283314     -99.4792018
9.16                 0.960190091     -99.6600743
9.161                0.960096684     -99.8414239
9.162                0.960003096     -100.023252
9.163                0.959909327     -100.205558
9.164                0.959815378     -100.388345
9.165                0.959721249     -100.571613
9.166                0.959626941     -100.755364
9.167                0.959532455     -100.939597
9.168                0.959437792     -101.124315
9.169                0.959342953     -101.309517
9.17                 0.959247938     -101.495206
9.171                0.959152749     -101.681382
9.172                0.959057386     -101.868046
9.173                 0.95896185     -102.055199
9.174                0.958866142     -102.242842
9.175                0.958770264     -102.430975
9.176                0.958674216     -102.619601
9.177                0.958577999      -102.80872
9.178                0.958481614     -102.998332
9.179                0.958385063     -103.188439
9.18                 0.958288345     -103.379042
9.181                0.958191464     -103.570141
9.182                0.958094418     -103.761738
9.183                0.957997211     -103.953833
9.184                0.957899842     -104.146427
9.185                0.957802313     -104.339522
9.186                0.957704626     -104.533118
9.187                 0.95760678     -104.727216
9.188                0.957508779     -104.921816
9.189                0.957410622     -105.116921
9.19                 0.957312312      -105.31253
9.191                0.957213849     -105.508644
9.192                0.957115235     -105.705265
9.193                0.957016471     -105.902393
9.194                0.956917559     -106.100028
9.195                  0.9568185     -106.298173
9.196                0.956719295     -106.496827
9.197                0.956619947     -106.695992
9.198                0.956520455     -106.895668
9.199                0.956420823     -107.095856
9.2                   0.95632105     -107.296557
9.201                 0.95622114     -107.497772
9.202                0.956121094     -107.699501
9.203                0.956020912     -107.901745
9.204                0.955920597     -108.104505
9.205                0.955820151     -108.307782
9.206                0.955719575     -108.511576
9.207                0.955618871     -108.715889
9.208                 0.95551804      -108.92072
9.209                0.955417084     -109.126071
9.21                 0.955316006     -109.331942
9.211                0.955214806     -109.538334
9.212                0.955113487     -109.745248
9.213                0.955012051     -109.952684
9.214                0.954910499     -110.160643
9.215                0.954808833     -110.369125
9.216                0.954707056     -110.578132
9.217                0.954605169     -110.787664
9.218                0.954503174     -110.997722
9.219                0.954401074     -111.208305
9.22                  0.95429887     -111.419415
9.221                0.954196564     -111.631053
9.222                0.954094159     -111.843219
9.223                0.953991657     -112.055912
9.224                0.953889059     -112.269135
9.225                0.953786369     -112.482888
9.226                0.953683587     -112.697171
9.227                0.953580718     -112.911984
9.228                0.953477762     -113.127328
9.229                0.953374722     -113.343204
9.23                   0.9532716     -113.559612
9.231                0.953168399     -113.776553
9.232                0.953065121     -113.994027
9.233                0.952961769     -114.212034
9.234                0.952858345     -114.430575
9.235                0.952754851     -114.649651
9.236                0.952651291     -114.869261
9.237                0.952547666     -115.089406
9.238                0.952443979     -115.310087
9.239                0.952340232     -115.531303
9.24                 0.952236429     -115.753056
9.241                0.952132572     -115.975345
9.242                0.952028664     -116.198171
9.243                0.951924707     -116.421535
9.244                0.951820704     -116.645436
9.245                0.951716658     -116.869874
9.246                0.951612572     -117.094851
9.247                0.951508449     -117.320365
9.248                0.951404291     -117.546419
9.249                0.951300101     -117.773011
9.25                 0.951195882     -118.000141
9.251                0.951091638     -118.227811
9.252                0.950987371     -118.456021
9.253                0.950883084     -118.684769
9.254                 0.95077878     -118.914057
9.255                0.950674463     -119.143885
9.256                0.950570135     -119.374253
9.257                  0.9504658      -119.60516
9.258                 0.95036146     -119.836607
9.259                 0.95025712     -120.068595
9.26                 0.950152782     -120.301122
9.261                0.950048449     -120.534189
9.262                0.949944125     -120.767797
9.263                0.949839813     -121.001944
9.264                0.949735517     -121.236632
9.265                0.949631239     -121.471859
9.266                0.949526984     -121.707626
9.267                0.949422755     -121.943934
9.268                0.949318554      -122.18078
9.269                0.949214387     -122.418167
9.27                 0.949110256     -122.656092
9.271                0.949006164     -122.894557
9.272                0.948902117     -123.133561
9.273                0.948798116     -123.373104
9.274                0.948694166     -123.613185
9.275                 0.94859027     -123.853805
9.276                0.948486433     -124.094963
9.277                0.948382657     -124.336659
9.278                0.948278947     -124.578893
9.279                0.948175307     -124.821663
9.28                  0.94807174     -125.064971
9.281                0.947968251     -125.308815
9.282                0.947864842     -125.553195
9.283                0.947761519     -125.798111
9.284                0.947658285     -126.043563
9.285                0.947555143     -126.289549
9.286                0.947452099      -126.53607
9.287                0.947349156     -126.783124
9.288                0.947246318     -127.030712
9.289                 0.94714359     -127.278833
9.29                 0.947040974     -127.527486
9.291                0.946938477     -127.776671
9.292                0.946836101     -128.026387
9.293                0.946733851     -128.276633
9.294                0.946631732      -128.52741
9.295                0.946529747     -128.778716
9.296                0.946427901      -129.03055
9.297                0.946326198     -129.282912
9.298                0.946224643     -129.535801
9.299                 0.94612324     -129.789216
9.3                  0.946021993     -130.043157
9.301                0.945920906     -130.297623
9.302                0.945819985     -130.552612
9.303                0.945719234     -130.808125
9.304                0.945618657     -131.064159
9.305                0.945518258     -131.320715
9.306                0.945418043     -131.577792
9.307                0.945318016     -131.835387
9.308                0.945218182     -132.093501
9.309                0.945118545     -132.352133
9.31                 0.945019109     -132.611281
9.311                 0.94491988     -132.870944
9.312                0.944820862     -133.131121
9.313                 0.94472206     -133.391812
9.314                0.944623479     -133.653014
9.315                0.944525124     -133.914728
9.316                0.944426998     -134.176951
9.317                0.944329108     -134.439683
9.318                0.944231457     -134.702921
9.319                0.944134052     -134.966666
9.32                 0.944036896     -135.230916
9.321                0.943939994     -135.495669
9.322                0.943843352     -135.760924
9.323                0.943746975      -136.02668
9.324                0.943650867     -136.292935
9.325                0.943555033     -136.559688
9.326                0.943459478     -136.826937
9.327                0.943364208     -137.094682
9.328                0.943269227      -137.36292
9.329                 0.94317454      -137.63165
9.33                 0.943080153      -137.90087
9.331                 0.94298607      -138.17058
9.332                0.942892297     -138.440776
9.333                0.942798838     -138.711459
9.334                0.942705699     -138.982625
9.335                0.942612886     -139.254273
9.336                0.942520402     -139.526402
9.337                0.942428253      -139.79901
9.338                0.942336445     -140.072095
9.339                0.942244982     -140.345656
9.34                  0.94215387      -140.61969
9.341                0.942063113     -140.894195
9.342                0.941972718      -141.16917
9.343                0.941882689     -141.444613
9.344                0.941793032     -141.720522
9.345                0.941703751     -141.996895
9.346                0.941614852      -142.27373
9.347                 0.94152634     -142.551024
9.348                0.941438221     -142.828777
9.349                0.941350499     -143.106985
9.35                 0.941263181     -143.385647
9.351                 0.94117627     -143.664761
9.352                0.941089773     -143.944324
9.353                0.941003695     -144.224334
9.354                 0.94091804      -144.50479
9.355                0.940832815     -144.785688
9.356                0.940748024     -145.067027
9.357                0.940663673     -145.348803
9.358                0.940579767     -145.631016
9.359                0.940496311     -145.913662
9.36                 0.940413311      -146.19674
9.361                0.940330771     -146.480246
9.362                0.940248697     -146.764178
9.363                0.940167095     -147.048534
9.364                0.940085969     -147.333312
9.365                0.940005325     -147.618508
9.366                0.939925168     -147.904121
9.367                0.939845503     -148.190147
9.368                0.939766336     -148.476584
9.369                0.939687671      -148.76343
9.37                 0.939609514     -149.050681
9.371                0.939531869     -149.338336
9.372                0.939454744      -149.62639
9.373                0.939378141     -149.914843
9.374                0.939302067      -150.20369
9.375                0.939226526     -150.492929
9.376                0.939151524     -150.782558
9.377                0.939077066     -151.072572
9.378                0.939003157      -151.36297
9.379                0.938929802     -151.653749
9.38                 0.938857006     -151.944905
9.381                0.938784774     -152.236436
9.382                0.938713111     -152.528339
9.383                0.938642023      -152.82061
9.384                0.938571513     -153.113247
9.385                0.938501588     -153.406246
9.386                0.938432251     -153.699604
9.387                0.938363509     -153.993319
9.388                0.938295365     -154.287387
9.389                0.938227825     -154.581805
9.39                 0.938160893     -154.876569
9.391                0.938094575     -155.171678
9.392                0.938028875     -155.467126
9.393                0.937963797     -155.762911
9.394                0.937899348      -156.05903
9.395                 0.93783553     -156.355479
9.396                 0.93777235     -156.652255
