! TOUCHSTONE file generated by CST DESIGN STUDIO
! Date and time: Tue Feb  4 13:16:01 2025
! Project name: C:\Work\MatlabApps\UnitCellOptimizationMatlab\CST\unitcell.cst
! Tree item: Tasks\Sweep1\SPara1\S-Parameters
! Header version: 2024
! Port assignment regex: !\s*Touchstone port\s*([0-9]+)\s*=\s*(CST MWS port|CST DES external port|CST DES block port)\s*(.+)\s* \(\"(.*)\"\)(\s*mode\s*([0-9]+))?.*
! Touchstone port assignment:
! Touchstone port 1 = CST DES external port 1 ("")
# GHz S MA R 50
9                    0.971767783     -78.3973213
9.001                0.971700553     -78.5219436
9.002                0.971633153     -78.6468904
9.003                0.971565583     -78.7721625
9.004                0.971497843      -78.897761
9.005                0.971429933     -79.0236869
9.006                0.971361851     -79.1499412
9.007                0.971293597      -79.276525
9.008                0.971225172     -79.4034391
9.009                0.971156574     -79.5306847
9.01                 0.971087803     -79.6582628
9.011                0.971018859     -79.7861744
9.012                 0.97094974     -79.9144205
9.013                0.970880448     -80.0430021
9.014                0.970810981     -80.1719203
9.015                0.970741339     -80.3011761
9.016                0.970671521     -80.4307705
9.017                0.970601527     -80.5607045
9.018                0.970531357     -80.6909793
9.019                 0.97046101     -80.8215957
9.02                 0.970390485      -80.952555
9.021                0.970319783     -81.0838581
9.022                0.970248903      -81.215506
9.023                0.970177845     -81.3474998
9.024                0.970106607     -81.4798406
9.025                 0.97003519     -81.6125293
9.026                0.969963594     -81.7455671
9.027                0.969891817      -81.878955
9.028                 0.96981986     -82.0126941
9.029                0.969747723     -82.1467854
9.03                 0.969675404       -82.28123
9.031                0.969602903     -82.4160289
9.032                 0.96953022     -82.5511831
9.033                0.969457355     -82.6866939
9.034                0.969384307     -82.8225622
9.035                0.969311076      -82.958789
9.036                0.969237662     -83.0953756
9.037                0.969164064     -83.2323229
9.038                0.969090282     -83.3696319
9.039                0.969016315     -83.5073039
9.04                 0.968942163     -83.6453398
9.041                0.968867826     -83.7837408
9.042                0.968793304     -83.9225079
9.043                0.968718596     -84.0616421
9.044                0.968643701     -84.2011447
9.045                 0.96856862     -84.3410166
9.046                0.968493353      -84.481259
9.047                0.968417898     -84.6218729
9.048                0.968342256     -84.7628594
9.049                0.968266426     -84.9042196
9.05                 0.968190408     -85.0459547
9.051                0.968114202     -85.1880656
9.052                0.968037807     -85.3305536
9.053                0.967961223     -85.4734196
9.054                 0.96788445     -85.6166648
9.055                0.967807488     -85.7602903
9.056                0.967730336     -85.9042972
9.057                0.967652995     -86.0486865
9.058                0.967575463     -86.1934595
9.059                0.967497741     -86.3386171
9.06                 0.967419828     -86.4841605
9.061                0.967341724     -86.6300908
9.062                 0.96726343     -86.7764091
9.063                0.967184944     -86.9231165
9.064                0.967106266     -87.0702142
9.065                0.967027397     -87.2177031
9.066                0.966948336     -87.3655845
9.067                0.966869083     -87.5138594
9.068                0.966789638      -87.662529
9.069                    0.96671     -87.8115943
9.07                  0.96663017     -87.9610565
9.071                0.966550147     -88.1109167
9.072                0.966469931      -88.261176
9.073                0.966389522     -88.4118355
9.074                 0.96630892     -88.5628963
9.075                0.966228124     -88.7143596
9.076                0.966147136     -88.8662264
9.077                0.966065953      -89.018498
9.078                0.965984577     -89.1711753
9.079                0.965903008     -89.3242595
9.08                 0.965821244     -89.4777518
9.081                0.965739287     -89.6316532
9.082                0.965657135     -89.7859649
9.083                 0.96557479     -89.9406879
9.084                 0.96549225     -90.0958235
9.085                0.965409517     -90.2513727
9.086                0.965326589     -90.4073366
9.087                0.965243467     -90.5637164
9.088                0.965160151     -90.7205131
9.089                0.965076641      -90.877728
9.09                 0.964992936     -91.0353621
9.091                0.964909038     -91.1934165
9.092                0.964824945     -91.3518923
9.093                0.964740658     -91.5107907
9.094                0.964656177     -91.6701128
9.095                0.964571502     -91.8298597
9.096                0.964486633     -91.9900325
9.097                 0.96440157     -92.1506323
9.098                0.964316314     -92.3116603
9.099                0.964230863     -92.4731176
9.1                   0.96414522     -92.6350052
9.101                0.964059382     -92.7973243
9.102                0.963973351      -92.960076
9.103                0.963887128     -93.1232614
9.104                0.963800711     -93.2868817
9.105                0.963714101     -93.4509379
9.106                0.963627298     -93.6154311
9.107                0.963540303     -93.7803624
9.108                0.963453116      -93.945733
9.109                0.963365736      -94.111544
9.11                 0.963278165     -94.2777964
9.111                0.963190402     -94.4444914
9.112                0.963102448     -94.6116301
9.113                0.963014302     -94.7792135
9.114                0.962925966     -94.9472428
9.115                0.962837439     -95.1157191
9.116                0.962748722     -95.2846434
9.117                0.962659815     -95.4540168
9.118                0.962570718     -95.6238405
9.119                0.962481432     -95.7941155
9.12                 0.962391957     -95.9648429
9.121                0.962302293     -96.1360238
9.122                0.962212442     -96.3076593
9.123                0.962122402     -96.4797505
9.124                0.962032175     -96.6522984
9.125                0.961941762     -96.8253041
9.126                0.961851161     -96.9987687
9.127                0.961760375     -97.1726933
9.128                0.961669403     -97.3470789
9.129                0.961578246     -97.5219266
9.13                 0.961486905     -97.6972374
9.131                0.961395379     -97.8730125
9.132                 0.96130367     -98.0492528
9.133                0.961211778     -98.2259595
9.134                0.961119704     -98.4031335
9.135                0.961027448      -98.580776
9.136                 0.96093501     -98.7588879
9.137                0.960842392     -98.9374704
9.138                0.960749594     -99.1165244
9.139                0.960656617      -99.296051
9.14                  0.96056346     -99.4760512
9.141                0.960470126     -99.6565261
9.142                0.960376615     -99.8374766
9.143                0.960282927     -100.018904
9.144                0.960189064     -100.200809
9.145                0.960095025     -100.383192
9.146                0.960000812     -100.566056
9.147                0.959906425       -100.7494
9.148                0.959811866     -100.933226
9.149                0.959717135     -101.117534
9.15                 0.959622232     -101.302326
9.151                 0.95952716     -101.487603
9.152                0.959431918     -101.673366
9.153                0.959336508     -101.859615
9.154                 0.95924093     -102.046352
9.155                0.959145186     -102.233578
9.156                0.959049277     -102.421293
9.157                0.958953202     -102.609498
9.158                0.958856965     -102.798195
9.159                0.958760564     -102.987385
9.16                 0.958664002     -103.177067
9.161                 0.95856728     -103.367244
9.162                0.958470398     -103.557916
9.163                0.958373358     -103.749085
9.164                 0.95827616      -103.94075
9.165                0.958178807     -104.132913
9.166                0.958081299     -104.325576
9.167                0.957983637     -104.518737
9.168                0.957885823       -104.7124
9.169                0.957787858     -104.906564
9.17                 0.957689742      -105.10123
9.171                0.957591478       -105.2964
9.172                0.957493066     -105.492074
9.173                0.957394509     -105.688253
9.174                0.957295807     -105.884937
9.175                0.957196961     -106.082129
9.176                0.957097973     -106.279827
9.177                0.956998845     -106.478034
9.178                0.956899578     -106.676751
9.179                0.956800173     -106.875977
9.18                 0.956700632     -107.075714
9.181                0.956600956     -107.275963
9.182                0.956501147     -107.476724
9.183                0.956401206     -107.677998
9.184                0.956301136     -107.879786
9.185                0.956200937     -108.082088
9.186                0.956100611     -108.284906
9.187                 0.95600016      -108.48824
9.188                0.955899586     -108.692091
9.189                 0.95579889      -108.89646
9.19                 0.955698074     -109.101347
9.191                 0.95559714     -109.306753
9.192                0.955496089     -109.512679
9.193                0.955394924     -109.719125
9.194                0.955293646     -109.926093
9.195                0.955192256     -110.133582
9.196                0.955090758     -110.341593
9.197                0.954989153     -110.550128
9.198                0.954887442     -110.759186
9.199                0.954785628     -110.968769
9.2                  0.954683713     -111.178877
9.201                0.954581699      -111.38951
9.202                0.954479587     -111.600669
9.203                0.954377381     -111.812356
9.204                0.954275081     -112.024569
9.205                 0.95417269      -112.23731
9.206                0.954070211      -112.45058
9.207                0.953967645     -112.664379
9.208                0.953864995     -112.878707
9.209                0.953762262     -113.093566
9.21                  0.95365945     -113.308954
9.211                 0.95355656     -113.524874
9.212                0.953453595     -113.741325
9.213                0.953350557     -113.958309
9.214                0.953247448     -114.175824
9.215                0.953144272     -114.393873
9.216                 0.95304103     -114.612454
9.217                0.952937724      -114.83157
9.218                0.952834358     -115.051219
9.219                0.952730934     -115.271403
9.22                 0.952627454     -115.492122
9.221                0.952523921     -115.713376
9.222                0.952420338     -115.935166
9.223                0.952316706     -116.157491
9.224                 0.95221303     -116.380353
9.225                0.952109312     -116.603751
9.226                0.952005553     -116.827686
9.227                0.951901758     -117.052158
9.228                0.951797929     -117.277167
9.229                0.951694068     -117.502714
9.23                 0.951590179     -117.728798
9.231                0.951486264     -117.955421
9.232                0.951382327     -118.182581
9.233                0.951278369      -118.41028
9.234                0.951174395     -118.638518
9.235                0.951070408     -118.867294
9.236                0.950966409      -119.09661
9.237                0.950862403     -119.326464
9.238                0.950758393     -119.556857
9.239                 0.95065438     -119.787789
9.24                  0.95055037      -120.01926
9.241                0.950446364     -120.251271
9.242                0.950342367     -120.483821
9.243                0.950238381      -120.71691
9.244                0.950134409     -120.950538
9.245                0.950030455     -121.184706
9.246                0.949926523     -121.419413
9.247                0.949822615     -121.654659
9.248                0.949718734     -121.890444
9.249                0.949614886     -122.126768
9.25                 0.949511072     -122.363631
9.251                0.949407297     -122.601033
9.252                0.949303563     -122.838973
9.253                0.949199875     -123.077452
9.254                0.949096235     -123.316469
9.255                0.948992648     -123.556024
9.256                0.948889118     -123.796116
9.257                0.948785647     -124.036747
9.258                 0.94868224     -124.277914
9.259                  0.9485789     -124.519619
9.26                 0.948475631      -124.76186
9.261                0.948372436     -125.004638
9.262                0.948269321     -125.247952
9.263                0.948166287     -125.491801
9.264                 0.94806334     -125.736186
9.265                0.947960484     -125.981105
9.266                0.947857721     -126.226559
9.267                0.947755056     -126.472547
9.268                0.947652494     -126.719068
9.269                0.947550037     -126.966123
9.27                 0.947447691      -127.21371
9.271                0.947345458     -127.461828
9.272                0.947243344     -127.710479
9.273                0.947141353      -127.95966
9.274                0.947039487     -128.209371
9.275                0.946937753     -128.459612
9.276                0.946836153     -128.710381
9.277                0.946734693     -128.961679
9.278                0.946633375     -129.213505
9.279                0.946532206     -129.465857
9.28                 0.946431188     -129.718736
9.281                0.946330327      -129.97214
9.282                0.946229627     -130.226068
9.283                0.946129091      -130.48052
9.284                0.946028725     -130.735495
9.285                0.945928533     -130.990992
9.286                0.945828519      -131.24701
9.287                0.945728688     -131.503549
9.288                0.945629044     -131.760606
9.289                0.945529593     -132.018182
9.29                 0.945430337     -132.276276
9.291                0.945331283     -132.534885
9.292                0.945232434     -132.794011
9.293                0.945133796      -133.05365
9.294                0.945035372     -133.313802
9.295                0.944937169     -133.574467
9.296                0.944839189     -133.835643
9.297                0.944741438     -134.097328
9.298                0.944643921     -134.359522
9.299                0.944546643     -134.622223
9.3                  0.944449608     -134.885431
9.301                 0.94435282     -135.149143
9.302                0.944256286     -135.413359
9.303                0.944160009     -135.678077
9.304                0.944063995     -135.943297
9.305                0.943968249     -136.209015
9.306                0.943872774     -136.475232
9.307                0.943777577     -136.741946
9.308                0.943682662     -137.009155
9.309                0.943588034     -137.276858
9.31                 0.943493698     -137.545054
9.311                0.943399659      -137.81374
9.312                0.943305922     -138.082915
9.313                0.943212492     -138.352579
9.314                0.943119374     -138.622728
9.315                0.943026573     -138.893362
9.316                0.942934094     -139.164478
9.317                0.942841942     -139.436076
9.318                0.942750122     -139.708153
9.319                 0.94265864     -139.980708
9.32                   0.9425675     -140.253738
9.321                0.942476707     -140.527243
9.322                0.942386267      -140.80122
9.323                0.942296184     -141.075667
9.324                0.942206465     -141.350583
9.325                0.942117113     -141.625965
9.326                0.942028134     -141.901812
9.327                0.941939534     -142.178122
9.328                0.941851316     -142.454892
9.329                0.941763488     -142.732121
9.33                 0.941676053     -143.009807
9.331                0.941589016     -143.287947
9.332                0.941502384      -143.56654
9.333                0.941416161     -143.845583
9.334                0.941330353     -144.125074
9.335                0.941244964     -144.405011
9.336                0.941159999     -144.685392
9.337                0.941075465     -144.966214
9.338                0.940991366     -145.247476
9.339                0.940907707     -145.529174
9.34                 0.940824493     -145.811307
9.341                 0.94074173     -146.093873
9.342                0.940659423     -146.376868
9.343                0.940577577      -146.66029
9.344                0.940496198     -146.944138
9.345                0.940415289     -147.228407
9.346                0.940334857     -147.513097
9.347                0.940254907     -147.798205
9.348                0.940175443     -148.083727
9.349                0.940096471     -148.369661
9.35                 0.940017997     -148.656006
9.351                0.939940024     -148.942757
9.352                0.939862559     -149.229913
9.353                0.939785606      -149.51747
9.354                0.939709171     -149.805427
9.355                0.939633258     -150.093779
9.356                0.939557873     -150.382526
9.357                0.939483021     -150.671662
9.358                0.939408706     -150.961187
9.359                0.939334934     -151.251097
9.36                  0.93926171     -151.541388
9.361                0.939189039     -151.832059
9.362                0.939116925     -152.123106
9.363                0.939045374     -152.414526
9.364                 0.93897439     -152.706316
9.365                0.938903979     -152.998474
9.366                0.938834145     -153.290996
9.367                0.938764894     -153.583879
9.368                 0.93869623      -153.87712
9.369                0.938628157     -154.170716
9.37                 0.938560682     -154.464663
9.371                0.938493808     -154.758959
9.372                 0.93842754       -155.0536
9.373                0.938361883     -155.348584
9.374                0.938296842     -155.643906
9.375                0.938232421     -155.939564
9.376                0.938168626     -156.235554
9.377                 0.93810546     -156.531873
9.378                0.938042928     -156.828517
9.379                0.937981035     -157.125484
9.38                 0.937919785      -157.42277
9.381                0.937859184      -157.72037
9.382                0.937799234     -158.018283
9.383                0.937739941     -158.316504
9.384                0.937681309      -158.61503
9.385                0.937623343     -158.913857
9.386                0.937566047     -159.212982
9.387                0.937509424     -159.512402
9.388                 0.93745348     -159.812112
9.389                0.937398218     -160.112109
9.39                 0.937343643     -160.412389
9.391                0.937289759     -160.712949
9.392                 0.93723657     -161.013785
9.393                0.937184079     -161.314893
9.394                0.937132292      -161.61627
9.395                0.937081211     -161.917912
9.396                0.937030841     -162.219815
