! TOUCHSTONE file generated by CST DESIGN STUDIO
! Date and time: Tue Feb  4 13:15:58 2025
! Project name: C:\Work\MatlabApps\UnitCellOptimizationMatlab\CST\unitcell.cst
! Tree item: Tasks\Sweep1\SPara1\S-Parameters
! Header version: 2024
! Port assignment regex: !\s*Touchstone port\s*([0-9]+)\s*=\s*(CST MWS port|CST DES external port|CST DES block port)\s*(.+)\s* \(\"(.*)\"\)(\s*mode\s*([0-9]+))?.*
! Touchstone port assignment:
! Touchstone port 1 = CST DES external port 1 ("")
# GHz S MA R 50
9                    0.970023927     -83.0185114
9.001                 0.96994911     -83.1548655
9.002                0.969874116     -83.2915793
9.003                0.969798943     -83.4286538
9.004                0.969723591     -83.5660901
9.005                0.969648061     -83.7038894
9.006                0.969572352     -83.8420526
9.007                0.969496463     -83.9805808
9.008                0.969420395     -84.1194752
9.009                0.969344147     -84.2587367
9.01                 0.969267719     -84.3983666
9.011                 0.96919111     -84.5383658
9.012                 0.96911432     -84.6787355
9.013                0.969037349     -84.8194768
9.014                0.968960197     -84.9605907
9.015                0.968882863     -85.1020783
9.016                0.968805348     -85.2439407
9.017                 0.96872765     -85.3861791
9.018                 0.96864977     -85.5287945
9.019                0.968571707     -85.6717879
9.02                 0.968493461     -85.8151606
9.021                0.968415032     -85.9589136
9.022                 0.96833642      -86.103048
9.023                0.968257624     -86.2475649
9.024                0.968178645     -86.3924654
9.025                0.968099482     -86.5377506
9.026                0.968020134     -86.6834216
9.027                0.967940602     -86.8294795
9.028                0.967860885     -86.9759255
9.029                0.967780984     -87.1227606
9.03                 0.967700898     -87.2699859
9.031                0.967620627     -87.4176026
9.032                 0.96754017     -87.5656117
9.033                0.967459528     -87.7140144
9.034                0.967378701     -87.8628118
9.035                0.967297688      -88.012005
9.036                0.967216489     -88.1615951
9.037                0.967135103     -88.3115832
9.038                0.967053532     -88.4619704
9.039                0.966971775     -88.6127579
9.04                 0.966889832     -88.7639468
9.041                0.966807702     -88.9155381
9.042                0.966725385     -89.0675331
9.043                0.966642882     -89.2199328
9.044                0.966560192     -89.3727383
9.045                0.966477316     -89.5259507
9.046                0.966394253     -89.6795712
9.047                0.966311003     -89.8336009
9.048                0.966227566     -89.9880409
9.049                0.966143942     -90.1428924
9.05                 0.966060132     -90.2981564
9.051                0.965976134      -90.453834
9.052                 0.96589195     -90.6099264
9.053                0.965807578     -90.7664348
9.054                 0.96572302     -90.9233601
9.055                0.965638275     -91.0807036
9.056                0.965553343     -91.2384663
9.057                0.965468224     -91.3966495
9.058                0.965382918     -91.5552541
9.059                0.965297426     -91.7142813
9.06                 0.965211747     -91.8737323
9.061                0.965125882     -92.0336081
9.062                 0.96503983     -92.1939098
9.063                0.964953591     -92.3546387
9.064                0.964867167     -92.5157957
9.065                0.964780556     -92.6773821
9.066                 0.96469376     -92.8393989
9.067                0.964606778     -93.0018472
9.068                0.964519609     -93.1647282
9.069                0.964432256     -93.3280429
9.07                 0.964344717     -93.4917925
9.071                0.964256993     -93.6559781
9.072                0.964169084     -93.8206008
9.073                0.964080991     -93.9856616
9.074                0.963992713     -94.1511618
9.075                 0.96390425     -94.3171024
9.076                0.963815604     -94.4834845
9.077                0.963726774     -94.6503092
9.078                 0.96363776     -94.8175777
9.079                0.963548564      -94.985291
9.08                 0.963459184     -95.1534501
9.081                0.963369622     -95.3220563
9.082                0.963279877     -95.4911106
9.083                0.963189951     -95.6606141
9.084                0.963099843     -95.8305679
9.085                0.963009554     -96.0009731
9.086                0.962919085     -96.1718307
9.087                0.962828435     -96.3431419
9.088                0.962737604     -96.5149077
9.089                0.962646595     -96.6871292
9.09                 0.962555406     -96.8598075
9.091                0.962464038     -97.0329437
9.092                0.962372493     -97.2065389
9.093                0.962280769      -97.380594
9.094                0.962188868     -97.5551103
9.095                0.962096791     -97.7300886
9.096                0.962004537     -97.9055302
9.097                0.961912108     -98.0814361
9.098                0.961819503     -98.2578073
9.099                0.961726724     -98.4346448
9.1                  0.961633771     -98.6119498
9.101                0.961540645     -98.7897233
9.102                0.961447346     -98.9679663
9.103                0.961353875     -99.1466799
9.104                0.961260232     -99.3258651
9.105                0.961166419     -99.5055229
9.106                0.961072436     -99.6856544
9.107                0.960978283     -99.8662605
9.108                0.960883961     -100.047342
9.109                0.960789472     -100.228901
9.11                 0.960694815     -100.410937
9.111                0.960599992     -100.593453
9.112                0.960505004     -100.776448
9.113                 0.96040985     -100.959923
9.114                0.960314533     -101.143881
9.115                0.960219052     -101.328321
9.116                0.960123409     -101.513245
9.117                0.960027605     -101.698654
9.118                 0.95993164     -101.884548
9.119                0.959835516     -102.070929
9.12                 0.959739233     -102.257798
9.121                0.959642792     -102.445155
9.122                0.959546194     -102.633002
9.123                0.959449441      -102.82134
9.124                0.959352533     -103.010169
9.125                0.959255472      -103.19949
9.126                0.959158258     -103.389305
9.127                0.959060892     -103.579614
9.128                0.958963376     -103.770419
9.129                 0.95886571     -103.961719
9.13                 0.958767897     -104.153517
9.131                0.958669936     -104.345813
9.132                0.958571829     -104.538607
9.133                0.958473578     -104.731901
9.134                0.958375183     -104.925696
9.135                0.958276646     -105.119993
9.136                0.958177969     -105.314791
9.137                0.958079151     -105.510093
9.138                0.957980195       -105.7059
9.139                0.957881103     -105.902211
9.14                 0.957781874     -106.099028
9.141                0.957682511     -106.296352
9.142                0.957583016     -106.494183
9.143                0.957483389     -106.692523
9.144                0.957383632     -106.891372
9.145                0.957283746     -107.090731
9.146                0.957183733       -107.2906
9.147                0.957083595     -107.490981
9.148                0.956983333     -107.691875
9.149                0.956882948     -107.893281
9.15                 0.956782443     -108.095202
9.151                0.956681818     -108.297637
9.152                0.956581075     -108.500588
9.153                0.956480217     -108.704055
9.154                0.956379244     -108.908038
9.155                0.956278159     -109.112539
9.156                0.956176963     -109.317559
9.157                0.956075658     -109.523098
9.158                0.955974246     -109.729156
9.159                0.955872728     -109.935735
9.16                 0.955771107     -110.142834
9.161                0.955669383     -110.350456
9.162                 0.95556756       -110.5586
9.163                0.955465639     -110.767267
9.164                0.955363622     -110.976458
9.165                 0.95526151     -111.186173
9.166                0.955159307     -111.396413
9.167                0.955057014     -111.607178
9.168                0.954954632      -111.81847
9.169                0.954852165     -112.030288
9.17                 0.954749613     -112.242634
9.171                 0.95464698     -112.455507
9.172                0.954544267     -112.668909
9.173                0.954441477      -112.88284
9.174                0.954338612       -113.0973
9.175                0.954235674      -113.31229
9.176                0.954132665     -113.527811
9.177                0.954029587     -113.743862
9.178                0.953926443     -113.960445
9.179                0.953823236      -114.17756
9.18                 0.953719967     -114.395207
9.181                0.953616639     -114.613387
9.182                0.953513255       -114.8321
9.183                0.953409816     -115.051346
9.184                0.953306326     -115.271127
9.185                0.953202787     -115.491442
9.186                0.953099201     -115.712292
9.187                0.952995571     -115.933677
9.188                  0.9528919     -116.155597
9.189                 0.95278819     -116.378053
9.19                 0.952684443     -116.601045
9.191                0.952580664     -116.824574
9.192                0.952476853     -117.048639
9.193                0.952373015     -117.273241
9.194                0.952269151      -117.49838
9.195                0.952165265     -117.724057
9.196                0.952061359     -117.950271
9.197                0.951957437     -118.177023
9.198                  0.9518535     -118.404314
9.199                0.951749553     -118.632142
9.2                  0.951645598     -118.860509
9.201                0.951541638     -119.089414
9.202                0.951437676     -119.318858
9.203                0.951333714     -119.548841
9.204                0.951229757     -119.779363
9.205                0.951125807     -120.010423
9.206                0.951021868     -120.242023
9.207                0.950917942     -120.474161
9.208                0.950814033     -120.706839
9.209                0.950710143     -120.940056
9.21                 0.950606277     -121.173812
9.211                0.950502437     -121.408106
9.212                0.950398626      -121.64294
9.213                0.950294849     -121.878313
9.214                0.950191108     -122.114225
9.215                0.950087407     -122.350675
9.216                0.949983749     -122.587664
9.217                0.949880138     -122.825192
9.218                0.949776577     -123.063258
9.219                0.949673069     -123.301862
9.22                 0.949569619     -123.541004
9.221                0.949466229     -123.780684
9.222                0.949362904     -124.020901
9.223                0.949259647     -124.261656
9.224                0.949156461     -124.502948
9.225                 0.94905335     -124.744776
9.226                0.948950319     -124.987141
9.227                 0.94884737     -125.230042
9.228                0.948744508     -125.473479
9.229                0.948641736     -125.717451
9.23                 0.948539058     -125.961958
9.231                0.948436478        -126.207
9.232                   0.948334     -126.452575
9.233                0.948231628     -126.698685
9.234                0.948129365     -126.945327
9.235                0.948027217     -127.192502
9.236                0.947925185      -127.44021
9.237                0.947823276     -127.688449
9.238                0.947721492     -127.937219
9.239                0.947619838     -128.186519
9.24                 0.947518318     -128.436349
9.241                0.947416935     -128.686709
9.242                0.947315695     -128.937597
9.243                0.947214602     -129.189013
9.244                0.947113658     -129.440956
9.245                 0.94701287     -129.693425
9.246                 0.94691224     -129.946421
9.247                0.946811774     -130.199941
9.248                0.946711476     -130.453985
9.249                0.946611349     -130.708553
9.25                 0.946511399     -130.963643
9.251                0.946411629     -131.219254
9.252                0.946312045     -131.475387
9.253                 0.94621265     -131.732039
9.254                0.946113449      -131.98921
9.255                0.946014446     -132.246898
9.256                0.945915646     -132.505104
9.257                0.945817054     -132.763826
9.258                0.945718673     -133.023062
9.259                0.945620509     -133.282812
9.26                 0.945522567     -133.543075
9.261                 0.94542485      -133.80385
9.262                0.945327363     -134.065135
9.263                0.945230111     -134.326929
9.264                0.945133099     -134.589231
9.265                0.945036331      -134.85204
9.266                0.944939813     -135.115355
9.267                0.944843548     -135.379174
9.268                0.944747541     -135.643496
9.269                0.944651798      -135.90832
9.27                 0.944556323     -136.173644
9.271                0.944461121     -136.439468
9.272                0.944366196     -136.705789
9.273                0.944271554     -136.972606
9.274                0.944177199     -137.239918
9.275                0.944083137     -137.507723
9.276                0.943989371     -137.776019
9.277                0.943895907     -138.044806
9.278                0.943802751     -138.314082
9.279                0.943709906     -138.583845
9.28                 0.943617377     -138.854093
9.281                0.943525171     -139.124825
9.282                0.943433291     -139.396039
9.283                0.943341742     -139.667734
9.284                0.943250531     -139.939907
9.285                 0.94315966     -140.212557
9.286                0.943069137     -140.485682
9.287                0.942978964     -140.759281
9.288                0.942889149     -141.033352
9.289                0.942799695     -141.307891
9.29                 0.942710607     -141.582899
9.291                0.942621892     -141.858373
9.292                0.942533553      -142.13431
9.293                0.942445596      -142.41071
9.294                0.942358026     -142.687569
9.295                0.942270847     -142.964887
9.296                0.942184066      -143.24266
9.297                0.942097687     -143.520887
9.298                0.942011714     -143.799565
9.299                0.941926155     -144.078694
9.3                  0.941841012     -144.358269
9.301                0.941756292      -144.63829
9.302                0.941671999     -144.918753
9.303                0.941588139     -145.199657
9.304                0.941504717        -145.481
9.305                0.941421737     -145.762778
9.306                0.941339205     -146.044991
9.307                0.941257126     -146.327634
9.308                0.941175505     -146.610707
9.309                0.941094347     -146.894206
9.31                 0.941013657     -147.178129
9.311                0.940933441     -147.462474
9.312                0.940853702     -147.747238
9.313                0.940774447     -148.032419
9.314                 0.94069568     -148.318013
9.315                0.940617407     -148.604019
9.316                0.940539632     -148.890434
9.317                 0.94046236     -149.177254
9.318                0.940385597     -149.464479
9.319                0.940309347     -149.752103
9.32                 0.940233615     -150.040126
9.321                0.940158407     -150.328545
9.322                0.940083727     -150.617355
9.323                 0.94000958     -150.906556
9.324                0.939935972     -151.196143
9.325                0.939862907     -151.486114
9.326                0.939790389     -151.776466
9.327                0.939718425     -152.067197
9.328                0.939647018     -152.358302
9.329                0.939576174      -152.64978
9.33                 0.939505897     -152.941627
9.331                0.939436192      -153.23384
9.332                0.939367064     -153.526416
9.333                0.939298518     -153.819352
9.334                0.939230559     -154.112645
9.335                0.939163191     -154.406292
9.336                0.939096418      -154.70029
9.337                0.939030246     -154.994635
9.338                0.938964679     -155.289324
9.339                0.938899722     -155.584354
9.34                  0.93883538     -155.879722
9.341                0.938771656     -156.175425
9.342                0.938708556     -156.471458
9.343                0.938646084     -156.767819
9.344                0.938584244     -157.064505
9.345                0.938523041     -157.361512
9.346                 0.93846248     -157.658836
9.347                0.938402564     -157.956474
9.348                0.938343298     -158.254424
9.349                0.938284686      -158.55268
9.35                 0.938226733      -158.85124
9.351                0.938169443       -159.1501
9.352                 0.93811282     -159.449257
9.353                0.938056868     -159.748707
9.354                0.938001592     -160.048446
9.355                0.937946995     -160.348472
9.356                0.937893081     -160.648779
9.357                0.937839855     -160.949365
9.358                 0.93778732     -161.250225
9.359                0.937735481     -161.551357
9.36                 0.937684341     -161.852756
9.361                0.937633904     -162.154418
9.362                0.937584174     -162.456341
9.363                0.937535155     -162.758519
9.364                 0.93748685      -163.06095
9.365                0.937439263     -163.363628
9.366                0.937392398     -163.666552
9.367                0.937346258     -163.969716
9.368                0.937300847     -164.273116
9.369                0.937256168      -164.57675
9.37                 0.937212225     -164.880612
9.371                0.937169021     -165.184699
9.372                0.937126559     -165.489007
9.373                0.937084843     -165.793532
9.374                0.937043876      -166.09827
9.375                0.937003661     -166.403217
9.376                0.936964201     -166.708368
9.377                0.936925499      -167.01372
9.378                0.936887558     -167.319269
9.379                0.936850382     -167.625011
9.38                 0.936813973     -167.930941
9.381                0.936778334     -168.237055
9.382                0.936743467      -168.54335
9.383                0.936709376      -168.84982
9.384                0.936676064     -169.156462
9.385                0.936643532     -169.463272
9.386                0.936611783     -169.770246
9.387                 0.93658082     -170.077379
9.388                0.936550645     -170.384666
9.389                0.936521261     -170.692105
9.39                  0.93649267      -170.99969
9.391                0.936464875     -171.307417
9.392                0.936437876     -171.615282
9.393                0.936411678     -171.923281
9.394                 0.93638628     -172.231409
9.395                0.936361687     -172.539662
9.396                0.936337899     -172.848036
