! TOUCHSTONE file generated by CST DESIGN STUDIO
! Date and time: Tue Feb  4 13:16:10 2025
! Project name: C:\Work\MatlabApps\UnitCellOptimizationMatlab\CST\unitcell.cst
! Tree item: Tasks\Sweep1\SPara1\S-Parameters
! Header version: 2024
! Port assignment regex: !\s*Touchstone port\s*([0-9]+)\s*=\s*(CST MWS port|CST DES external port|CST DES block port)\s*(.+)\s* \(\"(.*)\"\)(\s*mode\s*([0-9]+))?.*
! Touchstone port assignment:
! Touchstone port 1 = CST DES external port 1 ("")
# GHz S MA R 50
9                    0.977079785     -64.4956131
9.001                0.977037026     -64.5883807
9.002                0.976994118     -64.6813733
9.003                 0.97695106     -64.7745918
9.004                0.976907852     -64.8680367
9.005                0.976864492     -64.9617088
9.006                0.976820982     -65.0556089
9.007                0.976777319     -65.1497376
9.008                0.976733505     -65.2440958
9.009                0.976689537     -65.3386841
9.01                 0.976645417     -65.4335033
9.011                0.976601142     -65.5285541
9.012                0.976556713     -65.6238373
9.013                 0.97651213     -65.7193536
9.014                0.976467391     -65.8151038
9.015                0.976422496     -65.9110886
9.016                0.976377445     -66.0073087
9.017                0.976332237      -66.103765
9.018                0.976286872     -66.2004581
9.019                 0.97624135     -66.2973889
9.02                 0.976195669      -66.394558
9.021                0.976149829     -66.4919664
9.022                 0.97610383     -66.5896146
9.023                0.976057671     -66.6875036
9.024                0.976011352      -66.785634
9.025                0.975964872     -66.8840067
9.026                 0.97591823     -66.9826225
9.027                0.975871427      -67.081482
9.028                0.975824462     -67.1805861
9.029                0.975777334     -67.2799356
9.03                 0.975730042     -67.3795313
9.031                0.975682587     -67.4793739
9.032                0.975634967     -67.5794643
9.033                0.975587182     -67.6798032
9.034                0.975539232     -67.7803915
9.035                0.975491116     -67.8812299
9.036                0.975442834     -67.9823192
9.037                0.975394384     -68.0836603
9.038                0.975345768      -68.185254
9.039                0.975296983     -68.2871011
9.04                  0.97524803     -68.3892023
9.041                0.975198908     -68.4915585
9.042                0.975149616     -68.5941706
9.043                0.975100154     -68.6970393
9.044                0.975050522     -68.8001655
9.045                0.975000719       -68.90355
9.046                0.974950744     -69.0071936
9.047                0.974900597     -69.1110971
9.048                0.974850277     -69.2152615
9.049                0.974799785     -69.3196874
9.05                 0.974749118     -69.4243759
9.051                0.974698278     -69.5293277
9.052                0.974647263     -69.6345436
9.053                0.974596072     -69.7400245
9.054                0.974544706     -69.8457713
9.055                0.974493164     -69.9517848
9.056                0.974441445     -70.0580658
9.057                0.974389549     -70.1646153
9.058                0.974337474     -70.2714341
9.059                0.974285222      -70.378523
9.06                  0.97423279     -70.4858829
9.061                 0.97418018     -70.5935147
9.062                0.974127389     -70.7014193
9.063                0.974074418     -70.8095975
9.064                0.974021266     -70.9180502
9.065                0.973967933     -71.0267783
9.066                0.973914417     -71.1357826
9.067                0.973860719     -71.2450641
9.068                0.973806838     -71.3546236
9.069                0.973752774     -71.4644621
9.07                 0.973698525     -71.5745804
9.071                0.973644092     -71.6849794
9.072                0.973589474       -71.79566
9.073                 0.97353467     -71.9066232
9.074                 0.97347968     -72.0178697
9.075                0.973424504     -72.1294006
9.076                 0.97336914     -72.2412168
9.077                0.973313588      -72.353319
9.078                0.973257849     -72.4657083
9.079                 0.97320192     -72.5783856
9.08                 0.973145803     -72.6913518
9.081                0.973089495     -72.8046078
9.082                0.973032997     -72.9181546
9.083                0.972976309      -73.031993
9.084                0.972919429      -73.146124
9.085                0.972862358     -73.2605486
9.086                0.972805094     -73.3752676
9.087                0.972747637      -73.490282
9.088                0.972689987     -73.6055928
9.089                0.972632143     -73.7212008
9.09                 0.972574104     -73.8371071
9.091                0.972515871     -73.9533125
9.092                0.972457442     -74.0698181
9.093                0.972398818     -74.1866248
9.094                0.972339997     -74.3037335
9.095                0.972280979     -74.4211452
9.096                0.972221764     -74.5388608
9.097                 0.97216235     -74.6568814
9.098                0.972102739     -74.7752079
9.099                0.972042928     -74.8938412
9.1                  0.971982918     -75.0127824
9.101                0.971922708     -75.1320323
9.102                0.971862298     -75.2515921
9.103                0.971801687     -75.3714626
9.104                0.971740874     -75.4916448
9.105                 0.97167986     -75.6121398
9.106                0.971618643     -75.7329484
9.107                0.971557223     -75.8540718
9.108                  0.9714956     -75.9755109
9.109                0.971433773     -76.0972666
9.11                 0.971371742       -76.21934
9.111                0.971309506     -76.3417321
9.112                0.971247064     -76.4644439
9.113                0.971184417     -76.5874764
9.114                0.971121564     -76.7108306
9.115                0.971058504     -76.8345075
9.116                0.970995236     -76.9585081
9.117                0.970931761     -77.0828335
9.118                0.970868078     -77.2074845
9.119                0.970804187     -77.3324624
9.12                 0.970740086      -77.457768
9.121                0.970675776     -77.5834025
9.122                0.970611255     -77.7093668
9.123                0.970546525     -77.8356619
9.124                0.970481583      -77.962289
9.125                 0.97041643      -78.089249
9.126                0.970351065      -78.216543
9.127                0.970285488     -78.3441719
9.128                0.970219699     -78.4721369
9.129                0.970153696      -78.600439
9.13                  0.97008748     -78.7290793
9.131                 0.97002105     -78.8580587
9.132                0.969954405     -78.9873784
9.133                0.969887545     -79.1170393
9.134                0.969820471     -79.2470426
9.135                 0.96975318     -79.3773893
9.136                0.969685673     -79.5080804
9.137                 0.96961795     -79.6391171
9.138                 0.96955001     -79.7705003
9.139                0.969481853     -79.9022312
9.14                 0.969413477     -80.0343108
9.141                0.969344884     -80.1667402
9.142                0.969276072     -80.2995205
9.143                0.969207041     -80.4326526
9.144                0.969137791     -80.5661378
9.145                0.969068321     -80.6999771
9.146                0.968998631     -80.8341715
9.147                 0.96892872     -80.9687222
9.148                0.968858589     -81.1036302
9.149                0.968788236     -81.2388966
9.15                 0.968717662     -81.3745225
9.151                0.968646865     -81.5105091
9.152                0.968575847     -81.6468573
9.153                0.968504606     -81.7835683
9.154                0.968433141     -81.9206432
9.155                0.968361454     -82.0580831
9.156                0.968289542      -82.195889
9.157                0.968217407     -82.3340622
9.158                0.968145047     -82.4726036
9.159                0.968072463     -82.6115144
9.16                 0.967999653     -82.7507957
9.161                0.967926619     -82.8904486
9.162                0.967853358     -83.0304743
9.163                0.967779872     -83.1708737
9.164                 0.96770616     -83.3116481
9.165                0.967632221     -83.4527986
9.166                0.967558055     -83.5943263
9.167                0.967483662     -83.7362322
9.168                0.967409042     -83.8785176
9.169                0.967334194     -84.0211835
9.17                 0.967259118     -84.1642311
9.171                0.967183814     -84.3076615
9.172                0.967108282     -84.4514758
9.173                0.967032521     -84.5956751
9.174                0.966956531     -84.7402606
9.175                0.966880312     -84.8852335
9.176                0.966803864     -85.0305947
9.177                0.966727186     -85.1763456
9.178                0.966650279     -85.3224871
9.179                0.966573141     -85.4690205
9.18                 0.966495774     -85.6159469
9.181                0.966418176     -85.7632673
9.182                0.966340347     -85.9109831
9.183                0.966262288     -86.0590952
9.184                0.966183998     -86.2076049
9.185                0.966105477     -86.3565133
9.186                0.966026725     -86.5058215
9.187                0.965947742     -86.6555307
9.188                0.965868527      -86.805642
9.189                 0.96578908     -86.9561566
9.19                 0.965709402     -87.1070756
9.191                0.965629493     -87.2584001
9.192                0.965549351     -87.4101314
9.193                0.965468977     -87.5622705
9.194                0.965388371     -87.7148186
9.195                0.965307533     -87.8677769
9.196                0.965226463     -88.0211465
9.197                0.965145161     -88.1749286
9.198                0.965063626     -88.3291243
9.199                0.964981859     -88.4837348
9.2                  0.964899859     -88.6387612
9.201                0.964817627     -88.7942047
9.202                0.964735163     -88.9500664
9.203                0.964652466     -89.1063475
9.204                0.964569537     -89.2630492
9.205                0.964486376     -89.4201726
9.206                0.964402982     -89.5777188
9.207                0.964319356      -89.735689
9.208                0.964235497     -89.8940844
9.209                0.964151407     -90.0529061
9.21                 0.964067084     -90.2121553
9.211                0.963982529     -90.3718332
9.212                0.963897743     -90.5319408
9.213                0.963812724     -90.6924794
9.214                0.963727474     -90.8534501
9.215                0.963641992      -91.014854
9.216                0.963556279     -91.1766923
9.217                0.963470335     -91.3389662
9.218                0.963384159     -91.5016768
9.219                0.963297752     -91.6648253
9.22                 0.963211115     -91.8284128
9.221                0.963124247     -91.9924405
9.222                0.963037149     -92.1569095
9.223                0.962949821     -92.3218209
9.224                0.962862263      -92.487176
9.225                0.962774475     -92.6529758
9.226                0.962686458     -92.8192216
9.227                0.962598212     -92.9859144
9.228                0.962509737     -93.1530554
9.229                0.962421033     -93.3206458
9.23                 0.962332102     -93.4886866
9.231                0.962242942     -93.6571791
9.232                0.962153555     -93.8261244
9.233                0.962063941     -93.9955235
9.234                0.961974101     -94.1653777
9.235                0.961884034     -94.3356881
9.236                0.961793741     -94.5064558
9.237                0.961703222     -94.6776819
9.238                0.961612479     -94.8493676
9.239                0.961521511      -95.021514
9.24                 0.961430319     -95.1941223
9.241                0.961338903     -95.3671935
9.242                0.961247264     -95.5407287
9.243                0.961155402     -95.7147292
9.244                0.961063318     -95.8891959
9.245                0.960971013     -96.0641301
9.246                0.960878487     -96.2395328
9.247                 0.96078574     -96.4154052
9.248                0.960692773     -96.5917483
9.249                0.960599588     -96.7685633
9.25                 0.960506183     -96.9458512
9.251                0.960412561     -97.1236132
9.252                0.960318722     -97.3018503
9.253                0.960224666     -97.4805637
9.254                0.960130394     -97.6597545
9.255                0.960035907     -97.8394236
9.256                0.959941205     -98.0195723
9.257                 0.95984629     -98.2002015
9.258                0.959751162     -98.3813124
9.259                0.959655822     -98.5629061
9.26                 0.959560271     -98.7449835
9.261                 0.95946451     -98.9275458
9.262                0.959368539     -99.1105941
9.263                0.959272359     -99.2941293
9.264                0.959175971     -99.4781526
9.265                0.959079377      -99.662665
9.266                0.958982576     -99.8476675
9.267                0.958885571     -100.033161
9.268                0.958788361     -100.219147
9.269                0.958690949     -100.405626
9.27                 0.958593334       -100.5926
9.271                0.958495519     -100.780068
9.272                0.958397504     -100.968033
9.273                0.958299289     -101.156496
9.274                0.958200877     -101.345456
9.275                0.958102269     -101.534916
9.276                0.958003465     -101.724877
9.277                0.957904467     -101.915338
9.278                0.957805275     -102.106302
9.279                0.957705892      -102.29777
9.28                 0.957606318     -102.489741
9.281                0.957506555     -102.682218
9.282                0.957406603     -102.875201
9.283                0.957306465     -103.068691
9.284                0.957206141     -103.262689
9.285                0.957105634     -103.457197
9.286                0.957004943     -103.652214
9.287                0.956904071     -103.847742
9.288                0.956803019     -104.043782
9.289                0.956701789     -104.240335
9.29                 0.956600381     -104.437401
9.291                0.956498798     -104.634982
9.292                0.956397042     -104.833079
9.293                0.956295112     -105.031692
9.294                0.956193012     -105.230822
9.295                0.956090743      -105.43047
9.296                0.955988306     -105.630637
9.297                0.955885703     -105.831324
9.298                0.955782935     -106.032532
9.299                0.955680005     -106.234261
9.3                  0.955576914     -106.436512
9.301                0.955473664     -106.639287
9.302                0.955370257     -106.842586
9.303                0.955266694     -107.046409
9.304                0.955162978     -107.250759
9.305                0.955059109     -107.455634
9.306                0.954955091     -107.661037
9.307                0.954850925     -107.866968
9.308                0.954746612     -108.073427
9.309                0.954642156     -108.280416
9.31                 0.954537558     -108.487935
9.311                0.954432819     -108.695985
9.312                0.954327943     -108.904567
9.313                 0.95422293     -109.113681
9.314                0.954117784     -109.323329
9.315                0.954012506      -109.53351
9.316                0.953907099     -109.744225
9.317                0.953801565     -109.955476
9.318                0.953695905     -110.167262
9.319                0.953590123     -110.379585
9.32                  0.95348422     -110.592446
9.321                  0.9533782     -110.805843
9.322                0.953272063     -111.019779
9.323                0.953165814     -111.234255
9.324                0.953059453     -111.449269
9.325                0.952952984     -111.664824
9.326                0.952846408      -111.88092
9.327                0.952739729     -112.097556
9.328                 0.95263295     -112.314735
9.329                0.952526072     -112.532456
9.33                 0.952419098     -112.750719
9.331                0.952312031     -112.969527
9.332                0.952204873     -113.188877
9.333                0.952097628     -113.408773
9.334                0.951990297     -113.629213
9.335                0.951882884     -113.850198
9.336                0.951775392     -114.071729
9.337                0.951667823     -114.293806
9.338                 0.95156018      -114.51643
9.339                0.951452467     -114.739601
9.34                 0.951344685     -114.963319
9.341                0.951236838     -115.187585
9.342                0.951128929     -115.412398
9.343                0.951020961      -115.63776
9.344                0.950912937     -115.863671
9.345                 0.95080486     -116.090131
9.346                0.950696734      -116.31714
9.347                 0.95058856     -116.544699
9.348                0.950480344     -116.772808
9.349                0.950372086     -117.001467
9.35                 0.950263792     -117.230676
9.351                0.950155464     -117.460436
9.352                0.950047106     -117.690746
9.353                0.949938721     -117.921608
9.354                0.949830312      -118.15302
9.355                0.949721883     -118.384984
9.356                0.949613437     -118.617499
9.357                0.949504977     -118.850566
9.358                0.949396508     -119.084184
9.359                0.949288032     -119.318354
9.36                 0.949179554     -119.553076
9.361                0.949071077      -119.78835
9.362                0.948962604     -120.024175
9.363                 0.94885414     -120.260552
9.364                0.948745687     -120.497481
9.365                 0.94863725     -120.734962
9.366                0.948528833     -120.972995
9.367                0.948420439     -121.211579
9.368                0.948312072     -121.450715
9.369                0.948203737     -121.690402
9.37                 0.948095436     -121.930641
9.371                0.947987174     -122.171431
9.372                0.947878955     -122.412772
9.373                0.947770783     -122.654664
9.374                0.947662662     -122.897107
9.375                0.947554595       -123.1401
9.376                0.947446588     -123.383643
9.377                0.947338645     -123.627736
9.378                0.947230768     -123.872379
9.379                0.947122964     -124.117571
9.38                 0.947015235     -124.363312
9.381                0.946907586     -124.609602
9.382                0.946800022      -124.85644
9.383                0.946692547     -125.103826
9.384                0.946585165      -125.35176
9.385                 0.94647788      -125.60024
9.386                0.946370698     -125.849268
9.387                0.946263622     -126.098841
9.388                0.946156657      -126.34896
9.389                0.946049807     -126.599624
9.39                 0.945943077     -126.850832
9.391                0.945836473     -127.102585
9.392                0.945729997      -127.35488
9.393                0.945623655     -127.607719
9.394                0.945517452       -127.8611
9.395                0.945411392     -128.115022
9.396                 0.94530548     -128.369485
