! TOUCHSTONE file generated by CST DESIGN STUDIO
! Date and time: Tue Feb  4 13:16:07 2025
! Project name: C:\Work\MatlabApps\UnitCellOptimizationMatlab\CST\unitcell.cst
! Tree item: Tasks\Sweep1\SPara1\S-Parameters
! Header version: 2024
! Port assignment regex: !\s*Touchstone port\s*([0-9]+)\s*=\s*(CST MWS port|CST DES external port|CST DES block port)\s*(.+)\s* \(\"(.*)\"\)(\s*mode\s*([0-9]+))?.*
! Touchstone port assignment:
! Touchstone port 1 = CST DES external port 1 ("")
# GHz S MA R 50
9                    0.975343947     -69.0399356
9.001                0.975292917     -69.1425799
9.002                0.975241725     -69.2454795
9.003                0.975190372     -69.3486352
9.004                0.975138856     -69.4520477
9.005                0.975087178      -69.555718
9.006                0.975035337     -69.6596468
9.007                0.974983332     -69.7638349
9.008                0.974931163     -69.8682833
9.009                 0.97487883     -69.9729926
9.01                 0.974826332     -70.0779639
9.011                0.974773669     -70.1831978
9.012                 0.97472084     -70.2886953
9.013                0.974667844     -70.3944571
9.014                0.974614682     -70.5004842
9.015                0.974561353     -70.6067773
9.016                0.974507856     -70.7133374
9.017                0.974454191     -70.8201652
9.018                0.974400358     -70.9272617
9.019                0.974346356     -71.0346277
9.02                 0.974292184      -71.142264
9.021                0.974237842     -71.2501715
9.022                0.974183331     -71.3583511
9.023                0.974128648     -71.4668036
9.024                0.974073794       -71.57553
9.025                0.974018768     -71.6845311
9.026                0.973963571     -71.7938077
9.027                  0.9739082     -71.9033607
9.028                0.973852657     -72.0131911
9.029                 0.97379694     -72.1232997
9.03                  0.97374105     -72.2336874
9.031                0.973684984     -72.3443551
9.032                0.973628744     -72.4553037
9.033                0.973572329      -72.566534
9.034                0.973515738      -72.678047
9.035                0.973458971     -72.7898436
9.036                0.973402027     -72.9019246
9.037                0.973344906     -73.0142911
9.038                0.973287608     -73.1269438
9.039                0.973230131     -73.2398837
9.04                 0.973172477     -73.3531117
9.041                0.973114643     -73.4666287
9.042                 0.97305663     -73.5804357
9.043                0.972998437     -73.6945335
9.044                0.972940064     -73.8089231
9.045                 0.97288151     -73.9236054
9.046                0.972822776     -74.0385813
9.047                0.972763859     -74.1538518
9.048                0.972704761     -74.2694179
9.049                 0.97264548     -74.3852803
9.05                 0.972586017     -74.5014401
9.051                 0.97252637     -74.6178982
9.052                0.972466539     -74.7346556
9.053                0.972406525     -74.8517132
9.054                0.972346325     -74.9690719
9.055                0.972285941     -75.0867328
9.056                0.972225371     -75.2046967
9.057                0.972164615     -75.3229646
9.058                0.972103673     -75.4415375
9.059                0.972042545     -75.5604163
9.06                 0.971981229      -75.679602
9.061                0.971919725     -75.7990955
9.062                0.971858033     -75.9188979
9.063                0.971796153     -76.0390101
9.064                0.971734084     -76.1594331
9.065                0.971671826     -76.2801678
9.066                0.971609378     -76.4012152
9.067                 0.97154674     -76.5225764
9.068                0.971483911     -76.6442523
9.069                0.971420892     -76.7662438
9.07                  0.97135768      -76.888552
9.071                0.971294278     -77.0111778
9.072                0.971230683     -77.1341224
9.073                0.971166895     -77.2573865
9.074                0.971102914     -77.3809713
9.075                 0.97103874     -77.5048778
9.076                0.970974372     -77.6291069
9.077                 0.97090981     -77.7536597
9.078                0.970845054     -77.8785371
9.079                0.970780102     -78.0037402
9.08                 0.970714955       -78.12927
9.081                0.970649612     -78.2551275
9.082                0.970584073     -78.3813137
9.083                0.970518337     -78.5078296
9.084                0.970452405     -78.6346763
9.085                0.970386275     -78.7618548
9.086                0.970319947     -78.8893661
9.087                0.970253421     -79.0172112
9.088                0.970186697     -79.1453912
9.089                0.970119774     -79.2739071
9.09                 0.970052652       -79.40276
9.091                0.969985331     -79.5319508
9.092                0.969917809     -79.6614807
9.093                0.969850087     -79.7913506
9.094                0.969782165     -79.9215616
9.095                0.969714041     -80.0521147
9.096                0.969645716     -80.1830111
9.097                 0.96957719     -80.3142517
9.098                0.969508461     -80.4458376
9.099                0.969439531     -80.5777698
9.1                  0.969370397     -80.7100495
9.101                0.969301061     -80.8426777
9.102                0.969231521     -80.9756553
9.103                0.969161777     -81.1089836
9.104                 0.96909183     -81.2426636
9.105                0.969021678     -81.3766962
9.106                0.968951321     -81.5110827
9.107                 0.96888076     -81.6458241
9.108                0.968809993     -81.7809214
9.109                0.968739021     -81.9163757
9.11                 0.968667843     -82.0521881
9.111                0.968596458     -82.1883597
9.112                0.968524868     -82.3248915
9.113                 0.96845307     -82.4617847
9.114                0.968381066     -82.5990403
9.115                0.968308854     -82.7366594
9.116                0.968236435     -82.8746432
9.117                0.968163808     -83.0129926
9.118                0.968090973     -83.1517088
9.119                 0.96801793     -83.2907928
9.12                 0.967944678     -83.4302459
9.121                0.967871217      -83.570069
9.122                0.967797547     -83.7102632
9.123                0.967723668     -83.8508298
9.124                0.967649579     -83.9917697
9.125                 0.96757528      -84.133084
9.126                0.967500772      -84.274774
9.127                0.967426053     -84.4168406
9.128                0.967351124      -84.559285
9.129                0.967275984     -84.7021083
9.13                 0.967200633     -84.8453116
9.131                0.967125072      -84.988896
9.132                0.967049299     -85.1328627
9.133                0.966973315     -85.2772127
9.134                0.966897119     -85.4219472
9.135                0.966820711     -85.5670672
9.136                0.966744092      -85.712574
9.137                 0.96666726     -85.8584685
9.138                0.966590216     -86.0047521
9.139                 0.96651296     -86.1514256
9.14                 0.966435492     -86.2984904
9.141                0.966357811     -86.4459474
9.142                0.966279917     -86.5937979
9.143                 0.96620181      -86.742043
9.144                 0.96612349     -86.8906837
9.145                0.966044957     -87.0397213
9.146                0.965966211     -87.1891568
9.147                0.965887252     -87.3389913
9.148                 0.96580808     -87.4892261
9.149                0.965728694     -87.6398622
9.15                 0.965649094     -87.7909008
9.151                0.965569281      -87.942343
9.152                0.965489255     -88.0941899
9.153                0.965409015     -88.2464427
9.154                0.965328561     -88.3991024
9.155                0.965247893     -88.5521704
9.156                0.965167012     -88.7056476
9.157                0.965085918     -88.8595352
9.158                0.965004609     -89.0138343
9.159                0.964923087     -89.1685461
9.16                 0.964841351     -89.3236718
9.161                0.964759402     -89.4792124
9.162                0.964677239     -89.6351691
9.163                0.964594862      -89.791543
9.164                0.964512272     -89.9483353
9.165                0.964429469     -90.1055471
9.166                0.964346452     -90.2631796
9.167                0.964263222     -90.4212339
9.168                0.964179778      -90.579711
9.169                0.964096122     -90.7386123
9.17                 0.964012253     -90.8979387
9.171                0.963928171     -91.0576914
9.172                0.963843876     -91.2178717
9.173                0.963759369     -91.3784805
9.174                0.963674649     -91.5395191
9.175                0.963589717     -91.7009886
9.176                0.963504573     -91.8628901
9.177                0.963419218     -92.0252247
9.178                 0.96333365     -92.1879937
9.179                0.963247872      -92.351198
9.18                 0.963161882     -92.5148389
9.181                0.963075681     -92.6789175
9.182                0.962989269     -92.8434349
9.183                0.962902647     -93.0083922
9.184                0.962815814     -93.1737907
9.185                0.962728772     -93.3396313
9.186                 0.96264152     -93.5059152
9.187                0.962554059     -93.6726436
9.188                0.962466389     -93.8398176
9.189                 0.96237851     -94.0074383
9.19                 0.962290423     -94.1755068
9.191                0.962202128     -94.3440243
9.192                0.962113626     -94.5129918
9.193                0.962024916     -94.6824105
9.194                0.961935999     -94.8522815
9.195                0.961846877     -95.0226059
9.196                0.961757548     -95.1933849
9.197                0.961668013     -95.3646195
9.198                0.961578274     -95.5363108
9.199                 0.96148833     -95.7084599
9.2                  0.961398182      -95.881068
9.201                0.961307831     -96.0541362
9.202                0.961217276     -96.2276655
9.203                0.961126519     -96.4016571
9.204                 0.96103556      -96.576112
9.205                0.960944399     -96.7510313
9.206                0.960853037     -96.9264162
9.207                0.960761476     -97.1022677
9.208                0.960669714     -97.2785869
9.209                0.960577754     -97.4553749
9.21                 0.960485595     -97.6326327
9.211                0.960393238     -97.8103615
9.212                0.960300685     -97.9885622
9.213                0.960207934     -98.1672361
9.214                0.960114989     -98.3463841
9.215                0.960021848     -98.5260073
9.216                0.959928513     -98.7061067
9.217                0.959834984     -98.8866835
9.218                0.959741263     -99.0677387
9.219                 0.95964735     -99.2492733
9.22                 0.959553246     -99.4312883
9.221                0.959458952     -99.6137849
9.222                0.959364468     -99.7967639
9.223                0.959269795     -99.9802266
9.224                0.959174935     -100.164174
9.225                0.959079888     -100.348607
9.226                0.958984655     -100.533526
9.227                0.958889238     -100.718934
9.228                0.958793636     -100.904829
9.229                0.958697851     -101.091215
9.23                 0.958601885     -101.278091
9.231                0.958505737     -101.465459
9.232                0.958409409      -101.65332
9.233                0.958312903     -101.841674
9.234                0.958216218     -102.030523
9.235                0.958119357     -102.219868
9.236                0.958022321     -102.409709
9.237                0.957925109     -102.600047
9.238                0.957827725     -102.790885
9.239                0.957730168     -102.982221
9.24                 0.957632441     -103.174058
9.241                0.957534543     -103.366397
9.242                0.957436478     -103.559237
9.243                0.957338245     -103.752581
9.244                0.957239846     -103.946429
9.245                0.957141282     -104.140782
9.246                0.957042555     -104.335641
9.247                0.956943667     -104.531007
9.248                0.956844617     -104.726881
9.249                0.956745409     -104.923263
9.25                 0.956646043     -105.120155
9.251                 0.95654652     -105.317557
9.252                0.956446843     -105.515471
9.253                0.956347012     -105.713897
9.254                 0.95624703     -105.912835
9.255                0.956146897     -106.112288
9.256                0.956046616     -106.312255
9.257                0.955946187     -106.512738
9.258                0.955845613     -106.713737
9.259                0.955744896     -106.915253
9.26                 0.955644036     -107.117287
9.261                0.955543035      -107.31984
9.262                0.955441896     -107.522912
9.263                0.955340619     -107.726505
9.264                0.955239207     -107.930619
9.265                0.955137662     -108.135254
9.266                0.955035985     -108.340413
9.267                0.954934178     -108.546094
9.268                0.954832243       -108.7523
9.269                0.954730182      -108.95903
9.27                 0.954627997     -109.166286
9.271                 0.95452569     -109.374068
9.272                0.954423262     -109.582377
9.273                0.954320716     -109.791213
9.274                0.954218054     -110.000578
9.275                0.954115277     -110.210472
9.276                0.954012388     -110.420895
9.277                 0.95390939     -110.631849
9.278                0.953806283     -110.843333
9.279                0.953703071     -111.055349
9.28                 0.953599755     -111.267897
9.281                0.953496338     -111.480978
9.282                0.953392822     -111.694591
9.283                0.953289209     -111.908739
9.284                0.953185502     -112.123421
9.285                0.953081702     -112.338638
9.286                0.952977813     -112.554391
9.287                0.952873836     -112.770679
9.288                0.952769774     -112.987504
9.289                 0.95266563     -113.204866
9.29                 0.952561405     -113.422766
9.291                0.952457103     -113.641203
9.292                0.952352726     -113.860179
9.293                0.952248276     -114.079694
9.294                0.952143757     -114.299748
9.295                 0.95203917     -114.520342
9.296                0.951934519     -114.741476
9.297                0.951829805     -114.963151
9.298                0.951725033     -115.185367
9.299                0.951620204     -115.408124
9.3                  0.951515321     -115.631423
9.301                0.951410387     -115.855263
9.302                0.951305406     -116.079646
9.303                0.951200379     -116.304572
9.304                0.951095309      -116.53004
9.305                0.950990201     -116.756052
9.306                0.950885056     -116.982607
9.307                0.950779877     -117.209706
9.308                0.950674668     -117.437349
9.309                0.950569432     -117.665536
9.31                 0.950464171     -117.894268
9.311                0.950358889     -118.123544
9.312                0.950253589     -118.353365
9.313                0.950148274      -118.58373
9.314                0.950042947     -118.814641
9.315                0.949937612     -119.046097
9.316                0.949832271     -119.278098
9.317                0.949726929     -119.510644
9.318                0.949621588     -119.743736
9.319                0.949516252     -119.977373
9.32                 0.949410924     -120.211555
9.321                0.949305608     -120.446283
9.322                0.949200306     -120.681557
9.323                0.949095023     -120.917376
9.324                0.948989762      -121.15374
9.325                0.948884527      -121.39065
9.326                 0.94877932     -121.628105
9.327                0.948674147     -121.866105
9.328                0.948569009      -122.10465
9.329                0.948463912      -122.34374
9.33                 0.948358858     -122.583375
9.331                0.948253852     -122.823554
9.332                0.948148897     -123.064278
9.333                0.948043997     -123.305546
9.334                0.947939156     -123.547358
9.335                0.947834378     -123.789714
9.336                0.947729666     -124.032613
9.337                0.947625024     -124.276055
9.338                0.947520457      -124.52004
9.339                0.947415968     -124.764568
9.34                 0.947311561     -125.009637
9.341                0.947207241     -125.255249
9.342                0.947103011     -125.501401
9.343                0.946998876     -125.748095
9.344                 0.94689484     -125.995329
9.345                0.946790906     -126.243103
9.346                0.946687079     -126.491417
9.347                0.946583363     -126.740269
9.348                0.946479763     -126.989661
9.349                0.946376282      -127.23959
9.35                 0.946272926     -127.490056
9.351                0.946169697     -127.741059
9.352                0.946066602     -127.992598
9.353                0.945963643     -128.244673
9.354                0.945860825     -128.497283
9.355                0.945758154     -128.750426
9.356                0.945655633     -129.004104
9.357                0.945553266     -129.258313
9.358                0.945451059     -129.513055
9.359                0.945349016     -129.768328
9.36                 0.945247141     -130.024131
9.361                0.945145439     -130.280463
9.362                0.945043915     -130.537325
9.363                0.944942573     -130.794713
9.364                0.944841418     -131.052629
9.365                0.944740454     -131.311071
9.366                0.944639687     -131.570037
9.367                0.944539121     -131.829528
9.368                0.944438761     -132.089541
9.369                0.944338611     -132.350076
9.37                 0.944238677     -132.611132
9.371                0.944138963     -132.872708
9.372                0.944039474     -133.134802
9.373                0.943940216     -133.397414
9.374                0.943841192     -133.660542
9.375                0.943742408     -133.924186
9.376                0.943643869     -134.188343
9.377                 0.94354558     -134.453013
9.378                0.943447545     -134.718194
9.379                 0.94334977     -134.983886
9.38                  0.94325226     -135.250086
9.381                 0.94315502     -135.516793
9.382                0.943058054     -135.784007
9.383                0.942961369     -136.051725
9.384                0.942864969     -136.319947
9.385                0.942768859      -136.58867
9.386                0.942673044     -136.857894
9.387                 0.94257753     -137.127616
9.388                0.942482321     -137.397836
9.389                0.942387423     -137.668551
9.39                 0.942292842      -137.93976
9.391                0.942198581     -138.211462
9.392                0.942104647     -138.483654
9.393                0.942011045     -138.756336
9.394                0.941917779     -139.029504
9.395                0.941824856     -139.303159
9.396                0.941732281     -139.577297
