! TOUCHSTONE file generated by CST DESIGN STUDIO
! Date and time: Tue Feb  4 13:16:00 2025
! Project name: C:\Work\MatlabApps\UnitCellOptimizationMatlab\CST\unitcell.cst
! Tree item: Tasks\Sweep1\SPara1\S-Parameters
! Header version: 2024
! Port assignment regex: !\s*Touchstone port\s*([0-9]+)\s*=\s*(CST MWS port|CST DES external port|CST DES block port)\s*(.+)\s* \(\"(.*)\"\)(\s*mode\s*([0-9]+))?.*
! Touchstone port assignment:
! Touchstone port 1 = CST DES external port 1 ("")
# GHz S MA R 50
9                    0.970885178      -80.728171
9.001                0.970814083     -80.8586436
9.002                0.970742815     -80.9894584
9.003                0.970671373     -81.1206164
9.004                0.970599758     -81.2521187
9.005                0.970527969     -81.3839664
9.006                0.970456005     -81.5161604
9.007                0.970383865     -81.6487018
9.008                0.970311551     -81.7815918
9.009                 0.97023906     -81.9148312
9.01                 0.970166393     -82.0484212
9.011                 0.97009355     -82.1823629
9.012                 0.97002053     -82.3166573
9.013                0.969947332     -82.4513054
9.014                0.969873956     -82.5863083
9.015                0.969800402     -82.7216671
9.016                 0.96972667     -82.8573829
9.017                0.969652759     -82.9934566
9.018                0.969578669     -83.1298894
9.019                0.969504399     -83.2666824
9.02                 0.969429949     -83.4038366
9.021                0.969355319     -83.5413531
9.022                0.969280508     -83.6792329
9.023                0.969205516     -83.8174772
9.024                0.969130343      -83.956087
9.025                0.969054988     -84.0950634
9.026                0.968979451     -84.2344075
9.027                0.968903732     -84.3741204
9.028                0.968827831     -84.5142031
9.029                0.968751747     -84.6546567
9.03                 0.968675479     -84.7954824
9.031                0.968599028     -84.9366812
9.032                0.968522393     -85.0782541
9.033                0.968445574     -85.2202024
9.034                0.968368571      -85.362527
9.035                0.968291383     -85.5052291
9.036                 0.96821401     -85.6483098
9.037                0.968136452     -85.7917702
9.038                0.968058708     -85.9356113
9.039                0.967980779     -86.0798343
9.04                 0.967902664     -86.2244403
9.041                0.967824363     -86.3694303
9.042                0.967745876     -86.5148055
9.043                0.967667201      -86.660567
9.044                 0.96758834     -86.8067158
9.045                0.967509292     -86.9532532
9.046                0.967430057     -87.1001801
9.047                0.967350634     -87.2474977
9.048                0.967271024     -87.3952071
9.049                0.967191225     -87.5433095
9.05                 0.967111239     -87.6918058
9.051                0.967031065     -87.8406973
9.052                0.966950702      -87.989985
9.053                 0.96687015     -88.1396701
9.054                 0.96678941     -88.2897537
9.055                0.966708481     -88.4402368
9.056                0.966627363     -88.5911207
9.057                0.966546056     -88.7424063
9.058                 0.96646456     -88.8940949
9.059                0.966382875     -89.0461875
9.06                    0.966301     -89.1986853
9.061                0.966218935     -89.3515893
9.062                0.966136681     -89.5049008
9.063                0.966054238     -89.6586207
9.064                0.965971604     -89.8127503
9.065                0.965888781     -89.9672906
9.066                0.965805768     -90.1222427
9.067                0.965722565     -90.2776079
9.068                0.965639172     -90.4333871
9.069                0.965555589     -90.5895816
9.07                 0.965471816     -90.7461923
9.071                0.965387853     -90.9032206
9.072                  0.9653037     -91.0606674
9.073                0.965219358     -91.2185338
9.074                0.965134825     -91.3768211
9.075                0.965050102     -91.5355303
9.076                 0.96496519     -91.6946625
9.077                0.964880087     -91.8542188
9.078                0.964794795     -92.0142004
9.079                0.964709313     -92.1746084
9.08                 0.964623642     -92.3354439
9.081                0.964537781      -92.496708
9.082                 0.96445173     -92.6584018
9.083                0.964365491     -92.8205265
9.084                0.964279062     -92.9830831
9.085                0.964192444     -93.1460727
9.086                0.964105638     -93.3094965
9.087                0.964018642     -93.4733556
9.088                0.963931458      -93.637651
9.089                0.963844086      -93.802384
9.09                 0.963756526     -93.9675555
9.091                0.963668777     -94.1331668
9.092                0.963580841     -94.2992188
9.093                0.963492718     -94.4657127
9.094                0.963404407     -94.6326497
9.095                 0.96331591     -94.8000307
9.096                0.963227225      -94.967857
9.097                0.963138354     -95.1361295
9.098                0.963049297     -95.3048494
9.099                0.962960055     -95.4740179
9.1                  0.962870627     -95.6436358
9.101                0.962781013     -95.8137045
9.102                0.962691215     -95.9842249
9.103                0.962601233     -96.1551981
9.104                0.962511066     -96.3266253
9.105                0.962420716     -96.4985074
9.106                0.962330182     -96.6708457
9.107                0.962239466      -96.843641
9.108                0.962148567     -97.0168946
9.109                0.962057487     -97.1906075
9.11                 0.961966225     -97.3647808
9.111                0.961874782     -97.5394155
9.112                0.961783158     -97.7145127
9.113                0.961691355     -97.8900734
9.114                0.961599372     -98.0660988
9.115                 0.96150721     -98.2425898
9.116                 0.96141487     -98.4195476
9.117                0.961322352     -98.5969731
9.118                0.961229657     -98.7748674
9.119                0.961136785     -98.9532316
9.12                 0.961043738     -99.1320666
9.121                0.960950515     -99.3113736
9.122                0.960857118     -99.4911536
9.123                0.960763546     -99.6714075
9.124                0.960669802     -99.8521365
9.125                0.960575884     -100.033341
9.126                0.960481795     -100.215024
9.127                0.960387535     -100.397184
9.128                0.960293105     -100.579823
9.129                0.960198505     -100.762942
9.13                 0.960103736     -100.946542
9.131                  0.9600088     -101.130625
9.132                0.959913696      -101.31519
9.133                0.959818426      -101.50024
9.134                0.959722991     -101.685774
9.135                0.959627392     -101.871795
9.136                0.959531629     -102.058302
9.137                0.959435703     -102.245298
9.138                0.959339615     -102.432782
9.139                0.959243367     -102.620756
9.14                 0.959146959     -102.809221
9.141                0.959050393     -102.998178
9.142                0.958953669     -103.187627
9.143                0.958856788      -103.37757
9.144                0.958759752     -103.568008
9.145                0.958662561     -103.758941
9.146                0.958565217     -103.950371
9.147                0.958467721     -104.142297
9.148                0.958370073     -104.334722
9.149                0.958272276     -104.527647
9.15                 0.958174331     -104.721071
9.151                0.958076237     -104.914996
9.152                0.957977998     -105.109423
9.153                0.957879614     -105.304352
9.154                0.957781086     -105.499785
9.155                0.957682415     -105.695722
9.156                0.957583604     -105.892165
9.157                0.957484653     -106.089114
9.158                0.957385563     -106.286569
9.159                0.957286337     -106.484532
9.16                 0.957186976     -106.683004
9.161                 0.95708748     -106.881985
9.162                0.956987852     -107.081476
9.163                0.956888093     -107.281479
9.164                0.956788204     -107.481993
9.165                0.956688187     -107.683019
9.166                0.956588044     -107.884559
9.167                0.956487776     -108.086613
9.168                0.956387385     -108.289182
9.169                0.956286872     -108.492266
9.17                 0.956186239     -108.695867
9.171                0.956085488     -108.899984
9.172                0.955984621      -109.10462
9.173                0.955883638     -109.309774
9.174                0.955782543     -109.515447
9.175                0.955681337      -109.72164
9.176                0.955580021     -109.928353
9.177                0.955478597     -110.135588
9.178                0.955377068     -110.343344
9.179                0.955275435     -110.551623
9.18                   0.9551737     -110.760425
9.181                0.955071865     -110.969751
9.182                0.954969932     -111.179602
9.183                0.954867904     -111.389977
9.184                0.954765781     -111.600878
9.185                0.954663566     -111.812306
9.186                0.954561262      -112.02426
9.187                 0.95445887     -112.236741
9.188                0.954356392     -112.449751
9.189                0.954253831     -112.663289
9.19                 0.954151188     -112.877355
9.191                0.954048467     -113.091952
9.192                0.953945669     -113.307078
9.193                0.953842796     -113.522735
9.194                0.953739851     -113.738923
9.195                0.953636836     -113.955642
9.196                0.953533754     -114.172893
9.197                0.953430607     -114.390677
9.198                0.953327397     -114.608993
9.199                0.953224126     -114.827842
9.2                  0.953120798     -115.047226
9.201                0.953017415     -115.267143
9.202                0.952913979     -115.487594
9.203                0.952810492      -115.70858
9.204                0.952706958     -115.930102
9.205                0.952603379     -116.152159
9.206                0.952499758     -116.374751
9.207                0.952396097      -116.59788
9.208                0.952292398     -116.821545
9.209                0.952188666     -117.045746
9.21                 0.952084902     -117.270484
9.211                 0.95198111      -117.49576
9.212                0.951877291     -117.721573
9.213                 0.95177345     -117.947924
9.214                0.951669588     -118.174812
9.215                0.951565709     -118.402238
9.216                0.951461816     -118.630203
9.217                0.951357911     -118.858705
9.218                0.951253998     -119.087746
9.219                 0.95115008     -119.317326
9.22                  0.95104616     -119.547445
9.221                 0.95094224     -119.778102
9.222                0.950838324     -120.009298
9.223                0.950734416     -120.241033
9.224                0.950630517     -120.473307
9.225                0.950526632     -120.706119
9.226                0.950422764     -120.939471
9.227                0.950318916     -121.173362
9.228                0.950215091     -121.407791
9.229                0.950111293      -121.64276
9.23                 0.950007525     -121.878267
9.231                 0.94990379     -122.114313
9.232                0.949800092     -122.350897
9.233                0.949696434      -122.58802
9.234                0.949592819     -122.825681
9.235                0.949489252     -123.063881
9.236                0.949385736     -123.302618
9.237                0.949282274     -123.541893
9.238                 0.94917887     -123.781706
9.239                0.949075527     -124.022056
9.24                  0.94897225     -124.262943
9.241                0.948869041     -124.504367
9.242                0.948765905     -124.746328
9.243                0.948662846     -124.988824
9.244                0.948559866     -125.231857
9.245                 0.94845697     -125.475425
9.246                0.948354162     -125.719528
9.247                0.948251446     -125.964166
9.248                0.948148825     -126.209338
9.249                0.948046303     -126.455043
9.25                 0.947943885     -126.701283
9.251                0.947841574     -126.948055
9.252                0.947739374     -127.195359
9.253                0.947637289     -127.443196
9.254                0.947535324     -127.691563
9.255                0.947433482     -127.940461
9.256                0.947331768      -128.18989
9.257                0.947230185     -128.439848
9.258                0.947128738     -128.690335
9.259                0.947027431      -128.94135
9.26                 0.946926269     -129.192892
9.261                0.946825254     -129.444961
9.262                0.946724393     -129.697557
9.263                0.946623688     -129.950678
9.264                0.946523145     -130.204323
9.265                0.946422768     -130.458492
9.266                 0.94632256     -130.713184
9.267                0.946222527     -130.968398
9.268                0.946122673     -131.224133
9.269                0.946023002     -131.480388
9.27                 0.945923519     -131.737163
9.271                0.945824228     -131.994456
9.272                0.945725134     -132.252267
9.273                0.945626241     -132.510594
9.274                0.945527554     -132.769436
9.275                0.945429077     -133.028793
9.276                0.945330816     -133.288663
9.277                0.945232774     -133.549045
9.278                0.945134956     -133.809939
9.279                0.945037367     -134.071342
9.28                 0.944940012     -134.333254
9.281                0.944842895     -134.595674
9.282                0.944746022       -134.8586
9.283                0.944649396     -135.122031
9.284                0.944553023     -135.385966
9.285                0.944456907     -135.650404
9.286                0.944361053     -135.915342
9.287                0.944265467     -136.180781
9.288                0.944170152     -136.446718
9.289                0.944075114     -136.713152
9.29                 0.943980357     -136.980081
9.291                0.943885887     -137.247505
9.292                0.943791708     -137.515421
9.293                0.943697826     -137.783829
9.294                0.943604245     -138.052726
9.295                 0.94351097     -138.322111
9.296                0.943418006     -138.591983
9.297                0.943325358     -138.862339
9.298                0.943233031     -139.133179
9.299                0.943141031       -139.4045
9.3                  0.943049361     -139.676301
9.301                0.942958028      -139.94858
9.302                0.942867036     -140.221335
9.303                 0.94277639     -140.494565
9.304                0.942686095     -140.768267
9.305                0.942596157     -141.042441
9.306                 0.94250658     -141.317083
9.307                 0.94241737     -141.592192
9.308                0.942328531     -141.867767
9.309                0.942240069     -142.143804
9.31                 0.942151988     -142.420303
9.311                0.942064295     -142.697262
9.312                0.941976994     -142.974677
9.313                 0.94189009     -143.252547
9.314                0.941803588     -143.530871
9.315                0.941717493     -143.809645
9.316                0.941631811     -144.088868
9.317                0.941546547     -144.368538
9.318                0.941461705     -144.648652
9.319                0.941377291     -144.929208
9.32                 0.941293311     -145.210204
9.321                0.941209768     -145.491637
9.322                0.941126669     -145.773506
9.323                0.941044018     -146.055808
9.324                0.940961821      -146.33854
9.325                0.940880083     -146.621701
9.326                0.940798808     -146.905287
9.327                0.940718003     -147.189296
9.328                0.940637671     -147.473726
9.329                0.940557818     -147.758574
9.33                  0.94047845     -148.043838
9.331                0.940399571     -148.329515
9.332                0.940321187     -148.615603
9.333                0.940243301     -148.902098
9.334                0.940165921     -149.188999
9.335                 0.94008905     -149.476302
9.336                0.940012694     -149.764006
9.337                0.939936857     -150.052106
9.338                0.939861545       -150.3406
9.339                0.939786763     -150.629487
9.34                 0.939712515     -150.918761
9.341                0.939638807     -151.208422
9.342                0.939565644     -151.498466
9.343                 0.93949303      -151.78889
9.344                0.939420971     -152.079691
9.345                0.939349471     -152.370866
9.346                0.939278535     -152.662413
9.347                0.939208169     -152.954328
9.348                0.939138376     -153.246608
9.349                0.939069163      -153.53925
9.35                 0.939000533     -153.832251
9.351                0.938932491     -154.125608
9.352                0.938865042     -154.419318
9.353                0.938798192     -154.713377
9.354                0.938731944     -155.007783
9.355                0.938666303     -155.302532
9.356                0.938601275     -155.597621
9.357                0.938536862     -155.893047
9.358                0.938473071     -156.188806
9.359                0.938409906     -156.484896
9.36                 0.938347372     -156.781312
9.361                0.938285472     -157.078051
9.362                0.938224211      -157.37511
9.363                0.938163594     -157.672486
9.364                0.938103625     -157.970175
9.365                0.938044309     -158.268174
9.366                 0.93798565     -158.566479
9.367                0.937927652     -158.865086
9.368                 0.93787032     -159.163993
9.369                0.937813657     -159.463195
9.37                 0.937757669     -159.762689
9.371                0.937702358     -160.062471
9.372                 0.93764773     -160.362538
9.373                0.937593788     -160.662886
9.374                0.937540537     -160.963512
9.375                 0.93748798     -161.264411
9.376                0.937436121      -161.56558
9.377                0.937384965     -161.867015
9.378                0.937334515     -162.168713
9.379                0.937284775      -162.47067
9.38                 0.937235749     -162.772881
9.381                0.937187441     -163.075343
9.382                0.937139854     -163.378053
9.383                0.937092992     -163.681006
9.384                0.937046858     -163.984198
9.385                0.937001457     -164.287626
9.386                0.936956791     -164.591286
9.387                0.936912864     -164.895173
9.388                 0.93686968     -165.199284
9.389                0.936827242     -165.503615
9.39                 0.936785553     -165.808162
9.391                0.936744616      -166.11292
9.392                0.936704435     -166.417886
9.393                0.936665013     -166.723056
9.394                0.936626353     -167.028425
9.395                0.936588458      -167.33399
9.396                 0.93655133     -167.639746
