! TOUCHSTONE file generated by CST DESIGN STUDIO
! Date and time: Tue Feb  4 13:16:09 2025
! Project name: C:\Work\MatlabApps\UnitCellOptimizationMatlab\CST\unitcell.cst
! Tree item: Tasks\Sweep1\SPara1\S-Parameters
! Header version: 2024
! Port assignment regex: !\s*Touchstone port\s*([0-9]+)\s*=\s*(CST MWS port|CST DES external port|CST DES block port)\s*(.+)\s* \(\"(.*)\"\)(\s*mode\s*([0-9]+))?.*
! Touchstone port assignment:
! Touchstone port 1 = CST DES external port 1 ("")
# GHz S MA R 50
9                      0.9762198     -66.7502609
9.001                0.976172631     -66.8478704
9.002                0.976125307     -66.9457196
9.003                0.976077828     -67.0438091
9.004                0.976030192     -67.1421399
9.005                  0.9759824     -67.2407126
9.006                0.975934451     -67.3395281
9.007                0.975886345      -67.438587
9.008                0.975838081     -67.5378903
9.009                0.975789658     -67.6374386
9.01                 0.975741077     -67.7372328
9.011                0.975692337     -67.8372736
9.012                0.975643437     -67.9375619
9.013                0.975594376     -68.0380983
9.014                0.975545155     -68.1388838
9.015                0.975495773     -68.2399192
9.016                 0.97544623     -68.3412051
9.017                0.975396524     -68.4427425
9.018                0.975346656     -68.5445321
9.019                0.975296625     -68.6465748
9.02                  0.97524643     -68.7488713
9.021                0.975196072     -68.8514225
9.022                0.975145549     -68.9542291
9.023                0.975094861     -69.0572921
9.024                0.975044008     -69.1606121
9.025                0.974992989     -69.2641902
9.026                0.974941804      -69.368027
9.027                0.974890452     -69.4721234
9.028                0.974838933     -69.5764802
9.029                0.974787246     -69.6810983
9.03                 0.974735391     -69.7859785
9.031                0.974683368     -69.8911216
9.032                0.974631175     -69.9965286
9.033                0.974578813     -70.1022001
9.034                 0.97452628     -70.2081372
9.035                0.974473578     -70.3143406
9.036                0.974420704     -70.4208111
9.037                0.974367658     -70.5275497
9.038                0.974314441     -70.6345572
9.039                0.974261051     -70.7418345
9.04                 0.974207489     -70.8493823
9.041                0.974153753     -70.9572017
9.042                0.974099843     -71.0652934
9.043                0.974045759     -71.1736583
9.044                  0.9739915     -71.2822973
9.045                0.973937066     -71.3912113
9.046                0.973882456     -71.5004011
9.047                 0.97382767     -71.6098677
9.048                0.973772708     -71.7196119
9.049                0.973717568     -71.8296346
9.05                  0.97366225     -71.9399367
9.051                0.973606755     -72.0505191
9.052                0.973551081     -72.1613826
9.053                0.973495228     -72.2725283
9.054                0.973439196     -72.3839569
9.055                0.973382983     -72.4956694
9.056                 0.97332659     -72.6076666
9.057                0.973270017     -72.7199496
9.058                0.973213262     -72.8325192
9.059                0.973156325     -72.9453762
9.06                 0.973099206     -73.0585218
9.061                0.973041904     -73.1719566
9.062                0.972984419     -73.2856817
9.063                 0.97292675     -73.3996981
9.064                0.972868897     -73.5140065
9.065                 0.97281086      -73.628608
9.066                0.972752638     -73.7435034
9.067                 0.97269423     -73.8586938
9.068                0.972635636       -73.97418
9.069                0.972576855      -74.089963
9.07                 0.972517888     -74.2060438
9.071                0.972458734     -74.3224232
9.072                0.972399391     -74.4391022
9.073                0.972339861     -74.5560818
9.074                0.972280142     -74.6733629
9.075                0.972220233     -74.7909465
9.076                0.972160135     -74.9088335
9.077                0.972099847     -75.0270249
9.078                0.972039369     -75.1455217
9.079                0.971978699     -75.2643248
9.08                 0.971917839     -75.3834352
9.081                0.971856786     -75.5028538
9.082                0.971795541     -75.6225816
9.083                0.971734104     -75.7426197
9.084                0.971672473     -75.8629689
9.085                0.971610649     -75.9836303
9.086                0.971548631     -76.1046048
9.087                0.971486418     -76.2258935
9.088                 0.97142401     -76.3474972
9.089                0.971361408     -76.4694171
9.09                 0.971298609     -76.5916541
9.091                0.971235614     -76.7142091
9.092                0.971172423     -76.8370833
9.093                0.971109035     -76.9602775
9.094                0.971045449     -77.0837929
9.095                0.970981666     -77.2076303
9.096                0.970917684     -77.3317908
9.097                0.970853503     -77.4562754
9.098                0.970789124     -77.5810852
9.099                0.970724545     -77.7062211
9.1                  0.970659766     -77.8316841
9.101                0.970594787     -77.9574753
9.102                0.970529607     -78.0835958
9.103                0.970464226     -78.2100464
9.104                0.970398643     -78.3368283
9.105                0.970332859     -78.4639424
9.106                0.970266872     -78.5913899
9.107                0.970200683     -78.7191717
9.108                 0.97013429     -78.8472888
9.109                0.970067695     -78.9757424
9.11                 0.970000895     -79.1045334
9.111                0.969933891      -79.233663
9.112                0.969866683      -79.363132
9.113                0.969799269     -79.4929417
9.114                0.969731651      -79.623093
9.115                0.969663826     -79.7535869
9.116                0.969595796     -79.8844246
9.117                0.969527559     -80.0156071
9.118                0.969459116     -80.1471355
9.119                0.969390465     -80.2790107
9.12                 0.969321607      -80.411234
9.121                0.969252541     -80.5438063
9.122                0.969183267     -80.6767287
9.123                0.969113785     -80.8100022
9.124                0.969044094      -80.943628
9.125                0.968974193     -81.0776071
9.126                0.968904084     -81.2119407
9.127                0.968833764     -81.3466296
9.128                0.968763234     -81.4816752
9.129                0.968692494     -81.6170783
9.13                 0.968621543     -81.7528402
9.131                0.968550382     -81.8889619
9.132                0.968479009     -82.0254444
9.133                0.968407424     -82.1622889
9.134                0.968335627     -82.2994965
9.135                0.968263618     -82.4370682
9.136                0.968191397     -82.5750052
9.137                0.968118963     -82.7133085
9.138                0.968046316     -82.8519793
9.139                0.967973456     -82.9910186
9.14                 0.967900382     -83.1304275
9.141                0.967827094     -83.2702072
9.142                0.967753593     -83.4103587
9.143                0.967679877     -83.5508832
9.144                0.967605946     -83.6917817
9.145                0.967531801     -83.8330554
9.146                0.967457441     -83.9747054
9.147                0.967382865     -84.1167328
9.148                0.967308074     -84.2591387
9.149                0.967233068     -84.4019242
9.15                 0.967157845     -84.5450904
9.151                0.967082407     -84.6886386
9.152                0.967006752     -84.8325696
9.153                0.966930881     -84.9768848
9.154                0.966854793     -85.1215852
9.155                0.966778488      -85.266672
9.156                0.966701967     -85.4121462
9.157                0.966625228      -85.558009
9.158                0.966548272     -85.7042616
9.159                0.966471099      -85.850905
9.16                 0.966393708     -85.9979404
9.161                0.966316099     -86.1453689
9.162                0.966238273     -86.2931916
9.163                0.966160228     -86.4414098
9.164                0.966081966     -86.5900244
9.165                0.966003485     -86.7390367
9.166                0.965924786     -86.8884478
9.167                0.965845869     -87.0382588
9.168                0.965766734     -87.1884709
9.169                0.965687379     -87.3390852
9.17                 0.965607807     -87.4901028
9.171                0.965528015     -87.6415249
9.172                0.965448005     -87.7933526
9.173                0.965367777     -87.9455871
9.174                0.965287329     -88.0982295
9.175                0.965206663     -88.2512809
9.176                0.965125778     -88.4047425
9.177                0.965044674     -88.5586155
9.178                0.964963351     -88.7129009
9.179                 0.96488181        -88.8676
9.18                  0.96480005     -89.0227139
9.181                0.964718071     -89.1782436
9.182                0.964635873     -89.3341905
9.183                0.964553457     -89.4905555
9.184                0.964470822     -89.6473399
9.185                0.964387968     -89.8045448
9.186                0.964304896     -89.9621714
9.187                0.964221606     -90.1202207
9.188                0.964138098      -90.278694
9.189                0.964054371     -90.4375924
9.19                 0.963970426      -90.596917
9.191                0.963886264     -90.7566691
9.192                0.963801884     -90.9168496
9.193                0.963717286     -91.0774598
9.194                 0.96363247     -91.2385008
9.195                0.963547438     -91.3999738
9.196                0.963462188     -91.5618799
9.197                0.963376721     -91.7242203
9.198                0.963291038      -91.886996
9.199                0.963205138     -92.0502083
9.2                  0.963119022     -92.2138583
9.201                 0.96303269     -92.3779471
9.202                0.962946142     -92.5424759
9.203                0.962859379     -92.7074458
9.204                  0.9627724     -92.8728579
9.205                0.962685207     -93.0387134
9.206                0.962597799     -93.2050134
9.207                0.962510177      -93.371759
9.208                 0.96242234     -93.5389515
9.209                 0.96233429     -93.7065919
9.21                 0.962246027     -93.8746813
9.211                0.962157551     -94.0432209
9.212                0.962068863     -94.2122119
9.213                0.961979962     -94.3816552
9.214                 0.96189085     -94.5515522
9.215                0.961801526     -94.7219038
9.216                0.961711992     -94.8927113
9.217                0.961622247     -95.0639756
9.218                0.961532292     -95.2356981
9.219                0.961442128     -95.4078797
9.22                 0.961351755     -95.5805216
9.221                0.961261173     -95.7536249
9.222                0.961170384     -95.9271907
9.223                0.961079387     -96.1012201
9.224                0.960988183     -96.2757142
9.225                0.960896773     -96.4506742
9.226                0.960805158     -96.6261011
9.227                0.960713337      -96.801996
9.228                0.960621312     -96.9783601
9.229                0.960529084     -97.1551943
9.23                 0.960436652     -97.3324999
9.231                0.960344018     -97.5102779
9.232                0.960251182     -97.6885293
9.233                0.960158145     -97.8672553
9.234                0.960064907      -98.046457
9.235                 0.95997147     -98.2261353
9.236                0.959877834     -98.4062915
9.237                   0.959784     -98.5869264
9.238                0.959689969     -98.7680413
9.239                0.959595741     -98.9496372
9.24                 0.959501318     -99.1317151
9.241                  0.9594067     -99.3142761
9.242                0.959311888     -99.4973213
9.243                0.959216883     -99.6808516
9.244                0.959121685     -99.8648681
9.245                0.959026297     -100.049372
9.246                0.958930718     -100.234364
9.247                 0.95883495     -100.419845
9.248                0.958738993     -100.605817
9.249                0.958642849      -100.79228
9.25                 0.958546519     -100.979236
9.251                0.958450004     -101.166685
9.252                0.958353304     -101.354628
9.253                0.958256421     -101.543067
9.254                0.958159356     -101.732002
9.255                 0.95806211     -101.921434
9.256                0.957964684     -102.111365
9.257                 0.95786708     -102.301795
9.258                0.957769298     -102.492725
9.259                 0.95767134     -102.684157
9.26                 0.957573207     -102.876091
9.261                  0.9574749     -103.068528
9.262                 0.95737642     -103.261469
9.263                 0.95727777     -103.454916
9.264                0.957178949     -103.648868
9.265                 0.95707996     -103.843327
9.266                0.956980804     -104.038295
9.267                0.956881481      -104.23377
9.268                0.956781995     -104.429756
9.269                0.956682345     -104.626252
9.27                 0.956582534      -104.82326
9.271                0.956482563      -105.02078
9.272                0.956382433     -105.218814
9.273                0.956282146     -105.417361
9.274                0.956181703     -105.616424
9.275                0.956081107     -105.816002
9.276                0.955980358     -106.016098
9.277                0.955879459      -106.21671
9.278                 0.95577841     -106.417842
9.279                0.955677214     -106.619492
9.28                 0.955575873     -106.821662
9.281                0.955474387     -107.024354
9.282                0.955372759     -107.227567
9.283                0.955270991     -107.431302
9.284                0.955169084     -107.635561
9.285                 0.95506704     -107.840344
9.286                0.954964861     -108.045651
9.287                0.954862549     -108.251484
9.288                0.954760106     -108.457843
9.289                0.954657533      -108.66473
9.29                 0.954554833     -108.872144
9.291                0.954452008     -109.080087
9.292                0.954349059     -109.288558
9.293                0.954245989      -109.49756
9.294                  0.9541428     -109.707092
9.295                0.954039493     -109.917156
9.296                0.953936072     -110.127751
9.297                0.953832537     -110.338879
9.298                0.953728892      -110.55054
9.299                0.953625139     -110.762736
9.3                  0.953521278     -110.975465
9.301                0.953417314      -111.18873
9.302                0.953313249      -111.40253
9.303                0.953209083     -111.616867
9.304                0.953104821      -111.83174
9.305                0.953000464     -112.047151
9.306                0.952896014       -112.2631
9.307                0.952791475     -112.479588
9.308                0.952686848     -112.696614
9.309                0.952582136      -112.91418
9.31                 0.952477342     -113.132287
9.311                0.952372468     -113.350933
9.312                0.952267516     -113.570121
9.313                 0.95216249     -113.789851
9.314                0.952057392     -114.010122
9.315                0.951952224     -114.230936
9.316                 0.95184699     -114.452292
9.317                0.951741692     -114.674192
9.318                0.951636332     -114.896635
9.319                0.951530914     -115.119623
9.32                  0.95142544     -115.343155
9.321                0.951319914     -115.567231
9.322                0.951214338     -115.791853
9.323                0.951108715      -116.01702
9.324                0.951003047     -116.242733
9.325                0.950897339     -116.468992
9.326                0.950791593     -116.695797
9.327                0.950685811     -116.923148
9.328                0.950579998     -117.151047
9.329                0.950474156     -117.379492
9.33                 0.950368288     -117.608485
9.331                0.950262397     -117.838025
9.332                0.950156487     -118.068113
9.333                0.950050561     -118.298748
9.334                0.949944622     -118.529932
9.335                0.949838674     -118.761663
9.336                0.949732719     -118.993943
9.337                0.949626761     -119.226771
9.338                0.949520803     -119.460148
9.339                0.949414849     -119.694073
9.34                 0.949308903     -119.928546
9.341                0.949202967     -120.163568
9.342                0.949097046     -120.399138
9.343                0.948991142     -120.635257
9.344                0.948885259     -120.871925
9.345                0.948779402     -121.109141
9.346                0.948673573     -121.346905
9.347                0.948567776     -121.585218
9.348                0.948462015     -121.824078
9.349                0.948356294     -122.063487
9.35                 0.948250616     -122.303444
9.351                0.948144985     -122.543949
9.352                0.948039405     -122.785001
9.353                 0.94793388       -123.0266
9.354                0.947828414     -123.268747
9.355                 0.94772301     -123.511441
9.356                0.947617673     -123.754681
9.357                0.947512407     -123.998468
9.358                0.947407214     -124.242801
9.359                0.947302101      -124.48768
9.36                  0.94719707     -124.733104
9.361                0.947092125     -124.979073
9.362                0.946987272     -125.225587
9.363                0.946882513     -125.472645
9.364                0.946777854     -125.720247
9.365                0.946673298     -125.968392
9.366                0.946568849      -126.21708
9.367                0.946464512     -126.466311
9.368                0.946360292     -126.716083
9.369                0.946256192     -126.966397
9.37                 0.946152216     -127.217252
9.371                 0.94604837     -127.468647
9.372                0.945944658     -127.720581
9.373                0.945841083     -127.973054
9.374                0.945737651     -128.226066
9.375                0.945634366     -128.479615
9.376                0.945531233     -128.733702
9.377                0.945428256     -128.988324
9.378                0.945325439     -129.243482
9.379                0.945222787     -129.499174
9.38                 0.945120306     -129.755401
9.381                0.945017999      -130.01216
9.382                0.944915871     -130.269452
9.383                0.944813928     -130.527275
9.384                0.944712172     -130.785628
9.385                0.944610611      -131.04451
9.386                0.944509247     -131.303922
9.387                0.944408087     -131.563861
9.388                0.944307134     -131.824326
9.389                0.944206394     -132.085317
9.39                 0.944105872     -132.346832
9.391                0.944005572     -132.608871
9.392                  0.9439055     -132.871432
9.393                 0.94380566     -133.134514
9.394                0.943706057     -133.398116
9.395                0.943606697     -133.662237
9.396                0.943507584     -133.926876
