! TOUCHSTONE file generated by CST DESIGN STUDIO
! Date and time: Tue Feb  4 16:47:21 2025
! Project name: C:\Work\MatlabApps\UnitCellOptimizationMatlab\CST\unitcell.cst
! Tree item: Tasks\Sweep1\SPara1\S-Parameters
! Header version: 2024
! Port assignment regex: !\s*Touchstone port\s*([0-9]+)\s*=\s*(CST MWS port|CST DES external port|CST DES block port)\s*(.+)\s* \(\"(.*)\"\)(\s*mode\s*([0-9]+))?.*
! Touchstone port assignment:
! Touchstone port 1 = CST DES external port 1 ("")
# GHz S MA R 50
9                    0.967290511     -42.6129369
9.001                0.967234888     -42.6629475
9.002                 0.96717905     -42.7130549
9.003                0.967122998     -42.7632593
9.004                0.967066729      -42.813561
9.005                0.967010245     -42.8639604
9.006                0.966953543     -42.9144576
9.007                0.966896624      -42.965053
9.008                0.966839486     -43.0157469
9.009                0.966782129     -43.0665395
9.01                 0.966724551     -43.1174311
9.011                0.966666753      -43.168422
9.012                0.966608732     -43.2195125
9.013                 0.96655049     -43.2707029
9.014                0.966492024     -43.3219934
9.015                0.966433334     -43.3733844
9.016                0.966374419     -43.4248762
9.017                0.966315279     -43.4764689
9.018                0.966255912      -43.528163
9.019                0.966196319     -43.5799587
9.02                 0.966136497     -43.6318564
9.021                0.966076446     -43.6838562
9.022                0.966016166     -43.7359586
9.023                0.965955655     -43.7881637
9.024                0.965894913      -43.840472
9.025                0.965833939     -43.8928837
9.026                0.965772733      -43.945399
9.027                0.965711292     -43.9980184
9.028                0.965649617     -44.0507421
9.029                0.965587707     -44.1035704
9.03                 0.965525561     -44.1565037
9.031                0.965463177     -44.2095421
9.032                0.965400556     -44.2626861
9.033                0.965337696      -44.315936
9.034                0.965274597      -44.369292
9.035                0.965211257     -44.4227545
9.036                0.965147677     -44.4763237
9.037                0.965083854     -44.5300001
9.038                0.965019788     -44.5837838
9.039                0.964955478     -44.6376753
9.04                 0.964890924     -44.6916749
9.041                0.964826125     -44.7457827
9.042                0.964761079     -44.7999993
9.043                0.964695786     -44.8543249
9.044                0.964630244     -44.9087598
9.045                0.964564454     -44.9633043
9.046                0.964498414     -45.0179588
9.047                0.964432123     -45.0727236
9.048                 0.96436558     -45.1275991
9.049                0.964298785     -45.1825854
9.05                 0.964231737     -45.2376831
9.051                0.964164434     -45.2928924
9.052                0.964096876     -45.3482136
9.053                0.964029062     -45.4036471
9.054                0.963960991     -45.4591932
9.055                0.963892661     -45.5148522
9.056                0.963824073     -45.5706246
9.057                0.963755225     -45.6265105
9.058                0.963686117     -45.6825104
9.059                0.963616747     -45.7386247
9.06                 0.963547114     -45.7948535
9.061                0.963477217     -45.8511974
9.062                0.963407056     -45.9076565
9.063                 0.96333663     -45.9642314
9.064                0.963265938     -46.0209222
9.065                0.963194978     -46.0777295
9.066                0.963123749     -46.1346534
9.067                0.963052252     -46.1916945
9.068                0.962980485     -46.2488529
9.069                0.962908446     -46.3061292
9.07                 0.962836135     -46.3635235
9.071                0.962763551     -46.4210364
9.072                0.962690693     -46.4786681
9.073                 0.96261756      -46.536419
9.074                0.962544151     -46.5942895
9.075                0.962470465     -46.6522799
9.076                0.962396501     -46.7103905
9.077                0.962322258     -46.7686219
9.078                0.962247735     -46.8269743
9.079                0.962172931      -46.885448
9.08                 0.962097845     -46.9440435
9.081                0.962022476     -47.0027612
9.082                0.961946822     -47.0616013
9.083                0.961870884     -47.1205643
9.084                 0.96179466     -47.1796506
9.085                0.961718148     -47.2388604
9.086                0.961641349     -47.2981943
9.087                 0.96156426     -47.3576525
9.088                0.961486881     -47.4172355
9.089                0.961409211     -47.4769437
9.09                 0.961331248     -47.5367774
9.091                0.961252992     -47.5967369
9.092                0.961174442     -47.6568228
9.093                0.961095596     -47.7170353
9.094                0.961016453     -47.7773749
9.095                0.960937013      -47.837842
9.096                0.960857275     -47.8984369
9.097                0.960777236     -47.9591601
9.098                0.960696897     -48.0200119
9.099                0.960616255     -48.0809927
9.1                  0.960535311      -48.142103
9.101                0.960454063     -48.2033431
9.102                0.960372509     -48.2647134
9.103                0.960290649     -48.3262144
9.104                0.960208481     -48.3878464
9.105                0.960126005     -48.4496098
9.106                 0.96004322     -48.5115051
9.107                0.959960123     -48.5735327
9.108                0.959876715     -48.6356929
9.109                0.959792994     -48.6979862
9.11                 0.959708958      -48.760413
9.111                0.959624607     -48.8229737
9.112                 0.95953994     -48.8856688
9.113                0.959454955     -48.9484986
9.114                0.959369651     -49.0114635
9.115                0.959284028     -49.0745641
9.116                0.959198083     -49.1378006
9.117                0.959111816     -49.2011736
9.118                0.959025226     -49.2646835
9.119                0.958938311     -49.3283306
9.12                  0.95885107     -49.3921155
9.121                0.958763503     -49.4560385
9.122                0.958675607     -49.5201001
9.123                0.958587382     -49.5843007
9.124                0.958498826     -49.6486407
9.125                0.958409939     -49.7131207
9.126                0.958320719      -49.777741
9.127                0.958231164      -49.842502
9.128                0.958141275     -49.9074043
9.129                0.958051048     -49.9724482
9.13                 0.957960484     -50.0376343
9.131                0.957869581     -50.1029629
9.132                0.957778338     -50.1684345
9.133                0.957686753     -50.2340495
9.134                0.957594825     -50.2998085
9.135                0.957502553     -50.3657119
9.136                0.957409936       -50.43176
9.137                0.957316973     -50.4979535
9.138                0.957223661     -50.5642927
9.139                0.957130001     -50.6307781
9.14                  0.95703599     -50.6974102
9.141                0.956941628     -50.7641894
9.142                0.956846913     -50.8311162
9.143                0.956751843     -50.8981911
9.144                0.956656418     -50.9654145
9.145                0.956560637     -51.0327869
9.146                0.956464497     -51.1003089
9.147                0.956367998     -51.1679808
9.148                0.956271138     -51.2358032
9.149                0.956173916     -51.3037765
9.15                  0.95607633     -51.3719012
9.151                 0.95597838     -51.4401778
9.152                0.955880064     -51.5086068
9.153                0.955781381     -51.5771887
9.154                0.955682329     -51.6459239
9.155                0.955582906      -51.714813
9.156                0.955483113     -51.7838565
9.157                0.955382946     -51.8530547
9.158                0.955282406     -51.9224084
9.159                0.955181489     -51.9919179
9.16                 0.955080196     -52.0615837
9.161                0.954978525     -52.1314064
9.162                0.954876474     -52.2013864
9.163                0.954774042     -52.2715243
9.164                0.954671227     -52.3418206
9.165                0.954568029     -52.4122757
9.166                0.954464445     -52.4828903
9.167                0.954360475     -52.5536648
9.168                0.954256116     -52.6245997
9.169                0.954151368     -52.6956956
9.17                 0.954046229     -52.7669529
9.171                0.953940697     -52.8383723
9.172                0.953834772     -52.9099541
9.173                0.953728451     -52.9816991
9.174                0.953621734     -53.0536076
9.175                0.953514618     -53.1256802
9.176                0.953407103     -53.1979175
9.177                0.953299186       -53.27032
9.178                0.953190867     -53.3428882
9.179                0.953082144     -53.4156226
9.18                 0.952973015     -53.4885239
9.181                0.952863479     -53.5615926
9.182                0.952753534     -53.6348291
9.183                0.952643179     -53.7082341
9.184                0.952532413     -53.7818081
9.185                0.952421234     -53.8555516
9.186                0.952309639     -53.9294653
9.187                0.952197629     -54.0035497
9.188                0.952085201     -54.0778052
9.189                0.951972354     -54.1522326
9.19                 0.951859086     -54.2268324
9.191                0.951745396      -54.301605
9.192                0.951631281     -54.3765512
9.193                0.951516742     -54.4516714
9.194                0.951401775     -54.5269663
9.195                0.951286379     -54.6024364
9.196                0.951170554     -54.6780822
9.197                0.951054297     -54.7539045
9.198                0.950937606     -54.8299037
9.199                 0.95082048     -54.9060805
9.2                  0.950702918     -54.9824354
9.201                0.950584918      -55.058969
9.202                0.950466477     -55.1356819
9.203                0.950347596     -55.2125748
9.204                0.950228271     -55.2896481
9.205                0.950108502     -55.3669026
9.206                0.949988286     -55.4443388
9.207                0.949867623     -55.5219572
9.208                 0.94974651     -55.5997586
9.209                0.949624945     -55.6777435
9.21                 0.949502928     -55.7559126
9.211                0.949380456     -55.8342664
9.212                0.949257528     -55.9128056
9.213                0.949134142     -55.9915307
9.214                0.949010296     -56.0704425
9.215                0.948885989     -56.1495415
9.216                0.948761219     -56.2288283
9.217                0.948635984     -56.3083036
9.218                0.948510283     -56.3879681
9.219                0.948384113     -56.4678223
9.22                 0.948257474     -56.5478668
9.221                0.948130363     -56.6281024
9.222                0.948002778     -56.7085297
9.223                0.947874719     -56.7891493
9.224                0.947746183     -56.8699618
9.225                0.947617168     -56.9509679
9.226                0.947487672     -57.0321683
9.227                0.947357695     -57.1135635
9.228                0.947227234     -57.1951544
9.229                0.947096287     -57.2769414
9.23                 0.946964852     -57.3589253
9.231                0.946832928     -57.4411068
9.232                0.946700514     -57.5234865
9.233                0.946567606     -57.6060651
9.234                0.946434203     -57.6888432
9.235                0.946300305     -57.7718216
9.236                0.946165907     -57.8550008
9.237                 0.94603101     -57.9383817
9.238                 0.94589561     -58.0219648
9.239                0.945759707     -58.1057508
9.24                 0.945623298     -58.1897405
9.241                0.945486382     -58.2739346
9.242                0.945348956     -58.3583336
9.243                0.945211019     -58.4429384
9.244                0.945072568     -58.5277496
9.245                0.944933603      -58.612768
9.246                0.944794121     -58.6979941
9.247                 0.94465412     -58.7834288
9.248                0.944513598     -58.8690727
9.249                0.944372553     -58.9549266
9.25                 0.944230984     -59.0409912
9.251                0.944088889     -59.1272671
9.252                0.943946265     -59.2137552
9.253                0.943803111     -59.3004561
9.254                0.943659425     -59.3873706
9.255                0.943515204     -59.4744993
9.256                0.943370447     -59.5618431
9.257                0.943225153     -59.6494027
9.258                0.943079318     -59.7371787
9.259                0.942932941      -59.825172
9.26                  0.94278602     -59.9133833
9.261                0.942638553     -60.0018133
9.262                0.942490538     -60.0904628
9.263                0.942341973     -60.1793326
9.264                0.942192856     -60.2684233
9.265                0.942043185     -60.3577358
9.266                0.941892959     -60.4472708
9.267                0.941742174     -60.5370291
9.268                0.941590829     -60.6270115
9.269                0.941438922     -60.7172186
9.27                 0.941286451     -60.8076514
9.271                0.941133413     -60.8983105
9.272                0.940979808     -60.9891968
9.273                0.940825632      -61.080311
9.274                0.940670884     -61.1716539
9.275                0.940515561     -61.2632264
9.276                0.940359662     -61.3550291
9.277                0.940203184      -61.447063
9.278                0.940046126     -61.5393288
9.279                0.939888485     -61.6318272
9.28                 0.939730259     -61.7245592
9.281                0.939571446     -61.8175255
9.282                0.939412044     -61.9107269
9.283                 0.93925205     -62.0041642
9.284                0.939091464     -62.0978383
9.285                0.938930282       -62.19175
9.286                0.938768502     -62.2859001
9.287                0.938606123     -62.3802894
9.288                0.938443141     -62.4749188
9.289                0.938279556     -62.5697891
9.29                 0.938115364     -62.6649011
9.291                0.937950565     -62.7602557
9.292                0.937785154     -62.8558537
9.293                0.937619131      -62.951696
9.294                0.937452493     -63.0477833
9.295                0.937285237     -63.1441167
9.296                0.937117363     -63.2406969
9.297                0.936948866     -63.3375247
9.298                0.936779747     -63.4346011
9.299                0.936610001     -63.5319269
9.3                  0.936439627     -63.6295031
9.301                0.936268622     -63.7273303
9.302                0.936096985     -63.8254096
9.303                0.935924713     -63.9237418
9.304                0.935751804     -64.0223278
9.305                0.935578256     -64.1211686
9.306                0.935404066     -64.2202648
9.307                0.935229232     -64.3196176
9.308                0.935053752     -64.4192277
9.309                0.934877624     -64.5190961
9.31                 0.934700845     -64.6192236
9.311                0.934523413     -64.7196113
9.312                0.934345325     -64.8202599
9.313                0.934166581     -64.9211705
9.314                0.933987176     -65.0223438
9.315                0.933807109     -65.1237809
9.316                0.933626378     -65.2254827
9.317                 0.93344498     -65.3274501
9.318                0.933262913      -65.429684
9.319                0.933080174     -65.5321854
9.32                 0.932896762     -65.6349552
9.321                0.932712673     -65.7379943
9.322                0.932527907     -65.8413038
9.323                0.932342459     -65.9448845
9.324                0.932156328     -66.0487374
9.325                0.931969512     -66.1528634
9.326                0.931782008     -66.2572636
9.327                0.931593814     -66.3619388
9.328                0.931404928     -66.4668901
9.329                0.931215346     -66.5721185
9.33                 0.931025067     -66.6776248
9.331                0.930834089     -66.7834101
9.332                0.930642408     -66.8894754
9.333                0.930450023     -66.9958216
9.334                0.930256932     -67.1024497
9.335                0.930063131     -67.2093608
9.336                0.929868618     -67.3165558
9.337                0.929673391     -67.4240358
9.338                0.929477448     -67.5318017
9.339                0.929280786     -67.6398545
9.34                 0.929083403     -67.7481953
9.341                0.928885296     -67.8568251
9.342                0.928686463     -67.9657448
9.343                0.928486902     -68.0749556
9.344                 0.92828661     -68.1844584
9.345                0.928085584     -68.2942543
9.346                0.927883822     -68.4043443
9.347                0.927681322     -68.5147295
9.348                0.927478082     -68.6254108
9.349                0.927274098     -68.7363894
9.35                 0.927069369     -68.8476663
9.351                0.926863891     -68.9592426
9.352                0.926657663     -69.0711192
9.353                0.926450683     -69.1832973
9.354                0.926242946      -69.295778
9.355                0.926034452     -69.4085622
9.356                0.925825198     -69.5216511
9.357                0.925615181     -69.6350458
9.358                0.925404398     -69.7487473
9.359                0.925192848     -69.8627568
9.36                 0.924980528     -69.9770752
9.361                0.924767434     -70.0917037
9.362                0.924553566     -70.2066435
9.363                 0.92433892     -70.3218955
9.364                0.924123494      -70.437461
9.365                0.923907286     -70.5533409
9.366                0.923690292     -70.6695365
9.367                0.923472511     -70.7860489
9.368                 0.92325394     -70.9028791
9.369                0.923034577     -71.0200283
9.37                 0.922814418     -71.1374976
9.371                0.922593462     -71.2552882
9.372                0.922371706     -71.3734011
9.373                0.922149147     -71.4918376
9.374                0.921925784     -71.6105988
9.375                0.921701613     -71.7296858
9.376                0.921476633     -71.8490997
9.377                 0.92125084     -71.9688418
9.378                0.921024232     -72.0889132
9.379                0.920796807      -72.209315
9.38                 0.920568562     -72.3300485
9.381                0.920339494     -72.4511148
9.382                0.920109602      -72.572515
9.383                0.919878883     -72.6942504
9.384                0.919647334     -72.8163221
9.385                0.919414953     -72.9387314
9.386                0.919181737     -73.0614794
9.387                0.918947684     -73.1845673
9.388                0.918712792     -73.3079963
9.389                0.918477057     -73.4317677
9.39                 0.918240478     -73.5558826
9.391                0.918003052     -73.6803422
9.392                0.917764776     -73.8051478
9.393                0.917525649     -73.9303006
9.394                0.917285667     -74.0558018
9.395                0.917044828     -74.1816526
9.396                 0.91680313     -74.3078544
