! TOUCHSTONE file generated by CST DESIGN STUDIO
! Date and time: Tue Feb  4 16:47:07 2025
! Project name: C:\Work\MatlabApps\UnitCellOptimizationMatlab\CST\unitcell.cst
! Tree item: Tasks\Sweep1\SPara1\S-Parameters
! Header version: 2024
! Port assignment regex: !\s*Touchstone port\s*([0-9]+)\s*=\s*(CST MWS port|CST DES external port|CST DES block port)\s*(.+)\s* \(\"(.*)\"\)(\s*mode\s*([0-9]+))?.*
! Touchstone port assignment:
! Touchstone port 1 = CST DES external port 1 ("")
# GHz S MA R 50
9                    0.715227116     -125.164862
9.001                0.714347414     -125.483001
9.002                0.713467911     -125.802245
9.003                0.712588653     -126.122597
9.004                0.711709689     -126.444058
9.005                0.710831065      -126.76663
9.006                0.709952829     -127.090315
9.007                0.709075031     -127.415113
9.008                0.708197719     -127.741025
9.009                0.707320942     -128.068055
9.01                 0.706444752     -128.396201
9.011                0.705569199     -128.725467
9.012                0.704694334     -129.055852
9.013                0.703820208     -129.387358
9.014                0.702946874     -129.719986
9.015                0.702074385     -130.053736
9.016                0.701202793      -130.38861
9.017                0.700332153     -130.724609
9.018                0.699462518     -131.061732
9.019                0.698593943     -131.399981
9.02                 0.697726484     -131.739357
9.021                0.696860196     -132.079859
9.022                0.695995135     -132.421488
9.023                0.695131358     -132.764245
9.024                0.694268922     -133.108129
9.025                0.693407884     -133.453141
9.026                0.692548302      -133.79928
9.027                0.691690234     -134.146548
9.028                0.690833741     -134.494943
9.029                 0.68997888     -134.844466
9.03                 0.689125712     -135.195116
9.031                0.688274297     -135.546893
9.032                0.687424696     -135.899797
9.033                0.686576969     -136.253826
9.034                0.685731179     -136.608981
9.035                0.684887386      -136.96526
9.036                0.684045654     -137.322663
9.037                0.683206045     -137.681188
9.038                0.682368622     -138.040835
9.039                0.681533449     -138.401603
9.04                 0.680700589      -138.76349
9.041                0.679870107     -139.126496
9.042                0.679042068     -139.490617
9.043                0.678216535     -139.855854
9.044                0.677393575     -140.222204
9.045                0.676573253     -140.589665
9.046                0.675755635     -140.958237
9.047                0.674940788     -141.327915
9.048                0.674128777       -141.6987
9.049                 0.67331967     -142.070587
9.05                 0.672513534     -142.443576
9.051                0.671710436     -142.817663
9.052                0.670910444     -143.192846
9.053                0.670113625     -143.569122
9.054                0.669320049     -143.946489
9.055                0.668529783     -144.324943
9.056                0.667742896     -144.704482
9.057                0.666959457     -145.085101
9.058                0.666179535     -145.466798
9.059                0.665403199      -145.84957
9.06                 0.664630518     -146.233412
9.061                0.663861562     -146.618322
9.062                0.663096401     -147.004294
9.063                0.662335104     -147.391326
9.064                0.661577741     -147.779413
9.065                0.660824383     -148.168551
9.066                  0.6600751     -148.558735
9.067                0.659329961      -148.94996
9.068                0.658589037     -149.342224
9.069                0.657852398     -149.735519
9.07                 0.657120114     -150.129842
9.071                0.656392257     -150.525187
9.072                0.655668896     -150.921549
9.073                0.654950101     -151.318923
9.074                0.654235943     -151.717302
9.075                0.653526492     -152.116683
9.076                0.652821819     -152.517058
9.077                0.652121993     -152.918421
9.078                0.651427084     -153.320767
9.079                0.650737163     -153.724089
9.08                 0.650052299     -154.128381
9.081                0.649372561     -154.533637
9.082                 0.64869802     -154.939848
9.083                0.648028744      -155.34701
9.084                0.647364803     -155.755114
9.085                0.646706265     -156.164153
9.086                0.646053199      -156.57412
9.087                0.645405674     -156.985008
9.088                0.644763757     -157.396809
9.089                0.644127516     -157.809515
9.09                 0.643497019     -158.223118
9.091                0.642872334      -158.63761
9.092                0.642253526     -159.052983
9.093                0.641640662     -159.469228
9.094                 0.64103381     -159.886337
9.095                0.640433033     -160.304301
9.096                0.639838398     -160.723112
9.097                0.639249969     -161.142759
9.098                 0.63866781     -161.563235
9.099                0.638091987     -161.984529
9.1                  0.637522561     -162.406632
9.101                0.636959597     -162.829535
9.102                0.636403155     -163.253228
9.103                0.635853299       -163.6777
9.104                 0.63531009     -164.102942
9.105                0.634773587     -164.528944
9.106                0.634243852     -164.955695
9.107                0.633720943     -165.383184
9.108                0.633204919     -165.811401
9.109                0.632695839     -166.240335
9.11                  0.63219376     -166.669974
9.111                0.631698739     -167.100309
9.112                0.631210832     -167.531328
9.113                0.630730093     -167.963018
9.114                0.630256578      -168.39537
9.115                 0.62979034      -168.82837
9.116                0.629331433     -169.262007
9.117                0.628879908      -169.69627
9.118                0.628435817     -170.131146
9.119                 0.62799921     -170.566623
9.12                 0.627570137     -171.002688
9.121                0.627148647     -171.439329
9.122                0.626734787     -171.876534
9.123                0.626328605      -172.31429
9.124                0.625930146     -172.752583
9.125                0.625539456     -173.191401
9.126                0.625156579     -173.630731
9.127                0.624781557      -174.07056
9.128                0.624414434     -174.510874
9.129                0.624055249      -174.95166
9.13                 0.623704044     -175.392904
9.131                0.623360857     -175.834593
9.132                0.623025727     -176.276713
9.133                 0.62269869      -176.71925
9.134                0.622379783      -177.16219
9.135                0.622069039     -177.605519
9.136                0.621766494     -178.049224
9.137                0.621472179     -178.493288
9.138                0.621186126       -178.9377
9.139                0.620908366     -179.382443
9.14                 0.620638927     -179.827504
9.141                0.620377838      179.727132
9.142                0.620125126       179.28148
9.143                0.619880816      178.835554
9.144                0.619644933      178.389369
9.145                  0.6194175       177.94294
9.146                0.619198539      177.496281
9.147                0.618988072      177.049409
9.148                0.618786118      176.602337
9.149                0.618592695      176.155081
9.15                 0.618407821      175.707656
9.151                0.618231512      175.260077
9.152                0.618063783      174.812359
9.153                0.617904646      174.364517
9.154                0.617754115      173.916567
9.155                0.617612201      173.468525
9.156                0.617478912      173.020404
9.157                0.617354258      172.572221
9.158                0.617238246      172.123992
9.159                0.617130882       171.67573
9.16                 0.617032171      171.227452
9.161                0.616942115      170.779173
9.162                0.616860718      170.330909
9.163                0.616787979      169.882675
9.164                0.616723899      169.434486
9.165                0.616668476      168.986358
9.166                0.616621707      168.538305
9.167                0.616583588      168.090344
9.168                0.616554113       167.64249
9.169                0.616533276      167.194758
9.17                 0.616521068      166.747163
9.171                0.616517481      166.299721
9.172                0.616522504      165.852447
9.173                0.616536124      165.405355
9.174                 0.61655833      164.958462
9.175                0.616589107      164.511782
9.176                0.616628439      164.065331
9.177                 0.61667631      163.619122
9.178                0.616732702      163.173173
9.179                0.616797595      162.727496
9.18                 0.616870971      162.282107
9.181                0.616952806      161.837022
9.182                0.617043078      161.392253
9.183                0.617141765      160.947817
9.184                 0.61724884      160.503728
9.185                0.617364277          160.06
9.186                0.617488049      159.616647
9.187                0.617620128      159.173685
9.188                0.617760485      158.731126
9.189                0.617909088      158.288986
9.19                 0.618065905      157.847279
9.191                0.618230905      157.406017
9.192                0.618404053      156.965216
9.193                0.618585314      156.524889
9.194                0.618774652      156.085049
9.195                 0.61897203      155.645711
9.196                0.619177411      155.206887
9.197                0.619390754      154.768591
9.198                0.619612021      154.330836
9.199                 0.61984117      153.893636
9.2                  0.620078159      153.457002
9.201                0.620322946      153.020949
9.202                0.620575486      152.585488
9.203                0.620835735      152.150633
9.204                0.621103647      151.716396
9.205                0.621379176      151.282789
9.206                0.621662275      150.849824
9.207                0.621952895      150.417514
9.208                0.622250988       149.98587
9.209                0.622556503      149.554905
9.21                  0.62286939      149.124629
9.211                0.623189598      148.695055
9.212                0.623517074      148.266194
9.213                0.623851767      147.838057
9.214                0.624193622      147.410655
9.215                0.624542585         146.984
9.216                0.624898601      146.558101
9.217                0.625261615       146.13297
9.218                 0.62563157      145.708617
9.219                 0.62600841      145.285053
9.22                 0.626392077      144.862287
9.221                0.626782513       144.44033
9.222                0.627179659      144.019192
9.223                0.627583457      143.598882
9.224                0.627993847       143.17941
9.225                0.628410769      142.760786
9.226                0.628834161      142.343018
9.227                0.629263964      141.926116
9.228                0.629700114      141.510089
9.229                0.630142551      141.094946
9.23                 0.630591211      140.680695
9.231                0.631046032      140.267345
9.232                0.631506951      139.854904
9.233                0.631973904      139.443381
9.234                0.632446827      139.032782
9.235                0.632925656      138.623117
9.236                0.633410326      138.214393
9.237                0.633900772      137.806618
9.238                 0.63439693      137.399798
9.239                0.634898733      136.993942
9.24                 0.635406117      136.589055
9.241                0.635919015      136.185146
9.242                0.636437361      135.782221
9.243                0.636961089      135.380287
9.244                0.637490133      134.979349
9.245                0.638024426      134.579415
9.246                0.638563901       134.18049
9.247                0.639108492      133.782581
9.248                0.639658131      133.385693
9.249                0.640212752      132.989832
9.25                 0.640772287      132.595004
9.251                 0.64133667      132.201213
9.252                0.641905833      131.808466
9.253                0.642479708      131.416767
9.254                 0.64305823      131.026122
9.255                0.643641329      130.636534
9.256                0.644228941      130.248009
9.257                0.644820996      129.860552
9.258                0.645417428      129.474166
9.259                0.646018171      129.088856
9.26                 0.646623156      128.704626
9.261                0.647232317      128.321479
9.262                0.647845588      127.939421
9.263                0.648462901      127.558453
9.264                 0.64908419      127.178581
9.265                 0.64970939      126.799807
9.266                0.650338432      126.422135
9.267                0.650971252      126.045567
9.268                0.651607783      125.670107
9.269                 0.65224796      125.295758
9.27                 0.652891718      124.922521
9.271                 0.65353899      124.550401
9.272                0.654189712        124.1794
9.273                0.654843819      123.809519
9.274                0.655501247      123.440761
9.275                 0.65616193      123.073128
9.276                0.656825805      122.706623
9.277                0.657492809      122.341246
9.278                0.658162877      121.977001
9.279                0.658835946      121.613888
9.28                 0.659511954      121.251909
9.281                0.660190838      120.891065
9.282                0.660872535      120.531359
9.283                0.661556983       120.17279
9.284                0.662244121       119.81536
9.285                0.662933888      119.459071
9.286                0.663626222      119.103922
9.287                0.664321063      118.749915
9.288                0.665018351      118.397051
9.289                0.665718025      118.045329
9.29                 0.666420027      117.694751
9.291                0.667124296      117.345317
9.292                0.667830775      116.997027
9.293                0.668539405      116.649881
9.294                0.669250129       116.30388
9.295                0.669962887      115.959023
9.296                0.670677625      115.615311
9.297                0.671394284      115.272743
9.298                0.672112808      114.931318
9.299                0.672833142      114.591037
9.3                   0.67355523        114.2519
9.301                0.674279017      113.913905
9.302                0.675004449      113.577052
9.303                0.675731472       113.24134
9.304                0.676460031      112.906769
9.305                0.677190074      112.573338
9.306                0.677921547      112.241046
9.307                0.678654399      111.909891
9.308                0.679388578      111.579874
9.309                0.680124032      111.250992
9.31                  0.68086071      110.923244
9.311                0.681598562       110.59663
9.312                0.682337538      110.271148
9.313                0.683077589      109.946796
9.314                0.683818664      109.623573
9.315                0.684560716      109.301478
9.316                0.685303697      108.980509
9.317                0.686047559      108.660664
9.318                0.686792254      108.341942
9.319                0.687537736       108.02434
9.32                 0.688283959      107.707858
9.321                0.689030878      107.392492
9.322                0.689778446      107.078242
9.323                0.690526619      106.765105
9.324                0.691275353      106.453079
9.325                0.692024604      106.142162
9.326                0.692774329      105.832352
9.327                0.693524485      105.523647
9.328                0.694275029      105.216044
9.329                 0.69502592      104.909541
9.33                 0.695777116      104.604137
9.331                0.696528576      104.299827
9.332                 0.69728026      103.996611
9.333                0.698032128      103.694485
9.334                 0.69878414      103.393448
9.335                0.699536258      103.093496
9.336                0.700288443      102.794627
9.337                0.701040656      102.496839
9.338                0.701792861      102.200128
9.339                0.702545019      101.904492
9.34                 0.703297095      101.609929
9.341                0.704049053      101.316435
9.342                0.704800855      101.024008
9.343                0.705552469      100.732645
9.344                0.706303857      100.442342
9.345                0.707054987      100.153099
9.346                0.707805824        99.86491
9.347                0.708556335      99.5777738
9.348                0.709306487      99.2916869
9.349                0.710056247      99.0066464
9.35                 0.710805584      98.7226493
9.351                0.711554465      98.4396925
9.352                0.712302861       98.157773
9.353                0.713050739      97.8768876
9.354                0.713798069      97.5970332
9.355                0.714544823      97.3182068
9.356                 0.71529097      97.0404051
9.357                0.716036481      96.7636249
9.358                0.716781329      96.4878631
9.359                0.717525484      96.2131165
9.36                 0.718268919      95.9393817
9.361                0.719011608      95.6666556
9.362                0.719753522      95.3949349
9.363                0.720494636      95.1242163
9.364                0.721234924      94.8544965
9.365                 0.72197436      94.5857722
9.366                0.722712918        94.31804
9.367                0.723450575      94.0512967
9.368                0.724187305      93.7855387
9.369                0.724923086      93.5207629
9.37                 0.725657892      93.2569658
9.371                0.726391701       92.994144
9.372                0.727124491      92.7322941
9.373                0.727856238      92.4714127
9.374                0.728586921      92.2114964
9.375                0.729316518      91.9525417
9.376                0.730045008      91.6945452
9.377                 0.73077237      91.4375035
9.378                0.731498583      91.1814132
9.379                0.732223627      90.9262706
9.38                 0.732947483      90.6720725
9.381                0.733670131      90.4188153
9.382                0.734391551      90.1664955
9.383                0.735111726      89.9151097
9.384                0.735830637      89.6646543
9.385                0.736548265       89.415126
9.386                0.737264594      89.1665211
9.387                0.737979605      88.9188362
9.388                0.738693282      88.6720678
9.389                0.739405607      88.4262124
9.39                 0.740116566      88.1812665
9.391                0.740826141      87.9372266
9.392                0.741534318      87.6940891
9.393                 0.74224108      87.4518506
9.394                0.742946412      87.2105076
9.395                  0.7436503      86.9700566
9.396                 0.74435273       86.730494
