! TOUCHSTONE file generated by CST DESIGN STUDIO
! Date and time: Tue Feb  4 16:47:19 2025
! Project name: C:\Work\MatlabApps\UnitCellOptimizationMatlab\CST\unitcell.cst
! Tree item: Tasks\Sweep1\SPara1\S-Parameters
! Header version: 2024
! Port assignment regex: !\s*Touchstone port\s*([0-9]+)\s*=\s*(CST MWS port|CST DES external port|CST DES block port)\s*(.+)\s* \(\"(.*)\"\)(\s*mode\s*([0-9]+))?.*
! Touchstone port assignment:
! Touchstone port 1 = CST DES external port 1 ("")
# GHz S MA R 50
9                    0.959076049     -46.3822558
9.001                0.958998457     -46.4394283
9.002                0.958920566     -46.4967201
9.003                0.958842375     -46.5541315
9.004                0.958763883      -46.611663
9.005                0.958685089     -46.6693149
9.006                0.958605992     -46.7270875
9.007                0.958526591     -46.7849813
9.008                0.958446884     -46.8429966
9.009                 0.95836687     -46.9011338
9.01                 0.958286549     -46.9593932
9.011                 0.95820592     -47.0177753
9.012                 0.95812498     -47.0762805
9.013                 0.95804373      -47.134909
9.014                0.957962167     -47.1936613
9.015                0.957880291     -47.2525378
9.016                0.957798101     -47.3115388
9.017                0.957715596     -47.3706648
9.018                0.957632774     -47.4299162
9.019                0.957549634     -47.4892932
9.02                 0.957466175     -47.5487964
9.021                0.957382395     -47.6084261
9.022                0.957298295     -47.6681826
9.023                0.957213872     -47.7280665
9.024                0.957129126     -47.7880781
9.025                0.957044055     -47.8482178
9.026                0.956958658      -47.908486
9.027                0.956872933     -47.9688831
9.028                0.956786881     -48.0294095
9.029                0.956700498     -48.0900656
9.03                 0.956613785     -48.1508518
9.031                 0.95652674     -48.2117685
9.032                0.956439362     -48.2728162
9.033                 0.95635165     -48.3339953
9.034                0.956263601      -48.395306
9.035                0.956175216      -48.456749
9.036                0.956086493     -48.5183246
9.037                 0.95599743     -48.5800332
9.038                0.955908027     -48.6418752
9.039                0.955818282      -48.703851
9.04                 0.955728194     -48.7659612
9.041                0.955637761      -48.828206
9.042                0.955546983      -48.890586
9.043                0.955455858     -48.9531015
9.044                0.955364385      -49.015753
9.045                0.955272562     -49.0785409
9.046                0.955180388     -49.1414657
9.047                0.955087863     -49.2045277
9.048                0.954994984     -49.2677275
9.049                 0.95490175     -49.3310654
9.05                 0.954808161     -49.3945419
9.051                0.954714214     -49.4581575
9.052                0.954619908     -49.5219125
9.053                0.954525243     -49.5858075
9.054                0.954430216     -49.6498428
9.055                0.954334827      -49.714019
9.056                0.954239073     -49.7783364
9.057                0.954142955     -49.8427956
9.058                0.954046469     -49.9073969
9.059                0.953949616     -49.9721408
9.06                 0.953852393     -50.0370279
9.061                  0.9537548     -50.1020585
9.062                0.953656834     -50.1672331
9.063                0.953558495     -50.2325522
9.064                0.953459781     -50.2980162
9.065                 0.95336069     -50.3636256
9.066                0.953261222     -50.4293809
9.067                0.953161375     -50.4952825
9.068                0.953061147     -50.5613309
9.069                0.952960537     -50.6275266
9.07                 0.952859544     -50.6938701
9.071                0.952758166     -50.7603618
9.072                0.952656402     -50.8270022
9.073                 0.95255425     -50.8937918
9.074                0.952451708     -50.9607311
9.075                0.952348777     -51.0278206
9.076                0.952245453     -51.0950607
9.077                0.952141735     -51.1624519
9.078                0.952037623     -51.2299948
9.079                0.951933114     -51.2976898
9.08                 0.951828207     -51.3655374
9.081                0.951722901     -51.4335381
9.082                0.951617193     -51.5016924
9.083                0.951511084     -51.5700008
9.084                 0.95140457     -51.6384639
9.085                 0.95129765      -51.707082
9.086                0.951190324     -51.7758558
9.087                0.951082589     -51.8447857
9.088                0.950974444     -51.9138723
9.089                0.950865887      -51.983116
9.09                 0.950756918     -52.0525173
9.091                0.950647533     -52.1220769
9.092                0.950537732     -52.1917951
9.093                0.950427513     -52.2616726
9.094                0.950316875     -52.3317098
9.095                0.950205816     -52.4019073
9.096                0.950094334     -52.4722655
9.097                0.949982428     -52.5427851
9.098                0.949870096     -52.6134665
9.099                0.949757337     -52.6843104
9.1                  0.949644148     -52.7553171
9.101                0.949530529     -52.8264873
9.102                0.949416478     -52.8978215
9.103                0.949301993     -52.9693202
9.104                0.949187072      -53.040984
9.105                0.949071714     -53.1128134
9.106                0.948955917      -53.184809
9.107                 0.94883968     -53.2569713
9.108                   0.948723     -53.3293009
9.109                0.948605877     -53.4017983
9.11                 0.948488308      -53.474464
9.111                0.948370292     -53.5472988
9.112                0.948251827      -53.620303
9.113                0.948132911     -53.6934773
9.114                0.948013543     -53.7668222
9.115                0.947893721     -53.8403383
9.116                0.947773444     -53.9140262
9.117                0.947652708     -53.9878865
9.118                0.947531514     -54.0619196
9.119                0.947409859     -54.1361262
9.12                  0.94728774     -54.2105069
9.121                0.947165158     -54.2850623
9.122                0.947042109     -54.3597928
9.123                0.946918592     -54.4346992
9.124                0.946794605      -54.509782
9.125                0.946670147     -54.5850418
9.126                0.946545216     -54.6604792
9.127                0.946419809     -54.7360948
9.128                0.946293925     -54.8118891
9.129                0.946167563     -54.8878628
9.13                  0.94604072     -54.9640165
9.131                0.945913394     -55.0403508
9.132                0.945785584     -55.1168663
9.133                0.945657288     -55.1935636
9.134                0.945528505     -55.2704433
9.135                0.945399231     -55.3475061
9.136                0.945269466     -55.4247525
9.137                0.945139207     -55.5021831
9.138                0.945008453     -55.5797986
9.139                0.944877201     -55.6575997
9.14                  0.94474545     -55.7355869
9.141                0.944613199     -55.8137608
9.142                0.944480444     -55.8921222
9.143                0.944347184     -55.9706716
9.144                0.944213418     -56.0494096
9.145                0.944079142      -56.128337
9.146                0.943944356     -56.2074543
9.147                0.943809058     -56.2867622
9.148                0.943673244     -56.3662614
9.149                0.943536915     -56.4459524
9.15                 0.943400066      -56.525836
9.151                0.943262697     -56.6059128
9.152                0.943124806     -56.6861834
9.153                 0.94298639     -56.7666486
9.154                0.942847448     -56.8473089
9.155                0.942707977     -56.9281651
9.156                0.942567976     -57.0092178
9.157                0.942427443     -57.0904676
9.158                0.942286374     -57.1719154
9.159                 0.94214477     -57.2535616
9.16                 0.942002626     -57.3354071
9.161                0.941859942     -57.4174524
9.162                0.941716716     -57.4996983
9.163                0.941572944     -57.5821455
9.164                0.941428626     -57.6647947
9.165                0.941283759     -57.7476464
9.166                 0.94113834     -57.8307016
9.167                0.940992369     -57.9139607
9.168                0.940845842     -57.9974246
9.169                0.940698758     -58.0810939
9.17                 0.940551115     -58.1649694
9.171                 0.94040291     -58.2490517
9.172                0.940254142     -58.3333416
9.173                0.940104807     -58.4178398
9.174                0.939954905      -58.502547
9.175                0.939804432     -58.5874639
9.176                0.939653388     -58.6725912
9.177                0.939501768     -58.7579297
9.178                0.939349572     -58.8434801
9.179                0.939196798     -58.9292432
9.18                 0.939043442     -59.0152196
9.181                0.938889503     -59.1014101
9.182                0.938734978     -59.1878154
9.183                0.938579866     -59.2744363
9.184                0.938424164     -59.3612736
9.185                0.938267869      -59.448328
9.186                0.938110981     -59.5356002
9.187                0.937953495     -59.6230909
9.188                0.937795411     -59.7108011
9.189                0.937636726     -59.7987313
9.19                 0.937477437     -59.8868825
9.191                0.937317543     -59.9752552
9.192                 0.93715704     -60.0638504
9.193                0.936995928     -60.1526688
9.194                0.936834203     -60.2417111
9.195                0.936671862     -60.3309782
9.196                0.936508905     -60.4204709
9.197                0.936345328     -60.5101898
9.198                0.936181129     -60.6001359
9.199                0.936016306     -60.6903098
9.2                  0.935850856     -60.7807124
9.201                0.935684778     -60.8713446
9.202                0.935518068      -60.962207
9.203                0.935350725     -61.0533006
9.204                0.935182745      -61.144626
9.205                0.935014127     -61.2361842
9.206                0.934844868     -61.3279759
9.207                0.934674966      -61.420002
9.208                0.934504418     -61.5122632
9.209                0.934333222     -61.6047605
9.21                 0.934161376     -61.6974945
9.211                0.933988877     -61.7904663
9.212                0.933815722     -61.8836765
9.213                 0.93364191     -61.9771261
9.214                0.933467437     -62.0708158
9.215                0.933292302     -62.1647466
9.216                0.933116501     -62.2589192
9.217                0.932940033     -62.3533345
9.218                0.932762894     -62.4479935
9.219                0.932585083     -62.5428968
9.22                 0.932406596     -62.6380455
9.221                0.932227432     -62.7334403
9.222                0.932047588     -62.8290821
9.223                0.931867061     -62.9249718
9.224                0.931685849     -63.0211103
9.225                0.931503948     -63.1174985
9.226                0.931321358     -63.2141372
9.227                0.931138075     -63.3110273
9.228                0.930954096     -63.4081697
9.229                0.930769419     -63.5055653
9.23                 0.930584042      -63.603215
9.231                0.930397961     -63.7011197
9.232                0.930211174     -63.7992803
9.233                 0.93002368     -63.8976977
9.234                0.929835474     -63.9963728
9.235                0.929646555     -64.0953066
9.236                0.929456919     -64.1944999
9.237                0.929266565     -64.2939536
9.238                0.929075489     -64.3936688
9.239                0.928883689     -64.4936462
9.24                 0.928691163      -64.593887
9.241                0.928497907     -64.6943919
9.242                0.928303918     -64.7951619
9.243                0.928109196      -64.896198
9.244                0.927913736     -64.9975011
9.245                0.927717535     -65.0990722
9.246                0.927520592     -65.2009122
9.247                0.927322904     -65.3030221
9.248                0.927124468     -65.4054028
9.249                 0.92692528     -65.5080553
9.25                 0.926725339     -65.6109806
9.251                0.926524642     -65.7141796
9.252                0.926323186     -65.8176533
9.253                0.926120968     -65.9214028
9.254                0.925917986     -66.0254289
9.255                0.925714236     -66.1297327
9.256                0.925509717     -66.2343152
9.257                0.925304425     -66.3391773
9.258                0.925098357       -66.44432
9.259                0.924891512     -66.5497444
9.26                 0.924683885     -66.6554515
9.261                0.924475474     -66.7614423
9.262                0.924266277     -66.8677177
9.263                0.924056291     -66.9742789
9.264                0.923845513     -67.0811268
9.265                0.923633939     -67.1882624
9.266                0.923421568     -67.2956868
9.267                0.923208396     -67.4034011
9.268                0.922994422     -67.5114062
9.269                 0.92277964     -67.6197032
9.27                  0.92256405     -67.7282931
9.271                0.922347648     -67.8371771
9.272                0.922130432      -67.946356
9.273                0.921912398     -68.0558311
9.274                0.921693544     -68.1656034
9.275                0.921473866     -68.2756739
9.276                0.921253363     -68.3860437
9.277                 0.92103203     -68.4967138
9.278                0.920809866     -68.6076855
9.279                0.920586868     -68.7189596
9.28                 0.920363031     -68.8305374
9.281                0.920138355     -68.9424199
9.282                0.919912835     -69.0546082
9.283                 0.91968647     -69.1671034
9.284                0.919459255     -69.2799066
9.285                0.919231188     -69.3930189
9.286                0.919002267     -69.5064415
9.287                0.918772488     -69.6201753
9.288                0.918541849     -69.7342217
9.289                0.918310346     -69.8485816
9.29                 0.918077976     -69.9632562
9.291                0.917844738     -70.0782467
9.292                0.917610627     -70.1935541
9.293                0.917375642     -70.3091796
9.294                0.917139778     -70.4251244
9.295                0.916903034     -70.5413896
9.296                0.916665406     -70.6579764
9.297                0.916426891     -70.7748858
9.298                0.916187486     -70.8921192
9.299                0.915947189     -71.0096775
9.3                  0.915705996     -71.1275621
9.301                0.915463905     -71.2457741
9.302                0.915220913     -71.3643146
9.303                0.914977017     -71.4831848
9.304                0.914732213      -71.602386
9.305                0.914486499     -71.7219193
9.306                0.914239872     -71.8417859
9.307                 0.91399233      -71.961987
9.308                0.913743868     -72.0825238
9.309                0.913494485     -72.2033975
9.31                 0.913244176     -72.3246094
9.311                0.912992941     -72.4461606
9.312                0.912740774     -72.5680523
9.313                0.912487674     -72.6902859
9.314                0.912233638     -72.8128624
9.315                0.911978662     -72.9357833
9.316                0.911722744     -73.0590496
9.317                0.911465881     -73.1826626
9.318                 0.91120807     -73.3066236
9.319                0.910949307     -73.4309339
9.32                 0.910689591     -73.5555946
9.321                0.910428918     -73.6806071
9.322                0.910167285     -73.8059725
9.323                0.909904689     -73.9316923
9.324                0.909641128     -74.0577676
9.325                0.909376598     -74.1841997
9.326                0.909111096     -74.3109899
9.327                0.908844621     -74.4381395
9.328                0.908577168     -74.5656497
9.329                0.908308735      -74.693522
9.33                 0.908039319     -74.8217575
9.331                0.907768918     -74.9503576
9.332                0.907497527     -75.0793235
9.333                0.907225145     -75.2086567
9.334                0.906951769     -75.3383583
9.335                0.906677395     -75.4684298
9.336                0.906402021     -75.5988725
9.337                0.906125644     -75.7296876
9.338                0.905848262     -75.8608765
9.339                 0.90556987     -75.9924406
9.34                 0.905290467     -76.1243811
9.341                 0.90501005     -76.2566996
9.342                0.904728616     -76.3893972
9.343                0.904446161     -76.5224753
9.344                0.904162684     -76.6559353
9.345                0.903878182     -76.7897787
9.346                0.903592651     -76.9240066
9.347                0.903306089     -77.0586206
9.348                0.903018493     -77.1936219
9.349                 0.90272986     -77.3290121
9.35                 0.902440189     -77.4647923
9.351                0.902149475     -77.6009642
9.352                0.901857716     -77.7375289
9.353                 0.90156491      -77.874488
9.354                0.901271054     -78.0118428
9.355                0.900976145     -78.1495948
9.356                 0.90068018     -78.2877453
9.357                0.900383157     -78.4262958
9.358                0.900085073     -78.5652477
9.359                0.899785926     -78.7046025
9.36                 0.899485713     -78.8443614
9.361                0.899184431     -78.9845261
9.362                0.898882078     -79.1250979
9.363                 0.89857865     -79.2660782
9.364                0.898274147     -79.4074685
9.365                0.897968564     -79.5492703
9.366                  0.8976619      -79.691485
9.367                0.897354151      -79.834114
9.368                0.897045316     -79.9771589
9.369                0.896735392     -80.1206211
9.37                 0.896424377     -80.2645021
9.371                0.896112267     -80.4088032
9.372                0.895799061     -80.5535262
9.373                0.895484757     -80.6986723
9.374                0.895169351     -80.8442431
9.375                0.894852841     -80.9902401
9.376                0.894535226     -81.1366647
9.377                0.894216502     -81.2835186
9.378                0.893896668     -81.4308031
9.379                0.893575721     -81.5785198
9.38                 0.893253659     -81.7266703
9.381                0.892930479     -81.8752559
9.382                 0.89260618     -82.0242783
9.383                0.892280759     -82.1737389
9.384                0.891954213     -82.3236393
9.385                0.891626542      -82.473981
9.386                0.891297743     -82.6247656
9.387                0.890967813     -82.7759946
9.388                 0.89063675     -82.9276695
9.389                0.890304553     -83.0797919
9.39                  0.88997122     -83.2323634
9.391                0.889636748     -83.3853854
9.392                0.889301135     -83.5388596
9.393                 0.88896438     -83.6927874
9.394                0.888626481     -83.8471706
9.395                0.888287435     -84.0020106
9.396                0.887947242      -84.157309
