! TOUCHSTONE file generated by CST DESIGN STUDIO
! Date and time: Tue Feb  4 16:47:14 2025
! Project name: C:\Work\MatlabApps\UnitCellOptimizationMatlab\CST\unitcell.cst
! Tree item: Tasks\Sweep1\SPara1\S-Parameters
! Header version: 2024
! Port assignment regex: !\s*Touchstone port\s*([0-9]+)\s*=\s*(CST MWS port|CST DES external port|CST DES block port)\s*(.+)\s* \(\"(.*)\"\)(\s*mode\s*([0-9]+))?.*
! Touchstone port assignment:
! Touchstone port 1 = CST DES external port 1 ("")
# GHz S MA R 50
9                    0.911279365     -64.1841913
9.001                0.911036857     -64.2847962
9.002                0.910793411     -64.3856801
9.003                0.910549022     -64.4868439
9.004                0.910303687     -64.5882886
9.005                0.910057403     -64.6900154
9.006                0.909810164     -64.7920253
9.007                0.909561968     -64.8943195
9.008                0.909312811     -64.9968989
9.009                0.909062688     -65.0997646
9.01                 0.908811596     -65.2029178
9.011                0.908559531     -65.3063595
9.012                 0.90830649     -65.4100909
9.013                0.908052467      -65.514113
9.014                 0.90779746      -65.618427
9.015                0.907541464     -65.7230339
9.016                0.907284476     -65.8279348
9.017                0.907026491      -65.933131
9.018                0.906767506     -66.0386235
9.019                0.906507517     -66.1444134
9.02                 0.906246519     -66.2505019
9.021                0.905984509     -66.3568901
9.022                0.905721482     -66.4635792
9.023                0.905457436     -66.5705704
9.024                0.905192365     -66.6778646
9.025                0.904926265     -66.7854633
9.026                0.904659133     -66.8933674
9.027                0.904390965     -67.0015782
9.028                0.904121756     -67.1100968
9.029                0.903851503     -67.2189244
9.03                 0.903580201     -67.3280623
9.031                0.903307847     -67.4375115
9.032                0.903034435     -67.5472733
9.033                0.902759963     -67.6573489
9.034                0.902484426     -67.7677395
9.035                 0.90220782     -67.8784463
9.036                 0.90193014     -67.9894705
9.037                0.901651384     -68.1008134
9.038                0.901371545     -68.2124761
9.039                0.901090621     -68.3244599
9.04                 0.900808608     -68.4367661
9.041                  0.9005255     -68.5493958
9.042                0.900241294     -68.6623503
9.043                0.899955986     -68.7756309
9.044                0.899669571     -68.8892388
9.045                0.899382046     -69.0031753
9.046                0.899093405     -69.1174416
9.047                0.898803646      -69.232039
9.048                0.898512763     -69.3469689
9.049                0.898220752     -69.4622324
9.05                  0.89792761     -69.5778309
9.051                0.897633332     -69.6937657
9.052                0.897337913      -69.810038
9.053                 0.89704135     -69.9266492
9.054                0.896743637     -70.0436006
9.055                0.896444772     -70.1608935
9.056                0.896144749     -70.2785292
9.057                0.895843565      -70.396509
9.058                0.895541214     -70.5148343
9.059                0.895237694     -70.6335064
9.06                 0.894932999     -70.7525266
9.061                0.894627124     -70.8718964
9.062                0.894320067      -70.991617
9.063                0.894011822     -71.1116898
9.064                0.893702386     -71.2321162
9.065                0.893391753     -71.3528975
9.066                 0.89307992     -71.4740351
9.067                0.892766882     -71.5955305
9.068                0.892452635     -71.7173849
9.069                0.892137175     -71.8395999
9.07                 0.891820496     -71.9621767
9.071                0.891502596     -72.0851168
9.072                0.891183469     -72.2084216
9.073                0.890863111     -72.3320925
9.074                0.890541518      -72.456131
9.075                0.890218686     -72.5805384
9.076                 0.88989461     -72.7053162
9.077                0.889569285     -72.8304658
9.078                0.889242708     -72.9559887
9.079                0.888914874     -73.0818864
9.08                 0.888585778     -73.2081602
9.081                0.888255417     -73.3348117
9.082                0.887923786     -73.4618423
9.083                0.887590881     -73.5892535
9.084                0.887256696     -73.7170467
9.085                0.886921229     -73.8452236
9.086                0.886584474     -73.9737854
9.087                0.886246427     -74.1027338
9.088                0.885907084     -74.2320703
9.089                0.885566441     -74.3617963
9.09                 0.885224493     -74.4919134
9.091                0.884881235      -74.622423
9.092                0.884536664     -74.7533268
9.093                0.884190775     -74.8846263
9.094                0.883843564     -75.0163229
9.095                0.883495026     -75.1484183
9.096                0.883145158     -75.2809139
9.097                0.882793954     -75.4138114
9.098                 0.88244141     -75.5471124
9.099                0.882087523     -75.6808183
9.1                  0.881732288     -75.8149307
9.101                  0.8813757     -75.9494513
9.102                0.881017755     -76.0843816
9.103                 0.88065845     -76.2197232
9.104                0.880297779     -76.3554778
9.105                0.879935738     -76.4916468
9.106                0.879572324      -76.628232
9.107                0.879207531      -76.765235
9.108                0.878841356     -76.9026573
9.109                0.878473795     -77.0405006
9.11                 0.878104843     -77.1787666
9.111                0.877734496     -77.3174568
9.112                0.877362749      -77.456573
9.113                  0.8769896     -77.5961168
9.114                0.876615042     -77.7360898
9.115                0.876239073     -77.8764938
9.116                0.875861688     -78.0173303
9.117                0.875482883     -78.1586011
9.118                0.875102654     -78.3003079
9.119                0.874720996     -78.4424523
9.12                 0.874337907      -78.585036
9.121                 0.87395338     -78.7280608
9.122                0.873567414     -78.8715284
9.123                0.873180002     -79.0154404
9.124                0.872791142     -79.1597986
9.125                 0.87240083     -79.3046048
9.126                0.872009061     -79.4498606
9.127                0.871615831     -79.5955678
9.128                0.871221137     -79.7417282
9.129                0.870824975     -79.8883435
9.13                  0.87042734     -80.0354154
9.131                0.870028228     -80.1829458
9.132                0.869627637     -80.3309364
9.133                0.869225562      -80.479389
9.134                0.868821999     -80.6283053
9.135                0.868416944     -80.7776872
9.136                0.868010394     -80.9275364
9.137                0.867602345     -81.0778548
9.138                0.867192793     -81.2286442
9.139                0.866781734     -81.3799064
9.14                 0.866369165     -81.5316431
9.141                0.865955082     -81.6838563
9.142                0.865539482     -81.8365478
9.143                0.865122361     -81.9897193
9.144                0.864703715     -82.1433728
9.145                0.864283541     -82.2975101
9.146                0.863861835     -82.4521331
9.147                0.863438595     -82.6072436
9.148                0.863013816     -82.7628435
9.149                0.862587494     -82.9189347
9.15                 0.862159628      -83.075519
9.151                0.861730213     -83.2325984
9.152                0.861299246     -83.3901747
9.153                0.860866724     -83.5482498
9.154                0.860432644     -83.7068257
9.155                0.859997002     -83.8659042
9.156                0.859559795     -84.0254873
9.157                0.859121021     -84.1855769
9.158                0.858680676      -84.346175
9.159                0.858238757     -84.5072834
9.16                 0.857795262     -84.6689041
9.161                0.857350186     -84.8310391
9.162                0.856903529     -84.9936902
9.163                0.856455285     -85.1568596
9.164                0.856005454      -85.320549
9.165                0.855554032     -85.4847606
9.166                0.855101016     -85.6494963
9.167                0.854646404      -85.814758
9.168                0.854190193     -85.9805477
9.169                0.853732381     -86.1468675
9.17                 0.853272965     -86.3137193
9.171                0.852811942     -86.4811052
9.172                0.852349312     -86.6490271
9.173                 0.85188507     -86.8174871
9.174                0.851419215     -86.9864872
9.175                0.850951744     -87.1560294
9.176                0.850482656     -87.3261158
9.177                0.850011948     -87.4967483
9.178                0.849539619     -87.6679291
9.179                0.849065666     -87.8396601
9.18                 0.848590088     -88.0119434
9.181                0.848112882     -88.1847812
9.182                0.847634047     -88.3581754
9.183                0.847153582     -88.5321281
9.184                0.846671484     -88.7066414
9.185                0.846187751     -88.8817173
9.186                0.845702384      -89.057358
9.187                0.845215379     -89.2335655
9.188                0.844726737      -89.410342
9.189                0.844236454     -89.5876895
9.19                 0.843744531     -89.7656101
9.191                0.843250967     -89.9441059
9.192                0.842755759     -90.1231791
9.193                0.842258907     -90.3028317
9.194                0.841760411      -90.483066
9.195                0.841260269     -90.6638839
9.196                0.840758481     -90.8452877
9.197                0.840255046     -91.0272794
9.198                0.839749964     -91.2098612
9.199                0.839243234     -91.3930353
9.2                  0.838734855     -91.5768038
9.201                0.838224828     -91.7611688
9.202                0.837713153     -91.9461325
9.203                0.837199828     -92.1316971
9.204                0.836684855     -92.3178646
9.205                0.836168232     -92.5046374
9.206                0.835649962     -92.6920175
9.207                0.835130043     -92.8800071
9.208                0.834608476     -93.0686084
9.209                0.834085261     -93.2578236
9.21                   0.8335604     -93.4476548
9.211                0.833033893     -93.6381043
9.212                0.832505741     -93.8291742
9.213                0.831975944     -94.0208667
9.214                0.831444504      -94.213184
9.215                0.830911421     -94.4061284
9.216                0.830376698     -94.5997019
9.217                0.829840334     -94.7939069
9.218                0.829302333     -94.9887455
9.219                0.828762695     -95.1842199
9.22                 0.828221422     -95.3803323
9.221                0.827678516      -95.577085
9.222                0.827133979     -95.7744801
9.223                0.826587813       -95.97252
9.224                 0.82604002     -96.1712067
9.225                0.825490603     -96.3705425
9.226                0.824939563     -96.5705296
9.227                0.824386904     -96.7711703
9.228                0.823832629     -96.9724668
9.229                0.823276739     -97.1744213
9.23                 0.822719238      -97.377036
9.231                 0.82216013     -97.5803131
9.232                0.821599417      -97.784255
9.233                0.821037103     -97.9888637
9.234                0.820473191     -98.1941416
9.235                0.819907685     -98.4000908
9.236                0.819340589     -98.6067137
9.237                0.818771907     -98.8140123
9.238                0.818201643      -99.021989
9.239                0.817629801      -99.230646
9.24                 0.817056386     -99.4399855
9.241                0.816481402     -99.6500098
9.242                0.815904854      -99.860721
9.243                0.815326748     -100.072121
9.244                0.814747087     -100.284213
9.245                0.814165877     -100.496999
9.246                0.813583125      -100.71048
9.247                0.812998834     -100.924659
9.248                0.812413011     -101.139539
9.249                0.811825662     -101.355121
9.25                 0.811236793     -101.571408
9.251                 0.81064641     -101.788402
9.252                 0.81005452     -102.006105
9.253                0.809461129     -102.224519
9.254                0.808866243     -102.443647
9.255                0.808269871     -102.663491
9.256                0.807672018     -102.884053
9.257                0.807072693     -103.105335
9.258                0.806471903     -103.327339
9.259                0.805869656     -103.550068
9.26                 0.805265958     -103.773523
9.261                 0.80466082     -103.997707
9.262                0.804054248     -104.222623
9.263                0.803446251     -104.448271
9.264                0.802836839     -104.674655
9.265                0.802226019     -104.901777
9.266                0.801613801     -105.129638
9.267                0.801000195     -105.358242
9.268                0.800385209     -105.587589
9.269                0.799768854     -105.817682
9.27                 0.799151139     -106.048523
9.271                0.798532074     -106.280115
9.272                 0.79791167      -106.51246
9.273                0.797289938     -106.745559
9.274                0.796666888     -106.979414
9.275                0.796042531     -107.214029
9.276                0.795416878     -107.449404
9.277                0.794789942     -107.685542
9.278                0.794161732     -107.922445
9.279                0.793532262     -108.160116
9.28                 0.792901544     -108.398555
9.281                0.792269589     -108.637765
9.282                0.791636411     -108.877749
9.283                0.791002023     -109.118508
9.284                0.790366436     -109.360044
9.285                0.789729666     -109.602359
9.286                0.789091724     -109.845455
9.287                0.788452626     -110.089334
9.288                0.787812384     -110.333999
9.289                0.787171015      -110.57945
9.29                 0.786528531      -110.82569
9.291                0.785884947     -111.072722
9.292                 0.78524028     -111.320546
9.293                0.784594543     -111.569164
9.294                0.783947753     -111.818579
9.295                0.783299925     -112.068793
9.296                0.782651076     -112.319807
9.297                0.782001221     -112.571623
9.298                0.781350378     -112.824242
9.299                0.780698563     -113.077668
9.3                  0.780045794     -113.331901
9.301                0.779392087     -113.586943
9.302                 0.77873746     -113.842796
9.303                0.778081932     -114.099462
9.304                 0.77742552     -114.356942
9.305                0.776768243     -114.615239
9.306                 0.77611012     -114.874353
9.307                0.775451169     -115.134287
9.308                0.774791411     -115.395041
9.309                0.774130864     -115.656619
9.31                 0.773469548     -115.919021
9.311                0.772807484     -116.182249
9.312                0.772144692     -116.446304
9.313                0.771481193     -116.711188
9.314                0.770817007     -116.976903
9.315                0.770152157     -117.243449
9.316                0.769486663      -117.51083
9.317                0.768820547     -117.779045
9.318                0.768153832     -118.048096
9.319                 0.76748654     -118.317985
9.32                 0.766818693     -118.588713
9.321                0.766150315     -118.860281
9.322                 0.76548143     -119.132691
9.323                 0.76481206     -119.405944
9.324                0.764142229     -119.680041
9.325                0.763471962     -119.954984
9.326                0.762801284     -120.230773
9.327                0.762130218     -120.507411
9.328                0.761458791     -120.784897
9.329                0.760787027     -121.063233
9.33                 0.760114952      -121.34242
9.331                0.759442592      -121.62246
9.332                0.758769974     -121.903353
9.333                0.758097124       -122.1851
9.334                0.757424069     -122.467702
9.335                0.756750836      -122.75116
9.336                0.756077452     -123.035476
9.337                0.755403946     -123.320649
9.338                0.754730345     -123.606681
9.339                0.754056678     -123.893572
9.34                 0.753382973     -124.181323
9.341                 0.75270926     -124.469935
9.342                0.752035568     -124.759409
9.343                0.751361926     -125.049745
9.344                0.750688365     -125.340944
9.345                0.750014914     -125.633006
9.346                0.749341603     -125.925932
9.347                0.748668464     -126.219722
9.348                0.747995528     -126.514377
9.349                0.747322827     -126.809897
9.35                  0.74665039     -127.106282
9.351                0.745978252     -127.403534
9.352                0.745306443     -127.701651
9.353                0.744634997     -128.000634
9.354                0.743963946     -128.300484
9.355                0.743293324     -128.601201
9.356                0.742623163     -128.902784
9.357                0.741953498     -129.205234
9.358                0.741284362     -129.508551
9.359                 0.74061579     -129.812734
9.36                 0.739947816     -130.117783
9.361                0.739280475     -130.423699
9.362                0.738613802     -130.730481
9.363                0.737947833     -131.038129
9.364                0.737282603     -131.346642
9.365                0.736618148     -131.656021
9.366                0.735954504     -131.966264
9.367                0.735291708     -132.277371
9.368                0.734629795     -132.589343
9.369                0.733968805     -132.902177
9.37                 0.733308773     -133.215874
9.371                0.732649736     -133.530433
9.372                0.731991734     -133.845853
9.373                0.731334803     -134.162133
9.374                0.730678982     -134.479272
9.375                0.730024309      -134.79727
9.376                0.729370824     -135.116126
9.377                0.728718564     -135.435838
9.378                 0.72806757     -135.756405
9.379                 0.72741788     -136.077827
9.38                 0.726769535     -136.400102
9.381                0.726122574     -136.723228
9.382                0.725477036     -137.047205
9.383                0.724832963      -137.37203
9.384                0.724190395     -137.697703
9.385                0.723549373     -138.024222
9.386                0.722909937     -138.351585
9.387                0.722272129     -138.679791
9.388                0.721635989     -139.008837
9.389                 0.72100156     -139.338723
9.39                 0.720368882     -139.669446
9.391                0.719737999     -140.001004
9.392                0.719108951     -140.333395
9.393                0.718481781     -140.666617
9.394                0.717856531     -141.000669
9.395                0.717233244     -141.335547
9.396                0.716611963     -141.671249
