! TOUCHSTONE file generated by CST DESIGN STUDIO
! Date and time: Tue Feb  4 16:47:05 2025
! Project name: C:\Work\MatlabApps\UnitCellOptimizationMatlab\CST\unitcell.cst
! Tree item: Tasks\Sweep1\SPara1\S-Parameters
! Header version: 2024
! Port assignment regex: !\s*Touchstone port\s*([0-9]+)\s*=\s*(CST MWS port|CST DES external port|CST DES block port)\s*(.+)\s* \(\"(.*)\"\)(\s*mode\s*([0-9]+))?.*
! Touchstone port assignment:
! Touchstone port 1 = CST DES external port 1 ("")
# GHz S MA R 50
9                    0.654365766     -152.382967
9.001                0.653612365     -152.793303
9.002                0.652864096     -153.204674
9.003                0.652121037     -153.617074
9.004                0.651383266     -154.030496
9.005                0.650650858     -154.444933
9.006                 0.64992389     -154.860379
9.007                 0.64920244     -155.276825
9.008                0.648486583     -155.694266
9.009                0.647776395     -156.112692
9.01                 0.647071953     -156.532098
9.011                0.646373331     -156.952474
9.012                0.645680605     -157.373813
9.013                0.644993851     -157.796107
9.014                0.644313142     -158.219347
9.015                0.643638553     -158.643525
9.016                0.642970159     -159.068632
9.017                0.642308031      -159.49466
9.018                0.641652245       -159.9216
9.019                0.641002872     -160.349442
9.02                 0.640359985     -160.778176
9.021                0.639723655     -161.207794
9.022                0.639093955     -161.638286
9.023                0.638470954     -162.069642
9.024                0.637854723     -162.501852
9.025                0.637245332     -162.934905
9.026                0.636642849     -163.368792
9.027                0.636047344     -163.803501
9.028                0.635458884     -164.239023
9.029                0.634877537     -164.675346
9.03                 0.634303368     -165.112459
9.031                0.633736445     -165.550351
9.032                0.633176832     -165.989011
9.033                0.632624594     -166.428427
9.034                0.632079794     -166.868588
9.035                0.631542495     -167.309481
9.036                 0.63101276     -167.751095
9.037                0.630490649     -168.193418
9.038                0.629976224     -168.636436
9.039                0.629469544     -169.080139
9.04                 0.628970667     -169.524512
9.041                0.628479652     -169.969544
9.042                0.627996556     -170.415221
9.043                0.627521434     -170.861531
9.044                0.627054341      -171.30846
9.045                0.626595332     -171.755995
9.046                 0.62614446     -172.204121
9.047                0.625701777     -172.652827
9.048                0.625267334     -173.102098
9.049                 0.62484118     -173.551919
9.05                 0.624423365     -174.002277
9.051                0.624013936     -174.453159
9.052                0.623612941     -174.904548
9.053                0.623220425     -175.356432
9.054                0.622836432     -175.808795
9.055                0.622461005     -176.261623
9.056                0.622094187     -176.714902
9.057                0.621736019     -177.168615
9.058                0.621386541     -177.622748
9.059                 0.62104579     -178.077287
9.06                 0.620713805     -178.532216
9.061                 0.62039062     -178.987519
9.062                0.620076272     -179.443181
9.063                0.619770794     -179.899187
9.064                0.619474218      179.644479
9.065                0.619186574      179.187833
9.066                0.618907893       178.73089
9.067                0.618638202      178.273666
9.068                 0.61837753      177.816177
9.069                0.618125901      177.358439
9.07                 0.617883339      176.900469
9.071                0.617649869      176.442281
9.072                 0.61742551      175.983894
9.073                0.617210285      175.525321
9.074                 0.61700421      175.066581
9.075                0.616807304      174.607689
9.076                0.616619584      174.148662
9.077                0.616441062      173.689516
9.078                0.616271754      173.230267
9.079                 0.61611167      172.770932
9.08                 0.615960821      172.311528
9.081                0.615819216      171.852071
9.082                0.615686862      171.392577
9.083                0.615563767      170.933064
9.084                0.615449934      170.473547
9.085                0.615345367      170.014044
9.086                0.615250068      169.554571
9.087                0.615164037      169.095144
9.088                0.615087273       168.63578
9.089                0.615019775      168.176496
9.09                 0.614961537      167.717309
9.091                0.614912556      167.258234
9.092                0.614872824      166.799288
9.093                0.614842333      166.340489
9.094                0.614821074      165.881851
9.095                0.614809037      165.423393
9.096                0.614806208      164.965129
9.097                0.614812575      164.507077
9.098                0.614828121      164.049252
9.099                0.614852832      163.591672
9.1                  0.614886689      163.134352
9.101                0.614929673      162.677308
9.102                0.614981764      162.220556
9.103                 0.61504294      161.764113
9.104                0.615113177      161.307994
9.105                0.615192452      160.852215
9.106                0.615280738      160.396793
9.107                0.615378009      159.941741
9.108                0.615484236      159.487077
9.109                0.615599389      159.032816
9.11                 0.615723438      158.578973
9.111                0.615856351      158.125563
9.112                0.615998094      157.672603
9.113                0.616148632      157.220106
9.114                0.616307931      156.768087
9.115                0.616475952      156.316563
9.116                0.616652658      155.865547
9.117                0.616838009      155.415054
9.118                0.617031966        154.9651
9.119                0.617234486      154.515697
9.12                 0.617445526      154.066861
9.121                0.617665043      153.618605
9.122                0.617892993      153.170945
9.123                0.618129328      152.723893
9.124                0.618374003      152.277463
9.125                0.618626968       151.83167
9.126                0.618888176      151.386526
9.127                0.619157576      150.942045
9.128                0.619435117       150.49824
9.129                0.619720748      150.055125
9.13                 0.620014415      149.612711
9.131                0.620316065      149.171013
9.132                0.620625643      148.730042
9.133                0.620943094      148.289811
9.134                0.621268362      147.850332
9.135                0.621601388      147.411617
9.136                0.621942116      146.973679
9.137                0.622290487      146.536529
9.138                 0.62264644      146.100179
9.139                0.623009917       145.66464
9.14                 0.623380855      145.229924
9.141                0.623759194      144.796042
9.142                0.624144871      144.363004
9.143                0.624537822      143.930822
9.144                0.624937985      143.499507
9.145                0.625345295      143.069067
9.146                0.625759686      142.639515
9.147                0.626181095       142.21086
9.148                0.626609455      141.783112
9.149                0.627044699      141.356281
9.15                  0.62748676      140.930377
9.151                0.627935571      140.505408
9.152                0.628391064      140.081385
9.153                 0.62885317      139.658315
9.154                0.629321821      139.236209
9.155                0.629796947      138.815075
9.156                0.630278479      138.394921
9.157                0.630766347      137.975756
9.158                 0.63126048      137.557588
9.159                0.631760808      137.140426
9.16                  0.63226726      136.724276
9.161                0.632779765      136.309146
9.162                0.633298251      135.895045
9.163                0.633822646       135.48198
9.164                0.634352879      135.069956
9.165                0.634888878      134.658983
9.166                0.635430569      134.249066
9.167                0.635977881      133.840212
9.168                 0.63653074      133.432428
9.169                0.637089075      133.025719
9.17                 0.637652812      132.620092
9.171                0.638221878      132.215554
9.172                0.638796201      131.812109
9.173                0.639375706      131.409764
9.174                0.639960322      131.008524
9.175                0.640549975      130.608393
9.176                0.641144591      130.209379
9.177                0.641744097      129.811484
9.178                0.642348422      129.414715
9.179                 0.64295749      129.019076
9.18                  0.64357123      128.624571
9.181                0.644189568      128.231204
9.182                0.644812432      127.838981
9.183                0.645439749      127.447905
9.184                0.646071446      127.057979
9.185                0.646707451      126.669208
9.186                0.647347692      126.281595
9.187                0.647992096      125.895144
9.188                0.648640591      125.509858
9.189                0.649293106       125.12574
9.19                 0.649949569      124.742793
9.191                0.650609909       124.36102
9.192                0.651274055      123.980424
9.193                0.651941935      123.601007
9.194                 0.65261348      123.222772
9.195                0.653288618      122.845721
9.196                0.653967281      122.469856
9.197                0.654649397      122.095179
9.198                0.655334898      121.721692
9.199                0.656023715      121.349398
9.2                  0.656715778      120.978297
9.201                0.657411019      120.608392
9.202                 0.65810937      120.239683
9.203                0.658810764      119.872171
9.204                0.659515132      119.505859
9.205                0.660222408      119.140747
9.206                0.660932526      118.776837
9.207                0.661645418      118.414128
9.208                0.662361018      118.052621
9.209                0.663079263      117.692318
9.21                 0.663800085      117.333218
9.211                0.664523421      116.975323
9.212                0.665249207      116.618632
9.213                0.665977378      116.263145
9.214                0.666707872      115.908863
9.215                0.667440625      115.555785
9.216                0.668175575      115.203912
9.217                0.668912659      114.853242
9.218                0.669651818      114.503777
9.219                0.670392988      114.155515
9.22                  0.67113611      113.808456
9.221                0.671881124      113.462599
9.222                0.672627969      113.117943
9.223                0.673376588      112.774489
9.224                 0.67412692      112.432234
9.225                0.674878909      112.091178
9.226                0.675632496      111.751319
9.227                0.676387624      111.412658
9.228                0.677144236      111.075192
9.229                0.677902277       110.73892
9.23                 0.678661691      110.403841
9.231                0.679422422      110.069954
9.232                0.680184416      109.737257
9.233                 0.68094762      109.405747
9.234                0.681711978      109.075425
9.235                0.682477439      108.746287
9.236                 0.68324395      108.418333
9.237                0.684011459       108.09156
9.238                0.684779914      107.765966
9.239                0.685549265       107.44155
9.24                  0.68631946      107.118309
9.241                0.687090451      106.796241
9.242                0.687862188      106.475344
9.243                0.688634622      106.155616
9.244                0.689407705      105.837055
9.245                0.690181389      105.519658
9.246                0.690955626      105.203423
9.247                0.691730371      104.888347
9.248                0.692505577      104.574428
9.249                0.693281199      104.261663
9.25                 0.694057191      103.950051
9.251                0.694833508      103.639587
9.252                0.695610108       103.33027
9.253                0.696386946      103.022096
9.254                0.697163979      102.715063
9.255                0.697941165      102.409169
9.256                0.698718462      102.104409
9.257                0.699495829      101.800783
9.258                0.700273225      101.498285
9.259                0.701050609      101.196914
9.26                 0.701827942      100.896666
9.261                0.702605184      100.597539
9.262                0.703382296      100.299529
9.263                0.704159241      100.002633
9.264                0.704935981      99.7068482
9.265                0.705712477      99.4121713
9.266                0.706488695       99.118599
9.267                0.707264596       98.826128
9.268                0.708040146      98.5347552
9.269                 0.70881531      98.2444772
9.27                 0.709590052      97.9552908
9.271                0.710364338      97.6671924
9.272                0.711138135      97.3801789
9.273                0.711911409      97.0942467
9.274                0.712684128      96.8093925
9.275                0.713456259      96.5256128
9.276                 0.71422777      96.2429041
9.277                0.714998631       95.961263
9.278                 0.71576881       95.680686
9.279                0.716538276      95.4011694
9.28                 0.717307001      95.1227099
9.281                0.718074954      94.8453038
9.282                0.718842107      94.5689475
9.283                 0.71960843      94.2936374
9.284                0.720373897        94.01937
9.285                0.721138478      93.7461417
9.286                0.721902148      93.4739486
9.287                0.722664879      93.2027874
9.288                0.723426646      92.9326542
9.289                0.724187421      92.6635453
9.29                  0.72494718      92.3954572
9.291                0.725705898      92.1283861
9.292                0.726463551      91.8623283
9.293                0.727220113      91.5972801
9.294                0.727975562      91.3332377
9.295                0.728729874      91.0701975
9.296                0.729483027      90.8081556
9.297                0.730234997      90.5471084
9.298                0.730985763      90.2870521
9.299                0.731735302      90.0279829
9.3                  0.732483595      89.7698971
9.301                 0.73323062      89.5127908
9.302                0.733976355      89.2566604
9.303                0.734720783      89.0015021
9.304                0.735463882       88.747312
9.305                0.736205633      88.4940863
9.306                0.736946017      88.2418214
9.307                0.737685017      87.9905134
9.308                0.738422613      87.7401585
9.309                0.739158787      87.4907529
9.31                 0.739893523      87.2422929
9.311                0.740626803      86.9947746
9.312                 0.74135861      86.7481943
9.313                0.742088928      86.5025481
9.314                0.742817741      86.2578323
9.315                0.743545033      86.0140431
9.316                0.744270789      85.7711767
9.317                0.744994993      85.5292294
9.318                0.745717631      85.2881972
9.319                0.746438689      85.0480765
9.32                 0.747158152      84.8088635
9.321                0.747876006      84.5705544
9.322                0.748592239      84.3331455
9.323                0.749306837      84.0966329
9.324                0.750019787      83.8610129
9.325                0.750731077      83.6262818
9.326                0.751440694      83.3924358
9.327                0.752148627      83.1594711
9.328                0.752854864      82.9273841
9.329                0.753559394       82.696171
9.33                 0.754262205       82.465828
9.331                0.754963287      82.2363515
9.332                0.755662629      82.0077377
9.333                0.756360222      81.7799829
9.334                0.757056055      81.5530835
9.335                0.757750118      81.3270356
9.336                0.758442402      81.1018357
9.337                0.759132899      80.8774801
9.338                0.759821599       80.653965
9.339                0.760508493      80.4312868
9.34                 0.761193574       80.209442
9.341                0.761876833      79.9884267
9.342                0.762558262      79.7682374
9.343                0.763237854      79.5488705
9.344                0.763915601      79.3303223
9.345                0.764591496      79.1125892
9.346                0.765265532      78.8956676
9.347                0.765937704       78.679554
9.348                0.766608003      78.4642447
9.349                0.767276424      78.2497362
9.35                 0.767942961      78.0360249
9.351                0.768607608      77.8231072
9.352                 0.76927036      77.6109797
9.353                0.769931211      77.3996387
9.354                0.770590156      77.1890808
9.355                 0.77124719      76.9793025
9.356                0.771902308      76.7703002
9.357                0.772555507      76.5620704
9.358                0.773206781      76.3546097
9.359                0.773856126      76.1479147
9.36                 0.774503539      75.9419818
9.361                0.775149015      75.7368076
9.362                0.775792551      75.5323887
9.363                0.776434145      75.3287216
9.364                0.777073791       75.125803
9.365                0.777711488      74.9236294
9.366                0.778347233      74.7221975
9.367                0.778981022      74.5215039
9.368                0.779612854      74.3215451
9.369                0.780242726       74.122318
9.37                 0.780870636       73.923819
9.371                0.781496581       73.726045
9.372                0.782120561      73.5289925
9.373                0.782742573      73.3326583
9.374                0.783362615       73.137039
9.375                0.783980686      72.9421315
9.376                0.784596786      72.7479324
9.377                0.785210913      72.5544384
9.378                0.785823065      72.3616464
9.379                0.786433243      72.1695531
9.38                 0.787041445      71.9781553
9.381                0.787647671      71.7874498
9.382                 0.78825192      71.5974333
9.383                0.788854193      71.4081027
9.384                0.789454488      71.2194549
9.385                0.790052807      71.0314867
9.386                0.790649149      70.8441949
9.387                0.791243514      70.6575763
9.388                0.791835903       70.471628
9.389                0.792426317      70.2863468
9.39                 0.793014755      70.1017295
9.391                0.793601218      69.9177732
9.392                0.794185708      69.7344747
9.393                0.794768225       69.551831
9.394                0.795348771      69.3698391
9.395                0.795927346      69.1884958
9.396                0.796503952      69.0077983
