! TOUCHSTONE file generated by CST DESIGN STUDIO
! Date and time: Tue Feb  4 12:35:27 2025
! Project name: C:\Work\MatlabApps\UnitCellOptimizationMatlab\CST\unitcell.cst
! Tree item: Tasks\Sweep1\SPara1\S-Parameters
! Header version: 2024
! Port assignment regex: !\s*Touchstone port\s*([0-9]+)\s*=\s*(CST MWS port|CST DES external port|CST DES block port)\s*(.+)\s* \(\"(.*)\"\)(\s*mode\s*([0-9]+))?.*
! Touchstone port assignment:
! Touchstone port 1 = CST DES external port 1 ("")
# GHz S MA R 50
9                    0.989904977     -74.8093642
9.001                0.989881451     -74.9198573
9.002                0.989857854     -75.0306162
9.003                0.989834186     -75.1416417
9.004                0.989810448     -75.2529346
9.005                0.989786638     -75.3644957
9.006                0.989762757     -75.4763257
9.007                0.989738804     -75.5884254
9.008                 0.98971478     -75.7007957
9.009                0.989690683     -75.8134373
9.01                 0.989666515     -75.9263511
9.011                0.989642275     -76.0395377
9.012                0.989617963      -76.152998
9.013                0.989593578     -76.2667328
9.014                 0.98956912      -76.380743
9.015                 0.98954459     -76.4950292
9.016                0.989519987     -76.6095923
9.017                0.989495311     -76.7244332
9.018                0.989470561     -76.8395525
9.019                0.989445739     -76.9549512
9.02                 0.989420842       -77.07063
9.021                0.989395872     -77.1865898
9.022                0.989370829     -77.3028313
9.023                0.989345711     -77.4193554
9.024                0.989320519     -77.5361628
9.025                0.989295253     -77.6532545
9.026                0.989269913     -77.7706312
9.027                0.989244498     -77.8882938
9.028                0.989219008     -78.0062431
9.029                0.989193443     -78.1244798
9.03                 0.989167804     -78.2430049
9.031                0.989142089     -78.3618192
9.032                0.989116299     -78.4809234
9.033                0.989090434     -78.6003185
9.034                0.989064493     -78.7200052
9.035                0.989038476     -78.8399844
9.036                0.989012384      -78.960257
9.037                0.988986215     -79.0808237
9.038                0.988959971     -79.2016855
9.039                 0.98893365     -79.3228431
9.04                 0.988907253     -79.4442974
9.041                0.988880779     -79.5660493
9.042                0.988854228     -79.6880995
9.043                0.988827601      -79.810449
9.044                0.988800897     -79.9330986
9.045                0.988774116     -80.0560492
9.046                0.988747258     -80.1793015
9.047                0.988720322     -80.3028565
9.048                0.988693309     -80.4267151
9.049                0.988666218      -80.550878
9.05                  0.98863905     -80.6753461
9.051                0.988611804     -80.8001203
9.052                 0.98858448     -80.9252015
9.053                0.988557078     -81.0505905
9.054                0.988529598     -81.1762882
9.055                0.988502039     -81.3022955
9.056                0.988474402     -81.4286132
9.057                0.988446687     -81.5552421
9.058                0.988418893     -81.6821833
9.059                 0.98839102     -81.8094375
9.06                 0.988363068     -81.9370056
9.061                0.988335037     -82.0648885
9.062                0.988306928      -82.193087
9.063                0.988278739     -82.3216021
9.064                0.988250471     -82.4504347
9.065                0.988222123     -82.5795855
9.066                0.988193696     -82.7090556
9.067                0.988165189     -82.8388457
9.068                0.988136603     -82.9689567
9.069                0.988107937     -83.0993896
9.07                 0.988079191     -83.2301453
9.071                0.988050365     -83.3612245
9.072                0.988021459     -83.4926283
9.073                0.987992472     -83.6243575
9.074                0.987963406     -83.7564129
9.075                0.987934259     -83.8887956
9.076                0.987905032     -84.0215063
9.077                0.987875724      -84.154546
9.078                0.987846335     -84.2879156
9.079                0.987816866     -84.4216159
9.08                 0.987787316      -84.555648
9.081                0.987757686     -84.6900125
9.082                0.987727974     -84.8247106
9.083                0.987698182      -84.959743
9.084                0.987668308     -85.0951107
9.085                0.987638354     -85.2308145
9.086                0.987608318     -85.3668554
9.087                0.987578201     -85.5032344
9.088                0.987548003     -85.6399522
9.089                0.987517723     -85.7770097
9.09                 0.987487362      -85.914408
9.091                0.987456919     -86.0521479
9.092                0.987426395     -86.1902303
9.093                 0.98739579     -86.3286562
9.094                0.987365102     -86.4674264
9.095                0.987334333     -86.6065418
9.096                0.987303483     -86.7460034
9.097                0.987272551      -86.885812
9.098                0.987241536     -87.0259687
9.099                0.987210441     -87.1664742
9.1                  0.987179263     -87.3073295
9.101                0.987148003     -87.4485356
9.102                0.987116662     -87.5900933
9.103                0.987085238     -87.7320036
9.104                0.987053733     -87.8742673
9.105                0.987022146     -88.0168854
9.106                0.986990476     -88.1598588
9.107                0.986958725     -88.3031884
9.108                0.986926892     -88.4468752
9.109                0.986894976       -88.59092
9.11                 0.986862979     -88.7353238
9.111                  0.9868309     -88.8800875
9.112                0.986798738     -89.0252119
9.113                0.986766495     -89.1706981
9.114                 0.98673417     -89.3165469
9.115                0.986701762     -89.4627593
9.116                0.986669273     -89.6093362
9.117                0.986636702     -89.7562784
9.118                0.986604048      -89.903587
9.119                0.986571313     -90.0512627
9.12                 0.986538496     -90.1993067
9.121                0.986505597     -90.3477197
9.122                0.986472617     -90.4965026
9.123                0.986439554     -90.6456565
9.124                 0.98640641     -90.7951821
9.125                0.986373184     -90.9450805
9.126                0.986339877     -91.0953526
9.127                0.986306487     -91.2459992
9.128                0.986273017     -91.3970213
9.129                0.986239465     -91.5484197
9.13                 0.986205831     -91.7001955
9.131                0.986172116     -91.8523495
9.132                 0.98613832     -92.0048826
9.133                0.986104442     -92.1577958
9.134                0.986070484     -92.3110899
9.135                0.986036444     -92.4647659
9.136                0.986002324     -92.6188246
9.137                0.985968122     -92.7732671
9.138                 0.98593384     -92.9280941
9.139                0.985899477     -93.0833067
9.14                 0.985865034     -93.2389056
9.141                 0.98583051     -93.3948919
9.142                0.985795905     -93.5512664
9.143                0.985761221       -93.70803
9.144                0.985726456     -93.8651836
9.145                0.985691611     -94.0227281
9.146                0.985656687     -94.1806645
9.147                0.985621682     -94.3389936
9.148                0.985586598     -94.4977163
9.149                0.985551435     -94.6568336
9.15                 0.985516192     -94.8163462
9.151                0.985480871     -94.9762552
9.152                 0.98544547     -95.1365613
9.153                 0.98540999     -95.2972655
9.154                0.985374432     -95.4583688
9.155                0.985338795     -95.6198718
9.156                 0.98530308     -95.7817756
9.157                0.985267286     -95.9440811
9.158                0.985231415     -96.1067891
9.159                0.985195466     -96.2699004
9.16                 0.985159439      -96.433416
9.161                0.985123335     -96.5973368
9.162                0.985087154     -96.7616635
9.163                0.985050896     -96.9263972
9.164                0.985014561     -97.0915386
9.165                 0.98497815     -97.2570886
9.166                0.984941662     -97.4230481
9.167                0.984905098      -97.589418
9.168                0.984868459      -97.756199
9.169                0.984831744     -97.9233922
9.17                 0.984794953     -98.0909982
9.171                0.984758088      -98.259018
9.172                0.984721147     -98.4274524
9.173                0.984684133     -98.5963023
9.174                0.984647043     -98.7655685
9.175                 0.98460988     -98.9352519
9.176                0.984572644     -99.1053532
9.177                0.984535334     -99.2758733
9.178                 0.98449795     -99.4468131
9.179                0.984460494     -99.6181734
9.18                 0.984422966     -99.7899549
9.181                0.984385365     -99.9621586
9.182                0.984347692     -100.134785
9.183                0.984309948     -100.307836
9.184                0.984272133     -100.481311
9.185                0.984234247     -100.655211
9.186                 0.98419629     -100.829537
9.187                0.984158264     -101.004291
9.188                0.984120167     -101.179472
9.189                0.984082001     -101.355082
9.19                 0.984043766     -101.531121
9.191                0.984005463      -101.70759
9.192                0.983967091     -101.884491
9.193                0.983928651     -102.061822
9.194                0.983890144     -102.239587
9.195                0.983851569     -102.417784
9.196                0.983812928     -102.596416
9.197                0.983774221     -102.775482
9.198                0.983735448     -102.954984
9.199                 0.98369661     -103.134922
9.2                  0.983657707     -103.315297
9.201                0.983618739      -103.49611
9.202                0.983579708     -103.677362
9.203                0.983540613     -103.859052
9.204                0.983501454     -104.041183
9.205                0.983462234     -104.223754
9.206                0.983422951     -104.406766
9.207                0.983383607     -104.590221
9.208                0.983344201     -104.774118
9.209                0.983304735     -104.958459
9.21                 0.983265209     -105.143244
9.211                0.983225623     -105.328474
9.212                0.983185979     -105.514149
9.213                0.983146276      -105.70027
9.214                0.983106515     -105.886839
9.215                0.983066697     -106.073855
9.216                0.983026822     -106.261319
9.217                0.982986891     -106.449232
9.218                0.982946904     -106.637594
9.219                0.982906863     -106.826407
9.22                 0.982866767      -107.01567
9.221                0.982826617     -107.205385
9.222                0.982786414     -107.395552
9.223                0.982746159     -107.586171
9.224                0.982705851     -107.777244
9.225                0.982665493      -107.96877
9.226                0.982625084     -108.160751
9.227                0.982584625     -108.353187
9.228                0.982544116     -108.546078
9.229                0.982503559     -108.739426
9.23                 0.982462954      -108.93323
9.231                0.982422302     -109.127491
9.232                0.982381604      -109.32221
9.233                 0.98234086     -109.517388
9.234                 0.98230007     -109.713024
9.235                0.982259237      -109.90912
9.236                0.982218359     -110.105676
9.237                0.982177439     -110.302692
9.238                0.982136477     -110.500169
9.239                0.982095474     -110.698107
9.24                  0.98205443     -110.896507
9.241                0.982013346      -111.09537
9.242                0.981972224     -111.294695
9.243                0.981931063     -111.494484
9.244                0.981889865     -111.694736
9.245                0.981848631     -111.895452
9.246                0.981807361     -112.096633
9.247                0.981766056     -112.298279
9.248                0.981724717      -112.50039
9.249                0.981683345     -112.702968
9.25                 0.981641941     -112.906011
9.251                0.981600506     -113.109521
9.252                 0.98155904     -113.313497
9.253                0.981517545     -113.517941
9.254                0.981476021     -113.722853
9.255                0.981434469     -113.928233
9.256                0.981392891     -114.134081
9.257                0.981351287     -114.340397
9.258                0.981309658     -114.547183
9.259                0.981268005     -114.754438
9.26                 0.981226329     -114.962162
9.261                0.981184632     -115.170356
9.262                0.981142913      -115.37902
9.263                0.981101174     -115.588154
9.264                0.981059417     -115.797759
9.265                0.981017641     -116.007835
9.266                0.980975849     -116.218382
9.267                0.980934041       -116.4294
9.268                0.980892218     -116.640889
9.269                0.980850382      -116.85285
9.27                 0.980808532     -117.065283
9.271                0.980766672     -117.278188
9.272                  0.9807248     -117.491565
9.273                 0.98068292     -117.705414
9.274                0.980641031     -117.919735
9.275                0.980599135     -118.134529
9.276                0.980557233     -118.349795
9.277                0.980515327     -118.565534
9.278                0.980473416     -118.781746
9.279                0.980431503     -118.998431
9.28                 0.980389589     -119.215588
9.281                0.980347675     -119.433218
9.282                0.980305762     -119.651322
9.283                0.980263851     -119.869898
9.284                0.980221943     -120.088947
9.285                 0.98018004     -120.308469
9.286                0.980138143     -120.528463
9.287                0.980096254     -120.748931
9.288                0.980054373     -120.969871
9.289                0.980012501     -121.191284
9.29                 0.979970641      -121.41317
9.291                0.979928792     -121.635528
9.292                0.979886958     -121.858358
9.293                0.979845138      -122.08166
9.294                0.979803335     -122.305435
9.295                0.979761549     -122.529682
9.296                0.979719782       -122.7544
9.297                0.979678035      -122.97959
9.298                 0.97963631     -123.205251
9.299                0.979594608     -123.431384
9.3                   0.97955293     -123.657987
9.301                0.979511278     -123.885061
9.302                0.979469653     -124.112605
9.303                0.979428057     -124.340619
9.304                0.979386491     -124.569104
9.305                0.979344956     -124.798057
9.306                0.979303454      -125.02748
9.307                0.979261986     -125.257372
9.308                0.979220554     -125.487732
9.309                0.979179159      -125.71856
9.31                 0.979137803     -125.949856
9.311                0.979096488     -126.181619
9.312                0.979055213     -126.413848
9.313                0.979013983     -126.646544
9.314                0.978972796     -126.879707
9.315                0.978931657     -127.113334
9.316                0.978890564     -127.347426
9.317                0.978849522     -127.581983
9.318                 0.97880853     -127.817004
9.319                 0.97876759     -128.052488
9.32                 0.978726705     -128.288435
9.321                0.978685875     -128.524844
9.322                0.978645103     -128.761714
9.323                0.978604389     -128.999046
9.324                0.978563736     -129.236837
9.325                0.978523144     -129.475089
9.326                0.978482617     -129.713799
9.327                0.978442154     -129.952968
9.328                0.978401759     -130.192594
9.329                0.978361432     -130.432677
9.33                 0.978321175     -130.673216
9.331                0.978280991      -130.91421
9.332                 0.97824088     -131.155659
9.333                0.978200844     -131.397562
9.334                0.978160885     -131.639918
9.335                0.978121005     -131.882725
9.336                0.978081205     -132.125984
9.337                0.978041487     -132.369693
9.338                0.978001853     -132.613852
9.339                0.977962305     -132.858458
9.34                 0.977922844     -133.103513
9.341                0.977883471     -133.349014
9.342                 0.97784419     -133.594961
9.343                0.977805001     -133.841352
9.344                0.977765907     -134.088187
9.345                0.977726908     -134.335464
9.346                0.977688007     -134.583183
9.347                0.977649206     -134.831342
9.348                0.977610506     -135.079941
9.349                 0.97757191     -135.328978
9.35                 0.977533418     -135.578451
9.351                0.977495034     -135.828361
9.352                0.977456758     -136.078705
9.353                0.977418592     -136.329483
9.354                0.977380538     -136.580693
9.355                0.977342599     -136.832334
9.356                0.977304776     -137.084405
9.357                 0.97726707     -137.336904
9.358                0.977229484     -137.589831
9.359                0.977192019     -137.843183
9.36                 0.977154678      -138.09696
9.361                0.977117462      -138.35116
9.362                0.977080372     -138.605781
9.363                0.977043412     -138.860823
9.364                0.977006583     -139.116284
9.365                0.976969886     -139.372162
9.366                0.976933323     -139.628456
9.367                0.976896897     -139.885165
9.368                0.976860609     -140.142287
9.369                0.976824462      -140.39982
9.37                 0.976788456     -140.657762
9.371                0.976752594     -140.916114
9.372                0.976716878     -141.174871
9.373                 0.97668131     -141.434034
9.374                0.976645891       -141.6936
9.375                0.976610624     -141.953568
9.376                 0.97657551     -142.213936
9.377                0.976540551     -142.474703
9.378                 0.97650575     -142.735865
9.379                0.976471107     -142.997423
9.38                 0.976436626     -143.259374
9.381                0.976402307     -143.521716
9.382                0.976368154     -143.784447
9.383                0.976334167     -144.047567
9.384                0.976300348     -144.311071
9.385                  0.9762667      -144.57496
9.386                0.976233225     -144.839231
9.387                0.976199923     -145.103882
9.388                0.976166798      -145.36891
9.389                0.976133851     -145.634315
9.39                 0.976101084     -145.900094
9.391                0.976068498     -146.166246
9.392                0.976036097     -146.432767
9.393                0.976003881     -146.699656
9.394                0.975971853     -146.966911
9.395                0.975940014      -147.23453
9.396                0.975908366     -147.502511
