! TOUCHSTONE file generated by CST DESIGN STUDIO
! Date and time: Tue Feb  4 12:35:26 2025
! Project name: C:\Work\MatlabApps\UnitCellOptimizationMatlab\CST\unitcell.cst
! Tree item: Tasks\Sweep1\SPara1\S-Parameters
! Header version: 2024
! Port assignment regex: !\s*Touchstone port\s*([0-9]+)\s*=\s*(CST MWS port|CST DES external port|CST DES block port)\s*(.+)\s* \(\"(.*)\"\)(\s*mode\s*([0-9]+))?.*
! Touchstone port assignment:
! Touchstone port 1 = CST DES external port 1 ("")
# GHz S MA R 50
9                    0.989736397     -75.6650174
9.001                0.989712173     -75.7774386
9.002                0.989687875     -75.8901312
9.003                0.989663505     -76.0030958
9.004                0.989639062     -76.1163332
9.005                0.989614545     -76.2298443
9.006                0.989589955     -76.3436299
9.007                0.989565292     -76.4576907
9.008                0.989540554     -76.5720276
9.009                0.989515743     -76.6866413
9.01                 0.989490858     -76.8015327
9.011                0.989465899     -76.9167025
9.012                0.989440865     -77.0321516
9.013                0.989415757     -77.1478808
9.014                0.989390575     -77.2638909
9.015                0.989365317     -77.3801826
9.016                0.989339985     -77.4967569
9.017                0.989314577     -77.6136145
9.018                0.989289094     -77.7307563
9.019                0.989263536      -77.848183
9.02                 0.989237902     -77.9658955
9.021                0.989212193     -78.0838947
9.022                0.989186408     -78.2021813
9.023                0.989160546     -78.3207561
9.024                0.989134609       -78.43962
9.025                0.989108595     -78.5587739
9.026                0.989082505     -78.6782185
9.027                0.989056338     -78.7979547
9.028                0.989030095     -78.9179833
9.029                0.989003774     -79.0383051
9.03                 0.988977377     -79.1589211
9.031                0.988950902      -79.279832
9.032                 0.98892435     -79.4010387
9.033                0.988897721      -79.522542
9.034                0.988871014     -79.6443427
9.035                 0.98884423     -79.7664418
9.036                0.988817368       -79.88884
9.037                0.988790427     -80.0115383
9.038                0.988763409     -80.1345374
9.039                0.988736312     -80.2578382
9.04                 0.988709137     -80.3814415
9.041                0.988681883     -80.5053483
9.042                0.988654551     -80.6295594
9.043                 0.98862714     -80.7540756
9.044                 0.98859965     -80.8788978
9.045                0.988572082     -81.0040269
9.046                0.988544434     -81.1294637
9.047                0.988516706      -81.255209
9.048                  0.9884889     -81.3812638
9.049                0.988461014      -81.507629
9.05                 0.988433048     -81.6343053
9.051                0.988405002     -81.7612937
9.052                0.988376877      -81.888595
9.053                0.988348672     -82.0162101
9.054                0.988320386     -82.1441399
9.055                0.988292021     -82.2723852
9.056                0.988263575     -82.4009469
9.057                0.988235048      -82.529826
9.058                0.988206442     -82.6590233
9.059                0.988177754     -82.7885396
9.06                 0.988148986     -82.9183758
9.061                0.988120137     -83.0485329
9.062                0.988091207     -83.1790117
9.063                0.988062196     -83.3098131
9.064                0.988033104      -83.440938
9.065                0.988003931     -83.5723873
9.066                0.987974676     -83.7041618
9.067                 0.98794534     -83.8362625
9.068                0.987915922     -83.9686902
9.069                0.987886423     -84.1014458
9.07                 0.987856842     -84.2345303
9.071                 0.98782718     -84.3679445
9.072                0.987797435     -84.5016893
9.073                0.987767609     -84.6357657
9.074                  0.9877377     -84.7701744
9.075                 0.98770771     -84.9049165
9.076                0.987677637     -85.0399928
9.077                0.987647482     -85.1754042
9.078                0.987617245     -85.3111515
9.079                0.987586926     -85.4472358
9.08                 0.987556524      -85.583658
9.081                0.987526039     -85.7204188
9.082                0.987495472     -85.8575193
9.083                0.987464823     -85.9949603
9.084                 0.98743409     -86.1327427
9.085                0.987403275     -86.2708674
9.086                0.987372378     -86.4093355
9.087                0.987341397     -86.5481476
9.088                0.987310333     -86.6873048
9.089                0.987279187     -86.8268081
9.09                 0.987247957     -86.9666581
9.091                0.987216645      -87.106856
9.092                0.987185249     -87.2474026
9.093                0.987153771     -87.3882988
9.094                0.987122209     -87.5295455
9.095                0.987090564     -87.6711437
9.096                0.987058836     -87.8130942
9.097                0.987027025      -87.955398
9.098                 0.98699513     -88.0980559
9.099                0.986963153      -88.241069
9.1                  0.986931092      -88.384438
9.101                0.986898948      -88.528164
9.102                 0.98686672     -88.6722478
9.103                0.986834409     -88.8166903
9.104                0.986802015     -88.9614926
9.105                0.986769538     -89.1066553
9.106                0.986736977     -89.2521796
9.107                0.986704333     -89.3980663
9.108                0.986671606     -89.5443164
9.109                0.986638795     -89.6909306
9.11                 0.986605901       -89.83791
9.111                0.986572924     -89.9852555
9.112                0.986539864      -90.132968
9.113                0.986506721     -90.2810484
9.114                0.986473494     -90.4294976
9.115                0.986440185     -90.5783165
9.116                0.986406792      -90.727506
9.117                0.986373316     -90.8770672
9.118                0.986339757     -91.0270007
9.119                0.986306115     -91.1773077
9.12                  0.98627239      -91.327989
9.121                0.986238583     -91.4790455
9.122                0.986204692     -91.6304781
9.123                0.986170719     -91.7822877
9.124                0.986136663     -91.9344753
9.125                0.986102525     -92.0870417
9.126                0.986068304     -92.2399879
9.127                   0.986034     -92.3933147
9.128                0.985999614     -92.5470232
9.129                0.985965146     -92.7011141
9.13                 0.985930595     -92.8555884
9.131                0.985895963     -93.0104471
9.132                0.985861248     -93.1656909
9.133                0.985826451     -93.3213208
9.134                0.985791573     -93.4773378
9.135                0.985756613     -93.6337426
9.136                0.985721571     -93.7905363
9.137                0.985686448     -93.9477197
9.138                0.985651243     -94.1052937
9.139                0.985615957     -94.2632592
9.14                  0.98558059     -94.4216171
9.141                0.985545142     -94.5803682
9.142                0.985509613     -94.7395136
9.143                0.985474004     -94.8990541
9.144                0.985438314     -95.0589905
9.145                0.985402543     -95.2193238
9.146                0.985366693     -95.3800549
9.147                0.985330762     -95.5411845
9.148                0.985294751     -95.7027137
9.149                0.985258661     -95.8646433
9.15                 0.985222491     -96.0269742
9.151                0.985186242     -96.1897072
9.152                0.985149913     -96.3528432
9.153                0.985113506     -96.5163831
9.154                 0.98507702     -96.6803279
9.155                0.985040455     -96.8446782
9.156                0.985003812     -97.0094351
9.157                 0.98496709     -97.1745993
9.158                0.984930291     -97.3401718
9.159                0.984893414     -97.5061534
9.16                  0.98485646      -97.672545
9.161                0.984819428     -97.8393473
9.162                 0.98478232     -98.0065613
9.163                0.984745134     -98.1741879
9.164                0.984707872     -98.3422278
9.165                0.984670534     -98.5106819
9.166                 0.98463312     -98.6795511
9.167                0.984595631     -98.8488362
9.168                0.984558065      -99.018538
9.169                0.984520425     -99.1886573
9.17                  0.98448271     -99.3591951
9.171                0.984444921     -99.5301521
9.172                0.984407057     -99.7015291
9.173                0.984369119      -99.873327
9.174                0.984331108     -100.045547
9.175                0.984293023     -100.218189
9.176                0.984254865     -100.391254
9.177                0.984216635     -100.564744
9.178                0.984178333     -100.738658
9.179                0.984139958     -100.912998
9.18                 0.984101512     -101.087765
9.181                0.984062995     -101.262959
9.182                0.984024407     -101.438581
9.183                0.983985748     -101.614632
9.184                 0.98394702     -101.791112
9.185                0.983908221     -101.968023
9.186                0.983869354     -102.145366
9.187                0.983830417      -102.32314
9.188                0.983791412     -102.501347
9.189                0.983752339     -102.679987
9.19                 0.983713198     -102.859062
9.191                 0.98367399     -103.038572
9.192                0.983634715     -103.218517
9.193                0.983595374     -103.398899
9.194                0.983555967     -103.579718
9.195                0.983516494     -103.760976
9.196                0.983476957     -103.942671
9.197                0.983437355     -104.124807
9.198                0.983397689     -104.307382
9.199                0.983357959     -104.490398
9.2                  0.983318167     -104.673856
9.201                0.983278312     -104.857756
9.202                0.983238395     -105.042099
9.203                0.983198416     -105.226885
9.204                0.983158377     -105.412116
9.205                0.983118277     -105.597792
9.206                0.983078117     -105.783913
9.207                0.983037898     -105.970481
9.208                 0.98299762     -106.157495
9.209                0.982957284     -106.344958
9.21                 0.982916891     -106.532868
9.211                 0.98287644     -106.721228
9.212                0.982835933     -106.910037
9.213                 0.98279537     -107.099296
9.214                0.982754752     -107.289006
9.215                0.982714079     -107.479167
9.216                0.982673353      -107.66978
9.217                0.982632573     -107.860846
9.218                 0.98259174     -108.052366
9.219                0.982550856     -108.244338
9.22                  0.98250992     -108.436766
9.221                0.982468933     -108.629648
9.222                0.982427896     -108.822986
9.223                 0.98238681     -109.016779
9.224                0.982345676      -109.21103
9.225                0.982304493     -109.405737
9.226                0.982263264     -109.600902
9.227                0.982221988     -109.796526
9.228                0.982180666     -109.992608
9.229                0.982139299     -110.189149
9.23                 0.982097888      -110.38615
9.231                0.982056433     -110.583612
9.232                0.982014936     -110.781534
9.233                0.981973397     -110.979917
9.234                0.981931817     -111.178762
9.235                0.981890196     -111.378069
9.236                0.981848536     -111.577838
9.237                0.981806838     -111.778071
9.238                0.981765101     -111.978766
9.239                0.981723328     -112.179926
9.24                 0.981681518      -112.38155
9.241                0.981639673     -112.583639
9.242                0.981597793     -112.786193
9.243                 0.98155588     -112.989212
9.244                0.981513935     -113.192697
9.245                0.981471957     -113.396648
9.246                0.981429949     -113.601066
9.247                 0.98138791     -113.805951
9.248                0.981345843     -114.011303
9.249                0.981303748     -114.217122
9.25                 0.981261625     -114.423409
9.251                0.981219476     -114.630165
9.252                0.981177302     -114.837389
9.253                0.981135104     -115.045081
9.254                0.981092883     -115.253243
9.255                0.981050639     -115.461874
9.256                0.981008374     -115.670975
9.257                0.980966089     -115.880545
9.258                0.980923784     -116.090585
9.259                0.980881462     -116.301096
9.26                 0.980839122     -116.512077
9.261                0.980796767     -116.723528
9.262                0.980754396      -116.93545
9.263                0.980712011     -117.147844
9.264                0.980669614     -117.360708
9.265                0.980627205     -117.574044
9.266                0.980584785     -117.787851
9.267                0.980542356     -118.002129
9.268                0.980499918     -118.216879
9.269                0.980457473     -118.432101
9.27                 0.980415023     -118.647795
9.271                0.980372567      -118.86396
9.272                0.980330107     -119.080598
9.273                0.980287645     -119.297707
9.274                0.980245182     -119.515289
9.275                0.980202718     -119.733342
9.276                0.980160256     -119.951868
9.277                0.980117796     -120.170866
9.278                0.980075339     -120.390335
9.279                0.980032887     -120.610277
9.28                 0.979990442      -120.83069
9.281                0.979948003     -121.051575
9.282                0.979905573     -121.272932
9.283                0.979863153     -121.494761
9.284                0.979820744     -121.717061
9.285                0.979778348     -121.939833
9.286                0.979735965     -122.163076
9.287                0.979693598      -122.38679
9.288                0.979651246     -122.610976
9.289                0.979608913     -122.835632
9.29                 0.979566599     -123.060758
9.291                0.979524305     -123.286355
9.292                0.979482034     -123.512423
9.293                0.979439785      -123.73896
9.294                0.979397562     -123.965967
9.295                0.979355364     -124.193443
9.296                0.979313194     -124.421388
9.297                0.979271053     -124.649803
9.298                0.979228942     -124.878686
9.299                0.979186863     -125.108037
9.3                  0.979144818     -125.337855
9.301                0.979102807     -125.568142
9.302                0.979060832     -125.798895
9.303                0.979018896     -126.030115
9.304                0.978976998     -126.261801
9.305                0.978935141     -126.493953
9.306                0.978893327     -126.726571
9.307                0.978851556     -126.959653
9.308                0.978809831       -127.1932
9.309                0.978768152      -127.42721
9.31                 0.978726522     -127.661684
9.311                0.978684942     -127.896621
9.312                0.978643414      -128.13202
9.313                0.978601938     -128.367881
9.314                0.978560518     -128.604203
9.315                0.978519154     -128.840986
9.316                0.978477847     -129.078229
9.317                0.978436601      -129.31593
9.318                0.978395415     -129.554091
9.319                0.978354293     -129.792709
9.32                 0.978313235     -130.031785
9.321                0.978272243     -130.271317
9.322                0.978231319     -130.511305
9.323                0.978190464     -130.751747
9.324                0.978149681     -130.992645
9.325                 0.97810897     -131.233995
9.326                0.978068334     -131.475798
9.327                0.978027774     -131.718053
9.328                0.977987292      -131.96076
9.329                 0.97794689     -132.203916
9.33                 0.977906569     -132.447521
9.331                0.977866332     -132.691575
9.332                0.977826179     -132.936076
9.333                0.977786113     -133.181023
9.334                0.977746136     -133.426416
9.335                0.977706248     -133.672254
9.336                0.977666452     -133.918535
9.337                0.977626751     -134.165259
9.338                0.977587144     -134.412423
9.339                0.977547635     -134.660029
9.34                 0.977508225     -134.908073
9.341                0.977468916     -135.156556
9.342                 0.97742971     -135.405476
9.343                0.977390608     -135.654832
9.344                0.977351612     -135.904622
9.345                0.977312725     -136.154847
9.346                0.977273947     -136.405503
9.347                0.977235281     -136.656591
9.348                0.977196729     -136.908108
9.349                0.977158293     -137.160054
9.35                 0.977119974     -137.412428
9.351                0.977081774     -137.665227
9.352                0.977043695     -137.918452
9.353                0.977005739     -138.172099
9.354                0.976967908     -138.426169
9.355                0.976930204     -138.680659
9.356                0.976892628     -138.935568
9.357                0.976855183     -139.190896
9.358                 0.97681787     -139.446639
9.359                0.976780691     -139.702797
9.36                 0.976743649     -139.959369
9.361                0.976706744     -140.216352
9.362                 0.97666998     -140.473746
9.363                0.976633357     -140.731548
9.364                0.976596878     -140.989758
9.365                0.976560545     -141.248373
9.366                0.976524359     -141.507391
9.367                0.976488323     -141.766813
9.368                0.976452438     -142.026634
9.369                0.976416706     -142.286855
9.37                  0.97638113     -142.547473
9.371                 0.97634571     -142.808486
9.372                 0.97631045     -143.069893
9.373                0.976275351     -143.331692
9.374                0.976240414     -143.593881
9.375                0.976205643     -143.856458
9.376                0.976171038     -144.119422
9.377                0.976136601      -144.38277
9.378                0.976102336     -144.646501
9.379                0.976068242     -144.910613
9.38                 0.976034323     -145.175104
9.381                0.976000581     -145.439971
9.382                0.975967016     -145.705214
9.383                0.975933632      -145.97083
9.384                 0.97590043     -146.236817
9.385                0.975867412     -146.503172
9.386                0.975834579     -146.769895
9.387                0.975801935     -147.036982
9.388                 0.97576948     -147.304432
9.389                0.975737217     -147.572242
9.39                 0.975705147     -147.840411
9.391                0.975673272     -148.108937
9.392                0.975641595     -148.377816
9.393                0.975610117     -148.647048
9.394                 0.97557884     -148.916629
9.395                0.975547765     -149.186557
9.396                0.975516896     -149.456831
