! TOUCHSTONE file generated by CST DESIGN STUDIO
! Date and time: Tue Feb  4 12:35:32 2025
! Project name: C:\Work\MatlabApps\UnitCellOptimizationMatlab\CST\unitcell.cst
! Tree item: Tasks\Sweep1\SPara1\S-Parameters
! Header version: 2024
! Port assignment regex: !\s*Touchstone port\s*([0-9]+)\s*=\s*(CST MWS port|CST DES external port|CST DES block port)\s*(.+)\s* \(\"(.*)\"\)(\s*mode\s*([0-9]+))?.*
! Touchstone port assignment:
! Touchstone port 1 = CST DES external port 1 ("")
# GHz S MA R 50
9                    0.990409651     -72.1726208
9.001                0.990388257     -72.2773461
9.002                0.990366797     -72.3823209
9.003                0.990345273     -72.4875459
9.004                0.990323683      -72.593022
9.005                0.990302028     -72.6987497
9.006                0.990280308     -72.8047299
9.007                0.990258522     -72.9109633
9.008                 0.99023667     -73.0174507
9.009                0.990214752     -73.1241928
9.01                 0.990192767     -73.2311904
9.011                0.990170717     -73.3384443
9.012                  0.9901486     -73.4459551
9.013                0.990126417     -73.5537237
9.014                0.990104166     -73.6617508
9.015                0.990081849     -73.7700371
9.016                0.990059465     -73.8785835
9.017                0.990037014     -73.9873908
9.018                0.990014495     -74.0964596
9.019                0.989991908     -74.2057908
9.02                 0.989969254     -74.3153851
9.021                0.989946532     -74.4252433
9.022                0.989923743     -74.5353663
9.023                0.989900885     -74.6457546
9.024                0.989877958     -74.7564093
9.025                0.989854963     -74.8673309
9.026                  0.9898319     -74.9785204
9.027                0.989808768     -75.0899785
9.028                0.989785567      -75.201706
9.029                0.989762297     -75.3137037
9.03                 0.989738958     -75.4259724
9.031                0.989715549     -75.5385128
9.032                0.989692071     -75.6513258
9.033                0.989668523     -75.7644122
9.034                0.989644906     -75.8777728
9.035                0.989621218     -75.9914083
9.036                0.989597461     -76.1053196
9.037                0.989573633     -76.2195076
9.038                0.989549735     -76.3339729
9.039                0.989525767     -76.4487164
9.04                 0.989501727      -76.563739
9.041                0.989477617     -76.6790413
9.042                0.989453436     -76.7946244
9.043                0.989429184     -76.9104889
9.044                0.989404861     -77.0266357
9.045                0.989380466     -77.1430656
9.046                   0.989356     -77.2597794
9.047                0.989331462      -77.376778
9.048                0.989306853     -77.4940621
9.049                0.989282171     -77.6116327
9.05                 0.989257418     -77.7294906
9.051                0.989232592     -77.8476365
9.052                0.989207694     -77.9660713
9.053                0.989182723     -78.0847958
9.054                 0.98915768      -78.203811
9.055                0.989132564     -78.3231175
9.056                0.989107376     -78.4427164
9.057                0.989082114     -78.5626083
9.058                0.989056779     -78.6827942
9.059                0.989031371     -78.8032748
9.06                  0.98900589     -78.9240511
9.061                0.988980335     -79.0451239
9.062                0.988954707     -79.1664941
9.063                0.988929004     -79.2881624
9.064                0.988903228     -79.4101298
9.065                0.988877378     -79.5323971
9.066                0.988851454     -79.6549652
9.067                0.988825456     -79.7778348
9.068                0.988799383      -79.901007
9.069                0.988773236     -80.0244825
9.07                 0.988747014     -80.1482622
9.071                0.988720717      -80.272347
9.072                0.988694346     -80.3967378
9.073                  0.9886679     -80.5214353
9.074                0.988641378     -80.6464405
9.075                0.988614782     -80.7717543
9.076                 0.98858811     -80.8973775
9.077                0.988561363      -81.023311
9.078                 0.98853454     -81.1495557
9.079                0.988507642     -81.2761124
9.08                 0.988480669      -81.402982
9.081                0.988453619     -81.5301655
9.082                0.988426493     -81.6576637
9.083                0.988399292     -81.7854774
9.084                0.988372014     -81.9136076
9.085                0.988344661     -82.0420552
9.086                0.988317231      -82.170821
9.087                0.988289724     -82.2999059
9.088                0.988262141     -82.4293108
9.089                0.988234482     -82.5590367
9.09                 0.988206746     -82.6890843
9.091                0.988178933     -82.8194546
9.092                0.988151043     -82.9501486
9.093                0.988123077      -83.081167
9.094                0.988095033     -83.2125107
9.095                0.988066913     -83.3441808
9.096                0.988038715     -83.4761781
9.097                 0.98801044     -83.6085034
9.098                0.987982088     -83.7411577
9.099                0.987953658     -83.8741419
9.1                  0.987925151     -84.0074569
9.101                0.987896567     -84.1411036
9.102                0.987867905     -84.2750829
9.103                0.987839165     -84.4093957
9.104                0.987810348     -84.5440429
9.105                0.987781452     -84.6790255
9.106                0.987752479     -84.8143443
9.107                0.987723428     -84.9500003
9.108                0.987694299     -85.0859943
9.109                0.987665093     -85.2223273
9.11                 0.987635808     -85.3590002
9.111                0.987606445     -85.4960139
9.112                0.987577003     -85.6333694
9.113                0.987547484     -85.7710674
9.114                0.987517886     -85.9091091
9.115                0.987488211     -86.0474952
9.116                0.987458457     -86.1862267
9.117                0.987428624     -86.3253046
9.118                0.987398713     -86.4647296
9.119                0.987368724     -86.6045029
9.12                 0.987338656     -86.7446252
9.121                 0.98730851     -86.8850975
9.122                0.987278286     -87.0259208
9.123                0.987247982     -87.1670959
9.124                0.987217601     -87.3086237
9.125                0.987187141     -87.4505053
9.126                0.987156602     -87.5927415
9.127                0.987125985     -87.7353333
9.128                0.987095289     -87.8782815
9.129                0.987064515     -88.0215871
9.13                 0.987033662     -88.1652511
9.131                 0.98700273     -88.3092743
9.132                 0.98697172     -88.4536577
9.133                0.986940632     -88.5984022
9.134                0.986909464     -88.7435088
9.135                0.986878219     -88.8889783
9.136                0.986846895     -89.0348117
9.137                0.986815492       -89.18101
9.138                0.986784011      -89.327574
9.139                0.986752452     -89.4745046
9.14                 0.986720814     -89.6218029
9.141                0.986689097     -89.7694697
9.142                0.986657303      -89.917506
9.143                 0.98662543     -90.0659127
9.144                0.986593479     -90.2146906
9.145                0.986561449     -90.3638409
9.146                0.986529342     -90.5133643
9.147                0.986497156     -90.6632618
9.148                0.986464892     -90.8135343
9.149                0.986432551     -90.9641828
9.15                 0.986400131     -91.1152082
9.151                0.986367634     -91.2666114
9.152                0.986335058     -91.4183933
9.153                0.986302405     -91.5705549
9.154                0.986269675      -91.723097
9.155                0.986236867     -91.8760207
9.156                0.986203981     -92.0293268
9.157                0.986171018     -92.1830162
9.158                0.986137978     -92.3370899
9.159                 0.98610486     -92.4915488
9.16                 0.986071666     -92.6463938
9.161                0.986038394     -92.8016259
9.162                0.986005046     -92.9572459
9.163                0.985971621     -93.1132548
9.164                0.985938119     -93.2696534
9.165                0.985904541     -93.4264428
9.166                0.985870886     -93.5836238
9.167                0.985837155     -93.7411973
9.168                0.985803348     -93.8991642
9.169                0.985769465     -94.0575255
9.17                 0.985735507     -94.2162821
9.171                0.985701472     -94.3754348
9.172                0.985667362     -94.5349846
9.173                0.985633177     -94.6949324
9.174                0.985598916      -94.855279
9.175                0.985564581     -95.0160255
9.176                 0.98553017     -95.1771726
9.177                0.985495685     -95.3387213
9.178                0.985461126     -95.5006726
9.179                0.985426492     -95.6630271
9.18                 0.985391784      -95.825786
9.181                0.985357002       -95.98895
9.182                0.985322146     -96.1525201
9.183                0.985287217     -96.3164972
9.184                0.985252214      -96.480882
9.185                0.985217139     -96.6456756
9.186                 0.98518199     -96.8108788
9.187                0.985146769     -96.9764924
9.188                0.985111476     -97.1425174
9.189                 0.98507611     -97.3089546
9.19                 0.985040673     -97.4758049
9.191                0.985005163     -97.6430692
9.192                0.984969583     -97.8107483
9.193                0.984933931     -97.9788431
9.194                0.984898208     -98.1473545
9.195                0.984862415     -98.3162833
9.196                0.984826552     -98.4856304
9.197                0.984790618     -98.6553967
9.198                0.984754615     -98.8255829
9.199                0.984718542     -98.9961899
9.2                    0.9846824     -99.1672186
9.201                0.984646189     -99.3386698
9.202                 0.98460991     -99.5105444
9.203                0.984573562     -99.6828432
9.204                0.984537147      -99.855567
9.205                0.984500664     -100.028717
9.206                0.984464114     -100.202293
9.207                0.984427497     -100.376297
9.208                0.984390813     -100.550729
9.209                0.984354064      -100.72559
9.21                 0.984317248     -100.900881
9.211                0.984280367     -101.076603
9.212                0.984243422     -101.252757
9.213                0.984206411     -101.429343
9.214                0.984169336     -101.606362
9.215                0.984132197     -101.783815
9.216                0.984094995     -101.961702
9.217                 0.98405773     -102.140025
9.218                0.984020402     -102.318785
9.219                0.983983012     -102.497981
9.22                  0.98394556     -102.677616
9.221                0.983908047     -102.857688
9.222                0.983870473     -103.038201
9.223                0.983832839     -103.219153
9.224                0.983795144     -103.400546
9.225                 0.98375739     -103.582381
9.226                0.983719577     -103.764658
9.227                0.983681706     -103.947378
9.228                0.983643776     -104.130542
9.229                0.983605789      -104.31415
9.23                 0.983567745     -104.498204
9.231                0.983529645     -104.682704
9.232                0.983491488      -104.86765
9.233                0.983453276     -105.053043
9.234                0.983415009     -105.238885
9.235                0.983376687     -105.425176
9.236                0.983338312     -105.611915
9.237                0.983299883     -105.799105
9.238                0.983261402     -105.986746
9.239                0.983222868     -106.174838
9.24                 0.983184283     -106.363382
9.241                0.983145647     -106.552379
9.242                0.983106961      -106.74183
9.243                0.983068225     -106.931734
9.244                 0.98302944     -107.122093
9.245                0.982990606     -107.312907
9.246                0.982951724     -107.504178
9.247                0.982912795     -107.695904
9.248                 0.98287382     -107.888088
9.249                0.982834798      -108.08073
9.25                 0.982795732      -108.27383
9.251                0.982756621     -108.467389
9.252                0.982717465     -108.661407
9.253                0.982678267     -108.855885
9.254                0.982639026     -109.050824
9.255                0.982599744     -109.246224
9.256                 0.98256042     -109.442086
9.257                0.982521056      -109.63841
9.258                0.982481652     -109.835197
9.259                 0.98244221     -110.032447
9.26                 0.982402729     -110.230161
9.261                0.982363211     -110.428339
9.262                0.982323656     -110.626983
9.263                0.982284066     -110.826091
9.264                0.982244441     -111.025665
9.265                0.982204781     -111.225705
9.266                0.982165089     -111.426212
9.267                0.982125363     -111.627186
9.268                0.982085606     -111.828628
9.269                0.982045818     -112.030538
9.27                    0.982006     -112.232916
9.271                0.981966153     -112.435763
9.272                0.981926277      -112.63908
9.273                0.981886374     -112.842866
9.274                0.981846444     -113.047122
9.275                0.981806489     -113.251848
9.276                0.981766509     -113.457045
9.277                0.981726505     -113.662714
9.278                0.981686478     -113.868854
9.279                 0.98164643     -114.075465
9.28                  0.98160636     -114.282549
9.281                 0.98156627     -114.490105
9.282                0.981526161     -114.698134
9.283                0.981486034     -114.906636
9.284                0.981445889     -115.115612
9.285                0.981405729     -115.325061
9.286                0.981365553     -115.534984
9.287                0.981325363     -115.745381
9.288                 0.98128516     -115.956252
9.289                0.981244945     -116.167598
9.29                 0.981204719     -116.379418
9.291                0.981164483     -116.591714
9.292                0.981124237     -116.804484
9.293                0.981083984      -117.01773
9.294                0.981043724     -117.231452
9.295                0.981003459     -117.445649
9.296                0.980963189     -117.660322
9.297                0.980922915     -117.875471
9.298                0.980882639     -118.091096
9.299                0.980842361     -118.307197
9.3                  0.980802084     -118.523774
9.301                0.980761808     -118.740827
9.302                0.980721533     -118.958357
9.303                0.980681263     -119.176363
9.304                0.980640996     -119.394846
9.305                0.980600736     -119.613805
9.306                0.980560482     -119.833241
9.307                0.980520237     -120.053153
9.308                0.980480001     -120.273541
9.309                0.980439775     -120.494406
9.31                 0.980399562     -120.715747
9.311                0.980359361     -120.937565
9.312                0.980319175     -121.159859
9.313                0.980279004     -121.382628
9.314                0.980238851     -121.605874
9.315                0.980198716     -121.829596
9.316                  0.9801586     -122.053794
9.317                0.980118505     -122.278467
9.318                0.980078432     -122.503616
9.319                0.980038382      -122.72924
9.32                 0.979998358     -122.955339
9.321                0.979958359     -123.181913
9.322                0.979918388     -123.408961
9.323                0.979878446     -123.636484
9.324                0.979838535     -123.864482
9.325                0.979798654     -124.092953
9.326                0.979758807     -124.321897
9.327                0.979718995     -124.551315
9.328                0.979679218     -124.781206
9.329                0.979639479      -125.01157
9.33                 0.979599778     -125.242406
9.331                0.979560118     -125.473713
9.332                0.979520499     -125.705492
9.333                0.979480923     -125.937743
9.334                0.979441392     -126.170464
9.335                0.979401907     -126.403655
9.336                0.979362469     -126.637316
9.337                0.979323081     -126.871447
9.338                0.979283743     -127.106046
9.339                0.979244457     -127.341114
9.34                 0.979205225     -127.576649
9.341                0.979166048     -127.812652
9.342                0.979126928     -128.049121
9.343                0.979087866     -128.286057
9.344                0.979048864     -128.523458
9.345                0.979009923     -128.761324
9.346                0.978971045     -128.999654
9.347                0.978932232     -129.238448
9.348                0.978893484     -129.477705
9.349                0.978854805     -129.717424
9.35                 0.978816195     -129.957605
9.351                0.978777656     -130.198246
9.352                0.978739189     -130.439348
9.353                0.978700797     -130.680909
9.354                0.978662481     -130.922928
9.355                0.978624242     -131.165406
9.356                0.978586082      -131.40834
9.357                0.978548004      -131.65173
9.358                0.978510008     -131.895576
9.359                0.978472096     -132.139876
9.36                  0.97843427     -132.384629
9.361                0.978396531     -132.629835
9.362                0.978358882     -132.875493
9.363                0.978321324     -133.121601
9.364                0.978283858     -133.368159
9.365                0.978246488     -133.615165
9.366                0.978209213      -133.86262
9.367                0.978172036      -134.11052
9.368                0.978134959     -134.358867
9.369                0.978097983     -134.607658
9.37                  0.97806111     -134.856892
9.371                0.978024343     -135.106569
9.372                0.977987682     -135.356686
9.373                0.977951129     -135.607244
9.374                0.977914687      -135.85824
9.375                0.977878356     -136.109674
9.376                 0.97784214     -136.361545
9.377                0.977806039      -136.61385
9.378                0.977770055      -136.86659
9.379                0.977734191     -137.119762
9.38                 0.977698447     -137.373365
9.381                0.977662826     -137.627398
9.382                 0.97762733      -137.88186
9.383                 0.97759196     -138.136749
9.384                0.977556719     -138.392063
9.385                0.977521607     -138.647803
9.386                0.977486628     -138.903965
9.387                0.977451782     -139.160548
9.388                0.977417071     -139.417552
9.389                0.977382498     -139.674974
9.39                 0.977348064     -139.932813
9.391                0.977313771     -140.191068
9.392                0.977279621     -140.449737
9.393                0.977245616     -140.708818
9.394                0.977211757      -140.96831
9.395                0.977178047      -141.22821
9.396                0.977144487     -141.488519
