! TOUCHSTONE file generated by CST DESIGN STUDIO
! Date and time: Tue Feb  4 12:35:36 2025
! Project name: C:\Work\MatlabApps\UnitCellOptimizationMatlab\CST\unitcell.cst
! Tree item: Tasks\Sweep1\SPara1\S-Parameters
! Header version: 2024
! Port assignment regex: !\s*Touchstone port\s*([0-9]+)\s*=\s*(CST MWS port|CST DES external port|CST DES block port)\s*(.+)\s* \(\"(.*)\"\)(\s*mode\s*([0-9]+))?.*
! Touchstone port assignment:
! Touchstone port 1 = CST DES external port 1 ("")
# GHz S MA R 50
9                    0.990895802     -69.5095205
9.001                0.990876424     -69.6087007
9.002                0.990856987     -69.7081147
9.003                0.990837491     -69.8077631
9.004                0.990817935     -69.9076466
9.005                 0.99079832      -70.007766
9.006                0.990778645      -70.108122
9.007                 0.99075891     -70.2087152
9.008                0.990739116     -70.3095465
9.009                0.990719261     -70.4106164
9.01                 0.990699346     -70.5119257
9.011                 0.99067937     -70.6134751
9.012                0.990659334     -70.7152654
9.013                0.990639237     -70.8172973
9.014                 0.99061908     -70.9195715
9.015                0.990598861     -71.0220887
9.016                0.990578581     -71.1248497
9.017                 0.99055824     -71.2278551
9.018                0.990537837     -71.3311057
9.019                0.990517372     -71.4346023
9.02                 0.990496846     -71.5383456
9.021                0.990476258     -71.6423363
9.022                0.990455608     -71.7465752
9.023                0.990434895     -71.8510629
9.024                 0.99041412     -71.9558004
9.025                0.990393283     -72.0607882
9.026                0.990372383     -72.1660271
9.027                 0.99035142      -72.271518
9.028                0.990330394     -72.3772615
9.029                0.990309305     -72.4832584
9.03                 0.990288152     -72.5895094
9.031                0.990266937     -72.6960154
9.032                0.990245657      -72.802777
9.033                0.990224314     -72.9097951
9.034                0.990202907     -73.0170704
9.035                0.990181436     -73.1246037
9.036                0.990159901     -73.2323956
9.037                0.990138301     -73.3404471
9.038                0.990116637     -73.4487589
9.039                0.990094909     -73.5573317
9.04                 0.990073115     -73.6661664
9.041                0.990051257     -73.7752637
9.042                0.990029334     -73.8846243
9.043                0.990007345     -73.9942492
9.044                0.989985291     -74.1041389
9.045                0.989963172     -74.2142945
9.046                0.989940987     -74.3247165
9.047                0.989918736     -74.4354059
9.048                 0.98989642     -74.5463634
9.049                0.989874037     -74.6575898
9.05                 0.989851588     -74.7690859
9.051                0.989829073     -74.8808524
9.052                0.989806491     -74.9928903
9.053                0.989783843     -75.1052003
9.054                0.989761128     -75.2177832
9.055                0.989738346     -75.3306399
9.056                0.989715497      -75.443771
9.057                0.989692581     -75.5571774
9.058                0.989669598     -75.6708601
9.059                0.989646547     -75.7848196
9.06                 0.989623428     -75.8990569
9.061                0.989600242     -76.0135729
9.062                0.989576988     -76.1283682
9.063                0.989553666     -76.2434437
9.064                0.989530276     -76.3588003
9.065                0.989506818     -76.4744388
9.066                0.989483291       -76.59036
9.067                0.989459696     -76.7065647
9.068                0.989436032     -76.8230538
9.069                0.989412299      -76.939828
9.07                 0.989388498     -77.0568883
9.071                0.989364627     -77.1742355
9.072                0.989340687     -77.2918703
9.073                0.989316678     -77.4097937
9.074                  0.9892926     -77.5280065
9.075                0.989268452     -77.6465095
9.076                0.989244234     -77.7653036
9.077                0.989219947     -77.8843896
9.078                 0.98919559     -78.0037684
9.079                0.989171162     -78.1234408
9.08                 0.989146665     -78.2434077
9.081                0.989122097     -78.3636698
9.082                0.989097459     -78.4842282
9.083                 0.98907275     -78.6050836
9.084                0.989047971     -78.7262369
9.085                0.989023121      -78.847689
9.086                  0.9889982     -78.9694407
9.087                0.988973208     -79.0914928
9.088                0.988948145     -79.2138464
9.089                0.988923011     -79.3365021
9.09                 0.988897805     -79.4594609
9.091                0.988872528     -79.5827237
9.092                 0.98884718     -79.7062914
9.093                 0.98882176     -79.8301647
9.094                0.988796268     -79.9543446
9.095                0.988770705      -80.078832
9.096                0.988745069     -80.2036277
9.097                0.988719361     -80.3287327
9.098                0.988693581     -80.4541477
9.099                0.988667729     -80.5798738
9.1                  0.988641805     -80.7059117
9.101                0.988615808     -80.8322624
9.102                0.988589739     -80.9589267
9.103                0.988563597     -81.0859055
9.104                0.988537382     -81.2131998
9.105                0.988511094     -81.3408105
9.106                0.988484734     -81.4687383
9.107                  0.9884583     -81.5969843
9.108                0.988431794     -81.7255493
9.109                0.988405214     -81.8544341
9.11                 0.988378561     -81.9836398
9.111                0.988351834     -82.1131672
9.112                0.988325034     -82.2430173
9.113                0.988298161     -82.3731908
9.114                0.988271214     -82.5036888
9.115                0.988244193     -82.6345121
9.116                0.988217099     -82.7656617
9.117                0.988189931     -82.8971384
9.118                0.988162689     -83.0289431
9.119                0.988135373     -83.1610769
9.12                 0.988107983     -83.2935405
9.121                0.988080519      -83.426335
9.122                 0.98805298     -83.5594611
9.123                0.988025368     -83.6929199
9.124                0.987997681     -83.8267122
9.125                 0.98796992     -83.9608391
9.126                0.987942084     -84.0953013
9.127                0.987914175     -84.2300998
9.128                 0.98788619     -84.3652355
9.129                0.987858131     -84.5007095
9.13                 0.987829997     -84.6365225
9.131                0.987801789     -84.7726755
9.132                0.987773506     -84.9091694
9.133                0.987745149     -85.0460052
9.134                0.987716716     -85.1831838
9.135                0.987688209     -85.3207062
9.136                0.987659627     -85.4585731
9.137                 0.98763097     -85.5967857
9.138                0.987602238     -85.7353447
9.139                0.987573431     -85.8742513
9.14                  0.98754455     -86.0135062
9.141                0.987515593     -86.1531104
9.142                0.987486561     -86.2930648
9.143                0.987457454     -86.4333704
9.144                0.987428273     -86.5740282
9.145                0.987399016      -86.715039
9.146                0.987369684     -86.8564038
9.147                0.987340277     -86.9981235
9.148                0.987310795     -87.1401991
9.149                0.987281238     -87.2826315
9.15                 0.987251605     -87.4254217
9.151                0.987221898     -87.5685705
9.152                0.987192116      -87.712079
9.153                0.987162258      -87.855948
9.154                0.987132326     -88.0001786
9.155                0.987102318     -88.1447716
9.156                0.987072235      -88.289728
9.157                0.987042078     -88.4350487
9.158                0.987011845     -88.5807347
9.159                0.986981538     -88.7267869
9.16                 0.986951155     -88.8732063
9.161                0.986920698     -89.0199938
9.162                0.986890165     -89.1671503
9.163                0.986859558     -89.3146768
9.164                0.986828876     -89.4625743
9.165                 0.98679812     -89.6108436
9.166                0.986767288     -89.7594857
9.167                0.986736382     -89.9085016
9.168                0.986705401     -90.0578922
9.169                0.986674346     -90.2076585
9.17                 0.986643217     -90.3578013
9.171                0.986612013     -90.5083217
9.172                0.986580734     -90.6592205
9.173                0.986549382     -90.8104988
9.174                0.986517955     -90.9621574
9.175                0.986486454     -91.1141973
9.176                0.986454879     -91.2666194
9.177                 0.98642323     -91.4194247
9.178                0.986391507     -91.5726141
9.179                 0.98635971     -91.7261886
9.18                  0.98632784     -91.8801491
9.181                0.986295896     -92.0344965
9.182                0.986263879     -92.1892317
9.183                0.986231788     -92.3443557
9.184                0.986199624     -92.4998695
9.185                0.986167387      -92.655774
9.186                0.986135077       -92.81207
9.187                0.986102694     -92.9687586
9.188                0.986070239     -93.1258407
9.189                 0.98603771     -93.2833171
9.19                  0.98600511     -93.4411889
9.191                0.985972436     -93.5994569
9.192                0.985939691     -93.7581221
9.193                0.985906874     -93.9171854
9.194                0.985873985     -94.0766477
9.195                0.985841024       -94.23651
9.196                0.985807991     -94.3967731
9.197                0.985774888     -94.5574381
9.198                0.985741713     -94.7185057
9.199                0.985708467      -94.879977
9.2                   0.98567515     -95.0418529
9.201                0.985641762     -95.2041342
9.202                0.985608304     -95.3668218
9.203                0.985574776     -95.5299168
9.204                0.985541178     -95.6934199
9.205                0.985507509     -95.8573321
9.206                0.985473772     -96.0216543
9.207                0.985439964     -96.1863875
9.208                0.985406088     -96.3515324
9.209                0.985372143     -96.5170901
9.21                 0.985338128     -96.6830613
9.211                0.985304046      -96.849447
9.212                0.985269895     -97.0162481
9.213                0.985235676     -97.1834655
9.214                0.985201389     -97.3511001
9.215                0.985167035     -97.5191526
9.216                0.985132614     -97.6876242
9.217                0.985098126     -97.8565155
9.218                0.985063571     -98.0258275
9.219                 0.98502895      -98.195561
9.22                 0.984994262      -98.365717
9.221                0.984959509     -98.5362963
9.222                 0.98492469     -98.7072997
9.223                0.984889806     -98.8787281
9.224                0.984854858     -99.0505825
9.225                0.984819844     -99.2228635
9.226                0.984784767     -99.3955722
9.227                0.984749625     -99.5687093
9.228                 0.98471442     -99.7422756
9.229                0.984679152     -99.9162721
9.23                 0.984643821       -100.0907
9.231                0.984608427     -100.265559
9.232                0.984572971     -100.440851
9.233                0.984537454     -100.616576
9.234                0.984501875     -100.792736
9.235                0.984466235      -100.96933
9.236                0.984430534     -101.146361
9.237                0.984394773     -101.323828
9.238                0.984358952     -101.501733
9.239                0.984323072     -101.680076
9.24                 0.984287132     -101.858859
9.241                0.984251134     -102.038081
9.242                0.984215078     -102.217744
9.243                0.984178965     -102.397849
9.244                0.984142793     -102.578395
9.245                0.984106565     -102.759385
9.246                0.984070281     -102.940819
9.247                0.984033941     -103.122697
9.248                0.983997545     -103.305021
9.249                0.983961094     -103.487791
9.25                 0.983924589     -103.671007
9.251                0.983888029     -103.854672
9.252                0.983851416     -104.038784
9.253                 0.98381475     -104.223346
9.254                0.983778032     -104.408357
9.255                0.983741262      -104.59382
9.256                 0.98370444     -104.779733
9.257                0.983667567     -104.966098
9.258                0.983630644     -105.152916
9.259                0.983593671     -105.340188
9.26                 0.983556649     -105.527913
9.261                0.983519578     -105.716093
9.262                 0.98348246     -105.904729
9.263                0.983445293     -106.093821
9.264                 0.98340808     -106.283369
9.265                 0.98337082     -106.473375
9.266                0.983333515     -106.663839
9.267                0.983296164     -106.854762
9.268                0.983258769     -107.046145
9.269                 0.98322133     -107.237987
9.27                 0.983183848      -107.43029
9.271                0.983146324     -107.623054
9.272                0.983108757     -107.816281
9.273                0.983071149     -108.009969
9.274                0.983033501     -108.204121
9.275                0.982995813     -108.398737
9.276                0.982958085     -108.593817
9.277                 0.98292032     -108.789361
9.278                0.982882516     -108.985372
9.279                0.982844675     -109.181848
9.28                 0.982806798     -109.378791
9.281                0.982768885       -109.5762
9.282                0.982730938     -109.774078
9.283                0.982692956     -109.972423
9.284                0.982654941     -110.171238
9.285                0.982616894     -110.370521
9.286                0.982578814     -110.570274
9.287                0.982540704     -110.770498
9.288                0.982502563     -110.971192
9.289                0.982464393     -111.172357
9.29                 0.982426194     -111.373993
9.291                0.982387968     -111.576102
9.292                0.982349714     -111.778684
9.293                0.982311435     -111.981738
9.294                 0.98227313     -112.185266
9.295                0.982234801     -112.389267
9.296                0.982196448     -112.593743
9.297                0.982158073     -112.798693
9.298                0.982119676     -113.004118
9.299                0.982081258     -113.210019
9.3                   0.98204282     -113.416395
9.301                0.982004363     -113.623248
9.302                0.981965888     -113.830577
9.303                0.981927396     -114.038383
9.304                0.981888888     -114.246666
9.305                0.981850364     -114.455426
9.306                0.981811826     -114.664664
9.307                0.981773275      -114.87438
9.308                0.981734711     -115.084574
9.309                0.981696136     -115.295247
9.31                 0.981657551     -115.506399
9.311                0.981618956      -115.71803
9.312                0.981580353      -115.93014
9.313                0.981541743      -116.14273
9.314                0.981503126     -116.355799
9.315                0.981464504     -116.569349
9.316                0.981425879     -116.783378
9.317                 0.98138725     -116.997888
9.318                0.981348619     -117.212879
9.319                0.981309987      -117.42835
9.32                 0.981271355     -117.644301
9.321                0.981232725     -117.860734
9.322                0.981194097     -118.077648
9.323                0.981155472     -118.295043
9.324                0.981116853     -118.512919
9.325                0.981078239     -118.731276
9.326                0.981039632     -118.950114
9.327                0.981001033     -119.169434
9.328                0.980962444     -119.389236
9.329                0.980923865     -119.609519
9.33                 0.980885298     -119.830283
9.331                0.980846744     -120.051528
9.332                0.980808204     -120.273255
9.333                0.980769679     -120.495464
9.334                0.980731171     -120.718153
9.335                0.980692681     -120.941324
9.336                 0.98065421     -121.164976
9.337                 0.98061576     -121.389109
9.338                0.980577331     -121.613723
9.339                0.980538925     -121.838818
9.34                 0.980500543     -122.064393
9.341                0.980462187     -122.290449
9.342                0.980423857     -122.516986
9.343                0.980385556     -122.744002
9.344                0.980347284     -122.971498
9.345                0.980309044     -123.199475
9.346                0.980270835      -123.42793
9.347                 0.98023266     -123.656865
9.348                 0.98019452     -123.886279
9.349                0.980156416     -124.116171
9.35                  0.98011835     -124.346542
9.351                0.980080323     -124.577391
9.352                0.980042336     -124.808718
9.353                0.980004391     -125.040522
9.354                 0.97996649     -125.272803
9.355                0.979928634     -125.505561
9.356                0.979890823     -125.738795
9.357                0.979853061     -125.972505
9.358                0.979815347      -126.20669
9.359                0.979777684      -126.44135
9.36                 0.979740073     -126.676484
9.361                0.979702516     -126.912093
9.362                0.979665014     -127.148175
9.363                0.979627568      -127.38473
9.364                0.979590181     -127.621757
9.365                0.979552853     -127.859256
9.366                0.979515586     -128.097226
9.367                0.979478382     -128.335667
9.368                0.979441242     -128.574578
9.369                0.979404167     -128.813959
9.37                 0.979367161     -129.053808
9.371                0.979330223     -129.294125
9.372                0.979293355      -129.53491
9.373                0.979256559     -129.776162
9.374                0.979219838     -130.017879
9.375                0.979183191     -130.260061
9.376                0.979146621     -130.502708
9.377                 0.97911013     -130.745819
9.378                0.979073719     -130.989393
9.379                 0.97903739     -131.233428
9.38                 0.979001143     -131.477925
9.381                0.978964982     -131.722882
9.382                0.978928908     -131.968298
9.383                0.978892922     -132.214173
9.384                0.978857026     -132.460506
9.385                0.978821221     -132.707295
9.386                 0.97878551      -132.95454
9.387                0.978749894      -133.20224
9.388                0.978714375     -133.450393
9.389                0.978678954     -133.698999
9.39                 0.978643633     -133.948057
9.391                0.978608414     -134.197565
9.392                0.978573298     -134.447523
9.393                0.978538288     -134.697929
9.394                0.978503384     -134.948783
9.395                 0.97846859     -135.200082
9.396                0.978433905     -135.451826
