! TOUCHSTONE file generated by CST DESIGN STUDIO
! Date and time: Tue Feb  4 14:34:12 2025
! Project name: C:\Work\MatlabApps\UnitCellOptimizationMatlab\CST\unitcell.cst
! Tree item: Tasks\Sweep1\SPara1\S-Parameters
! Header version: 2024
! Port assignment regex: !\s*Touchstone port\s*([0-9]+)\s*=\s*(CST MWS port|CST DES external port|CST DES block port)\s*(.+)\s* \(\"(.*)\"\)(\s*mode\s*([0-9]+))?.*
! Touchstone port assignment:
! Touchstone port 1 = CST DES external port 1 ("")
# GHz S MA R 50
9                    0.950941647      -67.247143
9.001                0.950762215     -67.3472726
9.002                0.950582622     -67.4476495
9.003                0.950402868     -67.5482748
9.004                0.950222954     -67.6491494
9.005                 0.95004288     -67.7502743
9.006                0.949862648     -67.8516505
9.007                0.949682258      -67.953279
9.008                0.949501711     -68.0551608
9.009                0.949321007     -68.1572969
9.01                 0.949140148     -68.2596882
9.011                0.948959133     -68.3623357
9.012                0.948777965     -68.4652406
9.013                0.948596642     -68.5684037
9.014                0.948415167     -68.6718261
9.015                0.948233539     -68.7755089
9.016                 0.94805176      -68.879453
9.017                0.947869829     -68.9836594
9.018                0.947687749     -69.0881293
9.019                0.947505519     -69.1928636
9.02                  0.94732314     -69.2978633
9.021                0.947140613     -69.4031296
9.022                0.946957939     -69.5086635
9.023                0.946775117     -69.6144659
9.024                 0.94659215     -69.7205381
9.025                0.946409037      -69.826881
9.026                 0.94622578     -69.9334957
9.027                0.946042378     -70.0403833
9.028                0.945858833     -70.1475448
9.029                0.945675145     -70.2549814
9.03                 0.945491314      -70.362694
9.031                0.945307343     -70.4706839
9.032                 0.94512323     -70.5789521
9.033                0.944938978     -70.6874996
9.034                0.944754586     -70.7963277
9.035                0.944570055     -70.9054373
9.036                0.944385386     -71.0148297
9.037                0.944200579     -71.1245058
9.038                0.944015636     -71.2344669
9.039                0.943830556     -71.3447141
9.04                  0.94364534     -71.4552484
9.041                 0.94345999      -71.566071
9.042                0.943274505     -71.6771831
9.043                0.943088886     -71.7885858
9.044                0.942903135     -71.9002802
9.045                0.942717251     -72.0122675
9.046                0.942531235     -72.1245488
9.047                0.942345088     -72.2371254
9.048                 0.94215881     -72.3499982
9.049                0.941972403     -72.4631686
9.05                 0.941785866     -72.5766377
9.051                  0.9415992     -72.6904067
9.052                0.941412407     -72.8044767
9.053                0.941225485     -72.9188489
9.054                0.941038437     -73.0335246
9.055                0.940851263     -73.1485049
9.056                0.940663963     -73.2637909
9.057                0.940476538      -73.379384
9.058                0.940288989     -73.4952853
9.059                0.940101316     -73.6114961
9.06                  0.93991352     -73.7280175
9.061                0.939725601     -73.8448508
9.062                 0.93953756     -73.9619971
9.063                0.939349398     -74.0794578
9.064                0.939161115      -74.197234
9.065                0.938972711      -74.315327
9.066                0.938784189     -74.4337381
9.067                0.938595547     -74.5524685
9.068                0.938406787     -74.6715193
9.069                0.938217908      -74.790892
9.07                 0.938028913     -74.9105877
9.071                0.937839801     -75.0306078
9.072                0.937650573     -75.1509534
9.073                 0.93746123     -75.2716259
9.074                0.937271772     -75.3926265
9.075                0.937082199     -75.5139566
9.076                0.936892513     -75.6356173
9.077                0.936702714     -75.7576101
9.078                0.936512802     -75.8799362
9.079                0.936322779     -76.0025968
9.08                 0.936132644     -76.1255934
9.081                0.935942398     -76.2489272
9.082                0.935752042     -76.3725995
9.083                0.935561576     -76.4966117
9.084                0.935371002     -76.6209651
9.085                0.935180319     -76.7456609
9.086                0.934989528     -76.8707006
9.087                 0.93479863     -76.9960855
9.088                0.934607625     -77.1218169
9.089                0.934416514     -77.2478962
9.09                 0.934225298     -77.3743246
9.091                0.934033977     -77.5011037
9.092                0.933842551     -77.6282347
9.093                0.933651022     -77.7557189
9.094                0.933459389     -77.8835579
9.095                0.933267654     -78.0117528
9.096                0.933075817     -78.1403052
9.097                0.932883879     -78.2692164
9.098                0.932691839     -78.3984878
9.099                0.932499699     -78.5281207
9.1                   0.93230746     -78.6581166
9.101                0.932115122     -78.7884769
9.102                0.931922685     -78.9192029
9.103                 0.93173015     -79.0502962
9.104                0.931537518      -79.181758
9.105                0.931344789     -79.3135898
9.106                0.931151965     -79.4457931
9.107                0.930959044     -79.5783693
9.108                0.930766029     -79.7113197
9.109                0.930572919     -79.8446458
9.11                 0.930379716     -79.9783491
9.111                 0.93018642     -80.1124311
9.112                0.929993031      -80.246893
9.113                 0.92979955     -80.3817365
9.114                0.929605978      -80.516963
9.115                0.929412315     -80.6525739
9.116                0.929218562     -80.7885706
9.117                 0.92902472     -80.9249547
9.118                0.928830789     -81.0617277
9.119                 0.92863677      -81.198891
9.12                 0.928442663      -81.336446
9.121                0.928248469     -81.4743943
9.122                0.928054189     -81.6127374
9.123                0.927859824     -81.7514768
9.124                0.927665373     -81.8906139
9.125                0.927470838     -82.0301502
9.126                0.927276219     -82.1700873
9.127                0.927081517     -82.3104268
9.128                0.926886733     -82.4511699
9.129                0.926691867     -82.5923184
9.13                  0.92649692     -82.7338738
9.131                0.926301892     -82.8758374
9.132                0.926106785      -83.018211
9.133                0.925911599      -83.160996
9.134                0.925716334     -83.3041939
9.135                0.925520991     -83.4478063
9.136                0.925325572     -83.5918348
9.137                0.925130076     -83.7362809
9.138                0.924934505     -83.8811461
9.139                0.924738858      -84.026432
9.14                 0.924543138     -84.1721402
9.141                0.924347344     -84.3182722
9.142                0.924151477     -84.4648296
9.143                0.923955539     -84.6118139
9.144                0.923759529     -84.7592268
9.145                0.923563448     -84.9070698
9.146                0.923367298     -85.0553445
9.147                0.923171079     -85.2040525
9.148                0.922974791     -85.3531954
9.149                0.922778436     -85.5027747
9.15                 0.922582015     -85.6527921
9.151                0.922385527     -85.8032492
9.152                0.922188975     -85.9541475
9.153                0.921992358     -86.1054886
9.154                0.921795678     -86.2572743
9.155                0.921598935      -86.409506
9.156                 0.92140213     -86.5621855
9.157                0.921205265     -86.7153142
9.158                0.921008339     -86.8688939
9.159                0.920811354     -87.0229262
9.16                  0.92061431     -87.1774126
9.161                0.920417209     -87.3323549
9.162                0.920220052     -87.4877546
9.163                0.920022838     -87.6436134
9.164                 0.91982557      -87.799933
9.165                0.919628248     -87.9567149
9.166                0.919430873     -88.1139608
9.167                0.919233446     -88.2716724
9.168                0.919035968     -88.4298513
9.169                 0.91883844     -88.5884992
9.17                 0.918640862     -88.7476176
9.171                0.918443237     -88.9072084
9.172                0.918245564      -89.067273
9.173                0.918047845     -89.2278133
9.174                0.917850081     -89.3888308
9.175                0.917652273     -89.5503272
9.176                0.917454422     -89.7123042
9.177                0.917256529     -89.8747635
9.178                0.917058595     -90.0377067
9.179                0.916860621     -90.2011355
9.18                 0.916662608     -90.3650515
9.181                0.916464558     -90.5294566
9.182                0.916266471     -90.6943522
9.183                0.916068349     -90.8597402
9.184                0.915870193     -91.0256221
9.185                0.915672004     -91.1919997
9.186                0.915473783     -91.3588747
9.187                0.915275531     -91.5262488
9.188                 0.91507725     -91.6941235
9.189                0.914878941     -91.8625007
9.19                 0.914680605      -92.031382
9.191                0.914482243     -92.2007691
9.192                0.914283857     -92.3706638
9.193                0.914085448     -92.5410675
9.194                0.913887017     -92.7119822
9.195                0.913688566     -92.8834095
9.196                0.913490096      -93.055351
9.197                0.913291608     -93.2278085
9.198                0.913093104     -93.4007837
9.199                0.912894586     -93.5742782
9.2                  0.912696053     -93.7482938
9.201                0.912497509     -93.9228322
9.202                0.912298955      -94.097895
9.203                0.912100391     -94.2734839
9.204                 0.91190182     -94.4496007
9.205                0.911703243      -94.626247
9.206                0.911504662     -94.8034246
9.207                0.911306077     -94.9811351
9.208                0.911107492     -95.1593803
9.209                0.910908907     -95.3381618
9.21                 0.910710324     -95.5174813
9.211                0.910511745     -95.6973405
9.212                0.910313171     -95.8777411
9.213                0.910114605     -96.0586849
9.214                0.909916047     -96.2401734
9.215                  0.9097175     -96.4222084
9.216                0.909518965     -96.6047916
9.217                0.909320444     -96.7879246
9.218                 0.90912194     -96.9716092
9.219                0.908923453      -97.155847
9.22                 0.908724986     -97.3406398
9.221                0.908526541     -97.5259891
9.222                0.908328119     -97.7118967
9.223                0.908129723     -97.8983642
9.224                0.907931354     -98.0853933
9.225                0.907733015     -98.2729857
9.226                0.907534707     -98.4611431
9.227                0.907336434     -98.6498671
9.228                0.907138195     -98.8391594
9.229                0.906939995     -99.0290217
9.23                 0.906741835     -99.2194555
9.231                0.906543717     -99.4104626
9.232                0.906345643     -99.6020446
9.233                0.906147616     -99.7942032
9.234                0.905949638     -99.9869399
9.235                 0.90575171     -100.180257
9.236                0.905553837     -100.374155
9.237                0.905356019     -100.568636
9.238                 0.90515826     -100.763702
9.239                0.904960561     -100.959354
9.24                 0.904762926     -101.155594
9.241                0.904565356     -101.352424
9.242                0.904367854     -101.549845
9.243                0.904170423     -101.747859
9.244                0.903973065     -101.946467
9.245                0.903775783     -102.145671
9.246                 0.90357858     -102.345473
9.247                0.903381457     -102.545874
9.248                0.903184419     -102.746875
9.249                0.902987468     -102.948479
9.25                 0.902790606     -103.150687
9.251                0.902593836       -103.3535
9.252                0.902397162     -103.556921
9.253                0.902200585     -103.760949
9.254                 0.90200411     -103.965588
9.255                0.901807738     -104.170838
9.256                0.901611474     -104.376702
9.257                0.901415319      -104.58318
9.258                0.901219278     -104.790274
9.259                0.901023353     -104.997986
9.26                 0.900827548     -105.206317
9.261                0.900631865     -105.415269
9.262                0.900436308     -105.624842
9.263                 0.90024088      -105.83504
9.264                0.900045584     -106.045862
9.265                0.899850424      -106.25731
9.266                0.899655404     -106.469387
9.267                0.899460526     -106.682093
9.268                0.899265794      -106.89543
9.269                0.899071212     -107.109398
9.27                 0.898876784     -107.324001
9.271                0.898682512     -107.539238
9.272                  0.8984884     -107.755112
9.273                0.898294453     -107.971623
9.274                0.898100673     -108.188773
9.275                0.897907066     -108.406564
9.276                0.897713634     -108.624996
9.277                0.897520381     -108.844072
9.278                0.897327311     -109.063792
9.279                0.897134429     -109.284157
9.28                 0.896941738      -109.50517
9.281                0.896749242      -109.72683
9.282                0.896556946     -109.949141
9.283                0.896364853     -110.172101
9.284                0.896172968     -110.395714
9.285                0.895981295      -110.61998
9.286                0.895789838     -110.844901
9.287                0.895598602     -111.070477
9.288                0.895407591      -111.29671
9.289                0.895216809       -111.5236
9.29                  0.89502626      -111.75115
9.291                 0.89483595      -111.97936
9.292                0.894645883     -112.208232
9.293                0.894456064     -112.437766
9.294                0.894266496     -112.667963
9.295                0.894077185     -112.898825
9.296                0.893888136     -113.130352
9.297                0.893699354     -113.362547
9.298                0.893510842     -113.595409
9.299                0.893322607     -113.828939
9.3                  0.893134652      -114.06314
9.301                0.892946984     -114.298011
9.302                0.892759607     -114.533554
9.303                0.892572527     -114.769769
9.304                0.892385747     -115.006658
9.305                0.892199274     -115.244221
9.306                0.892013113      -115.48246
9.307                 0.89182727     -115.721374
9.308                0.891641748     -115.960966
9.309                0.891456555     -116.201235
9.31                 0.891271695     -116.442183
9.311                0.891087174      -116.68381
9.312                0.890902997     -116.926117
9.313                 0.89071917     -117.169105
9.314                0.890535699     -117.412775
9.315                0.890352589     -117.657127
9.316                0.890169847     -117.902162
9.317                0.889987477      -118.14788
9.318                0.889805486     -118.394283
9.319                 0.88962388      -118.64137
9.32                 0.889442665     -118.889143
9.321                0.889261846     -119.137601
9.322                0.889081431     -119.386746
9.323                0.888901424     -119.636578
9.324                0.888721832     -119.887098
9.325                0.888542661     -120.138305
9.326                0.888363918     -120.390201
9.327                0.888185609     -120.642785
9.328                 0.88800774     -120.896059
9.329                0.887830318     -121.150022
9.33                 0.887653349     -121.404675
9.331                 0.88747684     -121.660018
9.332                0.887300797     -121.916051
9.333                0.887125227     -122.172775
9.334                0.886950137      -122.43019
9.335                0.886775533     -122.688296
9.336                0.886601422     -122.947093
9.337                0.886427811     -123.206582
9.338                0.886254707     -123.466762
9.339                0.886082116     -123.727633
9.34                 0.885910046     -123.989197
9.341                0.885738504     -124.251451
9.342                0.885567497     -124.514398
9.343                0.885397031     -124.778036
9.344                0.885227115     -125.042365
9.345                0.885057755     -125.307386
9.346                0.884888959     -125.573098
9.347                0.884720733     -125.839502
9.348                0.884553086     -126.106596
9.349                0.884386024      -126.37438
9.35                 0.884219556     -126.642856
9.351                0.884053688     -126.912021
9.352                0.883888428     -127.181876
9.353                0.883723783     -127.452421
9.354                0.883559763     -127.723655
9.355                0.883396373     -127.995577
9.356                0.883233621     -128.268187
9.357                0.883071516     -128.541485
9.358                0.882910066      -128.81547
9.359                0.882749277     -129.090142
9.36                 0.882589159       -129.3655
9.361                0.882429718     -129.641543
9.362                0.882270963      -129.91827
9.363                0.882112902     -130.195682
9.364                0.881955543     -130.473777
9.365                0.881798893     -130.752554
9.366                0.881642962     -131.032012
9.367                0.881487756     -131.312152
9.368                0.881333285     -131.592971
9.369                0.881179557     -131.874469
9.37                 0.881026579     -132.156645
9.371                0.880874361     -132.439498
9.372                0.880722909     -132.723026
9.373                0.880572234      -133.00723
9.374                0.880422342     -133.292107
9.375                0.880273243     -133.577656
9.376                0.880124945     -133.863877
9.377                0.879977456     -134.150767
9.378                0.879830784     -134.438326
9.379                 0.87968494     -134.726553
9.38                  0.87953993     -135.015445
9.381                0.879395763     -135.305002
9.382                0.879252448     -135.595223
9.383                0.879109994     -135.886104
9.384                 0.87896841     -136.177646
9.385                0.878827702     -136.469846
9.386                0.878687882     -136.762703
9.387                0.878548957     -137.056215
9.388                0.878410935     -137.350381
9.389                0.878273826     -137.645198
9.39                 0.878137638     -137.940665
9.391                0.878002381     -138.236781
9.392                0.877868062     -138.533542
9.393                0.877734691     -138.830948
9.394                0.877602275     -139.128995
9.395                0.877470825     -139.427683
9.396                0.877340349      -139.72701
