! TOUCHSTONE file generated by CST DESIGN STUDIO
! Date and time: Tue Feb  4 14:34:00 2025
! Project name: C:\Work\MatlabApps\UnitCellOptimizationMatlab\CST\unitcell.cst
! Tree item: Tasks\Sweep1\SPara1\S-Parameters
! Header version: 2024
! Port assignment regex: !\s*Touchstone port\s*([0-9]+)\s*=\s*(CST MWS port|CST DES external port|CST DES block port)\s*(.+)\s* \(\"(.*)\"\)(\s*mode\s*([0-9]+))?.*
! Touchstone port assignment:
! Touchstone port 1 = CST DES external port 1 ("")
# GHz S MA R 50
9                    0.919358012     -105.746023
9.001                0.918908514     -105.959018
9.002                0.918458347     -106.172565
9.003                0.918007523     -106.386663
9.004                0.917556054     -106.601313
9.005                0.917103953     -106.816519
9.006                0.916651234     -107.032279
9.007                0.916197908     -107.248596
9.008                0.915743989     -107.465471
9.009                0.915289491     -107.682905
9.01                 0.914834427       -107.9009
9.011                0.914378809     -108.119455
9.012                0.913922652     -108.338573
9.013                0.913465969     -108.558255
9.014                0.913008774     -108.778502
9.015                0.912551081     -108.999314
9.016                0.912092903     -109.220694
9.017                0.911634256     -109.442642
9.018                0.911175152      -109.66516
9.019                0.910715607     -109.888248
9.02                 0.910255634     -110.111907
9.021                0.909795248      -110.33614
9.022                0.909334465     -110.560946
9.023                0.908873298     -110.786328
9.024                0.908411762     -111.012285
9.025                0.907949873      -111.23882
9.026                0.907487645     -111.465933
9.027                0.907025094     -111.693625
9.028                0.906562235     -111.921897
9.029                0.906099083     -112.150751
9.03                 0.905635654     -112.380188
9.031                0.905171964     -112.610208
9.032                0.904708028     -112.840812
9.033                0.904243862     -113.072002
9.034                0.903779482     -113.303778
9.035                0.903314904     -113.536142
9.036                0.902850145     -113.769095
9.037                 0.90238522     -114.002636
9.038                0.901920146     -114.236769
9.039                0.901454939     -114.471492
9.04                 0.900989617     -114.706808
9.041                0.900524195     -114.942718
9.042                0.900058691     -115.179221
9.043                0.899593122     -115.416319
9.044                0.899127504     -115.654014
9.045                0.898661855     -115.892305
9.046                0.898196192     -116.131194
9.047                0.897730533     -116.370681
9.048                0.897264895     -116.610768
9.049                0.896799295     -116.851455
9.05                 0.896333751     -117.092744
9.051                0.895868281     -117.334634
9.052                0.895402903     -117.577126
9.053                0.894937635     -117.820222
9.054                0.894472495     -118.063923
9.055                0.894007501     -118.308228
9.056                0.893542672     -118.553139
9.057                0.893078026     -118.798656
9.058                0.892613581      -119.04478
9.059                0.892149356     -119.291512
9.06                  0.89168537     -119.538853
9.061                0.891221642     -119.786802
9.062                 0.89075819     -120.035361
9.063                0.890295034     -120.284531
9.064                0.889832192     -120.534311
9.065                0.889369685     -120.784703
9.066                0.888907531     -121.035707
9.067                0.888445749     -121.287324
9.068                 0.88798436     -121.539554
9.069                0.887523382     -121.792397
9.07                 0.887062836     -122.045855
9.071                0.886602742     -122.299927
9.072                0.886143118     -122.554615
9.073                0.885683986     -122.809917
9.074                0.885225365     -123.065836
9.075                0.884767275     -123.322371
9.076                0.884309738     -123.579523
9.077                0.883852772     -123.837292
9.078                0.883396398     -124.095679
9.079                0.882940638     -124.354683
9.08                 0.882485512     -124.614305
9.081                0.882031039     -124.874545
9.082                0.881577242     -125.135404
9.083                 0.88112414     -125.396882
9.084                0.880671756     -125.658978
9.085                0.880220109     -125.921694
9.086                0.879769222     -126.185029
9.087                0.879319115     -126.448984
9.088                0.878869809     -126.713558
9.089                0.878421325     -126.978751
9.09                 0.877973687     -127.244564
9.091                0.877526913     -127.510997
9.092                0.877081027      -127.77805
9.093                 0.87663605     -128.045722
9.094                0.876192003     -128.314014
9.095                0.875748909     -128.582926
9.096                0.875306789     -128.852457
9.097                0.874865665     -129.122607
9.098                0.874425558     -129.393377
9.099                0.873986492     -129.664766
9.1                  0.873548488     -129.936773
9.101                0.873111568     -130.209399
9.102                0.872675755     -130.482644
9.103                 0.87224107     -130.756506
9.104                0.871807537     -131.030987
9.105                0.871375176     -131.306084
9.106                0.870944012     -131.581799
9.107                0.870514066      -131.85813
9.108                 0.87008536     -132.135078
9.109                0.869657918     -132.412641
9.11                 0.869231762      -132.69082
9.111                0.868806914     -132.969613
9.112                0.868383398      -133.24902
9.113                0.867961235     -133.529041
9.114                0.867540449     -133.809675
9.115                0.867121063     -134.090921
9.116                0.866703099     -134.372779
9.117                 0.86628658     -134.655247
9.118                 0.86587153     -134.938326
9.119                 0.86545797     -135.222014
9.12                 0.865045924      -135.50631
9.121                0.864635416     -135.791215
9.122                0.864226467     -136.076726
9.123                0.863819101     -136.362843
9.124                 0.86341334     -136.649564
9.125                0.863009209      -136.93689
9.126                0.862606729     -137.224819
9.127                0.862205925     -137.513349
9.128                0.861806818      -137.80248
9.129                0.861409433     -138.092211
9.13                 0.861013791      -138.38254
9.131                0.860619917     -138.673467
9.132                0.860227833     -138.964989
9.133                0.859837562     -139.257107
9.134                0.859449127     -139.549817
9.135                0.859062552      -139.84312
9.136                0.858677859     -140.137013
9.137                0.858295071     -140.431496
9.138                0.857914211     -140.726566
9.139                0.857535302     -141.022222
9.14                 0.857158368     -141.318464
9.141                 0.85678343     -141.615288
9.142                0.856410513     -141.912694
9.143                0.856039638     -142.210679
9.144                0.855670828     -142.509243
9.145                0.855304106     -142.808384
9.146                0.854939496     -143.108098
9.147                0.854577019     -143.408386
9.148                0.854216698     -143.709245
9.149                0.853858556     -144.010672
9.15                 0.853502615     -144.312667
9.151                0.853148898     -144.615227
9.152                0.852797427      -144.91835
9.153                0.852448224     -145.222033
9.154                0.852101312     -145.526276
9.155                0.851756713     -145.831076
9.156                0.851414448      -146.13643
9.157                0.851074541     -146.442336
9.158                0.850737013     -146.748792
9.159                0.850401885     -147.055797
9.16                 0.850069181     -147.363346
9.161                 0.84973892     -147.671439
9.162                0.849411126     -147.980072
9.163                0.849085819     -148.289243
9.164                0.848763021     -148.598949
9.165                0.848442753     -148.909189
9.166                0.848125037     -149.219958
9.167                0.847809893     -149.531256
9.168                0.847497343     -149.843078
9.169                0.847187408     -150.155423
9.17                 0.846880107     -150.468287
9.171                0.846575462     -150.781667
9.172                0.846273494     -151.095561
9.173                0.845974223     -151.409966
9.174                0.845677668     -151.724879
9.175                 0.84538385     -152.040297
9.176                 0.84509279     -152.356216
9.177                0.844804506     -152.672634
9.178                0.844519019     -152.989548
9.179                0.844236349     -153.306954
9.18                 0.843956513     -153.624849
9.181                0.843679532      -153.94323
9.182                0.843405426     -154.262093
9.183                0.843134211     -154.581436
9.184                0.842865909     -154.901255
9.185                0.842600536     -155.221545
9.186                0.842338112     -155.542305
9.187                0.842078654      -155.86353
9.188                0.841822181     -156.185217
9.189                 0.84156871     -156.507362
9.19                 0.841318259     -156.829961
9.191                0.841070847     -157.153012
9.192                0.840826488     -157.476509
9.193                0.840585202      -157.80045
9.194                0.840347005      -158.12483
9.195                0.840111913     -158.449645
9.196                0.839879943     -158.774893
9.197                0.839651111     -159.100568
9.198                0.839425434     -159.426666
9.199                0.839202926     -159.753185
9.2                  0.838983605     -160.080119
9.201                0.838767484     -160.407464
9.202                0.838554579     -160.735217
9.203                0.838344905     -161.063373
9.204                0.838138477     -161.391928
9.205                0.837935309     -161.720878
9.206                0.837735416     -162.050218
9.207                 0.83753881     -162.379943
9.208                0.837345507     -162.710051
9.209                0.837155519     -163.040535
9.21                  0.83696886     -163.371392
9.211                0.836785542     -163.702617
9.212                0.836605578     -164.034206
9.213                0.836428982     -164.366153
9.214                0.836255763     -164.698455
9.215                0.836085936     -165.031107
9.216                0.835919511     -165.364103
9.217                0.835756499      -165.69744
9.218                0.835596912     -166.031112
9.219                0.835440761     -166.365115
9.22                 0.835288055     -166.699443
9.221                0.835138806     -167.034092
9.222                0.834993022     -167.369058
9.223                0.834850714     -167.704334
9.224                0.834711892     -168.039916
9.225                0.834576563     -168.375799
9.226                0.834444737     -168.711978
9.227                0.834316423     -169.048448
9.228                0.834191627     -169.385204
9.229                0.834070359      -169.72224
9.23                 0.833952626     -170.059552
9.231                0.833838435     -170.397133
9.232                0.833727792      -170.73498
9.233                0.833620705     -171.073086
9.234                 0.83351718     -171.411447
9.235                0.833417222     -171.750057
9.236                0.833320838      -172.08891
9.237                0.833228033     -172.428001
9.238                0.833138811     -172.767325
9.239                0.833053177     -173.106877
9.24                 0.832971136     -173.446651
9.241                0.832892692     -173.786641
9.242                0.832817848     -174.126842
9.243                0.832746608     -174.467248
9.244                0.832678975     -174.807854
9.245                0.832614951     -175.148654
9.246                0.832554539     -175.489642
9.247                0.832497741     -175.830814
9.248                0.832444559     -176.172163
9.249                0.832394993     -176.513683
9.25                 0.832349045     -176.855369
9.251                0.832306716     -177.197216
9.252                0.832268006     -177.539217
9.253                0.832232914     -177.881366
9.254                0.832201441     -178.223658
9.255                0.832173586     -178.566088
9.256                0.832149348     -178.908648
9.257                0.832128726     -179.251334
9.258                0.832111717      -179.59414
9.259                 0.83209832     -179.937059
9.26                 0.832088532      179.719914
9.261                 0.83208235      179.376785
9.262                0.832079772       179.03356
9.263                0.832080794      178.690245
9.264                0.832085412      178.346846
9.265                0.832093622      178.003369
9.266                 0.83210542      177.659819
9.267                0.832120801      177.316203
9.268                0.832139759      176.972526
9.269                 0.83216229      176.628796
9.27                 0.832188387      176.285016
9.271                0.832218044      175.941195
9.272                0.832251255      175.597337
9.273                0.832288012      175.253448
9.274                0.832328309      174.909535
9.275                0.832372138      174.565604
9.276                0.832419492       174.22166
9.277                0.832470361       173.87771
9.278                0.832524738       173.53376
9.279                0.832582614      173.189815
9.28                 0.832643979      172.845882
9.281                0.832708824      172.501967
9.282                0.832777139      172.158076
9.283                0.832848914      171.814214
9.284                0.832924138      171.470388
9.285                0.833002801      171.126604
9.286                0.833084892      170.782867
9.287                0.833170398      170.439185
9.288                0.833259309      170.095562
9.289                0.833351612      169.752005
9.29                 0.833447295       169.40852
9.291                0.833546344      169.065113
9.292                0.833648748       168.72179
9.293                0.833754492      168.378556
9.294                0.833863564      168.035418
9.295                0.833975948      167.692382
9.296                0.834091632      167.349453
9.297                0.834210599      167.006638
9.298                0.834332837      166.663943
9.299                0.834458329      166.321373
9.3                   0.83458706      165.978934
9.301                0.834719014      165.636632
9.302                0.834854176      165.294473
9.303                 0.83499253      164.952463
9.304                0.835134058      164.610608
9.305                0.835278743      164.268914
9.306                 0.83542657      163.927386
9.307                0.835577521       163.58603
9.308                0.835731577      163.244852
9.309                0.835888722      162.903857
9.31                 0.836048937      162.563052
9.311                0.836212203      162.222442
9.312                0.836378503      161.882033
9.313                0.836547817      161.541831
9.314                0.836720127      161.201841
9.315                0.836895412      160.862068
9.316                0.837073654      160.522519
9.317                0.837254833      160.183199
9.318                0.837438928      159.844113
9.319                 0.83762592      159.505268
9.32                 0.837815787      159.166668
9.321                 0.83800851      158.828319
9.322                0.838204068      158.490227
9.323                0.838402439      158.152397
9.324                0.838603602      157.814834
9.325                0.838807536      157.477544
9.326                0.839014218      157.140532
9.327                0.839223628      156.803804
9.328                0.839435743      156.467365
9.329                0.839650541      156.131219
9.33                    0.839868      155.795373
9.331                0.840088096      155.459832
9.332                0.840310807        155.1246
9.333                0.840536111      154.789683
9.334                0.840763984      154.455086
9.335                0.840994403      154.120814
9.336                0.841227344      153.786873
9.337                0.841462784      153.453266
9.338                  0.8417007          153.12
9.339                0.841941067      152.787078
9.34                 0.842183862      152.454507
9.341                 0.84242906      152.122291
9.342                0.842676638      151.790434
9.343                0.842926571      151.458943
9.344                0.843178834       151.12782
9.345                0.843433403      150.797072
9.346                0.843690253      150.466702
9.347                 0.84394936      150.136717
9.348                0.844210699      149.807119
9.349                0.844474244      149.477914
9.35                 0.844739971      149.149107
9.351                0.845007855      148.820701
9.352                 0.84527787      148.492702
9.353                 0.84554999      148.165114
9.354                0.845824192      147.837941
9.355                0.846100448      147.511187
9.356                0.846378734      147.184858
9.357                0.846659024      146.858957
9.358                0.846941293      146.533489
9.359                0.847225514      146.208457
9.36                 0.847511663      145.883867
9.361                0.847799712      145.559721
9.362                0.848089637      145.236025
9.363                0.848381412      144.912782
9.364                 0.84867501      144.589997
9.365                0.848970406      144.267673
9.366                0.849267574      143.945814
9.367                0.849566488      143.624425
9.368                0.849867121      143.303508
9.369                0.850169449      142.983068
9.37                 0.850473445      142.663109
9.371                0.850779083      142.343635
9.372                0.851086337      142.024648
9.373                 0.85139518      141.706154
9.374                0.851705588      141.388155
9.375                0.852017535      141.070654
9.376                0.852330993      140.753657
9.377                0.852645938      140.437165
9.378                0.852962343      140.121183
9.379                0.853280182      139.805713
9.38                 0.853599431       139.49076
9.381                0.853920062      139.176327
9.382                 0.85424205      138.862416
9.383                 0.85456537      138.549031
9.384                0.854889996      138.236176
9.385                0.855215902      137.923853
9.386                0.855543062      137.612066
9.387                0.855871452      137.300817
9.388                0.856201045       136.99011
9.389                0.856531817      136.679948
9.39                 0.856863742      136.370333
9.391                0.857196794      136.061269
9.392                0.857530949      135.752758
9.393                0.857866182      135.444804
9.394                0.858202467      135.137409
9.395                 0.85853978      134.830575
9.396                0.858878095      134.524306
