! TOUCHSTONE file generated by CST DESIGN STUDIO
! Date and time: Tue Feb  4 14:34:10 2025
! Project name: C:\Work\MatlabApps\UnitCellOptimizationMatlab\CST\unitcell.cst
! Tree item: Tasks\Sweep1\SPara1\S-Parameters
! Header version: 2024
! Port assignment regex: !\s*Touchstone port\s*([0-9]+)\s*=\s*(CST MWS port|CST DES external port|CST DES block port)\s*(.+)\s* \(\"(.*)\"\)(\s*mode\s*([0-9]+))?.*
! Touchstone port assignment:
! Touchstone port 1 = CST DES external port 1 ("")
# GHz S MA R 50
9                    0.946937534     -71.7127496
9.001                0.946723341     -71.8244658
9.002                0.946508933     -71.9364608
9.003                0.946294311     -72.0487359
9.004                0.946079478     -72.1612921
9.005                0.945864433     -72.2741306
9.006                 0.94564918     -72.3872525
9.007                0.945433719     -72.5006589
9.008                0.945218051      -72.614351
9.009                0.945002178       -72.72833
9.01                 0.944786101      -72.842597
9.011                0.944569822     -72.9571532
9.012                0.944353342     -73.0719997
9.013                0.944136662     -73.1871377
9.014                0.943919783     -73.3025683
9.015                0.943702707     -73.4182928
9.016                0.943485435     -73.5343124
9.017                0.943267969     -73.6506281
9.018                 0.94305031     -73.7672413
9.019                0.942832459     -73.8841531
9.02                 0.942614417     -74.0013646
9.021                0.942396187     -74.1188772
9.022                0.942177768      -74.236692
9.023                0.941959163     -74.3548103
9.024                0.941740372     -74.4732332
9.025                0.941521398      -74.591962
9.026                 0.94130224     -74.7109979
9.027                0.941082902     -74.8303422
9.028                0.940863383      -74.949996
9.029                0.940643686     -75.0699607
9.03                 0.940423811     -75.1902374
9.031                 0.94020376     -75.3108275
9.032                0.939983533     -75.4317321
9.033                0.939763134     -75.5529526
9.034                0.939542562     -75.6744902
9.035                0.939321819     -75.7963462
9.036                0.939100906     -75.9185218
9.037                0.938879824     -76.0410184
9.038                0.938658576     -76.1638372
9.039                0.938437161     -76.2869795
9.04                 0.938215582     -76.4104466
9.041                0.937993839     -76.5342398
9.042                0.937771935     -76.6583604
9.043                0.937549869     -76.7828097
9.044                0.937327644      -76.907589
9.045                 0.93710526     -77.0326997
9.046                0.936882719     -77.1581431
9.047                0.936660023     -77.2839204
9.048                0.936437172      -77.410033
9.049                0.936214167     -77.5364823
9.05                 0.935991011     -77.6632696
9.051                0.935767704     -77.7903962
9.052                0.935544247     -77.9178635
9.053                0.935320642     -78.0456729
9.054                 0.93509689     -78.1738256
9.055                0.934872992     -78.3023231
9.056                 0.93464895     -78.4311667
9.057                0.934424765     -78.5603579
9.058                0.934200437     -78.6898978
9.059                0.933975969     -78.8197881
9.06                 0.933751361       -78.95003
9.061                0.933526616     -79.0806249
9.062                0.933301733     -79.2115742
9.063                0.933076714     -79.3428794
9.064                0.932851562     -79.4745418
9.065                0.932626276     -79.6065628
9.066                0.932400858     -79.7389439
9.067                0.932175309     -79.8716864
9.068                0.931949631     -80.0047918
9.069                0.931723825     -80.1382615
9.07                 0.931497892      -80.272097
9.071                0.931271834     -80.4062996
9.072                0.931045651     -80.5408708
9.073                0.930819345     -80.6758121
9.074                0.930592918     -80.8111249
9.075                0.930366369     -80.9468106
9.076                0.930139702     -81.0828707
9.077                0.929912917     -81.2193067
9.078                0.929686015       -81.35612
9.079                0.929458998     -81.4933122
9.08                 0.929231866     -81.6308846
9.081                0.929004622     -81.7688387
9.082                0.928777267     -81.9071761
9.083                0.928549801     -82.0458982
9.084                0.928322226     -82.1850065
9.085                0.928094543     -82.3245025
9.086                0.927866755     -82.4643877
9.087                0.927638861     -82.6046636
9.088                0.927410864     -82.7453318
9.089                0.927182764     -82.8863936
9.09                 0.926954563     -83.0278507
9.091                0.926726263     -83.1697045
9.092                0.926497864     -83.3119566
9.093                0.926269368     -83.4546085
9.094                0.926040777     -83.5976617
9.095                0.925812091     -83.7411178
9.096                0.925583312     -83.8849783
9.097                0.925354442     -84.0292447
9.098                0.925125481     -84.1739187
9.099                0.924896432     -84.3190017
9.1                  0.924667295     -84.4644952
9.101                0.924438071      -84.610401
9.102                0.924208763     -84.7567204
9.103                0.923979372     -84.9034551
9.104                0.923749899     -85.0506067
9.105                0.923520345     -85.1981767
9.106                0.923290713     -85.3461667
9.107                0.923061002     -85.4945783
9.108                0.922831215     -85.6434131
9.109                0.922601354     -85.7926726
9.11                 0.922371419     -85.9423584
9.111                0.922141412     -86.0924722
9.112                0.921911335     -86.2430155
9.113                0.921681189     -86.3939899
9.114                0.921450975     -86.5453971
9.115                0.921220696     -86.6972386
9.116                0.920990352      -86.849516
9.117                0.920759945     -87.0022311
9.118                0.920529476     -87.1553853
9.119                0.920298948     -87.3089803
9.12                 0.920068362     -87.4630177
9.121                0.919837718     -87.6174992
9.122                 0.91960702     -87.7724264
9.123                0.919376268     -87.9278009
9.124                0.919145463     -88.0836243
9.125                0.918914609     -88.2398984
9.126                0.918683705     -88.3966246
9.127                0.918452754     -88.5538048
9.128                0.918221758     -88.7114404
9.129                0.917990718     -88.8695333
9.13                 0.917759635     -89.0280849
9.131                0.917528512      -89.187097
9.132                 0.91729735     -89.3465713
9.133                0.917066151     -89.5065093
9.134                0.916834917     -89.6669128
9.135                0.916603648     -89.8277834
9.136                0.916372348     -89.9891228
9.137                0.916141018     -90.1509327
9.138                0.915909659     -90.3132146
9.139                0.915678273     -90.4759704
9.14                 0.915446862     -90.6392016
9.141                0.915215429       -90.80291
9.142                0.914983974     -90.9670972
9.143                  0.9147525      -91.131765
9.144                0.914521009     -91.2969149
9.145                0.914289502     -91.4625487
9.146                0.914057981      -91.628668
9.147                0.913826449     -91.7952746
9.148                0.913594906     -91.9623701
9.149                0.913363356     -92.1299563
9.15                 0.913131801     -92.2980348
9.151                0.912900241     -92.4666073
9.152                0.912668679     -92.6356755
9.153                0.912437118     -92.8052411
9.154                0.912205559     -92.9753058
9.155                0.911974004     -93.1458713
9.156                0.911742456     -93.3169393
9.157                0.911510916     -93.4885115
9.158                0.911279387     -93.6605896
9.159                0.911047871     -93.8331753
9.16                  0.91081637     -94.0062702
9.161                0.910584886     -94.1798762
9.162                0.910353421     -94.3539949
9.163                0.910121979      -94.528628
9.164                 0.90989056     -94.7037772
9.165                0.909659168     -94.8794443
9.166                0.909427804     -95.0556308
9.167                0.909196471     -95.2323386
9.168                0.908965171     -95.4095692
9.169                0.908733907     -95.5873246
9.17                 0.908502682     -95.7656062
9.171                0.908271496     -95.9444159
9.172                0.908040354     -96.1237552
9.173                0.907809257     -96.3036261
9.174                0.907578209       -96.48403
9.175                0.907347211     -96.6649688
9.176                0.907116266     -96.8464441
9.177                0.906885377     -97.0284577
9.178                0.906654546     -97.2110111
9.179                0.906423776     -97.3941062
9.18                  0.90619307     -97.5777446
9.181                0.905962431      -97.761928
9.182                 0.90573186     -97.9466581
9.183                0.905501362     -98.1319366
9.184                0.905270938     -98.3177651
9.185                0.905040592     -98.5041454
9.186                0.904810326     -98.6910791
9.187                0.904580143     -98.8785679
9.188                0.904350047     -99.0666136
9.189                 0.90412004     -99.2552177
9.19                 0.903890125     -99.4443819
9.191                0.903660305     -99.6341079
9.192                0.903430584     -99.8243974
9.193                0.903200964     -100.015252
9.194                0.902971448     -100.206674
9.195                 0.90274204     -100.398663
9.196                0.902512742     -100.591223
9.197                0.902283559     -100.784355
9.198                0.902054493      -100.97806
9.199                0.901825547     -101.172341
9.2                  0.901596725     -101.367198
9.201                0.901368031     -101.562633
9.202                0.901139467     -101.758648
9.203                0.900911036     -101.955245
9.204                0.900682744     -102.152425
9.205                0.900454592      -102.35019
9.206                0.900226585     -102.548541
9.207                0.899998726      -102.74748
9.208                0.899771019     -102.947009
9.209                0.899543467     -103.147129
9.21                 0.899316074     -103.347842
9.211                0.899088843     -103.549149
9.212                 0.89886178     -103.751053
9.213                0.898634887     -103.953553
9.214                0.898408168     -104.156653
9.215                0.898181627     -104.360354
9.216                0.897955268     -104.564657
9.217                0.897729095     -104.769564
9.218                0.897503112     -104.975076
9.219                0.897277323     -105.181194
9.22                 0.897051732     -105.387921
9.221                0.896826344     -105.595258
9.222                0.896601162     -105.803207
9.223                0.896376191     -106.011768
9.224                0.896151434     -106.220944
9.225                0.895926898     -106.430735
9.226                0.895702584     -106.641144
9.227                0.895478499     -106.852172
9.228                0.895254646      -107.06382
9.229                0.895031031      -107.27609
9.23                 0.894807656     -107.488982
9.231                0.894584528       -107.7025
9.232                0.894361651     -107.916643
9.233                0.894139029     -108.131414
9.234                0.893916667     -108.346814
9.235                 0.89369457     -108.562843
9.236                0.893472743     -108.779505
9.237                 0.89325119     -108.996799
9.238                0.893029916     -109.214728
9.239                0.892808928     -109.433292
9.24                 0.892588228     -109.652493
9.241                0.892367823     -109.872333
9.242                0.892147718     -110.092812
9.243                0.891927917     -110.313932
9.244                0.891708426     -110.535694
9.245                 0.89148925       -110.7581
9.246                0.891270395      -110.98115
9.247                0.891051866     -111.204847
9.248                0.890833667      -111.42919
9.249                0.890615806     -111.654182
9.25                 0.890398286     -111.879824
9.251                0.890181114     -112.106116
9.252                0.889964296     -112.333061
9.253                0.889747836     -112.560658
9.254                0.889531741      -112.78891
9.255                0.889316016     -113.017817
9.256                0.889100668     -113.247381
9.257                0.888885701     -113.477603
9.258                0.888671123     -113.708483
9.259                0.888456938     -113.940023
9.26                 0.888243153     -114.172224
9.261                0.888029774     -114.405086
9.262                0.887816807     -114.638612
9.263                0.887604259     -114.872802
9.264                0.887392134     -115.107656
9.265                0.887180441     -115.343176
9.266                0.886969184     -115.579364
9.267                0.886758371     -115.816218
9.268                0.886548007     -116.053742
9.269                  0.8863381     -116.291935
9.27                 0.886128656     -116.530798
9.271                0.885919681     -116.770333
9.272                0.885711182      -117.01054
9.273                0.885503166     -117.251419
9.274                0.885295639     -117.492972
9.275                0.885088608       -117.7352
9.276                0.884882081     -117.978103
9.277                0.884676063     -118.221682
9.278                0.884470563     -118.465938
9.279                0.884265586     -118.710871
9.28                 0.884061141     -118.956482
9.281                0.883857233     -119.202771
9.282                0.883653871      -119.44974
9.283                0.883451061     -119.697389
9.284                0.883248811     -119.945718
9.285                0.883047127     -120.194728
9.286                0.882846019     -120.444419
9.287                0.882645492     -120.694793
9.288                0.882445554     -120.945849
9.289                0.882246213     -121.197588
9.29                 0.882047477      -121.45001
9.291                0.881849352     -121.703116
9.292                0.881651848     -121.956906
9.293                 0.88145497     -122.211381
9.294                0.881258728      -122.46654
9.295                0.881063129     -122.722385
9.296                 0.88086818     -122.978915
9.297                 0.88067389      -123.23613
9.298                0.880480267     -123.494032
9.299                0.880287319     -123.752619
9.3                  0.880095054     -124.011892
9.301                0.879903479     -124.271852
9.302                0.879712604     -124.532498
9.303                0.879522435     -124.793831
9.304                0.879332983      -125.05585
9.305                0.879144254     -125.318555
9.306                0.878956257     -125.581948
9.307                0.878769001     -125.846026
9.308                0.878582493     -126.110791
9.309                0.878396743     -126.376242
9.31                 0.878211759     -126.642379
9.311                 0.87802755     -126.909202
9.312                0.877844124     -127.176711
9.313                0.877661489     -127.444906
9.314                0.877479655     -127.713785
9.315                 0.87729863      -127.98335
9.316                0.877118423     -128.253599
9.317                0.876939042     -128.524532
9.318                0.876760497     -128.796149
9.319                0.876582797     -129.068449
9.32                 0.876405949     -129.341432
9.321                0.876229964     -129.615098
9.322                0.876054851     -129.889445
9.323                0.875880617     -130.164474
9.324                0.875707273     -130.440183
9.325                0.875534827     -130.716573
9.326                0.875363289     -130.993641
9.327                0.875192667     -131.271388
9.328                0.875022972     -131.549813
9.329                0.874854211     -131.828915
9.33                 0.874686394     -132.108693
9.331                0.874519531     -132.389147
9.332                0.874353631     -132.670274
9.333                0.874188703     -132.952076
9.334                0.874024757     -133.234549
9.335                0.873861801     -133.517695
9.336                0.873699845      -133.80151
9.337                0.873538899     -134.085995
9.338                0.873378972     -134.371148
9.339                0.873220073     -134.656967
9.34                 0.873062213     -134.943453
9.341                0.872905399     -135.230603
9.342                0.872749643     -135.518416
9.343                0.872594953     -135.806891
9.344                0.872441339     -136.096026
9.345                 0.87228881      -136.38582
9.346                0.872137376     -136.676272
9.347                0.871987046      -136.96738
9.348                0.871837831     -137.259142
9.349                0.871689739     -137.551556
9.35                 0.871542781     -137.844623
9.351                0.871396965     -138.138338
9.352                0.871252301     -138.432702
9.353                  0.8711088     -138.727711
9.354                 0.87096647     -139.023364
9.355                 0.87082532      -139.31966
9.356                0.870685362     -139.616597
9.357                0.870546603     -139.914171
9.358                0.870409055     -140.212383
9.359                0.870272725     -140.511229
9.36                 0.870137624     -140.810707
9.361                0.870003762     -141.110815
9.362                0.869871148     -141.411552
9.363                 0.86973979     -141.712914
9.364                  0.8696097       -142.0149
9.365                0.869480886     -142.317507
9.366                0.869353357     -142.620734
9.367                0.869227124     -142.924576
9.368                0.869102195     -143.229034
9.369                0.868978581     -143.534102
9.37                 0.868856289      -143.83978
9.371                 0.86873533     -144.146064
9.372                0.868615714     -144.452952
9.373                0.868497448     -144.760442
9.374                0.868380542      -145.06853
9.375                0.868265007     -145.377214
9.376                 0.86815085      -145.68649
9.377                0.868038081     -145.996357
9.378                0.867926709     -146.306811
9.379                0.867816743     -146.617849
9.38                 0.867708192     -146.929468
9.381                0.867601065     -147.241666
9.382                0.867495371     -147.554438
9.383                0.867391119     -147.867783
9.384                0.867288317     -148.181696
9.385                0.867186974     -148.496175
9.386                  0.8670871     -148.811216
9.387                0.866988702     -149.126816
9.388                 0.86689179     -149.442972
9.389                0.866796371      -149.75968
9.39                 0.866702455     -150.076936
9.391                0.866610049     -150.394737
9.392                0.866519162      -150.71308
9.393                0.866429802     -151.031961
9.394                0.866341978     -151.351377
9.395                0.866255697     -151.671322
9.396                0.866170968     -151.991795
