! TOUCHSTONE file generated by CST DESIGN STUDIO
! Date and time: Tue Feb  4 14:34:02 2025
! Project name: C:\Work\MatlabApps\UnitCellOptimizationMatlab\CST\unitcell.cst
! Tree item: Tasks\Sweep1\SPara1\S-Parameters
! Header version: 2024
! Port assignment regex: !\s*Touchstone port\s*([0-9]+)\s*=\s*(CST MWS port|CST DES external port|CST DES block port)\s*(.+)\s* \(\"(.*)\"\)(\s*mode\s*([0-9]+))?.*
! Touchstone port assignment:
! Touchstone port 1 = CST DES external port 1 ("")
# GHz S MA R 50
9                    0.923884078     -99.3954236
9.001                0.923469435     -99.5883114
9.002                0.923054245     -99.7817078
9.003                0.922638514     -99.9756143
9.004                0.922222252     -100.170032
9.005                0.921805467     -100.364963
9.006                0.921388167     -100.560409
9.007                0.920970359      -100.75637
9.008                0.920552054     -100.952849
9.009                0.920133259     -101.149847
9.01                 0.919713984     -101.347365
9.011                0.919294236     -101.545405
9.012                0.918874025     -101.743968
9.013                0.918453359     -101.943055
9.014                0.918032248     -102.142669
9.015                0.917610701      -102.34281
9.016                0.917188726      -102.54348
9.017                0.916766332     -102.744681
9.018                 0.91634353     -102.946413
9.019                0.915920328     -103.148679
9.02                 0.915496737     -103.351479
9.021                0.915072764     -103.554815
9.022                 0.91464842     -103.758689
9.023                0.914223715     -103.963102
9.024                0.913798658     -104.168056
9.025                0.913373259     -104.373551
9.026                0.912947528     -104.579589
9.027                0.912521475     -104.786172
9.028                0.912095111     -104.993301
9.029                0.911668444     -105.200977
9.03                 0.911241486     -105.409202
9.031                0.910814246     -105.617978
9.032                0.910386735     -105.827305
9.033                0.909958964     -106.037185
9.034                0.909530943     -106.247619
9.035                0.909102683     -106.458609
9.036                0.908674194     -106.670156
9.037                0.908245487     -106.882261
9.038                0.907816574     -107.094926
9.039                0.907387464     -107.308153
9.04                  0.90695817     -107.521941
9.041                0.906528702     -107.736294
9.042                0.906099072     -107.951212
9.043                 0.90566929     -108.166696
9.044                0.905239369     -108.382748
9.045                0.904809319     -108.599369
9.046                0.904379152     -108.816561
9.047                0.903948881     -109.034324
9.048                0.903518516      -109.25266
9.049                 0.90308807     -109.471571
9.05                 0.902657554     -109.691057
9.051                0.902226981      -109.91112
9.052                0.901796362     -110.131761
9.053                 0.90136571     -110.352981
9.054                0.900935037     -110.574782
9.055                0.900504355     -110.797165
9.056                0.900073677     -111.020131
9.057                0.899643015     -111.243681
9.058                0.899212383     -111.467816
9.059                0.898781792     -111.692538
9.06                 0.898351255     -111.917848
9.061                0.897920787     -112.143747
9.062                0.897490398     -112.370236
9.063                0.897060103     -112.597317
9.064                0.896629915      -112.82499
9.065                0.896199846     -113.053257
9.066                0.895769911     -113.282118
9.067                0.895340122     -113.511576
9.068                0.894910494      -113.74163
9.069                0.894481039     -113.972283
9.07                 0.894051772     -114.203534
9.071                0.893622707     -114.435386
9.072                0.893193856     -114.667839
9.073                0.892765235     -114.900895
9.074                0.892336857     -115.134554
9.075                0.891908737     -115.368817
9.076                0.891480888     -115.603685
9.077                0.891053325      -115.83916
9.078                0.890626063     -116.075243
9.079                0.890199116     -116.311933
9.08                 0.889772498     -116.549233
9.081                0.889346225     -116.787143
9.082                0.888920311     -117.025665
9.083                 0.88849477     -117.264798
9.084                0.888069619     -117.504544
9.085                0.887644871     -117.744904
9.086                0.887220543     -117.985879
9.087                0.886796649     -118.227469
9.088                0.886373205     -118.469676
9.089                0.885950226     -118.712499
9.09                 0.885527728     -118.955941
9.091                0.885105725     -119.200001
9.092                0.884684235     -119.444681
9.093                0.884263272     -119.689981
9.094                0.883842853     -119.935902
9.095                0.883422993     -120.182445
9.096                0.883003709     -120.429609
9.097                0.882585016     -120.677397
9.098                0.882166931     -120.925809
9.099                 0.88174947     -121.174845
9.1                   0.88133265     -121.424505
9.101                0.880916486     -121.674792
9.102                0.880500996     -121.925704
9.103                0.880086195     -122.177243
9.104                0.879672102     -122.429409
9.105                0.879258731     -122.682202
9.106                0.878846101     -122.935624
9.107                0.878434229     -123.189674
9.108                 0.87802313     -123.444354
9.109                0.877612823     -123.699662
9.11                 0.877203325     -123.955601
9.111                0.876794652      -124.21217
9.112                0.876386822      -124.46937
9.113                0.875979853       -124.7272
9.114                0.875573762     -124.985662
9.115                0.875168567     -125.244755
9.116                0.874764284      -125.50448
9.117                0.874360933     -125.764837
9.118                 0.87395853     -126.025826
9.119                0.873557094     -126.287448
9.12                 0.873156642     -126.549702
9.121                0.872757193     -126.812589
9.122                0.872358764     -127.076109
9.123                0.871961373     -127.340262
9.124                 0.87156504     -127.605047
9.125                0.871169781     -127.870466
9.126                0.870775616     -128.136517
9.127                0.870382562     -128.403202
9.128                0.869990639      -128.67052
9.129                0.869599864      -128.93847
9.13                 0.869210256     -129.207053
9.131                0.868821835     -129.476268
9.132                0.868434617     -129.746116
9.133                0.868048623     -130.016597
9.134                0.867663871     -130.287709
9.135                 0.86728038     -130.559453
9.136                0.866898169     -130.831828
9.137                0.866517256     -131.104835
9.138                0.866137661     -131.378472
9.139                0.865759403     -131.652739
9.14                   0.8653825     -131.927637
9.141                0.865006972     -132.203164
9.142                0.864632838     -132.479321
9.143                0.864260118     -132.756106
9.144                 0.86388883     -133.033518
9.145                0.863518994     -133.311559
9.146                0.863150629     -133.590226
9.147                0.862783754     -133.869519
9.148                0.862418389     -134.149438
9.149                0.862054554     -134.429982
9.15                 0.861692267      -134.71115
9.151                0.861331548     -134.992942
9.152                0.860972417     -135.275355
9.153                0.860614893     -135.558391
9.154                0.860258996     -135.842047
9.155                0.859904745     -136.126323
9.156                 0.85955216     -136.411218
9.157                 0.85920126     -136.696731
9.158                0.858852065     -136.982861
9.159                0.858504595     -137.269607
9.16                 0.858158869     -137.556968
9.161                0.857814907     -137.844942
9.162                0.857472729     -138.133529
9.163                0.857132353     -138.422727
9.164                0.856793801     -138.712535
9.165                 0.85645709     -139.002951
9.166                0.856122242     -139.293976
9.167                0.855789275     -139.585606
9.168                 0.85545821      -139.87784
9.169                0.855129065     -140.170678
9.17                 0.854801861     -140.464118
9.171                0.854476617     -140.758158
9.172                0.854153352     -141.052796
9.173                0.853832086     -141.348032
9.174                0.853512839     -141.643863
9.175                 0.85319563     -141.940287
9.176                0.852880478     -142.237304
9.177                0.852567403     -142.534911
9.178                0.852256425     -142.833106
9.179                0.851947561     -143.131888
9.18                 0.851640833     -143.431255
9.181                0.851336259     -143.731204
9.182                0.851033858     -144.031734
9.183                0.850733649     -144.332843
9.184                0.850435652     -144.634529
9.185                0.850139886     -144.936789
9.186                0.849846369     -145.239622
9.187                 0.84955512     -145.543025
9.188                 0.84926616     -145.846996
9.189                0.848979505     -146.151533
9.19                 0.848695175     -146.456634
9.191                0.848413189     -146.762295
9.192                0.848133564     -147.068516
9.193                0.847856321     -147.375293
9.194                0.847581477     -147.682624
9.195                 0.84730905     -147.990506
9.196                0.847039058     -148.298937
9.197                0.846771521     -148.607914
9.198                0.846506455     -148.917434
9.199                 0.84624388     -149.227496
9.2                  0.845983812     -149.538095
9.201                 0.84572627      -149.84923
9.202                0.845471271     -150.160897
9.203                0.845218832     -150.473093
9.204                0.844968972     -150.785817
9.205                0.844721707     -151.099064
9.206                0.844477056     -151.412831
9.207                0.844235034     -151.727116
9.208                0.843995658     -152.041916
9.209                0.843758947     -152.357227
9.21                 0.843524915     -152.673047
9.211                0.843293581     -152.989371
9.212                 0.84306496     -153.306197
9.213                0.842839068     -153.623521
9.214                0.842615922     -153.941341
9.215                0.842395538     -154.259652
9.216                0.842177932     -154.578451
9.217                0.841963119     -154.897735
9.218                0.841751114     -155.217499
9.219                0.841541934     -155.537742
9.22                 0.841335593     -155.858458
9.221                0.841132107     -156.179645
9.222                0.840931489     -156.501298
9.223                0.840733756     -156.823414
9.224                0.840538921     -157.145989
9.225                   0.840347     -157.469019
9.226                0.840158005     -157.792501
9.227                0.839971951     -158.116429
9.228                0.839788851     -158.440802
9.229                 0.83960872     -158.765613
9.23                 0.839431571      -159.09086
9.231                0.839257417     -159.416538
9.232                 0.83908627     -159.742643
9.233                0.838918144     -160.069171
9.234                0.838753051     -160.396118
9.235                0.838591004     -160.723479
9.236                0.838432015      -161.05125
9.237                0.838276095     -161.379427
9.238                0.838123256     -161.708006
9.239                0.837973511     -162.036981
9.24                 0.837826869     -162.366349
9.241                0.837683343     -162.696105
9.242                0.837542942     -163.026245
9.243                0.837405678     -163.356763
9.244                 0.83727156     -163.687656
9.245                  0.8371406     -164.018918
9.246                0.837012806     -164.350545
9.247                0.836888188     -164.682533
9.248                0.836766756     -165.014875
9.249                0.836648519     -165.347569
9.25                 0.836533485     -165.680608
9.251                0.836421663     -166.013988
9.252                0.836313062     -166.347705
9.253                0.836207689     -166.681752
9.254                0.836105552     -167.016125
9.255                0.836006659     -167.350819
9.256                0.835911017      -167.68583
9.257                0.835818634     -168.021151
9.258                0.835729515     -168.356778
9.259                0.835643667     -168.692706
9.26                 0.835561096     -169.028929
9.261                0.835481809     -169.365442
9.262                 0.83540581      -169.70224
9.263                0.835333106     -170.039318
9.264                  0.8352637      -170.37667
9.265                0.835197598     -170.714292
9.266                0.835134805     -171.052177
9.267                0.835075324      -171.39032
9.268                 0.83501916     -171.728716
9.269                0.834966315      -172.06736
9.27                 0.834916794     -172.406245
9.271                0.834870598     -172.745367
9.272                0.834827732     -173.084719
9.273                0.834788196     -173.424297
9.274                0.834751994     -173.764095
9.275                0.834719126     -174.104107
9.276                0.834689596     -174.444327
9.277                0.834663402      -174.78475
9.278                0.834640547      -175.12537
9.279                0.834621032     -175.466182
9.28                 0.834604855     -175.807179
9.281                0.834592017     -176.148356
9.282                0.834582518     -176.489707
9.283                0.834576358     -176.831227
9.284                0.834573534     -177.172909
9.285                0.834574046     -177.514748
9.286                0.834577891     -177.856738
9.287                0.834585069     -178.198873
9.288                0.834595577     -178.541147
9.289                0.834609412     -178.883554
9.29                 0.834626571     -179.226089
9.291                0.834647052     -179.568745
9.292                 0.83467085     -179.911516
9.293                0.834697961      179.745602
9.294                0.834728382      179.402618
9.295                0.834762109      179.059536
9.296                0.834799135      178.716362
9.297                0.834839457      178.373103
9.298                0.834883068      178.029764
9.299                0.834929964      177.686351
9.3                  0.834980137      177.342871
9.301                0.835033582       176.99933
9.302                0.835090292      176.655733
9.303                 0.83515026      176.312087
9.304                0.835213479      175.968397
9.305                0.835279941      175.624671
9.306                0.835349637      175.280913
9.307                0.835422561       174.93713
9.308                0.835498703      174.593327
9.309                0.835578055      174.249512
9.31                 0.835660607      173.905691
9.311                0.835746351      173.561868
9.312                0.835835275      173.218051
9.313                0.835927371      172.874245
9.314                0.836022627      172.530456
9.315                0.836121034      172.186691
9.316                 0.83622258      171.842956
9.317                0.836327254      171.499256
9.318                0.836435045      171.155599
9.319                0.836545941      170.811989
9.32                 0.836659929      170.468433
9.321                0.836776998      170.124937
9.322                0.836897134      169.781507
9.323                0.837020325      169.438149
9.324                0.837146557       169.09487
9.325                0.837275818      168.751674
9.326                0.837408092      168.408569
9.327                0.837543367       168.06556
9.328                0.837681627      167.722653
9.329                0.837822859      167.379854
9.33                 0.837967047       167.03717
9.331                0.838114177      166.694606
9.332                0.838264232      166.352167
9.333                0.838417198      166.009861
9.334                0.838573058      165.667693
9.335                0.838731797      165.325669
9.336                0.838893397      164.983795
9.337                0.839057843      164.642076
9.338                0.839225117      164.300519
9.339                0.839395203      163.959129
9.34                 0.839568083      163.617913
9.341                0.839743739      163.276875
9.342                0.839922154      162.936023
9.343                0.840103309      162.595361
9.344                0.840287187      162.254895
9.345                0.840473769      161.914632
9.346                0.840663036      161.574576
9.347                0.840854969      161.234734
9.348                 0.84104955      160.895111
9.349                0.841246759      160.555713
9.35                 0.841446576      160.216546
9.351                0.841648983      159.877615
9.352                0.841853958      159.538925
9.353                0.842061482      159.200482
9.354                0.842271534      158.862292
9.355                0.842484095      158.524361
9.356                0.842699143      158.186693
9.357                0.842916658      157.849294
9.358                0.843136619      157.512169
9.359                0.843359004      157.175325
9.36                 0.843583793      156.838766
9.361                0.843810963      156.502497
9.362                0.844040494      156.166525
9.363                0.844272363      155.830854
9.364                0.844506549      155.495489
9.365                 0.84474303      155.160435
9.366                0.844981782      154.825699
9.367                0.845222785      154.491285
9.368                0.845466016      154.157197
9.369                0.845711451      153.823442
9.37                 0.845959069      153.490024
9.371                0.846208846      153.156949
9.372                 0.84646076       152.82422
9.373                0.846714787      152.491844
9.374                0.846970905      152.159825
9.375                0.847229089      151.828167
9.376                0.847489318      151.496877
9.377                0.847751566      151.165958
9.378                0.848015812      150.835416
9.379                0.848282031      150.505254
9.38                 0.848550199      150.175479
9.381                0.848820293      149.846094
9.382                0.849092289      149.517104
9.383                0.849366162      149.188514
9.384                 0.84964189      148.860328
9.385                0.849919448      148.532551
9.386                0.850198811      148.205187
9.387                0.850479956       147.87824
9.388                0.850762859      147.551716
9.389                0.851047495      147.225618
9.39                 0.851333839      146.899951
9.391                0.851621869      146.574719
9.392                0.851911559      146.249927
9.393                0.852202885      145.925577
9.394                0.852495822      145.601676
9.395                0.852790346      145.278226
9.396                0.853086433      144.955232
