! TOUCHSTONE file generated by CST DESIGN STUDIO
! Date and time: Tue Feb  4 14:34:08 2025
! Project name: C:\Work\MatlabApps\UnitCellOptimizationMatlab\CST\unitcell.cst
! Tree item: Tasks\Sweep1\SPara1\S-Parameters
! Header version: 2024
! Port assignment regex: !\s*Touchstone port\s*([0-9]+)\s*=\s*(CST MWS port|CST DES external port|CST DES block port)\s*(.+)\s* \(\"(.*)\"\)(\s*mode\s*([0-9]+))?.*
! Touchstone port assignment:
! Touchstone port 1 = CST DES external port 1 ("")
# GHz S MA R 50
9                    0.942653156     -76.5415206
9.001                0.942403702     -76.6662218
9.002                0.942153944     -76.7912411
9.003                0.941903885     -76.9165798
9.004                0.941653528     -77.0422391
9.005                0.941402873     -77.1682203
9.006                0.941151923     -77.2945246
9.007                 0.94090068     -77.4211534
9.008                0.940649145     -77.5481079
9.009                0.940397322     -77.6753893
9.01                 0.940145212     -77.8029991
9.011                0.939892817     -77.9309384
9.012                0.939640138     -78.0592086
9.013                0.939387179      -78.187811
9.014                0.939133941     -78.3167468
9.015                0.938880426     -78.4460175
9.016                0.938626637     -78.5756243
9.017                0.938372574     -78.7055685
9.018                0.938118241     -78.8358514
9.019                 0.93786364     -78.9664745
9.02                 0.937608771      -79.097439
9.021                0.937353639     -79.2287463
9.022                0.937098243     -79.3603976
9.023                0.936842588     -79.4923945
9.024                0.936586674     -79.6247382
9.025                0.936330504       -79.75743
9.026                 0.93607408     -79.8904715
9.027                0.935817403     -80.0238638
9.028                0.935560477     -80.1576084
9.029                0.935303303     -80.2917067
9.03                 0.935045883     -80.4261601
9.031                 0.93478822     -80.5609699
9.032                0.934530314     -80.6961376
9.033                 0.93427217     -80.8316645
9.034                0.934013788      -80.967552
9.035                0.933755171     -81.1038016
9.036                0.933496321     -81.2404146
9.037                 0.93323724     -81.3773925
9.038                 0.93297793     -81.5147367
9.039                0.932718393     -81.6524486
9.04                 0.932458632     -81.7905297
9.041                0.932198649     -81.9289814
9.042                0.931938445     -82.0678051
9.043                0.931678023     -82.2070022
9.044                0.931417386     -82.3465743
9.045                0.931156535     -82.4865227
9.046                0.930895472      -82.626849
9.047                  0.9306342     -82.7675546
9.048                0.930372721     -82.9086409
9.049                0.930111037     -83.0501094
9.05                  0.92984915     -83.1919616
9.051                0.929587063      -83.334199
9.052                0.929324778     -83.4768231
9.053                0.929062297     -83.6198353
9.054                0.928799622     -83.7632371
9.055                0.928536755     -83.9070301
9.056                0.928273699     -84.0512157
9.057                0.928010457     -84.1957954
9.058                0.927747029     -84.3407708
9.059                0.927483419     -84.4861433
9.06                 0.927219629     -84.6319146
9.061                0.926955662      -84.778086
9.062                0.926691518     -84.9246591
9.063                0.926427202     -85.0716355
9.064                0.926162715     -85.2190167
9.065                0.925898059     -85.3668042
9.066                0.925633237     -85.5149995
9.067                0.925368252     -85.6636043
9.068                0.925103105       -85.81262
9.069                0.924837799     -85.9620483
9.07                 0.924572336     -86.1118906
9.071                0.924306719     -86.2621485
9.072                 0.92404095     -86.4128236
9.073                0.923775032     -86.5639175
9.074                0.923508967     -86.7154317
9.075                0.923242758     -86.8673678
9.076                0.922976406     -87.0197274
9.077                0.922709915      -87.172512
9.078                0.922443287     -87.3257233
9.079                0.922176524     -87.4793629
9.08                  0.92190963     -87.6334323
9.081                0.921642606     -87.7879331
9.082                0.921375454     -87.9428669
9.083                0.921108179     -88.0982354
9.084                0.920840781     -88.2540401
9.085                0.920573265     -88.4102827
9.086                0.920305631     -88.5669648
9.087                0.920037884     -88.7240879
9.088                0.919770025     -88.8816537
9.089                0.919502058     -89.0396638
9.09                 0.919233984     -89.1981199
9.091                0.918965807     -89.3570236
9.092                0.918697529     -89.5163764
9.093                0.918429153     -89.6761801
9.094                0.918160681     -89.8364363
9.095                0.917892118     -89.9971466
9.096                0.917623464     -90.1583127
9.097                0.917354723     -90.3199362
9.098                0.917085898     -90.4820187
9.099                0.916816992     -90.6445619
9.1                  0.916548007     -90.8075675
9.101                0.916278946      -90.971037
9.102                0.916009812     -91.1349723
9.103                0.915740608     -91.2993749
9.104                0.915471338     -91.4642464
9.105                0.915202003     -91.6295887
9.106                0.914932606     -91.7954032
9.107                0.914663152     -91.9616917
9.108                0.914393642     -92.1284559
9.109                 0.91412408     -92.2956974
9.11                 0.913854468     -92.4634179
9.111                0.913584811     -92.6316191
9.112                 0.91331511     -92.8003027
9.113                0.913045369     -92.9694703
9.114                0.912775591     -93.1391236
9.115                 0.91250578     -93.3092643
9.116                0.912235938     -93.4798941
9.117                0.911966068     -93.6510146
9.118                0.911696174     -93.8226276
9.119                 0.91142626     -93.9947348
9.12                 0.911156327     -94.1673378
9.121                 0.91088638     -94.3404383
9.122                0.910616422      -94.514038
9.123                0.910346456     -94.6881386
9.124                0.910076485     -94.8627418
9.125                0.909806514     -95.0378493
9.126                0.909536544     -95.2134627
9.127                0.909266581     -95.3895839
9.128                0.908996626     -95.5662144
9.129                0.908726685     -95.7433559
9.13                 0.908456759     -95.9210102
9.131                0.908186854      -96.099179
9.132                0.907916972     -96.2778639
9.133                0.907647116     -96.4570666
9.134                0.907377291     -96.6367889
9.135                0.907107501     -96.8170324
9.136                0.906837748     -96.9977988
9.137                0.906568037     -97.1790898
9.138                0.906298372     -97.3609071
9.139                0.906028756     -97.5432524
9.14                 0.905759192     -97.7261274
9.141                0.905489686     -97.9095338
9.142                 0.90522024     -98.0934733
9.143                0.904950859     -98.2779475
9.144                0.904681546     -98.4629581
9.145                0.904412306     -98.6485069
9.146                0.904143143     -98.8345954
9.147                 0.90387406     -99.0212255
9.148                0.903605062     -99.2083987
9.149                0.903336152     -99.3961168
9.15                 0.903067336     -99.5843814
9.151                0.902798617     -99.7731942
9.152                0.902529998     -99.9625568
9.153                0.902261486     -100.152471
9.154                0.901993083     -100.342938
9.155                0.901724795     -100.533961
9.156                0.901456625      -100.72554
9.157                0.901188578     -100.917677
9.158                0.900920658     -101.110373
9.159                 0.90065287     -101.303632
9.16                 0.900385219     -101.497453
9.161                0.900117708      -101.69184
9.162                0.899850343     -101.886792
9.163                0.899583128     -102.082313
9.164                0.899316068     -102.278404
9.165                0.899049167     -102.475065
9.166                0.898782431       -102.6723
9.167                0.898515863      -102.87011
9.168                 0.89824947     -103.068495
9.169                0.897983255     -103.267458
9.17                 0.897717223     -103.467001
9.171                0.897451381     -103.667125
9.172                0.897185731     -103.867832
9.173                0.896920281     -104.069122
9.174                0.896655034     -104.270999
9.175                0.896389996     -104.473462
9.176                0.896125172     -104.676515
9.177                0.895860567     -104.880159
9.178                0.895596187     -105.084394
9.179                0.895332036     -105.289223
9.18                 0.895068121     -105.494647
9.181                0.894804446     -105.700668
9.182                0.894541016     -105.907287
9.183                0.894277839     -106.114506
9.184                0.894014918     -106.322327
9.185                 0.89375226      -106.53075
9.186                 0.89348987     -106.739777
9.187                0.893227754      -106.94941
9.188                0.892965917     -107.159651
9.189                0.892704366       -107.3705
9.19                 0.892443106      -107.58196
9.191                0.892182143     -107.794031
9.192                0.891921483     -108.006716
9.193                0.891661131     -108.220015
9.194                0.891401095     -108.433931
9.195                0.891141379     -108.648464
9.196                0.890881991     -108.863615
9.197                0.890622935     -109.079387
9.198                 0.89036422     -109.295781
9.199                 0.89010585     -109.512798
9.2                  0.889847831      -109.73044
9.201                0.889590172     -109.948707
9.202                0.889332877     -110.167601
9.203                0.889075953     -110.387124
9.204                0.888819407     -110.607277
9.205                0.888563245     -110.828062
9.206                0.888307475     -111.049478
9.207                0.888052101     -111.271529
9.208                0.887797133     -111.494214
9.209                0.887542575     -111.717536
9.21                 0.887288436     -111.941496
9.211                0.887034721     -112.166094
9.212                0.886781438     -112.391333
9.213                0.886528594     -112.617213
9.214                0.886276195     -112.843735
9.215                 0.88602425     -113.070901
9.216                0.885772764     -113.298712
9.217                0.885521746     -113.527169
9.218                0.885271203     -113.756274
9.219                0.885021141     -113.986026
9.22                 0.884771569     -114.216428
9.221                0.884522493     -114.447481
9.222                0.884273921     -114.679185
9.223                0.884025861     -114.911542
9.224                 0.88377832     -115.144553
9.225                0.883531307     -115.378218
9.226                0.883284827      -115.61254
9.227                 0.88303889     -115.847518
9.228                0.882793504     -116.083154
9.229                0.882548675     -116.319448
9.23                 0.882304412     -116.556403
9.231                0.882060723     -116.794018
9.232                0.881817616     -117.032294
9.233                0.881575099     -117.271233
9.234                 0.88133318     -117.510835
9.235                0.881091867     -117.751102
9.236                0.880851169     -117.992033
9.237                0.880611093      -118.23363
9.238                0.880371649     -118.475894
9.239                0.880132845     -118.718825
9.24                 0.879894688     -118.962425
9.241                0.879657188     -119.206693
9.242                0.879420354      -119.45163
9.243                0.879184193     -119.697238
9.244                0.878948714     -119.943517
9.245                0.878713926     -120.190467
9.246                0.878479839      -120.43809
9.247                 0.87824646     -120.686385
9.248                0.878013798     -120.935354
9.249                0.877781864     -121.184996
9.25                 0.877550664     -121.435313
9.251                 0.87732021     -121.686305
9.252                0.877090509     -121.937972
9.253                0.876861571     -122.190315
9.254                0.876633404     -122.443334
9.255                0.876406019      -122.69703
9.256                0.876179425     -122.951403
9.257                 0.87595363     -123.206453
9.258                0.875728644     -123.462181
9.259                0.875504477     -123.718587
9.26                 0.875281139     -123.975671
9.261                0.875058637     -124.233434
9.262                0.874836984     -124.491875
9.263                0.874616186     -124.750996
9.264                0.874396256     -125.010795
9.265                0.874177201     -125.271274
9.266                0.873959033     -125.532432
9.267                 0.87374176     -125.794269
9.268                0.873525393     -126.056786
9.269                0.873309942     -126.319982
9.27                 0.873095416     -126.583858
9.271                0.872881825     -126.848413
9.272                 0.87266918     -127.113647
9.273                 0.87245749      -127.37956
9.274                0.872246765     -127.646152
9.275                0.872037017     -127.913423
9.276                0.871828254     -128.181373
9.277                0.871620487     -128.450001
9.278                0.871413727     -128.719308
9.279                0.871207983     -128.989292
9.28                 0.871003266     -129.259954
9.281                0.870799586     -129.531292
9.282                0.870596953     -129.803308
9.283                0.870395379     -130.075999
9.284                0.870194873     -130.349367
9.285                0.869995446      -130.62341
9.286                0.869797108     -130.898127
9.287                 0.86959987     -131.173519
9.288                0.869403743     -131.449584
9.289                0.869208737     -131.726322
9.29                 0.869014862     -132.003733
9.291                 0.86882213     -132.281815
9.292                 0.86863055     -132.560567
9.293                0.868440135      -132.83999
9.294                0.868250893     -133.120081
9.295                0.868062836     -133.400841
9.296                0.867875975     -133.682268
9.297                0.867690321     -133.964362
9.298                0.867505884     -134.247121
9.299                0.867322674     -134.530544
9.3                  0.867140704     -134.814631
9.301                0.866959983     -135.099379
9.302                0.866780522     -135.384789
9.303                0.866602333     -135.670859
9.304                0.866425425     -135.957587
9.305                 0.86624981     -136.244973
9.306                0.866075499     -136.533014
9.307                0.865902503     -136.821711
9.308                0.865730832     -137.111061
9.309                0.865560497     -137.401062
9.31                 0.865391509     -137.691714
9.311                0.865223879     -137.983015
9.312                0.865057617     -138.274964
9.313                0.864892735     -138.567558
9.314                0.864729244     -138.860796
9.315                0.864567153     -139.154677
9.316                0.864406474     -139.449198
9.317                0.864247218     -139.744358
9.318                0.864089396     -140.040156
9.319                0.863933018     -140.336588
9.32                 0.863778094     -140.633655
9.321                0.863624636     -140.931352
9.322                0.863472655     -141.229679
9.323                0.863322161     -141.528634
9.324                0.863173164     -141.828213
9.325                0.863025675     -142.128416
9.326                0.862879706     -142.429241
9.327                0.862735266     -142.730683
9.328                0.862592365     -143.032743
9.329                0.862451015     -143.335417
9.33                 0.862311226     -143.638703
9.331                0.862173009     -143.942598
9.332                0.862036373       -144.2471
9.333                0.861901329     -144.552207
9.334                0.861767887     -144.857916
9.335                0.861636058     -145.164225
9.336                0.861505851      -145.47113
9.337                0.861377278      -145.77863
9.338                0.861250347     -146.086722
9.339                 0.86112507     -146.395402
9.34                 0.861001456     -146.704668
9.341                0.860879514     -147.014517
9.342                0.860759255     -147.324946
9.343                0.860640689     -147.635952
9.344                0.860523826     -147.947533
9.345                0.860408674     -148.259685
9.346                0.860295244     -148.572405
9.347                0.860183545      -148.88569
9.348                0.860073587     -149.199537
9.349                0.859965379     -149.513942
9.35                  0.85985893     -149.828903
9.351                0.859754249     -150.144416
9.352                0.859651347     -150.460477
9.353                0.859550231     -150.777083
9.354                0.859450911     -151.094231
9.355                0.859353396     -151.411918
9.356                0.859257694     -151.730139
9.357                0.859163814     -152.048891
9.358                0.859071765      -152.36817
9.359                0.858981556     -152.687973
9.36                 0.858893194     -153.008297
9.361                0.858806688     -153.329136
9.362                0.858722047     -153.650488
9.363                0.858639278     -153.972348
9.364                 0.85855839     -154.294712
9.365                0.858479389     -154.617577
9.366                0.858402285     -154.940939
9.367                0.858327085     -155.264793
9.368                0.858253796     -155.589136
9.369                0.858182426     -155.913963
9.37                 0.858112981      -156.23927
9.371                0.858045471     -156.565052
9.372                  0.8579799     -156.891306
9.373                0.857916277     -157.218028
9.374                0.857854608     -157.545212
9.375                  0.8577949     -157.872854
9.376                0.857737159      -158.20095
9.377                0.857681392     -158.529496
9.378                0.857627605     -158.858486
9.379                0.857575805     -159.187917
9.38                 0.857525997     -159.517783
9.381                0.857478187      -159.84808
9.382                 0.85743238     -160.178803
9.383                0.857388584     -160.509948
9.384                0.857346802      -160.84151
9.385                 0.85730704     -161.173483
9.386                0.857269304     -161.505863
9.387                0.857233598     -161.838645
9.388                0.857199927     -162.171824
9.389                0.857168295     -162.505395
9.39                 0.857138708     -162.839352
9.391                 0.85711117     -163.173692
9.392                0.857085684     -163.508409
9.393                0.857062256     -163.843497
9.394                0.857040888     -164.178951
9.395                0.857021584     -164.514766
9.396                0.857004348     -164.850938
