! TOUCHSTONE file generated by CST DESIGN STUDIO
! Date and time: Tue Feb  4 14:34:15 2025
! Project name: C:\Work\MatlabApps\UnitCellOptimizationMatlab\CST\unitcell.cst
! Tree item: Tasks\Sweep1\SPara1\S-Parameters
! Header version: 2024
! Port assignment regex: !\s*Touchstone port\s*([0-9]+)\s*=\s*(CST MWS port|CST DES external port|CST DES block port)\s*(.+)\s* \(\"(.*)\"\)(\s*mode\s*([0-9]+))?.*
! Touchstone port assignment:
! Touchstone port 1 = CST DES external port 1 ("")
# GHz S MA R 50
9                     0.95805931     -59.3342699
9.001                0.957929029     -59.4159409
9.002                0.957798757     -59.4978025
9.003                0.957668496     -59.5798555
9.004                0.957538244     -59.6621008
9.005                0.957408002      -59.744539
9.006                 0.95727777      -59.827171
9.007                0.957147549     -59.9099976
9.008                0.957017337     -59.9930196
9.009                0.956887137     -60.0762377
9.01                 0.956756947     -60.1596527
9.011                0.956626767     -60.2432655
9.012                0.956496598     -60.3270769
9.013                 0.95636644     -60.4110877
9.014                0.956236293     -60.4952986
9.015                0.956106157     -60.5797105
9.016                0.955976031     -60.6643242
9.017                0.955845917     -60.7491405
9.018                0.955715813     -60.8341603
9.019                0.955585721     -60.9193844
9.02                 0.955455639     -61.0048135
9.021                0.955325568     -61.0904486
9.022                0.955195508     -61.1762905
9.023                0.955065459     -61.2623399
9.024                0.954935421     -61.3485979
9.025                0.954805394     -61.4350651
9.026                0.954675377     -61.5217424
9.027                0.954545372     -61.6086308
9.028                0.954415376      -61.695731
9.029                0.954285392     -61.7830439
9.03                 0.954155417     -61.8705703
9.031                0.954025454     -61.9583112
9.032                  0.9538955     -62.0462674
9.033                0.953765556     -62.1344398
9.034                0.953635623     -62.2228292
9.035                0.953505699     -62.3114365
9.036                0.953375785     -62.4002626
9.037                0.953245881     -62.4893083
9.038                0.953115986     -62.5785747
9.039                0.952986101     -62.6680625
9.04                 0.952856224     -62.7577726
9.041                0.952726356      -62.847706
9.042                0.952596497     -62.9378636
9.043                0.952466647     -63.0282462
9.044                0.952336805     -63.1188547
9.045                0.952206971     -63.2096901
9.046                0.952077144     -63.3007533
9.047                0.951947326     -63.3920452
9.048                0.951817514     -63.4835667
9.049                 0.95168771     -63.5753187
9.05                 0.951557913     -63.6673022
9.051                0.951428122     -63.7595181
9.052                0.951298337     -63.8519673
9.053                0.951168559     -63.9446508
9.054                0.951038786     -64.0375695
9.055                0.950909019     -64.1307243
9.056                0.950779256     -64.2241162
9.057                0.950649499     -64.3177462
9.058                0.950519746     -64.4116152
9.059                0.950389997     -64.5057241
9.06                 0.950260252      -64.600074
9.061                 0.95013051     -64.6946657
9.062                0.950000771     -64.7895003
9.063                0.949871035     -64.8845787
9.064                0.949741301     -64.9799019
9.065                0.949611569     -65.0754709
9.066                0.949481839     -65.1712866
9.067                 0.94935211     -65.2673501
9.068                0.949222381     -65.3636624
9.069                0.949092653     -65.4602243
9.07                 0.948962924      -65.557037
9.071                0.948833195     -65.6541014
9.072                0.948703465     -65.7514185
9.073                0.948573733     -65.8489894
9.074                   0.948444      -65.946815
9.075                0.948314264     -66.0448964
9.076                0.948184525     -66.1432346
9.077                0.948054783     -66.2418305
9.078                0.947925037     -66.3406853
9.079                0.947795286     -66.4397999
9.08                 0.947665531     -66.5391755
9.081                 0.94753577     -66.6388129
9.082                0.947406004     -66.7387133
9.083                0.947276231     -66.8388778
9.084                0.947146451     -66.9393072
9.085                0.947016663     -67.0400028
9.086                0.946886867     -67.1409656
9.087                0.946757063     -67.2421965
9.088                 0.94662725     -67.3436968
9.089                0.946497426     -67.4454674
9.09                 0.946367593     -67.5475094
9.091                0.946237748     -67.6498239
9.092                0.946107892      -67.752412
9.093                0.945978024     -67.8552747
9.094                0.945848143     -67.9584132
9.095                0.945718248     -68.0618285
9.096                 0.94558834     -68.1655217
9.097                0.945458417     -68.2694939
9.098                0.945328478     -68.3737462
9.099                0.945198524     -68.4782798
9.1                  0.945068553     -68.5830957
9.101                0.944938565      -68.688195
9.102                0.944808558     -68.7935788
9.103                0.944678534     -68.8992484
9.104                0.944548489     -69.0052047
9.105                0.944418425      -69.111449
9.106                 0.94428834     -69.2179823
9.107                0.944158234     -69.3248057
9.108                0.944028106     -69.4319206
9.109                0.943897955     -69.5393278
9.11                  0.94376778     -69.6470287
9.111                0.943637581     -69.7550244
9.112                0.943507357      -69.863316
9.113                0.943377107     -69.9719046
9.114                0.943246831     -70.0807915
9.115                0.943116528     -70.1899778
9.116                0.942986196     -70.2994647
9.117                0.942855836     -70.4092533
9.118                0.942725446     -70.5193448
9.119                0.942595025     -70.6297405
9.12                 0.942464574     -70.7404414
9.121                 0.94233409     -70.8514488
9.122                0.942203574     -70.9627639
9.123                0.942073024     -71.0743879
9.124                 0.94194244     -71.1863219
9.125                 0.94181182     -71.2985672
9.126                0.941681165      -71.411125
9.127                0.941550472     -71.5239965
9.128                0.941419742     -71.6371829
9.129                0.941288974     -71.7506855
9.13                 0.941158166     -71.8645054
9.131                0.941027317      -71.978644
9.132                0.940896428     -72.0931023
9.133                0.940765497     -72.2078817
9.134                0.940634522     -72.3229834
9.135                0.940503504     -72.4384087
9.136                0.940372442     -72.5541588
9.137                0.940241334     -72.6702349
9.138                0.940110179     -72.7866383
9.139                0.939978978     -72.9033703
9.14                 0.939847728     -73.0204322
9.141                0.939716429     -73.1378251
9.142                0.939585079     -73.2555505
9.143                0.939453679     -73.3736094
9.144                0.939322228     -73.4920034
9.145                0.939190723     -73.6107335
9.146                0.939059165     -73.7298012
9.147                0.938927552     -73.8492076
9.148                0.938795883     -73.9689542
9.149                0.938664158     -74.0890422
9.15                 0.938532375     -74.2094728
9.151                0.938400534     -74.3302475
9.152                0.938268634     -74.4513676
9.153                0.938136673     -74.5728342
9.154                0.938004651     -74.6946489
9.155                0.937872566     -74.8168128
9.156                0.937740418     -74.9393274
9.157                0.937608206      -75.062194
9.158                0.937475929     -75.1854138
9.159                0.937343585     -75.3089883
9.16                 0.937211175     -75.4329187
9.161                0.937078696     -75.5572065
9.162                0.936946148      -75.681853
9.163                0.936813529     -75.8068595
9.164                 0.93668084     -75.9322274
9.165                0.936548078     -76.0579581
9.166                0.936415243     -76.1840529
9.167                0.936282334     -76.3105133
9.168                0.936149349     -76.4373405
9.169                0.936016288      -76.564536
9.17                  0.93588315     -76.6921012
9.171                0.935749934     -76.8200374
9.172                0.935616638      -76.948346
9.173                0.935483262     -77.0770285
9.174                0.935349805     -77.2060862
9.175                0.935216265     -77.3355206
9.176                0.935082641      -77.465333
9.177                0.934948934     -77.5955248
9.178                 0.93481514     -77.7260976
9.179                 0.93468126     -77.8570526
9.18                 0.934547293     -77.9883914
9.181                0.934413236     -78.1201153
9.182                 0.93427909     -78.2522258
9.183                0.934144854     -78.3847243
9.184                0.934010525     -78.5176123
9.185                0.933876104     -78.6508911
9.186                0.933741589     -78.7845624
9.187                0.933606978     -78.9186274
9.188                0.933472272     -79.0530876
9.189                0.933337469     -79.1879446
9.19                 0.933202568     -79.3231997
9.191                0.933067567     -79.4588545
9.192                0.932932467     -79.5949104
9.193                0.932797265     -79.7313688
9.194                 0.93266196     -79.8682313
9.195                0.932526553     -80.0054994
9.196                0.932391041     -80.1431745
9.197                0.932255423      -80.281258
9.198                0.932119699     -80.4197516
9.199                0.931983868     -80.5586567
9.2                  0.931847928     -80.6979747
9.201                0.931711878     -80.8377072
9.202                0.931575717     -80.9778558
9.203                0.931439445     -81.1184218
9.204                 0.93130306     -81.2594069
9.205                0.931166561     -81.4008125
9.206                0.931029947     -81.5426401
9.207                0.930893218     -81.6848913
9.208                0.930756371     -81.8275676
9.209                0.930619407     -81.9706705
9.21                 0.930482323     -82.1142016
9.211                0.930345119     -82.2581624
9.212                0.930207795     -82.4025545
9.213                0.930070348     -82.5473793
9.214                0.929932778     -82.6926384
9.215                0.929795084     -82.8383334
9.216                0.929657265     -82.9844658
9.217                 0.92951932     -83.1310372
9.218                0.929381247     -83.2780491
9.219                0.929243046     -83.4255031
9.22                 0.929104717     -83.5734007
9.221                0.928966257     -83.7217436
9.222                0.928827665     -83.8705333
9.223                0.928688942     -84.0197713
9.224                0.928550086     -84.1694593
9.225                0.928411095     -84.3195988
9.226                 0.92827197     -84.4701914
9.227                0.928132708     -84.6212387
9.228                 0.92799331     -84.7727422
9.229                0.927853773     -84.9247036
9.23                 0.927714098     -85.0771245
9.231                0.927574283     -85.2300064
9.232                0.927434327     -85.3833509
9.233                0.927294229     -85.5371597
9.234                0.927153989     -85.6914343
9.235                0.927013605     -85.8461764
9.236                0.926873077     -86.0013875
9.237                0.926732403     -86.1570692
9.238                0.926591583     -86.3132233
9.239                0.926450616     -86.4698512
9.24                 0.926309501     -86.6269546
9.241                0.926168238     -86.7845352
9.242                0.926026824     -86.9425944
9.243                 0.92588526      -87.101134
9.244                0.925743545     -87.2601557
9.245                0.925601677     -87.4196609
9.246                0.925459656     -87.5796513
9.247                0.925317481     -87.7401286
9.248                0.925175152     -87.9010944
9.249                0.925032667     -88.0625503
9.25                 0.924890026      -88.224498
9.251                0.924747228     -88.3869391
9.252                0.924604272     -88.5498752
9.253                0.924461157     -88.7133079
9.254                0.924317883      -88.877239
9.255                0.924174449       -89.04167
9.256                0.924030855     -89.2066027
9.257                0.923887099     -89.3720385
9.258                 0.92374318     -89.5379792
9.259                0.923599099     -89.7044265
9.26                 0.923454855     -89.8713819
9.261                0.923310446     -90.0388472
9.262                0.923165873     -90.2068239
9.263                0.923021134     -90.3753137
9.264                 0.92287623     -90.5443183
9.265                0.922731158     -90.7138393
9.266                 0.92258592     -90.8838783
9.267                0.922440514     -91.0544371
9.268                0.922294939     -91.2255173
9.269                0.922149196     -91.3971204
9.27                 0.922003283     -91.5692483
9.271                  0.9218572     -91.7419024
9.272                0.921710947     -91.9150845
9.273                0.921564524     -92.0887963
9.274                0.921417929     -92.2630393
9.275                0.921271162     -92.4378152
9.276                0.921124223     -92.6131258
9.277                0.920977112     -92.7889725
9.278                0.920829828     -92.9653571
9.279                0.920682371     -93.1422813
9.28                  0.92053474     -93.3197466
9.281                0.920386935     -93.4977548
9.282                0.920238956     -93.6763074
9.283                0.920090802     -93.8554061
9.284                0.919942474     -94.0350526
9.285                 0.91979397     -94.2152485
9.286                0.919645292     -94.3959954
9.287                0.919496437      -94.577295
9.288                0.919347408     -94.7591489
9.289                0.919198202     -94.9415588
9.29                 0.919048821     -95.1245262
9.291                0.918899263     -95.3080529
9.292                 0.91874953     -95.4921404
9.293                 0.91859962     -95.6767905
9.294                0.918449534     -95.8620046
9.295                0.918299272     -96.0477845
9.296                0.918148834     -96.2341317
9.297                0.917998219     -96.4210479
9.298                0.917847429     -96.6085346
9.299                0.917696462     -96.7965936
9.3                   0.91754532     -96.9852264
9.301                0.917394001     -97.1744346
9.302                0.917242507     -97.3642199
9.303                0.917090838     -97.5545837
9.304                0.916938993     -97.7455278
9.305                0.916786973     -97.9370537
9.306                0.916634779      -98.129163
9.307                 0.91648241     -98.3218573
9.308                0.916329867     -98.5151382
9.309                0.916177151     -98.7090072
9.31                 0.916024261     -98.9034659
9.311                0.915871198     -99.0985159
9.312                0.915717963     -99.2941587
9.313                0.915564555      -99.490396
9.314                0.915410977     -99.6872292
9.315                0.915257227       -99.88466
9.316                0.915103308      -100.08269
9.317                0.914949218      -100.28132
9.318                0.914794959     -100.480553
9.319                0.914640533     -100.680389
9.32                 0.914485938      -100.88083
9.321                0.914331177     -101.081878
9.322                0.914176249     -101.283534
9.323                0.914021156       -101.4858
9.324                0.913865899     -101.688677
9.325                0.913710478     -101.892167
9.326                0.913554894     -102.096271
9.327                0.913399149      -102.30099
9.328                0.913243243     -102.506327
9.329                0.913087178     -102.712282
9.33                 0.912930954     -102.918857
9.331                0.912774573     -103.126054
9.332                0.912618035     -103.333873
9.333                0.912461342     -103.542317
9.334                0.912304496     -103.751386
9.335                0.912147497     -103.961083
9.336                0.911990347     -104.171408
9.337                0.911833046     -104.382363
9.338                0.911675598     -104.593949
9.339                0.911518002     -104.806168
9.34                 0.911360261     -105.019021
9.341                0.911202376      -105.23251
9.342                0.911044348     -105.446635
9.343                 0.91088618     -105.661398
9.344                0.910727872     -105.876801
9.345                0.910569427     -106.092844
9.346                0.910410847      -106.30953
9.347                0.910252132     -106.526858
9.348                0.910093286     -106.744832
9.349                0.909934309     -106.963451
9.35                 0.909775204     -107.182717
9.351                0.909615973     -107.402631
9.352                0.909456617     -107.623195
9.353                 0.90929714      -107.84441
9.354                0.909137543     -108.066277
9.355                0.908977827     -108.288797
9.356                0.908817997     -108.511971
9.357                0.908658052     -108.735801
9.358                0.908497997     -108.960288
9.359                0.908337834     -109.185432
9.36                 0.908177564     -109.411236
9.361                0.908017191     -109.637699
9.362                0.907856716     -109.864824
9.363                0.907696144     -110.092611
9.364                0.907535475     -110.321061
9.365                0.907374713     -110.550175
9.366                 0.90721386     -110.779955
9.367                 0.90705292     -111.010401
9.368                0.906891896     -111.241515
9.369                0.906730789     -111.473297
9.37                 0.906569604     -111.705748
9.371                0.906408342      -111.93887
9.372                0.906247008     -112.172663
9.373                0.906085605     -112.407128
9.374                0.905924135     -112.642266
9.375                0.905762602     -112.878078
9.376                0.905601009     -113.114565
9.377                0.905439359     -113.351728
9.378                0.905277657     -113.589567
9.379                0.905115905     -113.828083
9.38                 0.904954107     -114.067278
9.381                0.904792266     -114.307151
9.382                0.904630387     -114.547704
9.383                0.904468473     -114.788937
9.384                0.904306528     -115.030851
9.385                0.904144555     -115.273447
9.386                0.903982559     -115.516726
9.387                0.903820543     -115.760687
9.388                0.903658512     -116.005332
9.389                 0.90349647     -116.250662
9.39                  0.90333442     -116.496676
9.391                0.903172368     -116.743375
9.392                0.903010317     -116.990761
9.393                0.902848271     -117.238833
9.394                0.902686236     -117.487592
9.395                0.902524215     -117.737038
9.396                0.902362213     -117.987173
