! TOUCHSTONE file generated by CST DESIGN STUDIO
! Date and time: Tue Feb  4 17:40:36 2025
! Project name: C:\Work\MatlabApps\UnitCellOptimizationMatlab\CST\unitcell.cst
! Tree item: Tasks\Sweep1\SPara1\S-Parameters
! Header version: 2024
! Port assignment regex: !\s*Touchstone port\s*([0-9]+)\s*=\s*(CST MWS port|CST DES external port|CST DES block port)\s*(.+)\s* \(\"(.*)\"\)(\s*mode\s*([0-9]+))?.*
! Touchstone port assignment:
! Touchstone port 1 = CST DES external port 1 ("")
# GHz S MA R 50
9                    0.992066442     -72.3644397
9.001                0.992048886     -72.4693896
9.002                0.992031277     -72.5745892
9.003                0.992013615     -72.6800392
9.004                0.991995901     -72.7857405
9.005                0.991978134     -72.8916936
9.006                0.991960315     -72.9978995
9.007                0.991942442     -73.1043588
9.008                0.991924517     -73.2110723
9.009                0.991906538     -73.3180407
9.01                 0.991888506     -73.4252648
9.011                0.991870421     -73.5327453
9.012                0.991852282      -73.640483
9.013                0.991834089     -73.7484787
9.014                0.991815843     -73.8567331
9.015                0.991797542      -73.965247
9.016                0.991779188     -74.0740211
9.017                0.991760779     -74.1830563
9.018                0.991742317     -74.2923532
9.019                0.991723799     -74.4019126
9.02                 0.991705227     -74.5117354
9.021                0.991686601     -74.6218223
9.022                 0.99166792     -74.7321741
9.023                0.991649184     -74.8427915
9.024                0.991630392     -74.9536753
9.025                0.991611546     -75.0648264
9.026                0.991592644     -75.1762454
9.027                0.991573687     -75.2879332
9.028                0.991554675     -75.3998906
9.029                0.991535607     -75.5121184
9.03                 0.991516483     -75.6246173
9.031                0.991497303     -75.7373881
9.032                0.991478068     -75.8504317
9.033                0.991458776     -75.9637488
9.034                0.991439428     -76.0773403
9.035                0.991420024     -76.1912068
9.036                0.991400563     -76.3053493
9.037                0.991381046     -76.4197686
9.038                0.991361472     -76.5344654
9.039                0.991341841     -76.6494405
9.04                 0.991322154     -76.7646949
9.041                0.991302409     -76.8802291
9.042                0.991282607     -76.9960442
9.043                0.991262748     -77.1121409
9.044                0.991242832       -77.22852
9.045                0.991222858     -77.3451823
9.046                0.991202827     -77.4621287
9.047                0.991182738       -77.57936
9.048                0.991162591     -77.6968769
9.049                0.991142386     -77.8146804
9.05                 0.991122123     -77.9327713
9.051                0.991101803     -78.0511503
9.052                0.991081424     -78.1698184
9.053                0.991060986     -78.2887763
9.054                 0.99104049     -78.4080249
9.055                0.991019936      -78.527565
9.056                0.990999323     -78.6473975
9.057                0.990978651     -78.7675232
9.058                0.990957921     -78.8879429
9.059                0.990937131     -79.0086575
9.06                 0.990916283     -79.1296678
9.061                0.990895375     -79.2509746
9.062                0.990874408     -79.3725789
9.063                0.990853382     -79.4944815
9.064                0.990832297     -79.6166832
9.065                0.990811151     -79.7391848
9.066                0.990789947     -79.8619873
9.067                0.990768682     -79.9850915
9.068                0.990747358     -80.1084982
9.069                0.990725974     -80.2322083
9.07                 0.990704529     -80.3562226
9.071                0.990683025     -80.4805421
9.072                0.990661461     -80.6051675
9.073                0.990639836     -80.7300998
9.074                0.990618151     -80.8553398
9.075                0.990596405     -80.9808884
9.076                0.990574599     -81.1067464
9.077                0.990552733     -81.2329148
9.078                0.990530805     -81.3593943
9.079                0.990508817      -81.486186
9.08                 0.990486768     -81.6132905
9.081                0.990464658     -81.7407089
9.082                0.990442487      -81.868442
9.083                0.990420255     -81.9964906
9.084                0.990397962     -82.1248557
9.085                0.990375608     -82.2535381
9.086                0.990353192     -82.3825388
9.087                0.990330715     -82.5118585
9.088                0.990308177     -82.6414983
9.089                0.990285577     -82.7714589
9.09                 0.990262915     -82.9017413
9.091                0.990240192     -83.0323463
9.092                0.990217407     -83.1632749
9.093                 0.99019456     -83.2945279
9.094                0.990171651     -83.4261063
9.095                0.990148681     -83.5580109
9.096                0.990125648     -83.6902425
9.097                0.990102553     -83.8228022
9.098                0.990079397     -83.9556909
9.099                0.990056178     -84.0889093
9.1                  0.990032897     -84.2224584
9.101                0.990009554     -84.3563392
9.102                0.989986148     -84.4905525
9.103                 0.98996268     -84.6250991
9.104                 0.98993915     -84.7599801
9.105                0.989915557     -84.8951964
9.106                0.989891902     -85.0307487
9.107                0.989868184     -85.1666381
9.108                0.989844404     -85.3028654
9.109                0.989820561     -85.4394316
9.11                 0.989796655     -85.5763376
9.111                0.989772687     -85.7135842
9.112                0.989748656     -85.8511724
9.113                0.989724563      -85.989103
9.114                0.989700406     -86.1273771
9.115                0.989676187     -86.2659955
9.116                0.989651905     -86.4049592
9.117                 0.98962756     -86.5442689
9.118                0.989603152     -86.6839258
9.119                0.989578682     -86.8239306
9.12                 0.989554148     -86.9642843
9.121                0.989529551     -87.1049878
9.122                0.989504892      -87.246042
9.123                 0.98948017     -87.3874479
9.124                0.989455384     -87.5292063
9.125                0.989430536     -87.6713182
9.126                0.989405625     -87.8137846
9.127                0.989380651     -87.9566062
9.128                0.989355613      -88.099784
9.129                0.989330513      -88.243319
9.13                  0.98930535     -88.3872121
9.131                0.989280124     -88.5314642
9.132                0.989254835     -88.6760762
9.133                0.989229483      -88.821049
9.134                0.989204068     -88.9663836
9.135                 0.98917859     -89.1120809
9.136                 0.98915305     -89.2581417
9.137                0.989127446     -89.4045671
9.138                 0.98910178     -89.5513579
9.139                0.989076051     -89.6985151
9.14                 0.989050259     -89.8460396
9.141                0.989024404     -89.9939323
9.142                0.988998487     -90.1421941
9.143                0.988972507     -90.2908259
9.144                0.988946464     -90.4398287
9.145                0.988920359     -90.5892034
9.146                0.988894191     -90.7389509
9.147                0.988867961     -90.8890721
9.148                0.988841668      -91.039568
9.149                0.988815313     -91.1904395
9.15                 0.988788895     -91.3416874
9.151                0.988762415     -91.4933127
9.152                0.988735873     -91.6453163
9.153                0.988709269     -91.7976992
9.154                0.988682603     -91.9504622
9.155                0.988655875     -92.1036063
9.156                0.988629085     -92.2571324
9.157                0.988602233     -92.4110414
9.158                0.988575319     -92.5653342
9.159                0.988548344     -92.7200117
9.16                 0.988521307     -92.8750748
9.161                0.988494208     -93.0305245
9.162                0.988467049     -93.1863616
9.163                0.988439827     -93.3425871
9.164                0.988412545     -93.4992019
9.165                0.988385202     -93.6562068
9.166                0.988357797     -93.8136028
9.167                0.988330332     -93.9713909
9.168                0.988302806     -94.1295718
9.169                 0.98827522     -94.2881465
9.17                 0.988247572     -94.4471158
9.171                0.988219865     -94.6064808
9.172                0.988192097     -94.7662423
9.173                0.988164269     -94.9264011
9.174                0.988136382     -95.0869583
9.175                0.988108434     -95.2479146
9.176                0.988080427      -95.409271
9.177                 0.98805236     -95.5710283
9.178                0.988024234     -95.7331874
9.179                0.987996048     -95.8957493
9.18                 0.987967804     -96.0587148
9.181                0.987939501     -96.2220848
9.182                0.987911139     -96.3858602
9.183                0.987882718     -96.5500418
9.184                0.987854239     -96.7146305
9.185                0.987825702     -96.8796273
9.186                0.987797107     -97.0450329
9.187                0.987768454     -97.2108482
9.188                0.987739744     -97.3770742
9.189                0.987710976     -97.5437116
9.19                 0.987682151     -97.7107614
9.191                0.987653269     -97.8782243
9.192                 0.98762433     -98.0461013
9.193                0.987595335     -98.2143932
9.194                0.987566284     -98.3831009
9.195                0.987537176     -98.5522252
9.196                0.987508013     -98.7217669
9.197                0.987478793     -98.8917269
9.198                0.987449519      -99.062106
9.199                0.987420189     -99.2329051
9.2                  0.987390805      -99.404125
9.201                0.987361366     -99.5757666
9.202                0.987331873     -99.7478306
9.203                0.987302325     -99.9203178
9.204                0.987272724     -100.093229
9.205                0.987243069     -100.266566
9.206                0.987213361     -100.440328
9.207                  0.9871836     -100.614516
9.208                0.987153787     -100.789132
9.209                0.987123921     -100.964176
9.21                 0.987094003     -101.139649
9.211                0.987064033     -101.315552
9.212                0.987034011     -101.491885
9.213                0.987003939      -101.66865
9.214                0.986973816     -101.845847
9.215                0.986943642     -102.023476
9.216                0.986913419     -102.201539
9.217                0.986883145     -102.380037
9.218                0.986852822      -102.55897
9.219                 0.98682245     -102.738339
9.22                  0.98679203     -102.918144
9.221                0.986761561     -103.098387
9.222                0.986731044     -103.279068
9.223                0.986700479     -103.460188
9.224                0.986669867     -103.641748
9.225                0.986639209     -103.823748
9.226                0.986608504      -104.00619
9.227                0.986577752     -104.189073
9.228                0.986546956     -104.372399
9.229                0.986516114     -104.556168
9.23                 0.986485227     -104.740381
9.231                0.986454296     -104.925038
9.232                0.986423321     -105.110141
9.233                0.986392302      -105.29569
9.234                0.986361241     -105.481686
9.235                0.986330136     -105.668129
9.236                 0.98629899     -105.855021
9.237                0.986267802     -106.042361
9.238                0.986236573     -106.230151
9.239                0.986205303      -106.41839
9.24                 0.986173993      -106.60708
9.241                0.986142643     -106.796222
9.242                0.986111253     -106.985816
9.243                0.986079825     -107.175862
9.244                0.986048359     -107.366361
9.245                0.986016855     -107.557315
9.246                0.985985313     -107.748722
9.247                0.985953736     -107.940585
9.248                0.985922121     -108.132904
9.249                0.985890472     -108.325678
9.25                 0.985858787      -108.51891
9.251                0.985827068     -108.712598
9.252                0.985795314     -108.906745
9.253                0.985763528      -109.10135
9.254                0.985731708     -109.296414
9.255                0.985699857     -109.491938
9.256                0.985667974     -109.687922
9.257                0.985636059     -109.884366
9.258                0.985604115     -110.081271
9.259                 0.98557214     -110.278639
9.26                 0.985540137     -110.476468
9.261                0.985508105      -110.67476
9.262                0.985476045     -110.873514
9.263                0.985443958     -111.072733
9.264                0.985411844     -111.272415
9.265                0.985379704     -111.472562
9.266                0.985347539     -111.673174
9.267                0.985315349     -111.874251
9.268                0.985283136     -112.075794
9.269                0.985250899     -112.277804
9.27                 0.985218639     -112.480279
9.271                0.985186358     -112.683222
9.272                0.985154056     -112.886632
9.273                0.985121733      -113.09051
9.274                0.985089391     -113.294856
9.275                0.985057029     -113.499671
9.276                 0.98502465     -113.704954
9.277                0.984992253     -113.910707
9.278                0.984959839     -114.116929
9.279                 0.98492741     -114.323621
9.28                 0.984894965     -114.530783
9.281                0.984862506     -114.738415
9.282                0.984830033     -114.946519
9.283                0.984797547     -115.155093
9.284                 0.98476505     -115.364138
9.285                0.984732541     -115.573655
9.286                0.984700022     -115.783644
9.287                0.984667494     -115.994104
9.288                0.984634957     -116.205037
9.289                0.984602412     -116.416442
9.29                  0.98456986      -116.62832
9.291                0.984537302     -116.840671
9.292                0.984504738     -117.053494
9.293                0.984472171     -117.266791
9.294                0.984439599     -117.480561
9.295                0.984407026     -117.694804
9.296                 0.98437445     -117.909521
9.297                0.984341874     -118.124711
9.298                0.984309298     -118.340375
9.299                0.984276723     -118.556513
9.3                  0.984244149     -118.773125
9.301                0.984211579      -118.99021
9.302                0.984179013      -119.20777
9.303                0.984146452     -119.425803
9.304                0.984113896     -119.644311
9.305                0.984081347     -119.863293
9.306                0.984048806     -120.082748
9.307                0.984016274     -120.302678
9.308                0.983983751     -120.523082
9.309                0.983951239     -120.743959
9.31                 0.983918739     -120.965311
9.311                0.983886252     -121.187136
9.312                0.983853778     -121.409435
9.313                 0.98382132     -121.632207
9.314                0.983788877     -121.855453
9.315                0.983756451     -122.079172
9.316                0.983724043     -122.303364
9.317                0.983691655     -122.528029
9.318                0.983659286     -122.753168
9.319                0.983626939     -122.978778
9.32                 0.983594614     -123.204861
9.321                0.983562313     -123.431416
9.322                0.983530036     -123.658444
9.323                0.983497785     -123.885942
9.324                 0.98346556     -124.113913
9.325                0.983433364     -124.342354
9.326                0.983401196     -124.571266
9.327                0.983369059     -124.800649
9.328                0.983336953     -125.030501
9.329                 0.98330488     -125.260824
9.33                  0.98327284     -125.491616
9.331                0.983240836     -125.722877
9.332                0.983208867     -125.954606
9.333                0.983176936     -126.186804
9.334                0.983145043      -126.41947
9.335                0.983113189     -126.652602
9.336                0.983081377     -126.886202
9.337                0.983049607     -127.120268
9.338                 0.98301788       -127.3548
9.339                0.982986197     -127.589797
9.34                 0.982954561     -127.825259
9.341                0.982922971     -128.061185
9.342                 0.98289143     -128.297575
9.343                0.982859938     -128.534428
9.344                0.982828498     -128.771743
9.345                0.982797109      -129.00952
9.346                0.982765774     -129.247759
9.347                0.982734493     -129.486457
9.348                0.982703269     -129.725616
9.349                0.982672101     -129.965234
9.35                 0.982640993      -130.20531
9.351                0.982609944     -130.445843
9.352                0.982578957     -130.686834
9.353                0.982548032     -130.928281
9.354                0.982517171     -131.170182
9.355                0.982486375     -131.412539
9.356                0.982455646     -131.655349
9.357                0.982424985     -131.898612
9.358                0.982394393     -132.142327
9.359                0.982363872     -132.386492
9.36                 0.982333423     -132.631108
9.361                0.982303047     -132.876173
9.362                0.982272746     -133.121687
9.363                0.982242522     -133.367647
9.364                0.982212375     -133.614054
9.365                0.982182307     -133.860906
9.366                0.982152319     -134.108203
9.367                0.982122413     -134.355942
9.368                 0.98209259     -134.604124
9.369                0.982062852     -134.852747
9.37                   0.9820332     -135.101809
9.371                0.982003636      -135.35131
9.372                 0.98197416     -135.601249
9.373                0.981944775     -135.851625
9.374                0.981915481     -136.102435
9.375                0.981886281      -136.35368
9.376                0.981857175     -136.605357
9.377                0.981828165     -136.857466
9.378                0.981799253     -137.110005
9.379                 0.98177044     -137.362973
9.38                 0.981741727     -137.616369
9.381                0.981713116     -137.870191
9.382                0.981684609     -138.124438
9.383                0.981656207     -138.379109
9.384                 0.98162791     -138.634201
9.385                0.981599722     -138.889715
9.386                0.981571643     -139.145647
9.387                0.981543675     -139.401998
9.388                0.981515818     -139.658765
9.389                0.981488076     -139.915947
9.39                 0.981460449     -140.173542
9.391                0.981432938     -140.431548
9.392                0.981405546     -140.689965
9.393                0.981378274      -140.94879
9.394                0.981351122     -141.208023
9.395                0.981324093     -141.467661
9.396                0.981297189     -141.727702
