! TOUCHSTONE file generated by CST DESIGN STUDIO
! Date and time: Tue Feb  4 17:40:34 2025
! Project name: C:\Work\MatlabApps\UnitCellOptimizationMatlab\CST\unitcell.cst
! Tree item: Tasks\Sweep1\SPara1\S-Parameters
! Header version: 2024
! Port assignment regex: !\s*Touchstone port\s*([0-9]+)\s*=\s*(CST MWS port|CST DES external port|CST DES block port)\s*(.+)\s* \(\"(.*)\"\)(\s*mode\s*([0-9]+))?.*
! Touchstone port assignment:
! Touchstone port 1 = CST DES external port 1 ("")
# GHz S MA R 50
9                    0.991894016     -73.1012027
9.001                0.991875843     -73.2077239
9.002                0.991857615     -73.3144993
9.003                0.991839334     -73.4215295
9.004                0.991820998     -73.5288154
9.005                0.991802608     -73.6363577
9.006                0.991784163     -73.7441572
9.007                0.991765663     -73.8522146
9.008                0.991747109     -73.9605306
9.009                0.991728499     -74.0691061
9.01                 0.991709835     -74.1779417
9.011                0.991691116     -74.2870383
9.012                0.991672341     -74.3963967
9.013                 0.99165351     -74.5060175
9.014                0.991634624     -74.6159016
9.015                0.991615683     -74.7260498
9.016                0.991596685     -74.8364627
9.017                0.991577632     -74.9471413
9.018                0.991558522     -75.0580862
9.019                0.991539357     -75.1692983
9.02                 0.991520135     -75.2807783
9.021                0.991500856      -75.392527
9.022                0.991481522     -75.5045452
9.023                 0.99146213     -75.6168337
9.024                0.991442681     -75.7293933
9.025                0.991423176     -75.8422248
9.026                0.991403614     -75.9553289
9.027                0.991383994     -76.0687065
9.028                0.991364317     -76.1823583
9.029                0.991344583     -76.2962852
9.03                 0.991324791     -76.4104879
9.031                0.991304942     -76.5249673
9.032                0.991285035     -76.6397242
9.033                 0.99126507     -76.7547593
9.034                0.991245047     -76.8700735
9.035                0.991224966     -76.9856676
9.036                0.991204826     -77.1015424
9.037                0.991184628     -77.2176986
9.038                0.991164372     -77.3341373
9.039                0.991144058      -77.450859
9.04                 0.991123684     -77.5678647
9.041                0.991103252     -77.6851553
9.042                0.991082761     -77.8027314
9.043                0.991062211     -77.9205939
9.044                0.991041602     -78.0387437
9.045                0.991020933     -78.1571815
9.046                0.991000205     -78.2759083
9.047                0.990979418     -78.3949248
9.048                0.990958571     -78.5142319
9.049                0.990937665     -78.6338304
9.05                 0.990916698     -78.7537211
9.051                0.990895672     -78.8739049
9.052                0.990874586     -78.9943826
9.053                 0.99085344     -79.1151551
9.054                0.990832233     -79.2362232
9.055                0.990810967     -79.3575877
9.056                 0.99078964     -79.4792496
9.057                0.990768252     -79.6012095
9.058                0.990746804     -79.7234685
9.059                0.990725295     -79.8460272
9.06                 0.990703725     -79.9688867
9.061                0.990682095     -80.0920477
9.062                0.990660403     -80.2155111
9.063                 0.99063865     -80.3392778
9.064                0.990616836     -80.4633486
9.065                0.990594961     -80.5877243
9.066                0.990573025     -80.7124059
9.067                0.990551027     -80.8373942
9.068                0.990528967       -80.96269
9.069                0.990506846     -81.0882942
9.07                 0.990484664     -81.2142078
9.071                0.990462419     -81.3404315
9.072                0.990440112     -81.4669662
9.073                0.990417744     -81.5938129
9.074                0.990395313     -81.7209723
9.075                0.990372821     -81.8484454
9.076                0.990350266     -81.9762329
9.077                0.990327649     -82.1043359
9.078                0.990304969     -82.2327552
9.079                0.990282227     -82.3614916
9.08                 0.990259422     -82.4905461
9.081                0.990236555     -82.6199195
9.082                0.990213625     -82.7496126
9.083                0.990190633     -82.8796265
9.084                0.990167577      -83.009962
9.085                0.990144459     -83.1406199
9.086                0.990121277     -83.2716011
9.087                0.990098033     -83.4029066
9.088                0.990074726     -83.5345372
9.089                0.990051355     -83.6664939
9.09                 0.990027921     -83.7987774
9.091                0.990004424     -83.9313888
9.092                0.989980864     -84.0643288
9.093                 0.98995724     -84.1975985
9.094                0.989933552     -84.3311986
9.095                0.989909802     -84.4651302
9.096                0.989885987      -84.599394
9.097                0.989862109      -84.733991
9.098                0.989838168     -84.8689222
9.099                0.989814162     -85.0041883
9.1                  0.989790093     -85.1397903
9.101                 0.98976596     -85.2757291
9.102                0.989741763     -85.4120056
9.103                0.989717503     -85.5486207
9.104                0.989693178     -85.6855753
9.105                0.989668789     -85.8228704
9.106                0.989644337     -85.9605068
9.107                 0.98961982     -86.0984854
9.108                 0.98959524     -86.2368071
9.109                0.989570595      -86.375473
9.11                 0.989545886     -86.5144838
9.111                0.989521113     -86.6538404
9.112                0.989496276     -86.7935439
9.113                0.989471375     -86.9335951
9.114                0.989446409     -87.0739948
9.115                0.989421379     -87.2147441
9.116                0.989396285     -87.3558439
9.117                0.989371127      -87.497295
9.118                0.989345905     -87.6390984
9.119                0.989320618     -87.7812549
9.12                 0.989295267     -87.9237656
9.121                0.989269851     -88.0666313
9.122                0.989244372     -88.2098529
9.123                0.989218828     -88.3534314
9.124                 0.98919322     -88.4973676
9.125                0.989167547     -88.6416625
9.126                 0.98914181     -88.7863171
9.127                0.989116009     -88.9313321
9.128                0.989090144     -89.0767086
9.129                0.989064215     -89.2224474
9.13                 0.989038221     -89.3685495
9.131                0.989012163     -89.5150158
9.132                0.988986041     -89.6618472
9.133                0.988959855     -89.8090447
9.134                0.988933604      -89.956609
9.135                 0.98890729     -90.1045413
9.136                0.988880912     -90.2528423
9.137                0.988854469      -90.401513
9.138                0.988827963     -90.5505543
9.139                0.988801392     -90.6999671
9.14                 0.988774758     -90.8497524
9.141                 0.98874806     -90.9999111
9.142                0.988721298      -91.150444
9.143                0.988694473     -91.3013521
9.144                0.988667583     -91.4526363
9.145                0.988640631     -91.6042975
9.146                0.988613614     -91.7563367
9.147                0.988586534     -91.9087547
9.148                0.988559391     -92.0615525
9.149                0.988532184     -92.2147309
9.15                 0.988504914      -92.368291
9.151                0.988477581     -92.5222335
9.152                0.988450185     -92.6765594
9.153                0.988422726     -92.8312696
9.154                0.988395203     -92.9863651
9.155                0.988367618     -93.1418467
9.156                0.988339971     -93.2977153
9.157                 0.98831226     -93.4539718
9.158                0.988284487     -93.6106172
9.159                0.988256652     -93.7676523
9.16                 0.988228754      -93.925078
9.161                0.988200794     -94.0828953
9.162                0.988172772     -94.2411051
9.163                0.988144688     -94.3997082
9.164                0.988116542     -94.5587055
9.165                0.988088334     -94.7180979
9.166                0.988060065     -94.8778864
9.167                0.988031735     -95.0380718
9.168                0.988003343      -95.198655
9.169                0.987974889     -95.3596369
9.17                 0.987946375     -95.5210183
9.171                  0.9879178     -95.6828003
9.172                0.987889165     -95.8449835
9.173                0.987860468      -96.007569
9.174                0.987831711     -96.1705577
9.175                0.987802895     -96.3339503
9.176                0.987774018     -96.4977477
9.177                0.987745081      -96.661951
9.178                0.987716084     -96.8265608
9.179                0.987687028     -96.9915781
9.18                 0.987657913     -97.1570037
9.181                0.987628738     -97.3228386
9.182                0.987599505     -97.4890835
9.183                0.987570212     -97.6557393
9.184                0.987540862      -97.822807
9.185                0.987511453     -97.9902872
9.186                0.987481986      -98.158181
9.187                0.987452461     -98.3264891
9.188                0.987422878     -98.4952124
9.189                0.987393238     -98.6643518
9.19                 0.987363541      -98.833908
9.191                0.987333787     -99.0038819
9.192                0.987303976     -99.1742744
9.193                0.987274109     -99.3450862
9.194                0.987244185     -99.5163183
9.195                0.987214206     -99.6879714
9.196                0.987184171     -99.8600463
9.197                 0.98715408     -100.032544
9.198                0.987123935     -100.205465
9.199                0.987093734      -100.37881
9.2                  0.987063479     -100.552581
9.201                 0.98703317     -100.726777
9.202                0.987002807     -100.901401
9.203                 0.98697239     -101.076451
9.204                 0.98694192      -101.25193
9.205                0.986911397     -101.427838
9.206                0.986880821     -101.604176
9.207                0.986850192     -101.780945
9.208                0.986819512     -101.958145
9.209                 0.98678878     -102.135777
9.21                 0.986757996     -102.313842
9.211                0.986727161     -102.492341
9.212                0.986696276     -102.671275
9.213                 0.98666534     -102.850644
9.214                0.986634355     -103.030448
9.215                0.986603319      -103.21069
9.216                0.986572235     -103.391369
9.217                0.986541101     -103.572486
9.218                0.986509919     -103.754042
9.219                0.986478689     -103.936038
9.22                 0.986447412     -104.118474
9.221                0.986416087     -104.301352
9.222                0.986384715     -104.484671
9.223                0.986353297     -104.668432
9.224                0.986321833     -104.852637
9.225                0.986290323     -105.037286
9.226                0.986258768      -105.22238
9.227                0.986227168     -105.407919
9.228                0.986195524     -105.593903
9.229                0.986163836     -105.780335
9.23                 0.986132105     -105.967214
9.231                0.986100331      -106.15454
9.232                0.986068515     -106.342316
9.233                0.986036656      -106.53054
9.234                0.986004756     -106.719215
9.235                0.985972816      -106.90834
9.236                0.985940835     -107.097916
9.237                0.985908813     -107.287944
9.238                0.985876753     -107.478424
9.239                0.985844653     -107.669357
9.24                 0.985812516     -107.860744
9.241                 0.98578034     -108.052586
9.242                0.985748127     -108.244882
9.243                0.985715877     -108.437633
9.244                0.985683591      -108.63084
9.245                 0.98565127     -108.824504
9.246                0.985618913     -109.018624
9.247                0.985586522     -109.213203
9.248                0.985554098     -109.408239
9.249                0.985521639     -109.603734
9.25                 0.985489148     -109.799688
9.251                0.985456626     -109.996102
9.252                0.985424071     -110.192977
9.253                0.985391486     -110.390312
9.254                 0.98535887     -110.588108
9.255                0.985326225     -110.786365
9.256                0.985293551     -110.985085
9.257                0.985260849     -111.184268
9.258                0.985228119     -111.383913
9.259                0.985195362     -111.584023
9.26                 0.985162579     -111.784596
9.261                 0.98512977     -111.985633
9.262                0.985096936     -112.187135
9.263                0.985064078     -112.389103
9.264                0.985031197     -112.591536
9.265                0.984998293     -112.794435
9.266                0.984965366     -112.997801
9.267                0.984932419     -113.201633
9.268                 0.98489945     -113.405932
9.269                0.984866462     -113.610699
9.27                 0.984833455     -113.815934
9.271                0.984800429     -114.021637
9.272                0.984767386     -114.227808
9.273                0.984734326     -114.434449
9.274                 0.98470125     -114.641558
9.275                0.984668158     -114.849137
9.276                0.984635052     -115.057185
9.277                0.984601933     -115.265703
9.278                0.984568801     -115.474691
9.279                0.984535656      -115.68415
9.28                 0.984502501      -115.89408
9.281                0.984469335      -116.10448
9.282                 0.98443616     -116.315352
9.283                0.984402976     -116.526695
9.284                0.984369784     -116.738509
9.285                0.984336586     -116.950795
9.286                0.984303381     -117.163553
9.287                0.984270172     -117.376782
9.288                0.984236958     -117.590484
9.289                 0.98420374     -117.804658
9.29                 0.984170521     -118.019305
9.291                  0.9841373     -118.234424
9.292                0.984104078     -118.450016
9.293                0.984070857      -118.66608
9.294                0.984037637     -118.882617
9.295                0.984004419     -119.099627
9.296                0.983971205     -119.317109
9.297                0.983937994     -119.535064
9.298                0.983904789     -119.753493
9.299                 0.98387159     -119.972394
9.3                  0.983838399     -120.191767
9.301                0.983805215     -120.411614
9.302                0.983772041     -120.631933
9.303                0.983738876     -120.852726
9.304                0.983705723      -121.07399
9.305                0.983672583     -121.295727
9.306                0.983639455     -121.517937
9.307                0.983606342     -121.740619
9.308                0.983573245     -121.963773
9.309                0.983540164       -122.1874
9.31                   0.9835071     -122.411498
9.311                0.983474055     -122.636068
9.312                 0.98344103     -122.861109
9.313                0.983408025     -123.086622
9.314                0.983375043     -123.312606
9.315                0.983342084     -123.539061
9.316                0.983309149     -123.765987
9.317                0.983276239     -123.993383
9.318                0.983243355     -124.221249
9.319                0.983210499     -124.449584
9.32                 0.983177672      -124.67839
9.321                0.983144875     -124.907664
9.322                0.983112109     -125.137408
9.323                0.983079376     -125.367619
9.324                0.983046675     -125.598299
9.325                 0.98301401     -125.829447
9.326                 0.98298138     -126.061062
9.327                0.982948787     -126.293143
9.328                0.982916232     -126.525692
9.329                0.982883718     -126.758706
9.33                 0.982851243     -126.992185
9.331                0.982818811      -127.22613
9.332                0.982786422     -127.460539
9.333                0.982754077     -127.695412
9.334                0.982721778     -127.930749
9.335                0.982689527     -128.166548
9.336                0.982657323     -128.402809
9.337                0.982625169     -128.639533
9.338                0.982593066     -128.876717
9.339                0.982561014     -129.114362
9.34                 0.982529017     -129.352466
9.341                0.982497074      -129.59103
9.342                0.982465187     -129.830052
9.343                0.982433357     -130.069531
9.344                0.982401587     -130.309468
9.345                0.982369876     -130.549861
9.346                0.982338227     -130.790709
9.347                 0.98230664     -131.032012
9.348                0.982275117     -131.273769
9.349                 0.98224366     -131.515979
9.35                  0.98221227     -131.758641
9.351                0.982180948     -132.001755
9.352                0.982149695     -132.245319
9.353                0.982118514     -132.489332
9.354                0.982087405     -132.733795
9.355                0.982056369     -132.978705
9.356                0.982025409     -133.224061
9.357                0.981994525     -133.469864
9.358                0.981963719     -133.716111
9.359                0.981932992     -133.962802
9.36                 0.981902346     -134.209936
9.361                0.981871783     -134.457512
9.362                0.981841303     -134.705528
9.363                0.981810908     -134.953984
9.364                  0.9817806     -135.202878
9.365                0.981750379      -135.45221
9.366                0.981720248     -135.701977
9.367                0.981690208      -135.95218
9.368                 0.98166026     -136.202816
9.369                0.981630406     -136.453885
9.37                 0.981600648     -136.705385
9.371                0.981570986     -136.957316
9.372                0.981541422     -137.209675
9.373                0.981511958     -137.462461
9.374                0.981482595     -137.715674
9.375                0.981453334     -137.969311
9.376                0.981424178     -138.223372
9.377                0.981395127     -138.477855
9.378                0.981366184     -138.732758
9.379                0.981337349     -138.988081
9.38                 0.981308624     -139.243821
9.381                0.981280011     -139.499978
9.382                 0.98125151      -139.75655
9.383                0.981223125     -140.013535
9.384                0.981194855     -140.270931
9.385                0.981166704     -140.528738
9.386                0.981138671     -140.786954
9.387                0.981110759     -141.045577
9.388                0.981082969     -141.304605
9.389                0.981055303     -141.564037
9.39                 0.981027762     -141.823871
9.391                0.981000347     -142.084105
9.392                0.980973061     -142.344738
9.393                0.980945905     -142.605768
9.394                 0.98091888     -142.867194
9.395                0.980891987     -143.129013
9.396                0.980865229     -143.391223
