! TOUCHSTONE file generated by CST DESIGN STUDIO
! Date and time: Tue Feb  4 17:40:32 2025
! Project name: C:\Work\MatlabApps\UnitCellOptimizationMatlab\CST\unitcell.cst
! Tree item: Tasks\Sweep1\SPara1\S-Parameters
! Header version: 2024
! Port assignment regex: !\s*Touchstone port\s*([0-9]+)\s*=\s*(CST MWS port|CST DES external port|CST DES block port)\s*(.+)\s* \(\"(.*)\"\)(\s*mode\s*([0-9]+))?.*
! Touchstone port assignment:
! Touchstone port 1 = CST DES external port 1 ("")
# GHz S MA R 50
9                    0.991717885     -73.8398045
9.001                0.991699085     -73.9479237
9.002                0.991680229     -74.0563015
9.003                0.991661316     -74.1649387
9.004                0.991642348     -74.2738361
9.005                0.991623323     -74.3829944
9.006                0.991604242     -74.4924144
9.007                0.991585105     -74.6020969
9.008                 0.99156591     -74.7120425
9.009                0.991546659     -74.8222522
9.01                 0.991527351     -74.9327267
9.011                0.991507986     -75.0434667
9.012                0.991488564      -75.154473
9.013                0.991469085     -75.2657464
9.014                0.991449548     -75.3772877
9.015                0.991429953     -75.4890977
9.016                0.991410301     -75.6011771
9.017                0.991390591     -75.7135268
9.018                0.991370823     -75.8261475
9.019                0.991350997       -75.93904
9.02                 0.991331113     -76.0522051
9.021                 0.99131117     -76.1656436
9.022                0.991291169     -76.2793563
9.023                 0.99127111      -76.393344
9.024                0.991250991     -76.5076075
9.025                0.991230815     -76.6221476
9.026                0.991210579     -76.7369651
9.027                0.991190284     -76.8520608
9.028                 0.99116993     -76.9674355
9.029                0.991149516     -77.0830901
9.03                 0.991129044     -77.1990252
9.031                0.991108511     -77.3152418
9.032                0.991087919     -77.4317406
9.033                0.991067268     -77.5485226
9.034                0.991046556     -77.6655884
9.035                0.991025785     -77.7829389
9.036                0.991004953     -77.9005749
9.037                0.990984061     -78.0184972
9.038                0.990963109     -78.1367068
9.039                0.990942097     -78.2552043
9.04                 0.990921024     -78.3739907
9.041                 0.99089989     -78.4930667
9.042                0.990878696     -78.6124332
9.043                 0.99085744      -78.732091
9.044                0.990836124     -78.8520409
9.045                0.990814746     -78.9722839
9.046                0.990793308     -79.0928206
9.047                0.990771808     -79.2136521
9.048                0.990750246      -79.334779
9.049                0.990728623     -79.4562022
9.05                 0.990706939     -79.5779227
9.051                0.990685193     -79.6999412
9.052                0.990663385     -79.8222585
9.053                0.990641515     -79.9448756
9.054                0.990619582     -80.0677933
9.055                0.990597588     -80.1910124
9.056                0.990575532     -80.3145338
9.057                0.990553413     -80.4383583
9.058                0.990531232     -80.5624868
9.059                0.990508988     -80.6869202
9.06                 0.990486682     -80.8116593
9.061                0.990464313     -80.9367049
9.062                0.990441881      -81.062058
9.063                0.990419386     -81.1877194
9.064                0.990396828     -81.3136899
9.065                0.990374207     -81.4399705
9.066                0.990351523     -81.5665619
9.067                0.990328776     -81.6934651
9.068                0.990305966      -81.820681
9.069                0.990283092     -81.9482104
9.07                 0.990260154     -82.0760541
9.071                0.990237153     -82.2042131
9.072                0.990214088     -82.3326883
9.073                0.990190959     -82.4614804
9.074                0.990167767     -82.5905904
9.075                0.990144511     -82.7200192
9.076                 0.99012119     -82.8497677
9.077                0.990097806     -82.9798367
9.078                0.990074358      -83.110227
9.079                0.990050845     -83.2409397
9.08                 0.990027268     -83.3719756
9.081                0.990003627     -83.5033355
9.082                0.989979921     -83.6350204
9.083                0.989956151     -83.7670312
9.084                0.989932316     -83.8993687
9.085                0.989908416     -84.0320338
9.086                0.989884452     -84.1650274
9.087                0.989860424     -84.2983505
9.088                 0.98983633     -84.4320038
9.089                0.989812172     -84.5659884
9.09                 0.989787948     -84.7003051
9.091                 0.98976366     -84.8349547
9.092                0.989739307     -84.9699383
9.093                0.989714888     -85.1052567
9.094                0.989690405     -85.2409107
9.095                0.989665856     -85.3769014
9.096                0.989641243     -85.5132295
9.097                0.989616564     -85.6498961
9.098                0.989591819      -85.786902
9.099                 0.98956701      -85.924248
9.1                  0.989542135     -86.0619352
9.101                0.989517194     -86.1999644
9.102                0.989492189     -86.3383366
9.103                0.989467117     -86.4770526
9.104                0.989441981     -86.6161133
9.105                0.989416778     -86.7555196
9.106                0.989391511     -86.8952726
9.107                0.989366177      -87.035373
9.108                0.989340778     -87.1758217
9.109                0.989315314     -87.3166198
9.11                 0.989289784     -87.4577681
9.111                0.989264188     -87.5992674
9.112                0.989238526     -87.7411188
9.113                0.989212799     -87.8833232
9.114                0.989187006     -88.0258814
9.115                0.989161148     -88.1687943
9.116                0.989135224     -88.3120629
9.117                0.989109234     -88.4556881
9.118                0.989083178     -88.5996708
9.119                0.989057057      -88.744012
9.12                 0.989030871     -88.8887124
9.121                0.989004618     -89.0337731
9.122                  0.9889783      -89.179195
9.123                0.988951916     -89.3249789
9.124                0.988925467     -89.4711259
9.125                0.988898952     -89.6176367
9.126                0.988872371     -89.7645123
9.127                0.988845725     -89.9117537
9.128                0.988819014     -90.0593617
9.129                0.988792236     -90.2073373
9.13                 0.988765394     -90.3556814
9.131                0.988738486     -90.5043948
9.132                0.988711512     -90.6534785
9.133                0.988684474     -90.8029335
9.134                 0.98865737     -90.9527606
9.135                  0.9886302     -91.1029607
9.136                0.988602966     -91.2535348
9.137                0.988575666     -91.4044837
9.138                0.988548302     -91.5558085
9.139                0.988520872     -91.7075099
9.14                 0.988493377     -91.8595889
9.141                0.988465817     -92.0120464
9.142                0.988438193     -92.1648833
9.143                0.988410503     -92.3181005
9.144                 0.98838275      -92.471699
9.145                0.988354931     -92.6256796
9.146                0.988327048     -92.7800433
9.147                  0.9882991     -92.9347909
9.148                0.988271088     -93.0899234
9.149                0.988243012     -93.2454416
9.15                 0.988214872     -93.4013464
9.151                0.988186667     -93.5576389
9.152                0.988158399     -93.7143198
9.153                0.988130066       -93.87139
9.154                 0.98810167     -94.0288505
9.155                0.988073211     -94.1867022
9.156                0.988044687     -94.3449459
9.157                0.988016101     -94.5035825
9.158                0.987987451      -94.662613
9.159                0.987958738     -94.8220382
9.16                 0.987929962      -94.981859
9.161                0.987901123     -95.1420763
9.162                0.987872221      -95.302691
9.163                0.987843257      -95.463704
9.164                 0.98781423     -95.6251161
9.165                0.987785141     -95.7869282
9.166                0.987755989     -95.9491413
9.167                0.987726776     -96.1117562
9.168                0.987697501     -96.2747737
9.169                0.987668164     -96.4381948
9.17                 0.987638766     -96.6020203
9.171                0.987609307      -96.766251
9.172                0.987579786      -96.930888
9.173                0.987550205     -97.0959319
9.174                0.987520562     -97.2613837
9.175                0.987490859     -97.4272442
9.176                0.987461096     -97.5935144
9.177                0.987431273      -97.760195
9.178                 0.98740139     -97.9272869
9.179                0.987371447     -98.0947909
9.18                 0.987341444      -98.262708
9.181                0.987311382     -98.4310389
9.182                0.987281262     -98.5997845
9.183                0.987251082     -98.7689456
9.184                0.987220844     -98.9385231
9.185                0.987190547     -99.1085177
9.186                0.987160192     -99.2789304
9.187                 0.98712978      -99.449762
9.188                 0.98709931     -99.6210132
9.189                0.987068782      -99.792685
9.19                 0.987038198      -99.964778
9.191                0.987007556     -100.137293
9.192                0.986976858     -100.310231
9.193                0.986946104     -100.483593
9.194                0.986915294      -100.65738
9.195                0.986884429     -100.831591
9.196                0.986853508     -101.006229
9.197                0.986822532     -101.181294
9.198                0.986791501     -101.356787
9.199                0.986760416     -101.532708
9.2                  0.986729276     -101.709058
9.201                0.986698083     -101.885839
9.202                0.986666837      -102.06305
9.203                0.986635537     -102.240693
9.204                0.986604185     -102.418769
9.205                 0.98657278     -102.597277
9.206                0.986541323     -102.776219
9.207                0.986509814     -102.955596
9.208                0.986478254     -103.135409
9.209                0.986446644     -103.315657
9.21                 0.986414982     -103.496342
9.211                0.986383271     -103.677465
9.212                0.986351509     -103.859027
9.213                0.986319698     -104.041027
9.214                0.986287838     -104.223467
9.215                 0.98625593     -104.406348
9.216                0.986223973     -104.589669
9.217                0.986191969     -104.773433
9.218                0.986159917     -104.957639
9.219                0.986127818     -105.142288
9.22                 0.986095673     -105.327381
9.221                0.986063482     -105.512919
9.222                0.986031246     -105.698903
9.223                0.985998964     -105.885332
9.224                0.985966637     -106.072207
9.225                0.985934267      -106.25953
9.226                0.985901853     -106.447301
9.227                0.985869395     -106.635521
9.228                0.985836895     -106.824189
9.229                0.985804353     -107.013308
9.23                 0.985771769     -107.202877
9.231                0.985739144     -107.392896
9.232                0.985706478     -107.583368
9.233                0.985673772     -107.774292
9.234                0.985641026     -107.965668
9.235                0.985608242     -108.157498
9.236                0.985575418     -108.349783
9.237                0.985542557     -108.542521
9.238                0.985509659     -108.735715
9.239                0.985476724     -108.929364
9.24                 0.985443752      -109.12347
9.241                0.985410745     -109.318033
9.242                0.985377703     -109.513053
9.243                0.985344626      -109.70853
9.244                0.985311516     -109.904466
9.245                0.985278372     -110.100861
9.246                0.985245195     -110.297716
9.247                0.985211987      -110.49503
9.248                0.985178747     -110.692805
9.249                0.985145477      -110.89104
9.25                 0.985112176     -111.089737
9.251                0.985078847     -111.288895
9.252                0.985045488     -111.488516
9.253                0.985012101       -111.6886
9.254                0.984978687     -111.889146
9.255                0.984945247     -112.090156
9.256                 0.98491178      -112.29163
9.257                0.984878288     -112.493568
9.258                0.984844771     -112.695971
9.259                0.984811231      -112.89884
9.26                 0.984777668     -113.102173
9.261                0.984744082     -113.305973
9.262                0.984710474     -113.510238
9.263                0.984676846     -113.714971
9.264                0.984643197      -113.92017
9.265                 0.98460953     -114.125836
9.266                0.984575843      -114.33197
9.267                0.984542139     -114.538572
9.268                0.984508418     -114.745642
9.269                 0.98447468     -114.953181
9.27                 0.984440928     -115.161188
9.271                 0.98440716     -115.369664
9.272                0.984373379     -115.578609
9.273                0.984339585     -115.788024
9.274                0.984305779     -115.997908
9.275                0.984271962     -116.208263
9.276                0.984238134     -116.419087
9.277                0.984204297     -116.630382
9.278                0.984170452     -116.842147
9.279                0.984136598     -117.054383
9.28                 0.984102738      -117.26709
9.281                0.984068872     -117.480268
9.282                0.984035001     -117.693917
9.283                0.984001125     -117.908037
9.284                0.983967247     -118.122628
9.285                0.983933366     -118.337691
9.286                0.983899484     -118.553226
9.287                0.983865601     -118.769232
9.288                 0.98383172     -118.985709
9.289                0.983797839     -119.202659
9.29                 0.983763961      -119.42008
9.291                0.983730087     -119.637973
9.292                0.983696217     -119.856337
9.293                0.983662353     -120.075174
9.294                0.983628495     -120.294482
9.295                0.983594645     -120.514262
9.296                0.983560804     -120.734513
9.297                0.983526971     -120.955236
9.298                 0.98349315     -121.176431
9.299                 0.98345934     -121.398097
9.3                  0.983425543     -121.620234
9.301                 0.98339176     -121.842843
9.302                0.983357992     -122.065923
9.303                0.983324239     -122.289473
9.304                0.983290504     -122.513494
9.305                0.983256787     -122.737986
9.306                0.983223089     -122.962949
9.307                0.983189411     -123.188381
9.308                0.983155755     -123.414284
9.309                0.983122122     -123.640656
9.31                 0.983088512     -123.867498
9.311                0.983054927     -124.094809
9.312                0.983021368     -124.322589
9.313                0.982987837     -124.550837
9.314                0.982954334     -124.779554
9.315                 0.98292086     -125.008739
9.316                0.982887417     -125.238391
9.317                0.982854006     -125.468511
9.318                0.982820629     -125.699097
9.319                0.982787285      -125.93015
9.32                 0.982753978      -126.16167
9.321                0.982720707     -126.393654
9.322                0.982687474     -126.626104
9.323                 0.98265428     -126.859019
9.324                0.982621127     -127.092398
9.325                0.982588016     -127.326241
9.326                0.982554948     -127.560547
9.327                0.982521924     -127.795315
9.328                0.982488946     -128.030546
9.329                0.982456014     -128.266238
9.33                 0.982423131     -128.502392
9.331                0.982390297     -128.739006
9.332                0.982357514     -128.976079
9.333                0.982324783     -129.213612
9.334                0.982292106     -129.451603
9.335                0.982259483     -129.690052
9.336                0.982226917     -129.928958
9.337                0.982194407     -130.168321
9.338                0.982161957     -130.408139
9.339                0.982129567     -130.648412
9.34                 0.982097238      -130.88914
9.341                0.982064972      -131.13032
9.342                 0.98203277     -131.371953
9.343                0.982000634     -131.614038
9.344                0.981968565     -131.856574
9.345                0.981936564      -132.09956
9.346                0.981904633     -132.342995
9.347                0.981872773     -132.586879
9.348                0.981840986     -132.831209
9.349                0.981809272     -133.075986
9.35                 0.981777634     -133.321209
9.351                0.981746073     -133.566876
9.352                0.981714591     -133.812986
9.353                0.981683188     -134.059539
9.354                0.981651866     -134.306533
9.355                0.981620627     -134.553968
9.356                0.981589471     -134.801842
9.357                0.981558402     -135.050154
9.358                0.981527419     -135.298903
9.359                0.981496525     -135.548088
9.36                  0.98146572     -135.797708
9.361                0.981435007     -136.047761
9.362                0.981404387     -136.298247
9.363                0.981373862     -136.549164
9.364                0.981343432     -136.800511
9.365                0.981313099     -137.052286
9.366                0.981282865     -137.304489
9.367                0.981252732     -137.557118
9.368                  0.9812227     -137.810172
9.369                0.981192772     -138.063649
9.37                 0.981162949     -138.317548
9.371                0.981133231     -138.571868
9.372                0.981103622     -138.826607
9.373                0.981074122     -139.081764
9.374                0.981044733     -139.337337
9.375                0.981015457     -139.593326
9.376                0.980986294     -139.849727
9.377                0.980957247     -140.106541
9.378                0.980928317     -140.363765
9.379                0.980899506     -140.621397
9.38                 0.980870814     -140.879437
9.381                0.980842245     -141.137883
9.382                0.980813798     -141.396733
9.383                0.980785476     -141.655985
9.384                 0.98075728     -141.915637
9.385                0.980729212     -142.175689
9.386                0.980701273     -142.436138
9.387                0.980673466     -142.696983
9.388                 0.98064579     -142.958222
9.389                0.980618249     -143.219852
9.39                 0.980590842     -143.481873
9.391                0.980563573     -143.744283
9.392                0.980536443     -144.007079
9.393                0.980509452      -144.27026
9.394                0.980482604     -144.533824
9.395                0.980455898     -144.797769
9.396                0.980429337     -145.062093
