! TOUCHSTONE file generated by CST DESIGN STUDIO
! Date and time: Tue Feb  4 12:40:07 2025
! Project name: C:\Work\MatlabApps\UnitCellOptimizationMatlab\CST\unitcell.cst
! Tree item: Tasks\Sweep1\SPara1\S-Parameters
! Header version: 2024
! Port assignment regex: !\s*Touchstone port\s*([0-9]+)\s*=\s*(CST MWS port|CST DES external port|CST DES block port)\s*(.+)\s* \(\"(.*)\"\)(\s*mode\s*([0-9]+))?.*
! Touchstone port assignment:
! Touchstone port 1 = CST DES external port 1 ("")
# GHz S MA R 50
9                    0.989421266     -77.2784294
9.001                0.989395724     -77.3945476
9.002                0.989370105     -77.5109476
9.003                 0.98934441       -77.62763
9.004                0.989318637     -77.7445957
9.005                0.989292788     -77.8618455
9.006                0.989266861     -77.9793803
9.007                0.989240858     -78.0972008
9.008                0.989214776     -78.2153079
9.009                0.989188617     -78.3337024
9.01                 0.989162381     -78.4523852
9.011                0.989136066      -78.571357
9.012                0.989109673     -78.6906187
9.013                0.989083203     -78.8101711
9.014                0.989056653      -78.930015
9.015                0.989030025     -79.0501513
9.016                0.989003319     -79.1705808
9.017                0.988976533     -79.2913044
9.018                0.988949669     -79.4123228
9.019                0.988922726      -79.533637
9.02                 0.988895703     -79.6552477
9.021                0.988868601     -79.7771559
9.022                0.988841419     -79.8993623
9.023                0.988814157     -80.0218677
9.024                0.988786816     -80.1446732
9.025                0.988759395     -80.2677794
9.026                0.988731893     -80.3911872
9.027                0.988704312     -80.5148976
9.028                 0.98867665     -80.6389113
9.029                0.988648907     -80.7632292
9.03                 0.988621084     -80.8878521
9.031                 0.98859318      -81.012781
9.032                0.988565194     -81.1380166
9.033                0.988537128     -81.2635599
9.034                0.988508981     -81.3894117
9.035                0.988480752     -81.5155728
9.036                0.988452442     -81.6420442
9.037                0.988424051     -81.7688266
9.038                0.988395577      -81.895921
9.039                0.988367022     -82.0233282
9.04                 0.988338385     -82.1510492
9.041                0.988309666     -82.2790846
9.042                0.988280865     -82.4074356
9.043                0.988251981     -82.5361028
9.044                0.988223015     -82.6650872
9.045                0.988193966     -82.7943897
9.046                0.988164835     -82.9240112
9.047                0.988135621     -83.0539524
9.048                0.988106324     -83.1842144
9.049                0.988076944      -83.314798
9.05                 0.988047482      -83.445704
9.051                0.988017935     -83.5769334
9.052                0.987988306      -83.708487
9.053                0.987958593     -83.8403657
9.054                0.987928797     -83.9725704
9.055                0.987898917     -84.1051021
9.056                0.987868954     -84.2379615
9.057                0.987838907     -84.3711496
9.058                0.987808776     -84.5046673
9.059                0.987778561     -84.6385154
9.06                 0.987748262     -84.7726949
9.061                0.987717878     -84.9072066
9.062                0.987687411     -85.0420515
9.063                0.987656859     -85.1772304
9.064                0.987626223     -85.3127442
9.065                0.987595503     -85.4485939
9.066                0.987564698     -85.5847803
9.067                0.987533808     -85.7213043
9.068                0.987502834     -85.8581669
9.069                0.987471775     -85.9953689
9.07                 0.987440632     -86.1329113
9.071                0.987409403     -86.2707948
9.072                0.987378089     -86.4090205
9.073                0.987346691     -86.5475893
9.074                0.987315207      -86.686502
9.075                0.987283639     -86.8257596
9.076                0.987251985     -86.9653629
9.077                0.987220246     -87.1053129
9.078                0.987188422     -87.2456104
9.079                0.987156513     -87.3862564
9.08                 0.987124518     -87.5272519
9.081                0.987092438     -87.6685976
9.082                0.987060272     -87.8102945
9.083                0.987028021     -87.9523435
9.084                0.986995685     -88.0947455
9.085                0.986963263     -88.2375015
9.086                0.986930756     -88.3806123
9.087                0.986898163     -88.5240789
9.088                0.986865484     -88.6679021
9.089                 0.98683272     -88.8120829
9.09                 0.986799871     -88.9566222
9.091                0.986766935     -89.1015209
9.092                0.986733915     -89.2467799
9.093                0.986700808     -89.3924001
9.094                0.986667616     -89.5383824
9.095                0.986634338     -89.6847278
9.096                0.986600975     -89.8314371
9.097                0.986567526     -89.9785112
9.098                0.986533992     -90.1259512
9.099                0.986500372     -90.2737578
9.1                  0.986466666      -90.421932
9.101                0.986432875     -90.5704747
9.102                0.986398999     -90.7193869
9.103                0.986365037     -90.8686693
9.104                0.986330989      -91.018323
9.105                0.986296856     -91.1683488
9.106                0.986262638     -91.3187477
9.107                0.986228334     -91.4695206
9.108                0.986193945     -91.6206683
9.109                0.986159471     -91.7721918
9.11                 0.986124912     -91.9240919
9.111                0.986090268     -92.0763697
9.112                0.986055538     -92.2290259
9.113                0.986020724     -92.3820616
9.114                0.985985825     -92.5354775
9.115                0.985950841     -92.6892747
9.116                0.985915772     -92.8434539
9.117                0.985880618     -92.9980162
9.118                 0.98584538     -93.1529624
9.119                0.985810057     -93.3082934
9.12                  0.98577465     -93.4640101
9.121                0.985739159     -93.6201134
9.122                0.985703583     -93.7766042
9.123                0.985667923     -93.9334835
9.124                 0.98563218      -94.090752
9.125                0.985596352     -94.2484107
9.126                0.985560441     -94.4064605
9.127                0.985524446     -94.5649022
9.128                0.985488368     -94.7237368
9.129                0.985452206     -94.8829652
9.13                 0.985415961     -95.0425882
9.131                0.985379633     -95.2026067
9.132                0.985343222     -95.3630216
9.133                0.985306728     -95.5238338
9.134                0.985270152     -95.6850441
9.135                0.985233493     -95.8466535
9.136                0.985196752     -96.0086629
9.137                0.985159929      -96.171073
9.138                0.985123024     -96.3338847
9.139                0.985086037      -96.497099
9.14                 0.985048969     -96.6607167
9.141                0.985011819     -96.8247387
9.142                0.984974588     -96.9891658
9.143                0.984937276     -97.1539989
9.144                0.984899884     -97.3192388
9.145                0.984862411     -97.4848865
9.146                0.984824858     -97.6509427
9.147                0.984787224     -97.8174083
9.148                0.984749511     -97.9842843
9.149                0.984711718     -98.1515713
9.15                 0.984673846     -98.3192703
9.151                0.984635895     -98.4873821
9.152                0.984597865     -98.6559075
9.153                0.984559756     -98.8248474
9.154                0.984521569     -98.9942026
9.155                0.984483304      -99.163974
9.156                0.984444962     -99.3341623
9.157                0.984406541     -99.5047685
9.158                0.984368044     -99.6757932
9.159                 0.98432947     -99.8472374
9.16                 0.984290819     -100.019102
9.161                0.984252092     -100.191387
9.162                0.984213289     -100.364095
9.163                0.984174411     -100.537225
9.164                0.984135457     -100.710778
9.165                0.984096428     -100.884756
9.166                0.984057325     -101.059159
9.167                0.984018147     -101.233988
9.168                0.983978896     -101.409243
9.169                0.983939571     -101.584926
9.17                 0.983900173     -101.761037
9.171                0.983860702     -101.937576
9.172                0.983821159     -102.114546
9.173                0.983781544     -102.291946
9.174                0.983741857     -102.469778
9.175                0.983702099     -102.648041
9.176                 0.98366227     -102.826738
9.177                0.983622371     -103.005867
9.178                0.983582402     -103.185431
9.179                0.983542364      -103.36543
9.18                 0.983502256     -103.545865
9.181                 0.98346208     -103.726737
9.182                0.983421836     -103.908045
9.183                0.983381524     -104.089791
9.184                0.983341145     -104.271976
9.185                  0.9833007     -104.454601
9.186                0.983260188     -104.637665
9.187                 0.98321961      -104.82117
9.188                0.983178967     -105.005117
9.189                 0.98313826     -105.189506
9.19                 0.983097488     -105.374337
9.191                0.983056653     -105.559612
9.192                0.983015755     -105.745331
9.193                0.982974794     -105.931495
9.194                0.982933771     -106.118104
9.195                0.982892687      -106.30516
9.196                0.982851541     -106.492662
9.197                0.982810336     -106.680611
9.198                0.982769071     -106.869009
9.199                0.982727746     -107.057855
9.2                  0.982686364     -107.247151
9.201                0.982644923     -107.436896
9.202                0.982603425     -107.627092
9.203                 0.98256187     -107.817739
9.204                 0.98252026     -108.008838
9.205                0.982478594     -108.200389
9.206                0.982436873     -108.392393
9.207                0.982395099      -108.58485
9.208                0.982353271     -108.777761
9.209                 0.98231139     -108.971127
9.21                 0.982269457     -109.164948
9.211                0.982227473     -109.359224
9.212                0.982185439     -109.553957
9.213                0.982143355     -109.749146
9.214                0.982101221     -109.944793
9.215                0.982059039     -110.140897
9.216                 0.98201681     -110.337459
9.217                0.981974534     -110.534481
9.218                0.981932211     -110.731961
9.219                0.981889843     -110.929901
9.22                 0.981847431     -111.128301
9.221                0.981804975     -111.327162
9.222                0.981762476     -111.526484
9.223                0.981719935     -111.726267
9.224                0.981677353     -111.926512
9.225                 0.98163473      -112.12722
9.226                0.981592067      -112.32839
9.227                0.981549366     -112.530024
9.228                0.981506627     -112.732121
9.229                0.981463851     -112.934682
9.23                 0.981421038     -113.137707
9.231                0.981378191     -113.341197
9.232                0.981335309     -113.545152
9.233                0.981292393     -113.749573
9.234                0.981249445     -113.954459
9.235                0.981206466     -114.159811
9.236                0.981163456      -114.36563
9.237                0.981120416     -114.571915
9.238                0.981077347     -114.778668
9.239                0.981034251     -114.985887
9.24                 0.980991128     -115.193574
9.241                0.980947979     -115.401729
9.242                0.980904805     -115.610352
9.243                0.980861608     -115.819443
9.244                0.980818388     -116.029003
9.245                0.980775146     -116.239032
9.246                0.980731883     -116.449529
9.247                0.980688601     -116.660496
9.248                0.980645301     -116.871932
9.249                0.980601983     -117.083838
9.25                 0.980558648     -117.296213
9.251                0.980515298     -117.509058
9.252                0.980471935     -117.722373
9.253                0.980428558     -117.936158
9.254                0.980385169     -118.150413
9.255                0.980341769     -118.365139
9.256                 0.98029836     -118.580335
9.257                0.980254943     -118.796001
9.258                0.980211518     -119.012138
9.259                0.980168087     -119.228745
9.26                 0.980124651     -119.445823
9.261                0.980081211     -119.663372
9.262                0.980037769     -119.881391
9.263                0.979994326     -120.099881
9.264                0.979950883     -120.318842
9.265                0.979907441     -120.538273
9.266                0.979864001     -120.758175
9.267                0.979820565     -120.978547
9.268                0.979777134      -121.19939
9.269                 0.97973371     -121.420703
9.27                 0.979690293     -121.642486
9.271                0.979646885     -121.864739
9.272                0.979603487     -122.087462
9.273                0.979560101     -122.310656
9.274                0.979516728     -122.534318
9.275                0.979473369     -122.758451
9.276                0.979430025     -122.983052
9.277                0.979386699     -123.208123
9.278                0.979343391     -123.433663
9.279                0.979300103     -123.659671
9.28                 0.979256836     -123.886148
9.281                0.979213591     -124.113092
9.282                0.979170371     -124.340505
9.283                0.979127176     -124.568385
9.284                0.979084008     -124.796733
9.285                0.979040869     -125.025548
9.286                0.978997759     -125.254829
9.287                 0.97895468     -125.484576
9.288                0.978911634     -125.714789
9.289                0.978868623     -125.945468
9.29                 0.978825647     -126.176612
9.291                0.978782709      -126.40822
9.292                0.978739809     -126.640292
9.293                 0.97869695     -126.872829
9.294                0.978654133     -127.105828
9.295                0.978611359     -127.339291
9.296                 0.97856863     -127.573215
9.297                0.978525948     -127.807602
9.298                0.978483314     -128.042449
9.299                 0.97844073     -128.277757
9.3                  0.978398197     -128.513525
9.301                0.978355717     -128.749753
9.302                0.978313292     -128.986439
9.303                0.978270923     -129.223584
9.304                0.978228612     -129.461186
9.305                0.978186361     -129.699245
9.306                 0.97814417     -129.937761
9.307                0.978102043     -130.176731
9.308                 0.97805998     -130.416157
9.309                0.978017983     -130.656037
9.31                 0.977976054     -130.896369
9.311                0.977934195     -131.137155
9.312                0.977892407     -131.378392
9.313                0.977850692      -131.62008
9.314                0.977809052     -131.862218
9.315                0.977767488     -132.104805
9.316                0.977726002      -132.34784
9.317                0.977684597     -132.591323
9.318                0.977643273     -132.835253
9.319                0.977602033     -133.079628
9.32                 0.977560878     -133.324447
9.321                 0.97751981     -133.569711
9.322                0.977478831     -133.815417
9.323                0.977437942     -134.061564
9.324                0.977397146     -134.308152
9.325                0.977356444      -134.55518
9.326                0.977315839     -134.802647
9.327                0.977275331      -135.05055
9.328                0.977234923     -135.298891
9.329                0.977194616     -135.547666
9.33                 0.977154413     -135.796875
9.331                0.977114314     -136.046517
9.332                0.977074323     -136.296591
9.333                0.977034441     -136.547096
9.334                 0.97699467     -136.798029
9.335                0.976955012     -137.049391
9.336                0.976915467     -137.301179
9.337                 0.97687604     -137.553393
9.338                 0.97683673     -137.806031
9.339                0.976797541     -138.059092
9.34                 0.976758474     -138.312574
9.341                0.976719531     -138.566476
9.342                0.976680714     -138.820797
9.343                0.976642024     -139.075535
9.344                0.976603465     -139.330689
9.345                0.976565037     -139.586258
9.346                0.976526742     -139.842239
9.347                0.976488583     -140.098631
9.348                0.976450561     -140.355434
9.349                0.976412679     -140.612644
9.35                 0.976374938     -140.870262
9.351                 0.97633734     -141.128284
9.352                0.976299887     -141.386711
9.353                0.976262581     -141.645539
9.354                0.976225424     -141.904767
9.355                0.976188418     -142.164394
9.356                0.976151565     -142.424418
9.357                0.976114867     -142.684837
9.358                0.976078326     -142.945649
9.359                0.976041943     -143.206854
9.36                 0.976005721     -143.468448
9.361                0.975969662      -143.73043
9.362                0.975933767     -143.992799
9.363                0.975898039     -144.255552
9.364                0.975862479     -144.518687
9.365                0.975827089     -144.782204
9.366                0.975791872     -145.046099
9.367                0.975756829     -145.310371
9.368                0.975721963     -145.575018
9.369                0.975687275     -145.840038
9.37                 0.975652767     -146.105429
9.371                0.975618441     -146.371189
9.372                0.975584299     -146.637316
9.373                0.975550343     -146.903808
9.374                0.975516574     -147.170662
9.375                0.975482996     -147.437878
9.376                 0.97544961     -147.705452
9.377                0.975416417     -147.973382
9.378                 0.97538342     -148.241666
9.379                0.975350621     -148.510303
9.38                 0.975318021      -148.77929
9.381                0.975285622     -149.048624
9.382                0.975253427     -149.318304
9.383                0.975221436     -149.588327
9.384                0.975189653      -149.85869
9.385                 0.97515808     -150.129393
9.386                0.975126716     -150.400431
9.387                0.975095566     -150.671803
9.388                0.975064631     -150.943507
9.389                0.975033912      -151.21554
9.39                 0.975003411       -151.4879
9.391                 0.97497313     -151.760584
9.392                0.974943072      -152.03359
9.393                0.974913238     -152.306915
9.394                0.974883629     -152.580557
9.395                0.974854249     -152.854514
9.396                0.974825097     -153.128782
