! TOUCHSTONE file generated by CST DESIGN STUDIO
! Date and time: Tue Feb  4 12:40:11 2025
! Project name: C:\Work\MatlabApps\UnitCellOptimizationMatlab\CST\unitcell.cst
! Tree item: Tasks\Sweep1\SPara1\S-Parameters
! Header version: 2024
! Port assignment regex: !\s*Touchstone port\s*([0-9]+)\s*=\s*(CST MWS port|CST DES external port|CST DES block port)\s*(.+)\s* \(\"(.*)\"\)(\s*mode\s*([0-9]+))?.*
! Touchstone port assignment:
! Touchstone port 1 = CST DES external port 1 ("")
# GHz S MA R 50
9                    0.989915407     -74.7931542
9.001                0.989891925      -74.903599
9.002                0.989868372     -75.0143095
9.003                0.989844749     -75.1252864
9.004                0.989821054     -75.2365305
9.005                0.989797289     -75.3480426
9.006                0.989773452     -75.4598235
9.007                0.989749544      -75.571874
9.008                0.989725564     -75.6841948
9.009                0.989701513     -75.7967868
9.01                  0.98967739     -75.9096507
9.011                0.989653195     -76.0227874
9.012                0.989628927     -76.1361976
9.013                0.989604588     -76.2498821
9.014                0.989580176     -76.3638417
9.015                0.989555691     -76.4780773
9.016                0.989531133     -76.5925896
9.017                0.989506503     -76.7073794
9.018                0.989481799     -76.8224476
9.019                0.989457022     -76.9377949
9.02                 0.989432172     -77.0534222
9.021                0.989407248     -77.1693302
9.022                0.989382251     -77.2855198
9.023                 0.98935718     -77.4019919
9.024                0.989332034     -77.5187471
9.025                0.989306815     -77.6357864
9.026                0.989281521     -77.7531105
9.027                0.989256153     -77.8707202
9.028                 0.98923071     -77.9886165
9.029                0.989205193     -78.1068001
9.03                   0.9891796     -78.2252719
9.031                0.989153933     -78.3440326
9.032                 0.98912819     -78.4630832
9.033                0.989102372     -78.5824244
9.034                0.989076479      -78.702057
9.035                 0.98905051      -78.821982
9.036                0.989024466     -78.9422002
9.037                0.988998345     -79.0627123
9.038                0.988972149     -79.1835192
9.039                0.988945876     -79.3046218
9.04                 0.988919527      -79.426021
9.041                0.988893102     -79.5477175
9.042                  0.9888666     -79.6697122
9.043                0.988840022     -79.7920059
9.044                0.988813367     -79.9145996
9.045                0.988786634      -80.037494
9.046                0.988759825     -80.1606901
9.047                0.988732939     -80.2841886
9.048                0.988705975     -80.4079904
9.049                0.988678934     -80.5320965
9.05                 0.988651815     -80.6565075
9.051                0.988624619     -80.7812245
9.052                0.988597344     -80.9062482
9.053                0.988569992     -81.0315796
9.054                0.988542562     -81.1572195
9.055                0.988515054     -81.2831687
9.056                0.988487467     -81.4094281
9.057                0.988459802     -81.5359987
9.058                0.988432058     -81.6628812
9.059                0.988404236     -81.7900766
9.06                 0.988376335     -81.9175857
9.061                0.988348355     -82.0454094
9.062                0.988320297     -82.1735485
9.063                0.988292159      -82.302004
9.064                0.988263942     -82.4307768
9.065                0.988235646     -82.5598676
9.066                 0.98820727     -82.6892774
9.067                0.988178815     -82.8190071
9.068                 0.98815028     -82.9490576
9.069                0.988121666     -83.0794297
9.07                 0.988092972     -83.2101244
9.071                0.988064198     -83.3411424
9.072                0.988035344     -83.4724848
9.073                 0.98800641     -83.6041524
9.074                0.987977396      -83.736146
9.075                0.987948302     -83.8684666
9.076                0.987919127     -84.0011152
9.077                0.987889872     -84.1340924
9.078                0.987860537     -84.2673994
9.079                0.987831121     -84.4010369
9.08                 0.987801624     -84.5350059
9.081                0.987772047     -84.6693072
9.082                0.987742389     -84.8039418
9.083                 0.98771265     -84.9389106
9.084                 0.98768283     -85.0742144
9.085                0.987652929     -85.2098542
9.086                0.987622948     -85.3458308
9.087                0.987592885     -85.4821453
9.088                 0.98756274     -85.6187984
9.089                0.987532515     -85.7557911
9.09                 0.987502208     -85.8931242
9.091                 0.98747182     -86.0307988
9.092                0.987441351     -86.1688157
9.093                  0.9874108     -86.3071758
9.094                0.987380168       -86.44588
9.095                0.987349454     -86.5849293
9.096                0.987318659     -86.7243245
9.097                0.987287782     -86.8640666
9.098                0.987256823     -87.0041564
9.099                0.987225782     -87.1445949
9.1                   0.98719466     -87.2853831
9.101                0.987163456     -87.4265217
9.102                0.987132171     -87.5680117
9.103                0.987100803     -87.7098541
9.104                0.987069354     -87.8520498
9.105                0.987037823     -87.9945996
9.106                 0.98700621     -88.1375045
9.107                0.986974515     -88.2807654
9.108                0.986942738     -88.4243832
9.109                 0.98691088     -88.5683589
9.11                 0.986878939     -88.7126933
9.111                0.986846917     -88.8573873
9.112                0.986814813      -89.002442
9.113                0.986782626     -89.1478581
9.114                0.986750358     -89.2936367
9.115                0.986718008     -89.4397786
9.116                0.986685577     -89.5862848
9.117                0.986653063     -89.7331562
9.118                0.986620467     -89.8803936
9.119                 0.98658779      -90.027998
9.12                 0.986555031     -90.1759704
9.121                 0.98652219     -90.3243116
9.122                0.986489268     -90.4730226
9.123                0.986456264     -90.6221042
9.124                0.986423178     -90.7715575
9.125                0.986390011     -90.9213832
9.126                0.986356762     -91.0715824
9.127                0.986323431     -91.2221559
9.128                 0.98629002     -91.3731046
9.129                0.986256526     -91.5244295
9.13                 0.986222952     -91.6761316
9.131                0.986189296     -91.8282116
9.132                0.986155559     -91.9806705
9.133                0.986121741     -92.1335092
9.134                0.986087842     -92.2867287
9.135                0.986053862     -92.4403298
9.136                0.986019801     -92.5943134
9.137                 0.98598566     -92.7486805
9.138                0.985951437      -92.903432
9.139                0.985917134     -93.0585688
9.14                 0.985882751     -93.2140918
9.141                0.985848287     -93.3700018
9.142                0.985813743     -93.5262998
9.143                0.985779119     -93.6829868
9.144                0.985744415     -93.8400635
9.145                0.985709631      -93.997531
9.146                0.985674767       -94.15539
9.147                0.985639824     -94.3136415
9.148                0.985604801     -94.4722865
9.149                0.985569698     -94.6313257
9.15                 0.985534517     -94.7907601
9.151                0.985499256     -94.9505906
9.152                0.985463917     -95.1108181
9.153                0.985428498     -95.2714434
9.154                0.985393002     -95.4324675
9.155                0.985357426     -95.5938912
9.156                0.985321773     -95.7557155
9.157                0.985286041     -95.9179411
9.158                0.985250232      -96.080569
9.159                0.985214345     -96.2436001
9.16                  0.98517838     -96.4070353
9.161                0.985142338     -96.5708753
9.162                0.985106219     -96.7351212
9.163                0.985070023     -96.8997737
9.164                0.985033751     -97.0648337
9.165                0.984997402     -97.2303022
9.166                0.984960977     -97.3961798
9.167                0.984924476     -97.5624677
9.168                0.984887899     -97.7291665
9.169                0.984851246     -97.8962771
9.17                 0.984814519     -98.0638004
9.171                0.984777716     -98.2317373
9.172                0.984740839     -98.4000886
9.173                0.984703887     -98.5688551
9.174                0.984666861     -98.7380376
9.175                0.984629761     -98.9076372
9.176                0.984592588     -99.0776544
9.177                0.984555341     -99.2480903
9.178                0.984518021     -99.4189456
9.179                0.984480629     -99.5902211
9.18                 0.984443164     -99.7619178
9.181                0.984405627     -99.9340363
9.182                0.984368018     -100.106578
9.183                0.984330337     -100.279542
9.184                0.984292586     -100.452931
9.185                0.984254764     -100.626746
9.186                0.984216871     -100.800986
9.187                0.984178908     -100.975653
9.188                0.984140876     -101.150747
9.189                0.984102774      -101.32627
9.19                 0.984064603     -101.502222
9.191                0.984026363     -101.678604
9.192                0.983988056     -101.855417
9.193                 0.98394968     -102.032661
9.194                0.983911237     -102.210338
9.195                0.983872727     -102.388447
9.196                0.983834151      -102.56699
9.197                0.983795508     -102.745968
9.198                0.983756799     -102.925381
9.199                0.983718026      -103.10523
9.2                  0.983679187     -103.285516
9.201                0.983640284     -103.466239
9.202                0.983601317     -103.647401
9.203                0.983562286     -103.829001
9.204                0.983523193     -104.011042
9.205                0.983484036     -104.193522
9.206                0.983444818     -104.376444
9.207                0.983405539     -104.559808
9.208                0.983366198     -104.743614
9.209                0.983326796     -104.927864
9.21                 0.983287335     -105.112558
9.211                0.983247814     -105.297696
9.212                0.983208234     -105.483279
9.213                0.983168596     -105.669309
9.214                  0.9831289     -105.855785
9.215                0.983089147     -106.042709
9.216                0.983049337      -106.23008
9.217                 0.98300947       -106.4179
9.218                0.982969549      -106.60617
9.219                0.982929572     -106.794889
9.22                  0.98288954     -106.984059
9.221                0.982849455      -107.17368
9.222                0.982809317     -107.363753
9.223                0.982769126     -107.554279
9.224                0.982728884     -107.745257
9.225                 0.98268859     -107.936689
9.226                0.982648245     -108.128575
9.227                0.982607851     -108.320916
9.228                0.982567407     -108.513713
9.229                0.982526915     -108.706965
9.23                 0.982486375     -108.900674
9.231                0.982445787      -109.09484
9.232                0.982405153     -109.289463
9.233                0.982364473     -109.484545
9.234                0.982323748     -109.680085
9.235                0.982282979     -109.876085
9.236                0.982242166     -110.072544
9.237                 0.98220131     -110.269463
9.238                0.982160412     -110.466843
9.239                0.982119473     -110.664685
9.24                 0.982078494     -110.862988
9.241                0.982037474     -111.061753
9.242                0.981996415     -111.260981
9.243                0.981955319     -111.460671
9.244                0.981914185     -111.660826
9.245                0.981873014     -111.861444
9.246                0.981831808     -112.062527
9.247                0.981790566     -112.264074
9.248                0.981749291     -112.466087
9.249                0.981707983     -112.668566
9.25                 0.981666642      -112.87151
9.251                 0.98162527     -113.074921
9.252                0.981583868     -113.278798
9.253                0.981542436     -113.483143
9.254                0.981500975     -113.687955
9.255                0.981459486     -113.893235
9.256                0.981417971     -114.098983
9.257                0.981376429       -114.3052
9.258                0.981334863     -114.511885
9.259                0.981293273      -114.71904
9.26                 0.981251659     -114.926664
9.261                0.981210024     -115.134757
9.262                0.981168367     -115.343321
9.263                0.981126691     -115.552354
9.264                0.981084995     -115.761858
9.265                0.981043282     -115.971833
9.266                0.981001551     -116.182278
9.267                0.980959804     -116.393195
9.268                0.980918043     -116.604583
9.269                0.980876268     -116.816442
9.27                  0.98083448     -117.028773
9.271                 0.98079268     -117.241576
9.272                0.980750869     -117.454851
9.273                 0.98070905     -117.668597
9.274                0.980667221     -117.882817
9.275                0.980625386     -118.097508
9.276                0.980583544     -118.312672
9.277                0.980541697     -118.528308
9.278                0.980499847     -118.744417
9.279                0.980457994     -118.960999
9.28                 0.980416139     -119.178053
9.281                0.980374284     -119.395581
9.282                 0.98033243     -119.613581
9.283                0.980290578     -119.832053
9.284                0.980248729     -120.050999
9.285                0.980206885     -120.270417
9.286                0.980165046     -120.490309
9.287                0.980123215     -120.710672
9.288                0.980081392     -120.931509
9.289                0.980039578     -121.152818
9.29                 0.979997775       -121.3746
9.291                0.979955984     -121.596854
9.292                0.979914206      -121.81958
9.293                0.979872444     -122.042778
9.294                0.979830697     -122.266449
9.295                0.979788967     -122.490591
9.296                0.979747257     -122.715205
9.297                0.979705566      -122.94029
9.298                0.979663896     -123.165847
9.299                 0.97962225     -123.391875
9.3                  0.979580627     -123.618373
9.301                 0.97953903     -123.845343
9.302                 0.97949746     -124.072782
9.303                0.979455918     -124.300692
9.304                0.979414406     -124.529071
9.305                0.979372924      -124.75792
9.306                0.979331476     -124.987238
9.307                0.979290062     -125.217024
9.308                0.979248683     -125.447279
9.309                0.979207341     -125.678002
9.31                 0.979166037     -125.909193
9.311                0.979124773     -126.140851
9.312                0.979083551     -126.372976
9.313                0.979042372     -126.605567
9.314                0.979001237     -126.838624
9.315                0.978960148     -127.072146
9.316                0.978919106     -127.306133
9.317                0.978878114     -127.540585
9.318                0.978837172       -127.7755
9.319                0.978796282     -128.010879
9.32                 0.978755446      -128.24672
9.321                0.978714666     -128.483024
9.322                0.978673942     -128.719789
9.323                0.978633276     -128.957016
9.324                0.978592671     -129.194702
9.325                0.978552127     -129.432849
9.326                0.978511647     -129.671454
9.327                0.978471231     -129.910517
9.328                0.978430882     -130.150038
9.329                0.978390602     -130.390016
9.33                 0.978350391      -130.63045
9.331                0.978310252      -130.87134
9.332                0.978270186     -131.112684
9.333                0.978230195     -131.354482
9.334                 0.97819028     -131.596732
9.335                0.978150444     -131.839435
9.336                0.978110687     -132.082589
9.337                0.978071013     -132.326194
9.338                0.978031421     -132.570248
9.339                0.977991915      -132.81475
9.34                 0.977952496       -133.0597
9.341                0.977913165     -133.305097
9.342                0.977873925     -133.550939
9.343                0.977834777     -133.797226
9.344                0.977795722     -134.043957
9.345                0.977756764      -134.29113
9.346                0.977717902     -134.538745
9.347                 0.97767914       -134.7868
9.348                0.977640479     -135.035295
9.349                 0.97760192     -135.284228
9.35                 0.977563466     -135.533598
9.351                0.977525119     -135.783405
9.352                0.977486879     -136.033646
9.353                 0.97744875      -136.28432
9.354                0.977410732     -136.535427
9.355                0.977372828     -136.786965
9.356                0.977335039     -137.038933
9.357                0.977297368      -137.29133
9.358                0.977259816     -137.544154
9.359                0.977222385     -137.797404
9.36                 0.977185076     -138.051078
9.361                0.977147892     -138.305176
9.362                0.977110835     -138.559696
9.363                0.977073906     -138.814636
9.364                0.977037108     -139.069995
9.365                0.977000441     -139.325772
9.366                0.976963909     -139.581965
9.367                0.976927512     -139.838573
9.368                0.976891253     -140.095593
9.369                0.976855134     -140.353026
9.37                 0.976819156     -140.610868
9.371                0.976783321     -140.869119
9.372                0.976747632     -141.127776
9.373                 0.97671209     -141.386839
9.374                0.976676697     -141.646306
9.375                0.976641455     -141.906174
9.376                0.976606366     -142.166443
9.377                0.976571431      -142.42711
9.378                0.976536653     -142.688174
9.379                0.976502034     -142.949634
9.38                 0.976467575     -143.211486
9.381                0.976433278      -143.47373
9.382                0.976399146     -143.736364
9.383                 0.97636518     -143.999385
9.384                0.976331381     -144.262793
9.385                0.976297753     -144.526584
9.386                0.976264296     -144.790758
9.387                0.976231014     -145.055312
9.388                0.976197906     -145.320245
9.389                0.976164977     -145.585554
9.39                 0.976132226     -145.851237
9.391                0.976099657     -146.117293
9.392                0.976067271     -146.383719
9.393                 0.97603507     -146.650514
9.394                0.976003056     -146.917674
9.395                0.975971231     -147.185199
9.396                0.975939597     -147.453086
