! TOUCHSTONE file generated by CST DESIGN STUDIO
! Date and time: Tue Feb  4 18:17:06 2025
! Project name: C:\Work\MatlabApps\UnitCellOptimizationMatlab\CST\unitcell.cst
! Tree item: Tasks\Sweep1\SPara1\S-Parameters
! Header version: 2024
! Port assignment regex: !\s*Touchstone port\s*([0-9]+)\s*=\s*(CST MWS port|CST DES external port|CST DES block port)\s*(.+)\s* \(\"(.*)\"\)(\s*mode\s*([0-9]+))?.*
! Touchstone port assignment:
! Touchstone port 1 = CST DES external port 1 ("")
# GHz S MA R 50
9                    0.961273439     -45.5601087
9.001                0.961199811     -45.6153485
9.002                 0.96112594     -45.6706981
9.003                0.961051823     -45.7261576
9.004                 0.96097746     -45.7817274
9.005                0.960902851     -45.8374078
9.006                0.960827995     -45.8931992
9.007                 0.96075289     -45.9491019
9.008                0.960677537     -46.0051162
9.009                0.960601934     -46.0612424
9.01                 0.960526081     -46.1174809
9.011                0.960449977      -46.173832
9.012                0.960373621     -46.2302961
9.013                0.960297012     -46.2868735
9.014                0.960220149     -46.3435645
9.015                0.960143032     -46.4003694
9.016                 0.96006566     -46.4572886
9.017                0.959988032     -46.5143225
9.018                0.959910148     -46.5714714
9.019                0.959832006     -46.6287355
9.02                 0.959753605     -46.6861154
9.021                0.959674945     -46.7436112
9.022                0.959596026     -46.8012235
9.023                0.959516845     -46.8589524
9.024                0.959437403     -46.9167984
9.025                0.959357699     -46.9747618
9.026                0.959277731     -47.0328429
9.027                  0.9591975     -47.0910422
9.028                0.959117003       -47.14936
9.029                 0.95903624     -47.2077965
9.03                 0.958955211     -47.2663523
9.031                0.958873915     -47.3250276
9.032                 0.95879235     -47.3838228
9.033                0.958710516     -47.4427383
9.034                0.958628412     -47.5017744
9.035                0.958546037     -47.5609315
9.036                 0.95846339     -47.6202099
9.037                0.958380471     -47.6796101
9.038                0.958297278     -47.7391324
9.039                0.958213811     -47.7987771
9.04                 0.958130068     -47.8585447
9.041                 0.95804605     -47.9184355
9.042                0.957961754     -47.9784499
9.043                0.957877181     -48.0385882
9.044                0.957792329     -48.0988509
9.045                0.957707197     -48.1592383
9.046                0.957621784     -48.2197508
9.047                0.957536091     -48.2803887
9.048                0.957450114     -48.3411525
9.049                0.957363855     -48.4020426
9.05                 0.957277311     -48.4630593
9.051                0.957190483     -48.5242029
9.052                0.957103368      -48.585474
9.053                0.957015966     -48.6468729
9.054                0.956928276        -48.7084
9.055                0.956840298     -48.7700556
9.056                 0.95675203     -48.8318403
9.057                0.956663471     -48.8937543
9.058                0.956574621      -48.955798
9.059                0.956485478     -49.0179719
9.06                 0.956396041     -49.0802764
9.061                 0.95630631     -49.1427118
9.062                0.956216284     -49.2052786
9.063                0.956125961     -49.2679772
9.064                0.956035341      -49.330808
9.065                0.955944423     -49.3937713
9.066                0.955853206     -49.4568677
9.067                0.955761688     -49.5200974
9.068                0.955669869      -49.583461
9.069                0.955577748     -49.6469588
9.07                 0.955485323     -49.7105912
9.071                0.955392595     -49.7743588
9.072                0.955299561     -49.8382618
9.073                0.955206221     -49.9023007
9.074                0.955112574     -49.9664759
9.075                0.955018619     -50.0307879
9.076                0.954924355     -50.0952371
9.077                 0.95482978     -50.1598239
9.078                0.954734894     -50.2245487
9.079                0.954639696     -50.2894119
9.08                 0.954544185     -50.3544141
9.081                 0.95444836     -50.4195556
9.082                0.954352219     -50.4848368
9.083                0.954255762     -50.5502583
9.084                0.954158988     -50.6158204
9.085                0.954061895     -50.6815236
9.086                0.953964482     -50.7473683
9.087                 0.95386675     -50.8133549
9.088                0.953768695      -50.879484
9.089                0.953670318     -50.9457559
9.09                 0.953571617     -51.0121711
9.091                0.953472592     -51.0787301
9.092                0.953373241     -51.1454332
9.093                0.953273562     -51.2122811
9.094                0.953173556      -51.279274
9.095                0.953073221     -51.3464125
9.096                0.952972555     -51.4136971
9.097                0.952871559     -51.4811281
9.098                 0.95277023     -51.5487061
9.099                0.952668567     -51.6164315
9.1                   0.95256657     -51.6843048
9.101                0.952464237     -51.7523264
9.102                0.952361568     -51.8204968
9.103                0.952258561     -51.8888166
9.104                0.952155214     -51.9572861
9.105                0.952051528     -52.0259058
9.106                  0.9519475     -52.0946763
9.107                 0.95184313     -52.1635979
9.108                0.951738416     -52.2326713
9.109                0.951633358     -52.3018967
9.11                 0.951527954     -52.3712749
9.111                0.951422203     -52.4408061
9.112                0.951316103     -52.5104909
9.113                0.951209655     -52.5803299
9.114                0.951102856     -52.6503234
9.115                0.950995705     -52.7204721
9.116                0.950888202     -52.7907763
9.117                0.950780345     -52.8612366
9.118                0.950672132     -52.9318534
9.119                0.950563563     -53.0026274
9.12                 0.950454637     -53.0735589
9.121                0.950345352     -53.1446485
9.122                0.950235707     -53.2158967
9.123                0.950125701      -53.287304
9.124                0.950015333      -53.358871
9.125                0.949904601      -53.430598
9.126                0.949793504     -53.5024857
9.127                0.949682041     -53.5745345
9.128                0.949570212      -53.646745
9.129                0.949458014     -53.7191177
9.13                 0.949345446     -53.7916531
9.131                0.949232507     -53.8643518
9.132                0.949119196     -53.9372142
9.133                0.949005512     -54.0102409
9.134                0.948891453     -54.0834324
9.135                0.948777018     -54.1567893
9.136                0.948662206     -54.2303121
9.137                0.948547016     -54.3040013
9.138                0.948431446     -54.3778575
9.139                0.948315495     -54.4518811
9.14                 0.948199162     -54.5260729
9.141                0.948082446     -54.6004332
9.142                0.947965344     -54.6749627
9.143                0.947847857     -54.7496618
9.144                0.947729982     -54.8245312
9.145                0.947611718     -54.8995714
9.146                0.947493065     -54.9747829
9.147                 0.94737402     -55.0501664
9.148                0.947254583     -55.1257223
9.149                0.947134751     -55.2014512
9.15                 0.947014525     -55.2773538
9.151                0.946893901     -55.3534305
9.152                 0.94677288     -55.4296819
9.153                 0.94665146     -55.5061086
9.154                0.946529639     -55.5827112
9.155                0.946407416     -55.6594902
9.156                 0.94628479     -55.7364463
9.157                 0.94616176     -55.8135799
9.158                0.946038323     -55.8908917
9.159                0.945914479     -55.9683823
9.16                 0.945790226     -56.0460523
9.161                0.945665563     -56.1239022
9.162                0.945540489     -56.2019326
9.163                0.945415001     -56.2801441
9.164                  0.9452891     -56.3585374
9.165                0.945162783     -56.4371129
9.166                0.945036048     -56.5158714
9.167                0.944908896     -56.5948134
9.168                0.944781323     -56.6739395
9.169                0.944653329     -56.7532504
9.17                 0.944524913     -56.8327466
9.171                0.944396073     -56.9124287
9.172                0.944266807     -56.9922974
9.173                0.944137114     -57.0723532
9.174                0.944006992     -57.1525969
9.175                0.943876441     -57.2330289
9.176                0.943745459       -57.31365
9.177                0.943614043     -57.3944608
9.178                0.943482194     -57.4754618
9.179                0.943349909     -57.5566538
9.18                 0.943217187     -57.6380373
9.181                0.943084027      -57.719613
9.182                0.942950426     -57.8013816
9.183                0.942816384     -57.8833436
9.184                0.942681899     -57.9654997
9.185                 0.94254697     -58.0478505
9.186                0.942411594     -58.1303968
9.187                0.942275772      -58.213139
9.188                  0.9421395      -58.296078
9.189                0.942002778     -58.3792144
9.19                 0.941865603     -58.4625487
9.191                0.941727976     -58.5460818
9.192                0.941589893     -58.6298141
9.193                0.941451354     -58.7137465
9.194                0.941312357     -58.7978795
9.195                0.941172901     -58.8822138
9.196                0.941032983     -58.9667502
9.197                0.940892602     -59.0514892
9.198                0.940751758     -59.1364316
9.199                0.940610448     -59.2215781
9.2                   0.94046867     -59.3069292
9.201                0.940326424     -59.3924858
9.202                0.940183707     -59.4782484
9.203                0.940040519     -59.5642179
9.204                0.939896856     -59.6503948
9.205                0.939752719     -59.7367799
9.206                0.939608105     -59.8233738
9.207                0.939463013     -59.9101773
9.208                0.939317441     -59.9971911
9.209                0.939171387     -60.0844159
9.21                 0.939024851     -60.1718524
9.211                 0.93887783     -60.2595013
9.212                0.938730322     -60.3473633
9.213                0.938582327     -60.4354391
9.214                0.938433842     -60.5237294
9.215                0.938284866     -60.6122351
9.216                0.938135398     -60.7009567
9.217                0.937985435     -60.7898951
9.218                0.937834976      -60.879051
9.219                0.937684019      -60.968425
9.22                 0.937532563     -61.0580179
9.221                0.937380606     -61.1478306
9.222                0.937228147     -61.2378636
9.223                0.937075184     -61.3281178
9.224                0.936921714     -61.4185939
9.225                0.936767738     -61.5092926
9.226                0.936613251     -61.6002148
9.227                0.936458255     -61.6913611
9.228                0.936302745     -61.7827323
9.229                0.936146721     -61.8743292
9.23                 0.935990182     -61.9661526
9.231                0.935833125     -62.0582031
9.232                0.935675548     -62.1504817
9.233                0.935517451      -62.242989
9.234                0.935358831     -62.3357258
9.235                0.935199686      -62.428693
9.236                0.935040016     -62.5218912
9.237                0.934879818     -62.6153213
9.238                 0.93471909     -62.7089841
9.239                0.934557831     -62.8028803
9.24                 0.934396039     -62.8970108
9.241                0.934233713     -62.9913764
9.242                 0.93407085     -63.0859777
9.243                0.933907449     -63.1808158
9.244                0.933743508     -63.2758913
9.245                0.933579025      -63.371205
9.246                0.933413999     -63.4667578
9.247                0.933248428     -63.5625505
9.248                0.933082311     -63.6585839
9.249                0.932915644     -63.7548589
9.25                 0.932748428     -63.8513762
9.251                0.932580659     -63.9481366
9.252                0.932412336     -64.0451411
9.253                0.932243458     -64.1423904
9.254                0.932074022     -64.2398854
9.255                0.931904027     -64.3376269
9.256                0.931733472     -64.4356157
9.257                0.931562353     -64.5338528
9.258                 0.93139067     -64.6323389
9.259                0.931218421     -64.7310749
9.26                 0.931045603     -64.8300616
9.261                0.930872216        -64.9293
9.262                0.930698257     -65.0287908
9.263                0.930523724      -65.128535
9.264                0.930348617     -65.2285334
9.265                0.930172932     -65.3287869
9.266                0.929996668     -65.4292963
9.267                0.929819824     -65.5300625
9.268                0.929642397     -65.6310864
9.269                0.929464385     -65.7323689
9.27                 0.929285788     -65.8339109
9.271                0.929106603     -65.9357133
9.272                0.928926828     -66.0377769
9.273                0.928746461     -66.1401027
9.274                0.928565501     -66.2426915
9.275                0.928383946     -66.3455442
9.276                0.928201793     -66.4486619
9.277                0.928019042     -66.5520453
9.278                 0.92783569     -66.6556953
9.279                0.927651735      -66.759613
9.28                 0.927467176     -66.8637992
9.281                0.927282011     -66.9682548
9.282                0.927096238     -67.0729808
9.283                0.926909855      -67.177978
9.284                 0.92672286     -67.2832475
9.285                0.926535251     -67.3887901
9.286                0.926347027     -67.4946069
9.287                0.926158185     -67.6006987
9.288                0.925968725     -67.7070664
9.289                0.925778643     -67.8137111
9.29                 0.925587939     -67.9206337
9.291                0.925396609     -68.0278351
9.292                0.925204654     -68.1353163
9.293                0.925012069     -68.2430782
9.294                0.924818855     -68.3511219
9.295                0.924625008     -68.4594483
9.296                0.924430528     -68.5680583
9.297                0.924235411      -68.676953
9.298                0.924039657     -68.7861333
9.299                0.923843263     -68.8956002
9.3                  0.923646228     -69.0053547
9.301                 0.92344855     -69.1153978
9.302                0.923250226     -69.2257304
9.303                0.923051256     -69.3363536
9.304                0.922851636     -69.4472684
9.305                0.922651366     -69.5584758
9.306                0.922450444     -69.6699767
9.307                0.922248867     -69.7817722
9.308                0.922046633     -69.8938633
9.309                0.921843742      -70.006251
9.31                  0.92164019     -70.1189363
9.311                0.921435977     -70.2319204
9.312                  0.9212311     -70.3452041
9.313                0.921025557     -70.4587885
9.314                0.920819347     -70.5726746
9.315                0.920612468     -70.6868636
9.316                0.920404918     -70.8013564
9.317                0.920196695      -70.916154
9.318                0.919987797     -71.0312576
9.319                0.919778222     -71.1466682
9.32                 0.919567969     -71.2623868
9.321                0.919357036     -71.3784144
9.322                0.919145421     -71.4947523
9.323                0.918933121     -71.6114013
9.324                0.918720136     -71.7283626
9.325                0.918506463     -71.8456373
9.326                0.918292101     -71.9632265
9.327                0.918077048     -72.0811311
9.328                0.917861301     -72.1993523
9.329                 0.91764486     -72.3178913
9.33                 0.917427721      -72.436749
9.331                0.917209885     -72.5559265
9.332                0.916991348     -72.6754251
9.333                0.916772109     -72.7952457
9.334                0.916552166     -72.9153895
9.335                0.916331517     -73.0358575
9.336                0.916110161      -73.156651
9.337                0.915888095     -73.2777709
9.338                0.915665319     -73.3992185
9.339                0.915441829     -73.5209949
9.34                 0.915217625     -73.6431011
9.341                0.914992705     -73.7655383
9.342                0.914767066     -73.8883076
9.343                0.914540708     -74.0114103
9.344                0.914313628     -74.1348473
9.345                0.914085825     -74.2586199
9.346                0.913857296     -74.3827292
9.347                0.913628041     -74.5071763
9.348                0.913398057     -74.6319625
9.349                0.913167343     -74.7570888
9.35                 0.912935897     -74.8825565
9.351                0.912703718     -75.0083666
9.352                0.912470803     -75.1345204
9.353                0.912237151     -75.2610191
9.354                 0.91200276     -75.3878637
9.355                0.911767629     -75.5150555
9.356                0.911531755     -75.6425957
9.357                0.911295138     -75.7704855
9.358                0.911057776      -75.898726
9.359                0.910819666     -76.0273184
9.36                 0.910580808      -76.156264
9.361                  0.9103412     -76.2855638
9.362                 0.91010084     -76.4152193
9.363                0.909859726     -76.5452314
9.364                0.909617858     -76.6756015
9.365                0.909375232     -76.8063308
9.366                0.909131849     -76.9374205
9.367                0.908887706     -77.0688717
9.368                0.908642801     -77.2006858
9.369                0.908397134     -77.3328639
9.37                 0.908150702     -77.4654073
9.371                0.907903504     -77.5983173
9.372                0.907655539     -77.7315949
9.373                0.907406805     -77.8652416
9.374                  0.9071573     -77.9992585
9.375                0.906907024     -78.1336469
9.376                0.906655975     -78.2684081
9.377                 0.90640415     -78.4035432
9.378                 0.90615155     -78.5390536
9.379                0.905898172     -78.6749405
9.38                 0.905644015     -78.8112051
9.381                0.905389077     -78.9478488
9.382                0.905133358     -79.0848728
9.383                0.904876856     -79.2222784
9.384                 0.90461957     -79.3600669
9.385                0.904361497     -79.4982395
9.386                0.904102638     -79.6367975
9.387                 0.90384299     -79.7757423
9.388                0.903582553      -79.915075
9.389                0.903321324     -80.0547971
9.39                 0.903059304     -80.1949097
9.391                 0.90279649     -80.3354143
9.392                0.902532881      -80.476312
9.393                0.902268477     -80.6176042
9.394                0.902003276     -80.7592923
9.395                0.901737277     -80.9013774
9.396                0.901470478      -81.043861
