! TOUCHSTONE file generated by CST DESIGN STUDIO
! Date and time: Tue Feb  4 18:17:02 2025
! Project name: C:\Work\MatlabApps\UnitCellOptimizationMatlab\CST\unitcell.cst
! Tree item: Tasks\Sweep1\SPara1\S-Parameters
! Header version: 2024
! Port assignment regex: !\s*Touchstone port\s*([0-9]+)\s*=\s*(CST MWS port|CST DES external port|CST DES block port)\s*(.+)\s* \(\"(.*)\"\)(\s*mode\s*([0-9]+))?.*
! Touchstone port assignment:
! Touchstone port 1 = CST DES external port 1 ("")
# GHz S MA R 50
9                    0.947477848     -54.7474525
9.001                 0.94735919     -54.8209161
9.002                0.947240125     -54.8945473
9.003                0.947120653     -54.9683468
9.004                0.947000772     -55.0423151
9.005                0.946880481     -55.1164526
9.006                0.946759778       -55.19076
9.007                0.946638661     -55.2652378
9.008                 0.94651713     -55.3398865
9.009                0.946395182     -55.4147067
9.01                 0.946272817      -55.489699
9.011                0.946150032     -55.5648638
9.012                0.946026827     -55.6402019
9.013                0.945903199     -55.7157137
9.014                0.945779148     -55.7913997
9.015                0.945654672     -55.8672607
9.016                0.945529769      -55.943297
9.017                0.945404437     -56.0195094
9.018                0.945278676     -56.0958983
9.019                0.945152484     -56.1724644
9.02                 0.945025859     -56.2492082
9.021                  0.9448988     -56.3261304
9.022                0.944771305     -56.4032314
9.023                0.944643373     -56.4805118
9.024                0.944515001     -56.5579724
9.025                0.944386189     -56.6356135
9.026                0.944256936     -56.7134359
9.027                0.944127238     -56.7914402
9.028                0.943997096     -56.8696268
9.029                0.943866507     -56.9479965
9.03                 0.943735469     -57.0265498
9.031                0.943603982     -57.1052873
9.032                0.943472043     -57.1842096
9.033                0.943339651     -57.2633173
9.034                0.943206805     -57.3426111
9.035                0.943073502     -57.4220916
9.036                0.942939741     -57.5017593
9.037                0.942805521     -57.5816149
9.038                 0.94267084      -57.661659
9.039                0.942535696     -57.7418921
9.04                 0.942400088     -57.8223151
9.041                0.942264014     -57.9029284
9.042                0.942127472     -57.9837327
9.043                0.941990461     -58.0647286
9.044                0.941852979     -58.1459168
9.045                0.941715025     -58.2272978
9.046                0.941576596     -58.3088724
9.047                0.941437691     -58.3906411
9.048                0.941298309     -58.4726047
9.049                0.941158448     -58.5547637
9.05                 0.941018106     -58.6371188
9.051                0.940877281     -58.7196707
9.052                0.940735972     -58.8024199
9.053                0.940594177     -58.8853672
9.054                0.940451894     -58.9685133
9.055                0.940309122     -59.0518587
9.056                0.940165859     -59.1354041
9.057                0.940022103     -59.2191502
9.058                0.939877852     -59.3030977
9.059                0.939733105     -59.3872472
9.06                  0.93958786     -59.4715994
9.061                0.939442116      -59.556155
9.062                 0.93929587     -59.6409147
9.063                 0.93914912     -59.7258791
9.064                0.939001866     -59.8110489
9.065                0.938854105     -59.8964249
9.066                0.938705836     -59.9820076
9.067                0.938557056     -60.0677978
9.068                0.938407764     -60.1537961
9.069                0.938257959     -60.2400034
9.07                 0.938107638     -60.3264202
9.071                0.937956799     -60.4130473
9.072                0.937805442     -60.4998853
9.073                0.937653563     -60.5869351
9.074                0.937501161     -60.6741972
9.075                0.937348236     -60.7616724
9.076                0.937194783     -60.8493614
9.077                0.937040803      -60.937265
9.078                0.936886292     -61.0253838
9.079                0.936731249     -61.1137186
9.08                 0.936575673       -61.20227
9.081                0.936419562     -61.2910389
9.082                0.936262913      -61.380026
9.083                0.936105724     -61.4692319
9.084                0.935947995     -61.5586575
9.085                0.935789723     -61.6483034
9.086                0.935630906     -61.7381704
9.087                0.935471542     -61.8282593
9.088                 0.93531163     -61.9185708
9.089                0.935151167     -62.0091056
9.09                 0.934990152     -62.0998645
9.091                0.934828583     -62.1908483
9.092                0.934666458     -62.2820576
9.093                0.934503775     -62.3734934
9.094                0.934340532     -62.4651563
9.095                0.934176727     -62.5570471
9.096                0.934012359     -62.6491665
9.097                0.933847425     -62.7415154
9.098                0.933681923     -62.8340946
9.099                0.933515852     -62.9269047
9.1                   0.93334921     -63.0199466
9.101                0.933181995     -63.1132211
9.102                0.933014204     -63.2067289
9.103                0.932845836     -63.3004709
9.104                0.932676889     -63.3944478
9.105                0.932507361     -63.4886605
9.106                 0.93233725     -63.5831097
9.107                0.932166554     -63.6777962
9.108                0.931995271     -63.7727209
9.109                  0.9318234     -63.8678845
9.11                 0.931650937     -63.9632879
9.111                0.931477882     -64.0589318
9.112                0.931304232     -64.1548172
9.113                0.931129985     -64.2509447
9.114                0.930955139     -64.3473153
9.115                0.930779693     -64.4439298
9.116                0.930603643     -64.5407889
9.117                0.930426989     -64.6378936
9.118                0.930249729     -64.7352446
9.119                0.930071859     -64.8328429
9.12                 0.929893379     -64.9306891
9.121                0.929714286     -65.0287843
9.122                0.929534578     -65.1271292
9.123                0.929354254     -65.2257247
9.124                 0.92917331     -65.3245716
9.125                0.928991746     -65.4236708
9.126                0.928809559     -65.5230231
9.127                0.928626747     -65.6226295
9.128                0.928443308     -65.7224908
9.129                 0.92825924     -65.8226078
9.13                 0.928074541     -65.9229815
9.131                0.927889208     -66.0236126
9.132                0.927703241     -66.1245022
9.133                0.927516637      -66.225651
9.134                0.927329393       -66.32706
9.135                0.927141508       -66.42873
9.136                0.926952979      -66.530662
9.137                0.926763806     -66.6328567
9.138                0.926573984     -66.7353153
9.139                0.926383513     -66.8380384
9.14                 0.926192391     -66.9410271
9.141                0.926000615     -67.0442822
9.142                0.925808182     -67.1478047
9.143                0.925615093     -67.2515955
9.144                0.925421343     -67.3556555
9.145                0.925226931     -67.4599856
9.146                0.925031855     -67.5645867
9.147                0.924836113     -67.6694598
9.148                0.924639702     -67.7746058
9.149                0.924442621     -67.8800256
9.15                 0.924244868     -67.9857202
9.151                 0.92404644     -68.0916905
9.152                0.923847335     -68.1979375
9.153                0.923647551     -68.3044621
9.154                0.923447087     -68.4112652
9.155                 0.92324594     -68.5183479
9.156                0.923044107     -68.6257111
9.157                0.922841588     -68.7333556
9.158                0.922638379     -68.8412826
9.159                0.922434478      -68.949493
9.16                 0.922229885     -69.0579877
9.161                0.922024595     -69.1667677
9.162                0.921818608     -69.2758341
9.163                0.921611921     -69.3851877
9.164                0.921404532     -69.4948295
9.165                0.921196438     -69.6047607
9.166                0.920987639     -69.7149821
9.167                0.920778131     -69.8254947
9.168                0.920567913     -69.9362996
9.169                0.920356983     -70.0473977
9.17                 0.920145338     -70.1587901
9.171                0.919932976     -70.2704777
9.172                0.919719895     -70.3824617
9.173                0.919506093     -70.4947429
9.174                0.919291568     -70.6073224
9.175                0.919076318     -70.7202013
9.176                 0.91886034     -70.8333806
9.177                0.918643634     -70.9468612
9.178                0.918426195     -71.0606443
9.179                0.918208023     -71.1747309
9.18                 0.917989115      -71.289122
9.181                 0.91776947     -71.4038186
9.182                0.917549084     -71.5188218
9.183                0.917327956     -71.6341327
9.184                0.917106085     -71.7497524
9.185                0.916883467     -71.8656818
9.186                  0.9166601      -71.981922
9.187                0.916435983     -72.0984741
9.188                0.916211114     -72.2153392
9.189                 0.91598549     -72.3325184
9.19                 0.915759109     -72.4500127
9.191                0.915531969     -72.5678232
9.192                0.915304069      -72.685951
9.193                0.915075405     -72.8043971
9.194                0.914845977     -72.9231627
9.195                0.914615781     -73.0422489
9.196                0.914384817     -73.1616568
9.197                0.914153081     -73.2813874
9.198                0.913920571     -73.4014418
9.199                0.913687287     -73.5218213
9.2                  0.913453224     -73.6425268
9.201                0.913218383     -73.7635596
9.202                 0.91298276     -73.8849206
9.203                0.912746353     -74.0066112
9.204                0.912509161     -74.1286322
9.205                0.912271181      -74.250985
9.206                0.912032412     -74.3736707
9.207                0.911792851     -74.4966903
9.208                0.911552496      -74.620045
9.209                0.911311346      -74.743736
9.21                 0.911069398     -74.8677644
9.211                 0.91082665     -74.9921314
9.212                0.910583101     -75.1168381
9.213                0.910338748     -75.2418856
9.214                0.910093589     -75.3672752
9.215                0.909847623      -75.493008
9.216                0.909600847     -75.6190852
9.217                 0.90935326     -75.7455079
9.218                0.909104859     -75.8722774
9.219                0.908855643     -75.9993947
9.22                  0.90860561     -76.1268612
9.221                0.908354758     -76.2546779
9.222                0.908103084     -76.3828461
9.223                0.907850588     -76.5113669
9.224                0.907597266     -76.6402416
9.225                0.907343118     -76.7694713
9.226                0.907088141     -76.8990574
9.227                0.906832333     -77.0290009
9.228                0.906575693      -77.159303
9.229                0.906318219     -77.2899651
9.23                 0.906059909     -77.4209883
9.231                0.905800761     -77.5523739
9.232                0.905540773      -77.684123
9.233                0.905279944     -77.8162369
9.234                0.905018271     -77.9487168
9.235                0.904755753      -78.081564
9.236                0.904492389     -78.2147797
9.237                0.904228176     -78.3483652
9.238                0.903963112     -78.4823216
9.239                0.903697197     -78.6166503
9.24                 0.903430427     -78.7513525
9.241                0.903162803     -78.8864294
9.242                0.902894321     -79.0218824
9.243                 0.90262498     -79.1577126
9.244                0.902354779     -79.2939214
9.245                0.902083716       -79.43051
9.246                0.901811789     -79.5674797
9.247                0.901538996     -79.7048317
9.248                0.901265337     -79.8425674
9.249                0.900990809      -79.980688
9.25                 0.900715411     -80.1191949
9.251                0.900439141     -80.2580892
9.252                0.900161999     -80.3973724
9.253                0.899883981     -80.5370456
9.254                0.899605087     -80.6771103
9.255                0.899325316     -80.8175676
9.256                0.899044666     -80.9584189
9.257                0.898763135     -81.0996656
9.258                0.898480722     -81.2413089
9.259                0.898197425     -81.3833501
9.26                 0.897913244     -81.5257906
9.261                0.897628177     -81.6686317
9.262                0.897342222     -81.8118747
9.263                0.897055379     -81.9555209
9.264                0.896767645     -82.0995717
9.265                 0.89647902     -82.2440284
9.266                0.896189502     -82.3888923
9.267                0.895899091     -82.5341648
9.268                0.895607785     -82.6798472
9.269                0.895315582     -82.8259409
9.27                 0.895022482     -82.9724473
9.271                0.894728483     -83.1193675
9.272                0.894433585     -83.2667032
9.273                0.894137785     -83.4144555
9.274                0.893841085     -83.5626258
9.275                0.893543481     -83.7112155
9.276                0.893244973     -83.8602261
9.277                0.892945561     -84.0096587
9.278                0.892645242     -84.1595149
9.279                0.892344017     -84.3097959
9.28                 0.892041884     -84.4605032
9.281                0.891738843     -84.6116382
9.282                0.891434892     -84.7632022
9.283                0.891130032     -84.9151966
9.284                 0.89082426     -85.0676228
9.285                0.890517576     -85.2204821
9.286                 0.89020998     -85.3737761
9.287                0.889901471      -85.527506
9.288                0.889592048     -85.6816733
9.289                 0.88928171     -85.8362793
9.29                 0.888970458     -85.9913256
9.291                0.888658289     -86.1468134
9.292                0.888345205     -86.3027441
9.293                0.888031204     -86.4591193
9.294                0.887716286     -86.6159403
9.295                 0.88740045     -86.7732084
9.296                0.887083696     -86.9309252
9.297                0.886766024     -87.0890921
9.298                0.886447433     -87.2477104
9.299                0.886127924     -87.4067815
9.3                  0.885807495      -87.566307
9.301                0.885486146     -87.7262882
9.302                0.885163879     -87.8867266
9.303                0.884840691     -88.0476235
9.304                0.884516584     -88.2089805
9.305                0.884191556     -88.3707989
9.306                0.883865609     -88.5330802
9.307                0.883538742     -88.6958258
9.308                0.883210956     -88.8590371
9.309                 0.88288225     -89.0227156
9.31                 0.882552624     -89.1868628
9.311                0.882222079       -89.35148
9.312                0.881890615     -89.5165687
9.313                0.881558232     -89.6821304
9.314                 0.88122493     -89.8481665
9.315                0.880890711     -90.0146784
9.316                0.880555574     -90.1816676
9.317                 0.88021952     -90.3491355
9.318                 0.87988255     -90.5170837
9.319                0.879544663     -90.6855134
9.32                 0.879205861     -90.8544263
9.321                0.878866144     -91.0238236
9.322                0.878525513      -91.193707
9.323                0.878183969     -91.3640778
9.324                0.877841513     -91.5349375
9.325                0.877498145     -91.7062876
9.326                0.877153866     -91.8781295
9.327                0.876808678     -92.0504646
9.328                0.876462581     -92.2232944
9.329                0.876115577     -92.3966204
9.33                 0.875767666     -92.5704441
9.331                 0.87541885     -92.7447668
9.332                 0.87506913       -92.91959
9.333                0.874718508     -93.0949153
9.334                0.874366985      -93.270744
9.335                0.874014561     -93.4470776
9.336                 0.87366124     -93.6239175
9.337                0.873307022     -93.8012653
9.338                0.872951909     -93.9791223
9.339                0.872595902     -94.1574901
9.34                 0.872239004     -94.3363701
9.341                0.871881216     -94.5157636
9.342                 0.87152254     -94.6956723
9.343                0.871162978     -94.8760975
9.344                0.870802532     -95.0570407
9.345                0.870441204     -95.2385033
9.346                0.870078996     -95.4204868
9.347                 0.86971591     -95.6029926
9.348                0.869351949     -95.7860222
9.349                0.868987115      -95.969577
9.35                 0.868621411     -96.1536585
9.351                0.868254838     -96.3382681
9.352                  0.8678874     -96.5234072
9.353                0.867519098     -96.7090773
9.354                0.867149937     -96.8952799
9.355                0.866779918     -97.0820163
9.356                0.866409044     -97.2692879
9.357                0.866037319     -97.4570963
9.358                0.865664745     -97.6454428
9.359                0.865291325     -97.8343289
9.36                 0.864917062      -98.023756
9.361                0.864541961     -98.2137254
9.362                0.864166023     -98.4042387
9.363                0.863789253     -98.5952973
9.364                0.863411653     -98.7869025
9.365                0.863033228     -98.9790557
9.366                0.862653981     -99.1717584
9.367                0.862273916      -99.365012
9.368                0.861893037     -99.5588178
9.369                0.861511346     -99.7531773
9.37                 0.861128849     -99.9480919
9.371                 0.86074555     -100.143563
9.372                0.860361452     -100.339592
9.373                 0.85997656      -100.53618
9.374                0.859590878     -100.733328
9.375                0.859204411     -100.931039
9.376                0.858817162     -101.129313
9.377                0.858429137     -101.328151
9.378                0.858040341     -101.527556
9.379                0.857650777     -101.727527
9.38                 0.857260452     -101.928068
9.381                0.856869369     -102.129179
9.382                0.856477534     -102.330861
9.383                0.856084952     -102.533116
9.384                0.855691629     -102.735944
9.385                0.855297569     -102.939349
9.386                0.854902778      -103.14333
9.387                0.854507262     -103.347889
9.388                0.854111026     -103.553027
9.389                0.853714076     -103.758746
9.39                 0.853316418     -103.965046
9.391                0.852918058      -104.17193
9.392                0.852519002     -104.379398
9.393                0.852119255     -104.587452
9.394                0.851718825     -104.796093
9.395                0.851317717     -105.005322
9.396                0.850915938     -105.215141
