! TOUCHSTONE file generated by CST DESIGN STUDIO
! Date and time: Tue Feb  4 18:16:54 2025
! Project name: C:\Work\MatlabApps\UnitCellOptimizationMatlab\CST\unitcell.cst
! Tree item: Tasks\Sweep1\SPara1\S-Parameters
! Header version: 2024
! Port assignment regex: !\s*Touchstone port\s*([0-9]+)\s*=\s*(CST MWS port|CST DES external port|CST DES block port)\s*(.+)\s* \(\"(.*)\"\)(\s*mode\s*([0-9]+))?.*
! Touchstone port assignment:
! Touchstone port 1 = CST DES external port 1 ("")
# GHz S MA R 50
9                    0.884310223     -91.2332229
9.001                0.883964588     -91.4075406
9.002                0.883617867     -91.5823807
9.003                0.883270061     -91.7577449
9.004                 0.88292117     -91.9336347
9.005                0.882571194     -92.1100519
9.006                0.882220132     -92.2869981
9.007                0.881867986     -92.4644749
9.008                0.881514755      -92.642484
9.009                 0.88116044     -92.8210269
9.01                  0.88080504     -93.0001054
9.011                0.880448557     -93.1797211
9.012                0.880090991     -93.3598756
9.013                0.879732342     -93.5405707
9.014                 0.87937261     -93.7218078
9.015                0.879011798     -93.9035887
9.016                0.878649904     -94.0859151
9.017                0.878286931     -94.2687885
9.018                0.877922878     -94.4522106
9.019                0.877557747     -94.6361831
9.02                 0.877191539     -94.8207076
9.021                0.876824255     -95.0057857
9.022                0.876455896     -95.1914191
9.023                0.876086462     -95.3776094
9.024                0.875715957     -95.5643584
9.025                0.875344379     -95.7516675
9.026                0.874971732     -95.9395385
9.027                0.874598017      -96.127973
9.028                0.874223235     -96.3169726
9.029                0.873847388      -96.506539
9.03                 0.873470477     -96.6966738
9.031                0.873092504     -96.8873787
9.032                0.872713472     -97.0786552
9.033                0.872333382      -97.270505
9.034                0.871952236     -97.4629298
9.035                0.871570037     -97.6559311
9.036                0.871186786     -97.8495106
9.037                0.870802486       -98.04367
9.038                0.870417139     -98.2384107
9.039                0.870030748     -98.4337345
9.04                 0.869643315      -98.629643
9.041                0.869254843     -98.8261377
9.042                0.868865335     -99.0232203
9.043                0.868474793     -99.2208924
9.044                 0.86808322     -99.4191556
9.045                 0.86769062     -99.6180115
9.046                0.867296995     -99.8174617
9.047                0.866902349     -100.017508
9.048                0.866506685     -100.218151
9.049                0.866110006     -100.419394
9.05                 0.865712316     -100.621237
9.051                0.865313619     -100.823683
9.052                0.864913917     -101.026732
9.053                0.864513216     -101.230386
9.054                0.864111518     -101.434648
9.055                0.863708827     -101.639518
9.056                0.863305149     -101.844998
9.057                0.862900487      -102.05109
9.058                0.862494844     -102.257794
9.059                0.862088227     -102.465114
9.06                 0.861680639     -102.673049
9.061                0.861272085     -102.881603
9.062                0.860862569     -103.090775
9.063                0.860452097     -103.300569
9.064                0.860040674     -103.510984
9.065                0.859628303     -103.722024
9.066                0.859214992     -103.933688
9.067                0.858800744      -104.14598
9.068                0.858385566       -104.3589
9.069                0.857969463     -104.572449
9.07                 0.857552441     -104.786629
9.071                0.857134505     -105.001443
9.072                0.856715661      -105.21689
9.073                0.856295916     -105.432973
9.074                0.855875275     -105.649693
9.075                0.855453744     -105.867051
9.076                0.855031331     -106.085049
9.077                0.854608042     -106.303688
9.078                0.854183883      -106.52297
9.079                0.853758861     -106.742896
9.08                 0.853332983     -106.963467
9.081                0.852906256     -107.184685
9.082                0.852478687     -107.406551
9.083                0.852050283     -107.629067
9.084                0.851621053     -107.852233
9.085                0.851191003     -108.076052
9.086                0.850760141     -108.300524
9.087                0.850328475     -108.525651
9.088                0.849896013     -108.751434
9.089                0.849462763     -108.977875
9.09                 0.849028734     -109.204974
9.091                0.848593933     -109.432733
9.092                 0.84815837     -109.661153
9.093                0.847722052     -109.890236
9.094                0.847284989     -110.119982
9.095                 0.84684719     -110.350393
9.096                0.846408664      -110.58147
9.097                 0.84596942     -110.813215
9.098                0.845529468     -111.045628
9.099                0.845088816      -111.27871
9.1                  0.844647475     -111.512463
9.101                0.844205455     -111.746888
9.102                0.843762766     -111.981986
9.103                0.843319417     -112.217758
9.104                0.842875419     -112.454206
9.105                0.842430783     -112.691329
9.106                0.841985519      -112.92913
9.107                0.841539637     -113.167609
9.108                 0.84109315     -113.406767
9.109                0.840646067     -113.646606
9.11                   0.8401984     -113.887127
9.111                0.839750161     -114.128329
9.112                0.839301361     -114.370215
9.113                0.838852012     -114.612785
9.114                0.838402125      -114.85604
9.115                0.837951713     -115.099982
9.116                0.837500787      -115.34461
9.117                0.837049361     -115.589926
9.118                0.836597447     -115.835931
9.119                0.836145056     -116.082625
9.12                 0.835692203     -116.330009
9.121                  0.8352389     -116.578085
9.122                0.834785161     -116.826852
9.123                0.834330998     -117.076312
9.124                0.833876426     -117.326465
9.125                0.833421457     -117.577313
9.126                0.832966106     -117.828855
9.127                0.832510387     -118.081092
9.128                0.832054313     -118.334025
9.129                  0.8315979     -118.587655
9.13                 0.831141161     -118.841982
9.131                0.830684112     -119.097007
9.132                0.830226767     -119.352731
9.133                0.829769141     -119.609153
9.134                 0.82931125     -119.866274
9.135                0.828853108     -120.124095
9.136                0.828394732     -120.382617
9.137                0.827936137     -120.641839
9.138                0.827477338     -120.901763
9.139                0.827018353     -121.162387
9.14                 0.826559196     -121.423714
9.141                0.826099885     -121.685743
9.142                0.825640436     -121.948474
9.143                0.825180866     -122.211908
9.144                0.824721191     -122.476045
9.145                0.824261429     -122.740885
9.146                0.823801596     -123.006428
9.147                0.823341712     -123.272675
9.148                0.822881791     -123.539626
9.149                0.822421854      -123.80728
9.15                 0.821961917     -124.075638
9.151                0.821501998     -124.344699
9.152                0.821042117     -124.614465
9.153                 0.82058229     -124.884934
9.154                0.820122538     -125.156108
9.155                0.819662878     -125.427985
9.156                0.819203329     -125.700565
9.157                0.818743911     -125.973849
9.158                0.818284643     -126.247836
9.159                0.817825544     -126.522526
9.16                 0.817366634     -126.797919
9.161                0.816907933     -127.074014
9.162                 0.81644946     -127.350812
9.163                0.815991236     -127.628311
9.164                 0.81553328     -127.906512
9.165                0.815075614     -128.185413
9.166                0.814618257     -128.465016
9.167                0.814161231     -128.745318
9.168                0.813704556      -129.02632
9.169                0.813248254     -129.308022
9.17                 0.812792345     -129.590421
9.171                0.812336851     -129.873518
9.172                0.811881794     -130.157313
9.173                0.811427194     -130.441804
9.174                0.810973075      -130.72699
9.175                0.810519457     -131.012872
9.176                0.810066364     -131.299447
9.177                0.809613816     -131.586716
9.178                0.809161837     -131.874677
9.179                0.808710449     -132.163329
9.18                 0.808259676     -132.452672
9.181                0.807809538     -132.742704
9.182                0.807360061     -133.033425
9.183                0.806911266     -133.324832
9.184                0.806463177     -133.616926
9.185                0.806015817     -133.909705
9.186                0.805569211     -134.203167
9.187                 0.80512338     -134.497312
9.188                 0.80467835     -134.792138
9.189                0.804234144     -135.087643
9.19                 0.803790787     -135.383827
9.191                0.803348301     -135.680688
9.192                0.802906713     -135.978225
9.193                0.802466045     -136.276435
9.194                0.802026322     -136.575317
9.195                 0.80158757     -136.874871
9.196                0.801149812     -137.175093
9.197                0.800713075     -137.475983
9.198                0.800277381     -137.777538
9.199                0.799842757     -138.079758
9.2                  0.799409228     -138.382639
9.201                0.798976819      -138.68618
9.202                0.798545555      -138.99038
9.203                0.798115462     -139.295235
9.204                0.797686565     -139.600745
9.205                 0.79725889     -139.906907
9.206                0.796832462     -140.213719
9.207                0.796407308     -140.521179
9.208                0.795983452     -140.829284
9.209                0.795560922     -141.138033
9.21                 0.795139743     -141.447422
9.211                0.794719941      -141.75745
9.212                0.794301542     -142.068115
9.213                0.793884572     -142.379413
9.214                0.793469058     -142.691342
9.215                0.793055027     -143.003901
9.216                0.792642503     -143.317085
9.217                0.792231514     -143.630893
9.218                0.791822086     -143.945321
9.219                0.791414246     -144.260367
9.22                  0.79100802     -144.576029
9.221                0.790603435     -144.892303
9.222                0.790200517     -145.209186
9.223                0.789799293     -145.526676
9.224                 0.78939979     -145.844769
9.225                0.789002034     -146.163463
9.226                0.788606052     -146.482753
9.227                 0.78821187     -146.802638
9.228                0.787819516     -147.123114
9.229                0.787429016     -147.444177
9.23                 0.787040396     -147.765825
9.231                0.786653684     -148.088054
9.232                0.786268906      -148.41086
9.233                0.785886088      -148.73424
9.234                0.785505258      -149.05819
9.235                0.785126442     -149.382708
9.236                0.784749667     -149.707789
9.237                0.784374958      -150.03343
9.238                0.784002344     -150.359626
9.239                0.783631849     -150.686375
9.24                 0.783263501     -151.013672
9.241                0.782897327     -151.341513
9.242                0.782533351     -151.669895
9.243                0.782171601     -151.998813
9.244                0.781812104     -152.328264
9.245                0.781454884     -152.658243
9.246                0.781099968     -152.988747
9.247                0.780747383      -153.31977
9.248                0.780397154     -153.651309
9.249                0.780049306      -153.98336
9.25                 0.779703867     -154.315918
9.251                0.779360861     -154.648979
9.252                0.779020313     -154.982538
9.253                0.778682251     -155.316591
9.254                0.778346698     -155.651133
9.255                 0.77801368      -155.98616
9.256                0.777683222     -156.321667
9.257                0.777355349     -156.657649
9.258                0.777030087     -156.994102
9.259                0.776707459     -157.331021
9.26                 0.776387491     -157.668401
9.261                0.776070206     -158.006237
9.262                 0.77575563     -158.344524
9.263                0.775443786     -158.683257
9.264                0.775134698     -159.022432
9.265                0.774828391     -159.362042
9.266                0.774524887     -159.702083
9.267                0.774224211     -160.042551
9.268                0.773926385     -160.383438
9.269                0.773631434     -160.724741
9.27                 0.773339379     -161.066454
9.271                0.773050244     -161.408572
9.272                0.772764051     -161.751088
9.273                0.772480823     -162.093999
9.274                0.772200581     -162.437298
9.275                0.771923349     -162.780979
9.276                0.771649147     -163.125038
9.277                0.771377997     -163.469468
9.278                 0.77110992     -163.814264
9.279                0.770844938      -164.15942
9.28                 0.770583072     -164.504931
9.281                0.770324341      -164.85079
9.282                0.770068767     -165.196992
9.283                0.769816369     -165.543531
9.284                0.769567169       -165.8904
9.285                0.769321184     -166.237595
9.286                0.769078434     -166.585109
9.287                 0.76883894     -166.932936
9.288                0.768602719      -167.28107
9.289                 0.76836979     -167.629505
9.29                 0.768140172     -167.978235
9.291                0.767913882     -168.327253
9.292                0.767690939     -168.676554
9.293                0.767471359     -169.026131
9.294                 0.76725516     -169.375978
9.295                0.767042359     -169.726088
9.296                0.766832973     -170.076456
9.297                0.766627018     -170.427074
9.298                0.766424509     -170.777937
9.299                0.766225463     -171.129038
9.3                  0.766029894      -171.48037
9.301                0.765837819     -171.831928
9.302                0.765649251     -172.183704
9.303                0.765464206     -172.535692
9.304                0.765282696     -172.887886
9.305                0.765104737     -173.240279
9.306                0.764930341     -173.592863
9.307                0.764759521     -173.945634
9.308                0.764592291     -174.298583
9.309                0.764428663     -174.651705
9.31                 0.764268649     -175.004992
9.311                 0.76411226     -175.358438
9.312                0.763959508     -175.712036
9.313                0.763810404     -176.065779
9.314                0.763664959     -176.419661
9.315                0.763523183     -176.773674
9.316                0.763385087     -177.127812
9.317                0.763250679     -177.482069
9.318                0.763119969     -177.836436
9.319                0.762992965     -178.190907
9.32                 0.762869678     -178.545476
9.321                0.762750114     -178.900136
9.322                0.762634281     -179.254878
9.323                0.762522187     -179.609698
9.324                0.762413839     -179.964587
9.325                0.762309244      179.680461
9.326                0.762208407      179.325453
9.327                0.762111336      178.970397
9.328                0.762018035      178.615299
9.329                0.761928509      178.260165
9.33                 0.761842764      177.905004
9.331                0.761760804      177.549822
9.332                0.761682632      177.194627
9.333                0.761608253      176.839424
9.334                 0.76153767      176.484221
9.335                0.761470886      176.129026
9.336                0.761407902      175.773844
9.337                0.761348723      175.418684
9.338                0.761293348      175.063552
9.339                0.761241779      174.708454
9.34                 0.761194019      174.353399
9.341                0.761150066      173.998393
9.342                0.761109921      173.643443
9.343                0.761073585      173.288555
9.344                0.761041056      172.933738
9.345                0.761012334      172.578998
9.346                0.760987416      172.224341
9.347                0.760966303      171.869775
9.348                0.760948991      171.515307
9.349                0.760935478      171.160944
9.35                 0.760925762      170.806692
9.351                0.760919838      170.452558
9.352                0.760917704       170.09855
9.353                0.760919355      169.744674
9.354                0.760924788      169.390937
9.355                0.760933997      169.037346
9.356                0.760946977      168.683907
9.357                0.760963724      168.330628
9.358                 0.76098423      167.977515
9.359                0.761008491      167.624575
9.36                 0.761036498      167.271815
9.361                0.761068247      166.919241
9.362                0.761103728       166.56686
9.363                0.761142936      166.214679
9.364                0.761185861      165.862704
9.365                0.761232495      165.510942
9.366                 0.76128283        165.1594
9.367                0.761336857      164.808084
9.368                0.761394566      164.457001
9.369                0.761455948      164.106157
9.37                 0.761520992      163.755559
9.371                0.761589689      163.405213
9.372                0.761662027      163.055125
9.373                0.761737995      162.705303
9.374                0.761817583      162.355752
9.375                0.761900777      162.006478
9.376                0.761987568      161.657489
9.377                0.762077941       161.30879
9.378                0.762171885      160.960387
9.379                0.762269386      160.612287
9.38                 0.762370431      160.264496
9.381                0.762475006      159.917019
9.382                0.762583099      159.569864
9.383                0.762694693      159.223036
9.384                0.762809776      158.876541
9.385                0.762928332      158.530385
9.386                0.763050347      158.184574
9.387                0.763175804      157.839114
9.388                0.763304688      157.494011
9.389                0.763436984      157.149271
9.39                 0.763572675      156.804899
9.391                0.763711745      156.460901
9.392                0.763854177      156.117282
9.393                0.763999954       155.77405
9.394                0.764149059      155.431208
9.395                0.764301474      155.088763
9.396                0.764457183       154.74672
