! TOUCHSTONE file generated by CST DESIGN STUDIO
! Date and time: Tue Feb  4 18:17:04 2025
! Project name: C:\Work\MatlabApps\UnitCellOptimizationMatlab\CST\unitcell.cst
! Tree item: Tasks\Sweep1\SPara1\S-Parameters
! Header version: 2024
! Port assignment regex: !\s*Touchstone port\s*([0-9]+)\s*=\s*(CST MWS port|CST DES external port|CST DES block port)\s*(.+)\s* \(\"(.*)\"\)(\s*mode\s*([0-9]+))?.*
! Touchstone port assignment:
! Touchstone port 1 = CST DES external port 1 ("")
# GHz S MA R 50
9                    0.955016723     -49.8523777
9.001                0.954923674     -49.9157208
9.002                0.954830309     -49.9791986
9.003                0.954736626     -50.0428113
9.004                0.954642626     -50.1065594
9.005                0.954548306     -50.1704432
9.006                0.954453666     -50.2344633
9.007                0.954358705     -50.2986201
9.008                0.954263421     -50.3629139
9.009                0.954167813     -50.4273452
9.01                 0.954071881     -50.4919144
9.011                0.953975623      -50.556622
9.012                0.953879039     -50.6214683
9.013                0.953782126     -50.6864539
9.014                0.953684885     -50.7515791
9.015                0.953587314     -50.8168444
9.016                0.953489411     -50.8822502
9.017                0.953391176     -50.9477969
9.018                0.953292608     -51.0134851
9.019                0.953193706      -51.079315
9.02                 0.953094467     -51.1452873
9.021                0.952994892     -51.2114023
9.022                 0.95289498     -51.2776604
9.023                0.952794728     -51.3440622
9.024                0.952694136      -51.410608
9.025                0.952593203     -51.4772983
9.026                0.952491927     -51.5441336
9.027                0.952390308     -51.6111144
9.028                0.952288344      -51.678241
9.029                0.952186034      -51.745514
9.03                 0.952083378     -51.8129338
9.031                0.951980373     -51.8805008
9.032                0.951877018     -51.9482156
9.033                0.951773313     -52.0160786
9.034                0.951669257     -52.0840902
9.035                0.951564847      -52.152251
9.036                0.951460084     -52.2205614
9.037                0.951354965     -52.2890218
9.038                 0.95124949     -52.3576328
9.039                0.951143657     -52.4263949
9.04                 0.951037465     -52.4953084
9.041                0.950930913     -52.5643739
9.042                0.950823999     -52.6335919
9.043                0.950716723     -52.7029629
9.044                0.950609084     -52.7724872
9.045                0.950501079     -52.8421656
9.046                0.950392708     -52.9119983
9.047                 0.95028397     -52.9819859
9.048                0.950174863     -53.0521289
9.049                0.950065386     -53.1224279
9.05                 0.949955538     -53.1928832
9.051                0.949845318     -53.2634954
9.052                0.949734724      -53.334265
9.053                0.949623754     -53.4051924
9.054                0.949512409     -53.4762783
9.055                0.949400686     -53.5475231
9.056                0.949288584     -53.6189273
9.057                0.949176102     -53.6904914
9.058                0.949063239      -53.762216
9.059                0.948949993     -53.8341015
9.06                 0.948836363     -53.9061484
9.061                0.948722348     -53.9783574
9.062                0.948607947     -54.0507288
9.063                0.948493157     -54.1232633
9.064                0.948377979     -54.1959613
9.065                 0.94826241     -54.2688234
9.066                0.948146449     -54.3418501
9.067                0.948030094      -54.415042
9.068                0.947913346     -54.4883995
9.069                0.947796201     -54.5619232
9.07                  0.94767866     -54.6356136
9.071                 0.94756072     -54.7094713
9.072                0.947442379     -54.7834968
9.073                0.947323638     -54.8576907
9.074                0.947204494     -54.9320535
9.075                0.947084947     -55.0065857
9.076                0.946964993     -55.0812879
9.077                0.946844633     -55.1561607
9.078                0.946723866     -55.2312046
9.079                0.946602688     -55.3064201
9.08                   0.9464811     -55.3818079
9.081                0.946359099     -55.4573684
9.082                0.946236685     -55.5331022
9.083                0.946113856       -55.60901
9.084                 0.94599061     -55.6850922
9.085                0.945866946     -55.7613494
9.086                0.945742863     -55.8377822
9.087                0.945618359     -55.9143912
9.088                0.945493433      -55.991177
9.089                0.945368084     -56.0681401
9.09                 0.945242309     -56.1452811
9.091                0.945116108     -56.2226005
9.092                0.944989479      -56.300099
9.093                0.944862421     -56.3777772
9.094                0.944734931     -56.4556356
9.095                 0.94460701     -56.5336749
9.096                0.944478655     -56.6118956
9.097                0.944349864     -56.6902983
9.098                0.944220637     -56.7688836
9.099                0.944090971     -56.8476521
9.1                  0.943960866     -56.9266044
9.101                0.943830319     -57.0057411
9.102                 0.94369933     -57.0850629
9.103                0.943567897     -57.1645703
9.104                0.943436018     -57.2442639
9.105                0.943303691     -57.3241444
9.106                0.943170916     -57.4042124
9.107                0.943037691     -57.4844685
9.108                0.942904014     -57.5649132
9.109                0.942769884     -57.6455473
9.11                 0.942635298     -57.7263714
9.111                0.942500257      -57.807386
9.112                0.942364757     -57.8885918
9.113                0.942228798     -57.9699895
9.114                0.942092378     -58.0515797
9.115                0.941955495      -58.133363
9.116                0.941818148       -58.21534
9.117                0.941680336     -58.2975114
9.118                0.941542056     -58.3798779
9.119                0.941403307     -58.4624401
9.12                 0.941264088     -58.5451985
9.121                0.941124396      -58.628154
9.122                0.940984231     -58.7113071
9.123                0.940843591     -58.7946586
9.124                0.940702474     -58.8782089
9.125                0.940560878     -58.9619589
9.126                0.940418802     -59.0459092
9.127                0.940276245     -59.1300604
9.128                0.940133204     -59.2144133
9.129                0.939989678     -59.2989684
9.13                 0.939845666     -59.3837265
9.131                0.939701165     -59.4686882
9.132                0.939556174     -59.5538543
9.133                0.939410692     -59.6392254
9.134                0.939264717     -59.7248021
9.135                0.939118247     -59.8105852
9.136                 0.93897128     -59.8965754
9.137                0.938823815     -59.9827733
9.138                0.938675851     -60.0691797
9.139                0.938527385     -60.1557953
9.14                 0.938378415     -60.2426207
9.141                0.938228941     -60.3296566
9.142                 0.93807896     -60.4169038
9.143                0.937928471      -60.504363
9.144                0.937777472     -60.5920348
9.145                0.937625961       -60.67992
9.146                0.937473937     -60.7680194
9.147                0.937321398     -60.8563335
9.148                0.937168342     -60.9448632
9.149                0.937014768     -61.0336092
9.15                 0.936860673     -61.1225722
9.151                0.936706056     -61.2117529
9.152                0.936550916     -61.3011521
9.153                 0.93639525     -61.3907705
9.154                0.936239056     -61.4806088
9.155                0.936082334     -61.5706678
9.156                0.935925081     -61.6609482
9.157                0.935767296     -61.7514508
9.158                0.935608976     -61.8421762
9.159                0.935450121     -61.9331254
9.16                 0.935290727      -62.024299
9.161                0.935130795     -62.1156978
9.162                 0.93497032     -62.2073225
9.163                0.934809303     -62.2991739
9.164                0.934647741     -62.3912528
9.165                0.934485632       -62.48356
9.166                0.934322974     -62.5760961
9.167                0.934159767     -62.6688621
9.168                0.933996007     -62.7618586
9.169                0.933831693     -62.8550865
9.17                 0.933666823     -62.9485465
9.171                0.933501396     -63.0422394
9.172                 0.93333541     -63.1361661
9.173                0.933168863     -63.2303272
9.174                0.933001752     -63.3247237
9.175                0.932834077     -63.4193562
9.176                0.932665834     -63.5142257
9.177                0.932497024     -63.6093328
9.178                0.932327643     -63.7046785
9.179                 0.93215769     -63.8002635
9.18                 0.931987162     -63.8960886
9.181                0.931816059     -63.9921547
9.182                0.931644378     -64.0884626
9.183                0.931472118      -64.185013
9.184                0.931299275     -64.2818069
9.185                 0.93112585      -64.378845
9.186                0.930951839     -64.4761283
9.187                0.930777241     -64.5736574
9.188                0.930602054     -64.6714333
9.189                0.930426276     -64.7694568
9.19                 0.930249906     -64.8677287
9.191                 0.93007294     -64.9662499
9.192                0.929895379     -65.0650213
9.193                0.929717218     -65.1640437
9.194                0.929538458     -65.2633179
9.195                0.929359095     -65.3628448
9.196                0.929179127     -65.4626253
9.197                0.928998554     -65.5626602
9.198                0.928817373     -65.6629505
9.199                0.928635582     -65.7634969
9.2                  0.928453179     -65.8643004
9.201                0.928270162     -65.9653618
9.202                0.928086529      -66.066682
9.203                0.927902279      -66.168262
9.204                 0.92771741     -66.2701025
9.205                0.927531919     -66.3722045
9.206                0.927345804      -66.474569
9.207                0.927159065     -66.5771966
9.208                0.926971698     -66.6800885
9.209                0.926783701     -66.7832454
9.21                 0.926595074     -66.8866684
9.211                0.926405814     -66.9903582
9.212                0.926215918     -67.0943159
9.213                0.926025386     -67.1985423
9.214                0.925834214     -67.3030383
9.215                0.925642402      -67.407805
9.216                0.925449947     -67.5128431
9.217                0.925256847     -67.6181537
9.218                  0.9250631     -67.7237376
9.219                0.924868704     -67.8295959
9.22                 0.924673658     -67.9357294
9.221                0.924477959     -68.0421391
9.222                0.924281606      -68.148826
9.223                0.924084596      -68.255791
9.224                0.923886927      -68.363035
9.225                0.923688598      -68.470559
9.226                0.923489607      -68.578364
9.227                0.923289951     -68.6864509
9.228                0.923089629     -68.7948207
9.229                0.922888638     -68.9034744
9.23                 0.922686977      -69.012413
9.231                0.922484643     -69.1216374
9.232                0.922281636     -69.2311485
9.233                0.922077952     -69.3409475
9.234                 0.92187359     -69.4510353
9.235                0.921668547     -69.5614128
9.236                0.921462823     -69.6720811
9.237                0.921256414     -69.7830412
9.238                0.921049319      -69.894294
9.239                0.920841537     -70.0058406
9.24                 0.920633064      -70.117682
9.241                0.920423899     -70.2298192
9.242                 0.92021404     -70.3422532
9.243                0.920003485      -70.454985
9.244                0.919792232     -70.5680157
9.245                0.919580279     -70.6813462
9.246                0.919367625     -70.7949777
9.247                0.919154266     -70.9089111
9.248                0.918940202     -71.0231475
9.249                 0.91872543     -71.1376879
9.25                 0.918509948     -71.2525334
9.251                0.918293755      -71.367685
9.252                0.918076848     -71.4831438
9.253                0.917859225     -71.5989107
9.254                0.917640885      -71.714987
9.255                0.917421826     -71.8313736
9.256                0.917202045     -71.9480716
9.257                 0.91698154      -72.065082
9.258                0.916760311      -72.182406
9.259                0.916538354     -72.3000446
9.26                 0.916315668     -72.4179989
9.261                 0.91609225       -72.53627
9.262                  0.9158681      -72.654859
9.263                0.915643215     -72.7737669
9.264                0.915417593     -72.8929948
9.265                0.915191232     -73.0125439
9.266                 0.91496413     -73.1324152
9.267                0.914736286     -73.2526099
9.268                0.914507697     -73.3731291
9.269                0.914278362     -73.4939738
9.27                 0.914048278     -73.6151452
9.271                0.913817444     -73.7366443
9.272                0.913585858     -73.8584725
9.273                0.913353518     -73.9806306
9.274                0.913120422     -74.1031199
9.275                0.912886569     -74.2259415
9.276                0.912651955     -74.3490966
9.277                0.912416581     -74.4725863
9.278                0.912180443     -74.5964116
9.279                 0.91194354     -74.7205739
9.28                 0.911705869     -74.8450741
9.281                 0.91146743     -74.9699135
9.282                0.911228221     -75.0950933
9.283                0.910988239     -75.2206145
9.284                0.910747482     -75.3464784
9.285                0.910505949     -75.4726861
9.286                0.910263639     -75.5992388
9.287                0.910020549     -75.7261377
9.288                0.909776677     -75.8533839
9.289                0.909532022     -75.9809787
9.29                 0.909286582     -76.1089231
9.291                0.909040356     -76.2372185
9.292                 0.90879334     -76.3658659
9.293                0.908545535     -76.4948666
9.294                0.908296938     -76.6242218
9.295                0.908047546     -76.7539327
9.296                 0.90779736     -76.8840005
9.297                0.907546376     -77.0144264
9.298                0.907294594     -77.1452116
9.299                0.907042011     -77.2763573
9.3                  0.906788626     -77.4078648
9.301                0.906534437     -77.5397353
9.302                0.906279443     -77.6719699
9.303                0.906023642       -77.80457
9.304                0.905767032     -77.9375368
9.305                0.905509611     -78.0708714
9.306                0.905251379     -78.2045752
9.307                0.904992333     -78.3386494
9.308                0.904732473     -78.4730952
9.309                0.904471795     -78.6079139
9.31                   0.9042103     -78.7431067
9.311                0.903947985      -78.878675
9.312                0.903684849     -79.0146198
9.313                 0.90342089     -79.1509426
9.314                0.903156107     -79.2876446
9.315                0.902890498      -79.424727
9.316                0.902624062     -79.5621912
9.317                0.902356798     -79.7000384
9.318                0.902088703     -79.8382698
9.319                0.901819778     -79.9768868
9.32                 0.901550019     -80.1158907
9.321                0.901279427     -80.2552827
9.322                0.901007999     -80.3950642
9.323                0.900735734     -80.5352364
9.324                0.900462631     -80.6758006
9.325                0.900188689     -80.8167582
9.326                0.899913905     -80.9581104
9.327                 0.89963828     -81.0998585
9.328                0.899361812     -81.2420039
9.329                0.899084499     -81.3845479
9.33                 0.898806341     -81.5274918
9.331                0.898527335     -81.6708369
9.332                0.898247482     -81.8145845
9.333                0.897966779     -81.9587361
9.334                0.897685227     -82.1032928
9.335                0.897402822      -82.248256
9.336                0.897119566     -82.3936271
9.337                0.896835456     -82.5394074
9.338                0.896550491     -82.6855983
9.339                0.896264671      -82.832201
9.34                 0.895977994      -82.979217
9.341                0.895690459     -83.1266476
9.342                0.895402067     -83.2744941
9.343                0.895112814     -83.4227579
9.344                0.894822702     -83.5714404
9.345                0.894531729     -83.7205428
9.346                0.894239893     -83.8700667
9.347                0.893947195     -84.0200133
9.348                0.893653633      -84.170384
9.349                0.893359207     -84.3211802
9.35                 0.893063916     -84.4724033
9.351                0.892767759     -84.6240546
9.352                0.892470736     -84.7761356
9.353                0.892172846     -84.9286475
9.354                0.891874088     -85.0815918
9.355                0.891574462     -85.2349699
9.356                0.891273967     -85.3887832
9.357                0.890972602      -85.543033
9.358                0.890670369     -85.6977207
9.359                0.890367264     -85.8528478
9.36                 0.890063289     -86.0084156
9.361                0.889758444     -86.1644256
9.362                0.889452726     -86.3208791
9.363                0.889146137     -86.4777775
9.364                0.888838676     -86.6351223
9.365                0.888530343     -86.7929148
9.366                0.888221137     -86.9511566
9.367                0.887911058     -87.1098489
9.368                0.887600107     -87.2689932
9.369                0.887288282     -87.4285909
9.37                 0.886975585     -87.5886434
9.371                0.886662014     -87.7491522
9.372                0.886347571     -87.9101187
9.373                0.886032255     -88.0715443
9.374                0.885716065     -88.2334303
9.375                0.885399003     -88.3957784
9.376                0.885081068     -88.5585898
9.377                0.884762261      -88.721866
9.378                0.884442581     -88.8856084
9.379                 0.88412203     -89.0498185
9.38                 0.883800607     -89.2144977
9.381                0.883478313     -89.3796475
9.382                0.883155148     -89.5452692
9.383                0.882831112     -89.7113643
9.384                0.882506207     -89.8779342
9.385                0.882180433     -90.0449804
9.386                 0.88185379     -90.2125044
9.387                0.881526278     -90.3805075
9.388                  0.8811979     -90.5489912
9.389                0.880868655      -90.717957
9.39                 0.880538544     -90.8874063
9.391                0.880207568     -91.0573405
9.392                0.879875728      -91.227761
9.393                0.879543025     -91.3986694
9.394                 0.87920946     -91.5700671
9.395                0.878875034     -91.7419554
9.396                0.878539748      -91.914336
