! TOUCHSTONE file generated by CST DESIGN STUDIO
! Date and time: Tue Feb  4 18:17:01 2025
! Project name: C:\Work\MatlabApps\UnitCellOptimizationMatlab\CST\unitcell.cst
! Tree item: Tasks\Sweep1\SPara1\S-Parameters
! Header version: 2024
! Port assignment regex: !\s*Touchstone port\s*([0-9]+)\s*=\s*(CST MWS port|CST DES external port|CST DES block port)\s*(.+)\s* \(\"(.*)\"\)(\s*mode\s*([0-9]+))?.*
! Touchstone port assignment:
! Touchstone port 1 = CST DES external port 1 ("")
# GHz S MA R 50
9                    0.938420539     -60.3391161
9.001                0.938269418     -60.4252963
9.002                0.938117775     -60.5116876
9.003                0.937965607     -60.5982908
9.004                0.937812915     -60.6851064
9.005                0.937659694     -60.7721353
9.006                0.937505945     -60.8593781
9.007                0.937351664     -60.9468356
9.008                0.937196849     -61.0345085
9.009                0.937041499     -61.1223975
9.01                 0.936885613     -61.2105034
9.011                0.936729187     -61.2988268
9.012                 0.93657222     -61.3873685
9.013                 0.93641471     -61.4761293
9.014                0.936256655     -61.5651098
9.015                0.936098053     -61.6543108
9.016                0.935938902     -61.7437331
9.017                  0.9357792     -61.8333774
9.018                0.935618946     -61.9232444
9.019                0.935458137      -62.013335
9.02                 0.935296771     -62.1036498
9.021                0.935134846     -62.1941896
9.022                 0.93497236     -62.2849552
9.023                0.934809312     -62.3759473
9.024                0.934645699     -62.4671668
9.025                0.934481519     -62.5586143
9.026                 0.93431677     -62.6502906
9.027                 0.93415145     -62.7421966
9.028                0.933985558     -62.8343329
9.029                0.933819091     -62.9267005
9.03                 0.933652046        -63.0193
9.031                0.933484423     -63.1121322
9.032                0.933316219      -63.205198
9.033                0.933147431     -63.2984981
9.034                0.932978059     -63.3920334
9.035                0.932808099     -63.4858045
9.036                 0.93263755     -63.5798124
9.037                 0.93246641     -63.6740578
9.038                0.932294676     -63.7685415
9.039                0.932122347     -63.8632644
9.04                 0.931949421     -63.9582272
9.041                0.931775894     -64.0534309
9.042                0.931601766     -64.1488761
9.043                0.931427034     -64.2445637
9.044                0.931251696     -64.3404945
9.045                 0.93107575     -64.4366695
9.046                0.930899194     -64.5330893
9.047                0.930722025     -64.6297548
9.048                0.930544243      -64.726667
9.049                0.930365843     -64.8238265
9.05                 0.930186825     -64.9212343
9.051                0.930007186     -65.0188912
9.052                0.929826924     -65.1167981
9.053                0.929646037     -65.2149558
9.054                0.929464523     -65.3133651
9.055                0.929282379      -65.412027
9.056                0.929099604     -65.5109422
9.057                0.928916195     -65.6101117
9.058                0.928732151     -65.7095363
9.059                0.928547468     -65.8092169
9.06                 0.928362145     -65.9091544
9.061                 0.92817618     -66.0093497
9.062                 0.92798957     -66.1098035
9.063                0.927802313     -66.2105169
9.064                0.927614408     -66.3114907
9.065                0.927425851     -66.4127258
9.066                0.927236641      -66.514223
9.067                0.927046776     -66.6159834
9.068                0.926856253     -66.7180078
9.069                 0.92666507      -66.820297
9.07                 0.926473225     -66.9228521
9.071                0.926280715     -67.0256738
9.072                0.926087539     -67.1287632
9.073                0.925893695     -67.2321212
9.074                0.925699179     -67.3357486
9.075                 0.92550399     -67.4396464
9.076                0.925308126     -67.5438155
9.077                0.925111584     -67.6482569
9.078                0.924914363     -67.7529715
9.079                0.924716459     -67.8579602
9.08                 0.924517871      -67.963224
9.081                0.924318596     -68.0687637
9.082                0.924118633     -68.1745805
9.083                0.923917978     -68.2806751
9.084                 0.92371663     -68.3870486
9.085                0.923514587      -68.493702
9.086                0.923311846     -68.6006361
9.087                0.923108405      -68.707852
9.088                0.922904262     -68.8153506
9.089                0.922699414     -68.9231329
9.09                 0.922493859     -69.0311999
9.091                0.922287596     -69.1395525
9.092                0.922080621     -69.2481917
9.093                0.921872932     -69.3571186
9.094                0.921664528      -69.466334
9.095                0.921455406     -69.5758391
9.096                0.921245563     -69.6856348
9.097                0.921034998      -69.795722
9.098                0.920823707     -69.9061018
9.099                 0.92061169     -70.0167753
9.1                  0.920398944     -70.1277433
9.101                0.920185465      -70.239007
9.102                0.919971253     -70.3505674
9.103                0.919756305     -70.4624254
9.104                0.919540618     -70.5745821
9.105                 0.91932419     -70.6870385
9.106                 0.91910702     -70.7997956
9.107                0.918889104     -70.9128545
9.108                 0.91867044     -71.0262163
9.109                0.918451027     -71.1398819
9.11                 0.918230862     -71.2538525
9.111                0.918009943     -71.3681289
9.112                0.917788266     -71.4827124
9.113                0.917565831      -71.597604
9.114                0.917342635     -71.7128047
9.115                0.917118676     -71.8283156
9.116                0.916893951     -71.9441377
9.117                0.916668458     -72.0602722
9.118                0.916442195     -72.1767201
9.119                 0.91621516     -72.2934824
9.12                  0.91598735     -72.4105603
9.121                0.915758763     -72.5279549
9.122                0.915529396     -72.6456672
9.123                0.915299249     -72.7636983
9.124                0.915068318     -72.8820494
9.125                0.914836601     -73.0007214
9.126                0.914604096     -73.1197156
9.127                  0.9143708      -73.239033
9.128                0.914136712     -73.3586748
9.129                0.913901829      -73.478642
9.13                 0.913666149     -73.5989358
9.131                 0.91342967     -73.7195573
9.132                 0.91319239     -73.8405076
9.133                0.912954305     -73.9617878
9.134                0.912715415     -74.0833991
9.135                0.912475717     -74.2053427
9.136                0.912235208     -74.3276196
9.137                0.911993887     -74.4502309
9.138                0.911751752      -74.573178
9.139                0.911508799     -74.6964618
9.14                 0.911265028     -74.8200835
9.141                0.911020435     -74.9440444
9.142                0.910775019     -75.0683455
9.143                0.910528777     -75.1929881
9.144                0.910281707     -75.3179732
9.145                0.910033808     -75.4433022
9.146                0.909785077      -75.568976
9.147                0.909535511      -75.694996
9.148                 0.90928511     -75.8213633
9.149                 0.90903387      -75.948079
9.15                 0.908781789     -76.0751445
9.151                0.908528866     -76.2025608
9.152                0.908275098     -76.3303292
9.153                0.908020484     -76.4584509
9.154                 0.90776502      -76.586927
9.155                0.907508706     -76.7157589
9.156                0.907251539     -76.8449476
9.157                0.906993516     -76.9744944
9.158                0.906734637     -77.1044005
9.159                0.906474898     -77.2346672
9.16                 0.906214298     -77.3652957
9.161                0.905952835     -77.4962872
9.162                0.905690507     -77.6276429
9.163                0.905427312     -77.7593641
9.164                0.905163247      -77.891452
9.165                0.904898312     -78.0239079
9.166                0.904632503     -78.1567329
9.167                0.904365819     -78.2899284
9.168                0.904098259     -78.4234956
9.169                0.903829819     -78.5574358
9.17                 0.903560499     -78.6917502
9.171                0.903290295     -78.8264401
9.172                0.903019208     -78.9615067
9.173                0.902747234     -79.0969514
9.174                0.902474371     -79.2327754
9.175                0.902200618     -79.3689799
9.176                0.901925974     -79.5055664
9.177                0.901650435     -79.6425359
9.178                0.901374001     -79.7798899
9.179                 0.90109667     -79.9176296
9.18                 0.900818439     -80.0557564
9.181                0.900539307     -80.1942714
9.182                0.900259273     -80.3331761
9.183                0.899978335     -80.4724717
9.184                 0.89969649     -80.6121596
9.185                0.899413738      -80.752241
9.186                0.899130076     -80.8927172
9.187                0.898845503     -81.0335896
9.188                0.898560017     -81.1748596
9.189                0.898273618     -81.3165283
9.19                 0.897986302     -81.4585972
9.191                0.897698069     -81.6010676
9.192                0.897408916     -81.7439409
9.193                0.897118843     -81.8872182
9.194                0.896827849     -82.0309011
9.195                 0.89653593     -82.1749908
9.196                0.896243087     -82.3194887
9.197                0.895949317     -82.4643961
9.198                0.895654619     -82.6097145
9.199                0.895358992     -82.7554451
9.2                  0.895062434     -82.9015892
9.201                0.894764944     -83.0481484
9.202                0.894466521     -83.1951239
9.203                0.894167163     -83.3425171
9.204                0.893866869     -83.4903293
9.205                0.893565638      -83.638562
9.206                0.893263469     -83.7872165
9.207                 0.89296036     -83.9362943
9.208                 0.89265631     -84.0857966
9.209                0.892351318     -84.2357249
9.21                 0.892045383     -84.3860805
9.211                0.891738504     -84.5368649
9.212                0.891430679     -84.6880795
9.213                0.891121908     -84.8397255
9.214                 0.89081219     -84.9918045
9.215                0.890501524     -85.1443179
9.216                0.890189909      -85.297267
9.217                0.889877343     -85.4506532
9.218                0.889563826      -85.604478
9.219                0.889249357     -85.7587428
9.22                 0.888933936      -85.913449
9.221                0.888617561     -86.0685979
9.222                0.888300232     -86.2241911
9.223                0.887981948     -86.3802299
9.224                0.887662708     -86.5367158
9.225                0.887342512     -86.6936501
9.226                0.887021359     -86.8510344
9.227                0.886699248       -87.00887
9.228                 0.88637618     -87.1671585
9.229                0.886052152     -87.3259011
9.23                 0.885727166     -87.4850993
9.231                 0.88540122     -87.6447547
9.232                0.885074314     -87.8048686
9.233                0.884746448     -87.9654424
9.234                0.884417621     -88.1264777
9.235                0.884087834     -88.2879758
9.236                0.883757085     -88.4499383
9.237                0.883425375     -88.6123665
9.238                0.883092704     -88.7752619
9.239                0.882759071     -88.9386259
9.24                 0.882424477     -89.1024601
9.241                 0.88208892     -89.2667659
9.242                0.881752403     -89.4315447
9.243                0.881414923     -89.5967979
9.244                0.881076482     -89.7625271
9.245                 0.88073708     -89.9287338
9.246                0.880396717     -90.0954193
9.247                0.880055393     -90.2625851
9.248                0.879713109     -90.4302328
9.249                0.879369864     -90.5983637
9.25                 0.879025659     -90.7669793
9.251                0.878680495     -90.9360812
9.252                0.878334373     -91.1056707
9.253                0.877987292     -91.2757494
9.254                0.877639253     -91.4463187
9.255                0.877290257       -91.61738
9.256                0.876940305      -91.788935
9.257                0.876589397     -91.9609849
9.258                0.876237535     -92.1335314
9.259                0.875884719     -92.3065758
9.26                 0.875530949     -92.4801197
9.261                0.875176228     -92.6541645
9.262                0.874820556     -92.8287117
9.263                0.874463934     -93.0037628
9.264                0.874106363     -93.1793193
9.265                0.873747845     -93.3553825
9.266                0.873388381     -93.5319541
9.267                0.873027972     -93.7090355
9.268                0.872666619     -93.8866281
9.269                0.872304325     -94.0647334
9.27                  0.87194109     -94.2433529
9.271                0.871576916     -94.4224881
9.272                0.871211805     -94.6021404
9.273                0.870845758     -94.7823113
9.274                0.870478778     -94.9630024
9.275                0.870110866      -95.144215
9.276                0.869742024     -95.3259506
9.277                0.869372254     -95.5082107
9.278                0.869001559     -95.6909967
9.279                0.868629939     -95.8743102
9.28                 0.868257398     -96.0581526
9.281                0.867883938     -96.2425254
9.282                0.867509561     -96.4274299
9.283                0.867134269     -96.6128678
9.284                0.866758066     -96.7988404
9.285                0.866380953     -96.9853491
9.286                0.866002933     -97.1723956
9.287                0.865624009     -97.3599811
9.288                0.865244184     -97.5481072
9.289                 0.86486346     -97.7367752
9.29                 0.864481841     -97.9259868
9.291                 0.86409933     -98.1157432
9.292                0.863715929     -98.3060459
9.293                0.863331642     -98.4968965
9.294                0.862946472     -98.6882962
9.295                0.862560423     -98.8802466
9.296                0.862173497     -99.0727491
9.297                0.861785699      -99.265805
9.298                0.861397033     -99.4594159
9.299                0.861007501     -99.6535831
9.3                  0.860617107     -99.8483081
9.301                0.860225856     -100.043592
9.302                0.859833752     -100.239437
9.303                0.859440797     -100.435844
9.304                0.859046998     -100.632814
9.305                0.858652357     -100.830349
9.306                0.858256879      -101.02845
9.307                0.857860569     -101.227118
9.308                0.857463431     -101.426356
9.309                 0.85706547     -101.626164
9.31                  0.85666669     -101.826544
9.311                0.856267096     -102.027496
9.312                0.855866693     -102.229024
9.313                0.855465486     -102.431127
9.314                0.855063481     -102.633807
9.315                0.854660681     -102.837065
9.316                0.854257094     -103.040904
9.317                0.853852723     -103.245324
9.318                0.853447575     -103.450326
9.319                0.853041654     -103.655912
9.32                 0.852634968     -103.862083
9.321                0.852227521     -104.068841
9.322                 0.85181932     -104.276186
9.323                 0.85141037     -104.484121
9.324                0.851000677     -104.692645
9.325                0.850590249     -104.901762
9.326                 0.85017909     -105.111471
9.327                0.849767209     -105.321775
9.328                 0.84935461     -105.532674
9.329                0.848941302      -105.74417
9.33                 0.848527289     -105.956264
9.331                0.848112581     -106.168957
9.332                0.847697183      -106.38225
9.333                0.847281102     -106.596145
9.334                0.846864347     -106.810643
9.335                0.846446923     -107.025745
9.336                 0.84602884     -107.241452
9.337                0.845610103     -107.457766
9.338                0.845190722     -107.674687
9.339                0.844770703     -107.892217
9.34                 0.844350056     -108.110357
9.341                0.843928786     -108.329109
9.342                0.843506904     -108.548472
9.343                0.843084418     -108.768449
9.344                0.842661334      -108.98904
9.345                0.842237664     -109.210247
9.346                0.841813414      -109.43207
9.347                0.841388593     -109.654511
9.348                0.840963212     -109.877571
9.349                0.840537278     -110.101251
9.35                 0.840110801     -110.325551
9.351                0.839683791     -110.550474
9.352                0.839256256      -110.77602
9.353                0.838828206     -111.002189
9.354                0.838399651     -111.228984
9.355                0.837970601     -111.456405
9.356                0.837541065     -111.684452
9.357                0.837111054     -111.913127
9.358                0.836680579     -112.142432
9.359                0.836249648     -112.372366
9.36                 0.835818274      -112.60293
9.361                0.835386465     -112.834126
9.362                0.834954234     -113.065955
9.363                0.834521591     -113.298417
9.364                0.834088548     -113.531513
9.365                0.833655114     -113.765245
9.366                0.833221302     -113.999612
9.367                0.832787123     -114.234616
9.368                0.832352589     -114.470257
9.369                0.831917711     -114.706536
9.37                 0.831482501     -114.943455
9.371                0.831046971     -115.181013
9.372                0.830611133     -115.419212
9.373                   0.830175     -115.658052
9.374                0.829738584     -115.897533
9.375                0.829301897     -116.137658
9.376                0.828864952     -116.378425
9.377                0.828427762     -116.619836
9.378                0.827990341     -116.861892
9.379                  0.8275527     -117.104593
9.38                 0.827114853      -117.34794
9.381                0.826676815     -117.591932
9.382                0.826238597     -117.836572
9.383                0.825800215     -118.081859
9.384                0.825361681     -118.327793
9.385                0.824923009     -118.574376
9.386                0.824484215     -118.821607
9.387                0.824045312     -119.069488
9.388                0.823606314     -119.318018
9.389                0.823167236     -119.567198
9.39                 0.822728092     -119.817029
9.391                0.822288898      -120.06751
9.392                0.821849669     -120.318643
9.393                0.821410419     -120.570426
9.394                0.820971164     -120.822861
9.395                0.820531919     -121.075949
9.396                  0.8200927     -121.329688
