! TOUCHSTONE file generated by CST DESIGN STUDIO
! Date and time: Wed Feb  5 13:36:10 2025
! Project name: C:\Work\MatlabApps\UnitCellOptimizationMatlab\CST\unitcell.cst
! Tree item: Tasks\Sweep1\SPara1\S-Parameters
! Header version: 2024
! Port assignment regex: !\s*Touchstone port\s*([0-9]+)\s*=\s*(CST MWS port|CST DES external port|CST DES block port)\s*(.+)\s* \(\"(.*)\"\)(\s*mode\s*([0-9]+))?.*
! Touchstone port assignment:
! Touchstone port 1 = CST DES external port 1 ("")
# GHz S MA R 50
9                    0.619063866      -138.68751
9.001                 0.61787609     -139.127576
9.002                0.616691626     -139.569479
9.003                0.615510605     -140.013218
9.004                 0.61433316     -140.458794
9.005                0.613159424     -140.906207
9.006                0.611989533     -141.355457
9.007                0.610823622     -141.806543
9.008                0.609661828     -142.259465
9.009                0.608504288      -142.71422
9.01                 0.607351142     -143.170809
9.011                0.606202529      -143.62923
9.012                0.605058589      -144.08948
9.013                0.603919465     -144.551557
9.014                0.602785297      -145.01546
9.015                0.601656229     -145.481185
9.016                0.600532405      -145.94873
9.017                 0.59941397      -146.41809
9.018                0.598301068     -146.889263
9.019                0.597193845     -147.362244
9.02                 0.596092448      -147.83703
9.021                0.594997023     -148.313614
9.022                 0.59390772     -148.791994
9.023                0.592824685     -149.272163
9.024                0.591748067     -149.754115
9.025                0.590678015     -150.237845
9.026                0.589614679     -150.723346
9.027                0.588558209     -151.210612
9.028                0.587508754     -151.699635
9.029                0.586466464     -152.190408
9.03                 0.585431492     -152.682924
9.031                0.584403986     -153.177173
9.032                0.583384098     -153.673148
9.033                0.582371979     -154.170839
9.034                0.581367779     -154.670237
9.035                 0.58037165     -155.171332
9.036                0.579383742     -155.674114
9.037                0.578404206     -156.178572
9.038                0.577433192     -156.684696
9.039                0.576470851     -157.192473
9.04                 0.575517331     -157.701892
9.041                0.574572784     -158.212941
9.042                0.573637357     -158.725606
9.043                  0.5727112     -159.239875
9.044                 0.57179446     -159.755735
9.045                0.570887285      -160.27317
9.046                0.569989822     -160.792167
9.047                0.569102217      -161.31271
9.048                0.568224615     -161.834785
9.049                 0.56735716     -162.358375
9.05                 0.566499996     -162.883464
9.051                0.565653266     -163.410036
9.052                0.564817112     -163.938073
9.053                0.563991673     -164.467557
9.054                0.563177089     -164.998471
9.055                0.562373499     -165.530796
9.056                0.561581038     -166.064513
9.057                0.560799844     -166.599602
9.058                0.560030048     -167.136044
9.059                0.559271786     -167.673819
9.06                 0.558525186     -168.212905
9.061                0.557790379     -168.753281
9.062                0.557067493     -169.294926
9.063                0.556356654     -169.837818
9.064                0.555657985     -170.381933
9.065                 0.55497161      -170.92725
9.066                0.554297649     -171.473744
9.067                 0.55363622     -172.021391
9.068                 0.55298744     -172.570169
9.069                0.552351423      -173.12005
9.07                 0.551728282     -173.671012
9.071                0.551118126     -174.223027
9.072                0.550521063     -174.776071
9.073                0.549937199     -175.330117
9.074                0.549366637     -175.885137
9.075                0.548809476     -176.441106
9.076                0.548265816     -176.997995
9.077                0.547735751     -177.555777
9.078                0.547219374     -178.114424
9.079                0.546716775     -178.673906
9.08                 0.546228042     -179.234196
9.081                0.545753259     -179.795263
9.082                0.545292509      179.642921
9.083                0.544845869      179.080387
9.084                0.544413417      178.517165
9.085                0.543995224      177.953284
9.086                0.543591362      177.388777
9.087                0.543201897      176.823674
9.088                0.542826893      176.258006
9.089                0.542466411      175.691805
9.09                 0.542120508      175.125102
9.091                0.541789239       174.55793
9.092                0.541472655      173.990321
9.093                0.541170804      173.422306
9.094                0.540883731       172.85392
9.095                0.540611477      172.285194
9.096                0.540354081      171.716162
9.097                0.540111576      171.146856
9.098                0.539883995       170.57731
9.099                0.539671365      170.007557
9.1                  0.539473711      169.437631
9.101                0.539291053      168.867565
9.102                0.539123411      168.297392
9.103                0.538970797      167.727147
9.104                0.538833222      167.156863
9.105                0.538710695      166.586573
9.106                0.538603219      166.016313
9.107                0.538510794      165.446114
9.108                0.538433418      164.876012
9.109                0.538371083       164.30604
9.11                 0.538323781      163.736231
9.111                0.538291498      163.166619
9.112                0.538274217      162.597239
9.113                0.538271917      162.028122
9.114                0.538284577      161.459303
9.115                0.538312168      160.890815
9.116                 0.53835466      160.322692
9.117                0.538412021      159.754965
9.118                0.538484212      159.187669
9.119                0.538571195      158.620835
9.12                 0.538672925      158.054497
9.121                0.538789356      157.488686
9.122                0.538920438      156.923435
9.123                0.539066118      156.358776
9.124                 0.53922634       155.79474
9.125                0.539401045      155.231359
9.126                0.539590171      154.668664
9.127                0.539793653      154.106685
9.128                0.540011422      153.545455
9.129                0.540243407      152.985001
9.13                 0.540489534      152.425356
9.131                0.540749728      151.866549
9.132                0.541023907      151.308608
9.133                 0.54131199      150.751563
9.134                0.541613892      150.195443
9.135                0.541929525      149.640277
9.136                  0.5422588      149.086091
9.137                0.542601623      148.532914
9.138                0.542957899      147.980774
9.139                0.543327531      147.429696
9.14                  0.54371042      146.879707
9.141                0.544106462      146.330835
9.142                0.544515554      145.783103
9.143                0.544937589      145.236538
9.144                0.545372458      144.691164
9.145                0.545820052      144.147006
9.146                0.546280256      143.604088
9.147                0.546752957      143.062433
9.148                0.547238038      142.522064
9.149                0.547735381      141.983005
9.15                 0.548244867      141.445277
9.151                0.548766372      140.908902
9.152                0.549299775      140.373901
9.153                 0.54984495      139.840296
9.154                0.550401772      139.308107
9.155                0.550970112      138.777353
9.156                0.551549842      138.248054
9.157                0.552140831       137.72023
9.158                0.552742948      137.193899
9.159                 0.55335606      136.669078
9.16                 0.553980034      136.145786
9.161                0.554614734       135.62404
9.162                0.555260026      135.103856
9.163                0.555915772      134.585251
9.164                0.556581835      134.068241
9.165                0.557258076       133.55284
9.166                0.557944357      133.039064
9.167                0.558640538      132.526927
9.168                0.559346478      132.016443
9.169                0.560062038      131.507626
9.17                 0.560787075      131.000488
9.171                0.561521448      130.495042
9.172                0.562265014      129.991301
9.173                0.563017632      129.489276
9.174                0.563779158      128.988978
9.175                 0.56454945      128.490419
9.176                0.565328365      127.993608
9.177                0.566115758      127.498555
9.178                0.566911488      127.005271
9.179                0.567715411      126.513764
9.18                 0.568527384      126.024044
9.181                0.569347262      125.536117
9.182                0.570174905      125.049993
9.183                0.571010168      124.565679
9.184                0.571852909      124.083181
9.185                0.572702986      123.602508
9.186                0.573560257      123.123664
9.187                 0.57442458      122.646656
9.188                0.575295814       122.17149
9.189                0.576173818      121.698171
9.19                 0.577058452      121.226704
9.191                0.577949576      120.757092
9.192                 0.57884705      120.289342
9.193                0.579750737      119.823455
9.194                0.580660497      119.359436
9.195                0.581576195      118.897289
9.196                0.582497692      118.437014
9.197                0.583424853      117.978616
9.198                0.584357542      117.522097
9.199                0.585295626      117.067458
9.2                  0.586238971        116.6147
9.201                0.587187443      116.163826
9.202                0.588140911      115.714836
9.203                0.589099244      115.267731
9.204                0.590062311      114.822511
9.205                0.591029983      114.379177
9.206                0.592002133      113.937728
9.207                0.592978632      113.498164
9.208                0.593959355      113.060484
9.209                0.594944176      112.624688
9.21                 0.595932971      112.190774
9.211                0.596925617      111.758741
9.212                0.597921991      111.328588
9.213                0.598921973      110.900312
9.214                0.599925443      110.473911
9.215                0.600932282      110.049384
9.216                0.601942372      109.626728
9.217                0.602955596       109.20594
9.218                0.603971841      108.787017
9.219                 0.60499099      108.369956
9.22                 0.606012931      107.954754
9.221                0.607037553      107.541408
9.222                0.608064744      107.129914
9.223                0.609094396      106.720267
9.224                  0.6101264      106.312465
9.225                0.611160648      105.906504
9.226                0.612197036      105.502377
9.227                0.613235458      105.100083
9.228                0.614275811      104.699615
9.229                0.615317994      104.300969
9.23                 0.616361905       103.90414
9.231                0.617407445      103.509123
9.232                0.618454515      103.115914
9.233                0.619503018      102.724506
9.234                0.620552858      102.334895
9.235                0.621603941      101.947075
9.236                0.622656174      101.561041
9.237                0.623709463      101.176786
9.238                0.624763719      100.794304
9.239                0.625818852      100.413591
9.24                 0.626874772       100.03464
9.241                0.627931394      99.6574442
9.242                0.628988631      99.2819982
9.243                0.630046398      98.9082956
9.244                0.631104613        98.53633
9.245                0.632163192      98.1660948
9.246                0.633222055      97.7975836
9.247                0.634281122      97.4307898
9.248                0.635340314      97.0657067
9.249                0.636399555      96.7023276
9.25                 0.637458767      96.3406457
9.251                0.638517876       95.980654
9.252                0.639576809      95.6223458
9.253                0.640635492       95.265714
9.254                0.641693855      94.9107516
9.255                0.642751826      94.5574515
9.256                0.643809337      94.2058066
9.257                0.644866321      93.8558098
9.258                0.645922709      93.5074539
9.259                0.646978438      93.1607315
9.26                 0.648033441      92.8156355
9.261                0.649087656      92.4721585
9.262                0.650141021      92.1302932
9.263                0.651193473      91.7900321
9.264                0.652244955       91.451368
9.265                0.653295405      91.1142933
9.266                0.654344767      90.7788007
9.267                0.655392984      90.4448826
9.268                0.656439999      90.1125316
9.269                0.657485759      89.7817401
9.27                 0.658530209      89.4525007
9.271                0.659573297      89.1248058
9.272                0.660614971      88.7986479
9.273                0.661655181      88.4740194
9.274                0.662693877      88.1509127
9.275                 0.66373101      87.8293202
9.276                0.664766534      87.5092345
9.277                  0.6658004      87.1906479
9.278                0.666832564      86.8735529
9.279                0.667862981      86.5579417
9.28                 0.668891607       86.243807
9.281                0.669918399       85.931141
9.282                0.670943316      85.6199363
9.283                0.671966315      85.3101852
9.284                0.672987358      85.0018802
9.285                0.674006404      84.6950137
9.286                0.675023416      84.3895782
9.287                0.676038355      84.0855661
9.288                0.677051186      83.7829699
9.289                0.678061873      83.4817821
9.29                  0.67907038      83.1819951
9.291                0.680076673      82.8836015
9.292                 0.68108072      82.5865939
9.293                0.682082487      82.2909646
9.294                0.683081943      81.9967063
9.295                0.684079057      81.7038116
9.296                0.685073798       81.412273
9.297                0.686066138      81.1220831
9.298                0.687056048      80.8332346
9.299                0.688043499      80.5457201
9.3                  0.689028466      80.2595322
9.301                 0.69001092      79.9746637
9.302                0.690990837      79.6911073
9.303                0.691968192      79.4088556
9.304                0.692942959      79.1279015
9.305                0.693915116      78.8482376
9.306                 0.69488464      78.5698569
9.307                0.695851508      78.2927521
9.308                0.696815698      78.0169161
9.309                 0.69777719      77.7423417
9.31                 0.698735964      77.4690219
9.311                0.699691998      77.1969496
9.312                0.700645275      76.9261177
9.313                0.701595776      76.6565193
9.314                0.702543483      76.3881472
9.315                0.703488378      76.1209947
9.316                0.704430445      75.8550547
9.317                0.705369667      75.5903203
9.318                0.706306029      75.3267846
9.319                0.707239517      75.0644409
9.32                 0.708170114      74.8032822
9.321                0.709097808      74.5433019
9.322                0.710022585      74.2844931
9.323                0.710944431      74.0268492
9.324                0.711863335      73.7703633
9.325                0.712779285      73.5150289
9.326                0.713692268      73.2608394
9.327                0.714602275      73.0077881
9.328                0.715509294      72.7558684
9.329                0.716413316      72.5050739
9.33                 0.717314331       72.255398
9.331                0.718212329      72.0068342
9.332                0.719107303      71.7593761
9.333                0.719999244      71.5130173
9.334                0.720888144      71.2677514
9.335                0.721773996      71.0235721
9.336                0.722656792       70.780473
9.337                0.723536527      70.5384479
9.338                0.724413194      70.2974905
9.339                0.725286787      70.0575945
9.34                 0.726157301      69.8187539
9.341                0.727024731      69.5809625
9.342                0.727889072      69.3442141
9.343                 0.72875032      69.1085027
9.344                0.729608472      68.8738222
9.345                0.730463523      68.6401665
9.346                 0.73131547      68.4075298
9.347                 0.73216431       68.175906
9.348                0.733010041      67.9452893
9.349                0.733852661      67.7156736
9.35                 0.734692168      67.4870533
9.351                 0.73552856      67.2594224
9.352                0.736361835      67.0327752
9.353                0.737191994      66.8071059
9.354                0.738019034      66.5824088
9.355                0.738842956      66.3586781
9.356                 0.73966376      66.1359083
9.357                0.740481445      65.9140937
9.358                0.741296013      65.6932287
9.359                0.742107463      65.4733078
9.36                 0.742915797      65.2543253
9.361                0.743721016      65.0362759
9.362                0.744523122       64.819154
9.363                0.745322115      64.6029543
9.364                0.746117999      64.3876712
9.365                0.746910774      64.1732995
9.366                0.747700445      63.9598338
9.367                0.748487012      63.7472688
9.368                0.749270479      63.5355992
9.369                 0.75005085      63.3248197
9.37                 0.750828127      63.1149252
9.371                0.751602313      62.9059105
9.372                0.752373413      62.6977705
9.373                 0.75314143      62.4904999
9.374                0.753906369      62.2840937
9.375                0.754668233      62.0785469
9.376                0.755427027      61.8738545
9.377                0.756182756      61.6700113
9.378                0.756935424      61.4670126
9.379                0.757685036      61.2648532
9.38                 0.758431598      61.0635284
9.381                0.759175114      60.8630332
9.382                 0.75991559      60.6633628
9.383                0.760653032      60.4645125
9.384                0.761387446      60.2664772
9.385                0.762118837      60.0692525
9.386                 0.76284721      59.8728334
9.387                0.763572574      59.6772154
9.388                0.764294933      59.4823937
9.389                0.765014294      59.2883637
9.39                 0.765730664      59.0951207
9.391                 0.76644405      58.9026603
9.392                0.767154457      58.7109778
9.393                0.767861894      58.5200687
9.394                0.768566367      58.3299286
9.395                0.769267883      58.1405529
9.396                0.769966449      57.9519372
