! TOUCHSTONE file generated by CST DESIGN STUDIO
! Date and time: Wed Feb  5 13:36:09 2025
! Project name: C:\Work\MatlabApps\UnitCellOptimizationMatlab\CST\unitcell.cst
! Tree item: Tasks\Sweep1\SPara1\S-Parameters
! Header version: 2024
! Port assignment regex: !\s*Touchstone port\s*([0-9]+)\s*=\s*(CST MWS port|CST DES external port|CST DES block port)\s*(.+)\s* \(\"(.*)\"\)(\s*mode\s*([0-9]+))?.*
! Touchstone port assignment:
! Touchstone port 1 = CST DES external port 1 ("")
# GHz S MA R 50
9                    0.525431746      170.735054
9.001                0.525256456      170.136727
9.002                0.525097853        169.5382
9.003                 0.52495596      168.939515
9.004                0.524830794      168.340709
9.005                 0.52472237      167.741824
9.006                0.524630698      167.142899
9.007                0.524555784      166.543973
9.008                0.524497627      165.945087
9.009                0.524456227      165.346281
9.01                 0.524431575      164.747594
9.011                 0.52442366      164.149066
9.012                0.524432468      163.550738
9.013                0.524457977      162.952648
9.014                0.524500165      162.354836
9.015                0.524559002      161.757342
9.016                0.524634458      161.160205
9.017                0.524726495      160.563464
9.018                0.524835074      159.967159
9.019                 0.52496015      159.371327
9.02                 0.525101674      158.776007
9.021                0.525259594      158.181239
9.022                0.525433853      157.587059
9.023                0.525624392      156.993506
9.024                0.525831147      156.400617
9.025                0.526054048      155.808429
9.026                0.526293026       155.21698
9.027                0.526548003      154.626306
9.028                0.526818902      154.036442
9.029                0.527105639      153.447426
9.03                 0.527408128      152.859292
9.031                 0.52772628      152.272076
9.032                0.528060002      151.685812
9.033                0.528409196      151.100534
9.034                0.528773763      150.516276
9.035                0.529153601      149.933073
9.036                0.529548603      149.350956
9.037                0.529958659      148.769958
9.038                0.530383659      148.190111
9.039                0.530823485      147.611447
9.04                 0.531278021      147.033997
9.041                0.531747146       146.45779
9.042                0.532230735      145.882858
9.043                0.532728663       145.30923
9.044                0.533240801      144.736934
9.045                0.533767018      144.165999
9.046                0.534307181      143.596453
9.047                0.534861152      143.028323
9.048                0.535428795      142.461636
9.049                0.536009968      141.896418
9.05                  0.53660453      141.332695
9.051                0.537212336      140.770491
9.052                0.537833239      140.209832
9.053                0.538467093      139.650741
9.054                0.539113746      139.093242
9.055                0.539773047      138.537357
9.056                0.540444843      137.983109
9.057                 0.54112898      137.430519
9.058                0.541825302      136.879608
9.059                 0.54253365      136.330396
9.06                 0.543253868      135.782905
9.061                0.543985794      135.237152
9.062                0.544729268      134.693156
9.063                0.545484129      134.150936
9.064                0.546250212       133.61051
9.065                0.547027356      133.071893
9.066                0.547815395      132.535103
9.067                0.548614164      132.000156
9.068                0.549423497      131.467067
9.069                0.550243228       130.93585
9.07                  0.55107319       130.40652
9.071                0.551913217       129.87909
9.072                0.552763139      129.353574
9.073                 0.55362279      128.829984
9.074                0.554492002      128.308332
9.075                0.555370606      127.788629
9.076                0.556258434      127.270887
9.077                0.557155317      126.755116
9.078                0.558061088      126.241325
9.079                0.558975579      125.729526
9.08                 0.559898621      125.219725
9.081                0.560830046      124.711932
9.082                0.561769688      124.206155
9.083                 0.56271738      123.702401
9.084                0.563672954      123.200677
9.085                0.564636245       122.70099
9.086                0.565607086      122.203346
9.087                0.566585314      121.707751
9.088                0.567570762      121.214209
9.089                0.568563269      120.722726
9.09                 0.569562669      120.233305
9.091                0.570568802      119.745951
9.092                0.571581505      119.260668
9.093                0.572600618      118.777458
9.094                 0.57362598      118.296325
9.095                0.574657434      117.817269
9.096                0.575694821      117.340295
9.097                0.576737983      116.865402
9.098                0.577786766      116.392593
9.099                0.578841014      115.921868
9.1                  0.579900573      115.453228
9.101                0.580965291      114.986673
9.102                0.582035016      114.522203
9.103                0.583109598      114.059817
9.104                0.584188888      113.599515
9.105                0.585272737      113.141295
9.106                   0.586361      112.685156
9.107                0.587453531      112.231097
9.108                0.588550186      111.779116
9.109                0.589650822       111.32921
9.11                 0.590755297      110.881377
9.111                0.591863473      110.435614
9.112                 0.59297521      109.991918
9.113                0.594090371      109.550286
9.114                0.595208821      109.110714
9.115                0.596330425      108.673199
9.116                 0.59745505      108.237736
9.117                0.598582564      107.804322
9.118                0.599712839      107.372952
9.119                0.600845744      106.943622
9.12                 0.601981154      106.516326
9.121                0.603118943      106.091059
9.122                0.604258987      105.667818
9.123                0.605401163      105.246595
9.124                0.606545351      104.827386
9.125                 0.60769143      104.410185
9.126                0.608839284      103.994986
9.127                0.609988795      103.581783
9.128                 0.61113985      103.170569
9.129                0.612292333       102.76134
9.13                 0.613446135      102.354087
9.131                0.614601144      101.948804
9.132                0.615757253      101.545486
9.133                0.616914352      101.144124
9.134                0.618072338      100.744712
9.135                0.619231106      100.347242
9.136                0.620390553      99.9517084
9.137                0.621550579      99.5581027
9.138                0.622711084      99.1664179
9.139                0.623871969      98.7766464
9.14                 0.625033139      98.3887806
9.141                0.626194498      98.0028128
9.142                0.627355953      97.6187352
9.143                0.628517412        97.23654
9.144                0.629678784      96.8562193
9.145                 0.63083998       96.477765
9.146                0.632000914      96.1011691
9.147                0.633161498      95.7264234
9.148                0.634321648      95.3535198
9.149                0.635481281        94.98245
9.15                 0.636640315      94.6132057
9.151                0.637798669      94.2457785
9.152                0.638956266        93.88016
9.153                0.640113027      93.5163418
9.154                0.641268877      93.1543154
9.155                 0.64242374      92.7940723
9.156                0.643577543      92.4356038
9.157                0.644730215      92.0789015
9.158                0.645881684      91.7239567
9.159                0.647031882      91.3707607
9.16                  0.64818074      91.0193048
9.161                0.649328192      90.6695804
9.162                0.650474172      90.3215788
9.163                0.651618617      89.9752911
9.164                0.652761464      89.6307087
9.165                0.653902652      89.2878228
9.166                0.655042119      88.9466246
9.167                0.656179807      88.6071054
9.168                0.657315659      88.2692563
9.169                0.658449618      87.9330686
9.17                 0.659581629      87.5985334
9.171                0.660711637       87.265642
9.172                0.661839589      86.9343856
9.173                0.662965434      86.6047554
9.174                0.664089122      86.2767426
9.175                0.665210602      85.9503384
9.176                0.666329827      85.6255341
9.177                0.667446748      85.3023209
9.178                0.668561321        84.98069
9.179                  0.6696735      84.6606328
9.18                 0.670783241      84.3421404
9.181                  0.6718905      84.0252041
9.182                0.672995237      83.7098154
9.183                0.674097411      83.3959654
9.184                 0.67519698      83.0836456
9.185                0.676293908      82.7728473
9.186                0.677388155      82.4635619
9.187                0.678479686      82.1557807
9.188                0.679568464      81.8494952
9.189                0.680654454      81.5446969
9.19                 0.681737622      81.2413772
9.191                0.682817936      80.9395277
9.192                0.683895362      80.6391398
9.193                0.684969871      80.3402051
9.194                0.686041431      80.0427152
9.195                0.687110013      79.7466616
9.196                0.688175588      79.4520362
9.197                0.689238129      79.1588304
9.198                0.690297609       78.867036
9.199                0.691354001      78.5766447
9.2                  0.692407281      78.2876483
9.201                0.693457423      78.0000386
9.202                0.694504405      77.7138074
9.203                0.695548202      77.4289465
9.204                0.696588793       77.145448
9.205                0.697626157      76.8633036
9.206                0.698660273      76.5825053
9.207                0.699691121      76.3030453
9.208                0.700718681      76.0249154
9.209                0.701742935      75.7481078
9.21                 0.702763865      75.4726145
9.211                0.703781455      75.1984278
9.212                0.704795687      74.9255397
9.213                0.705806545      74.6539426
9.214                0.706814015      74.3836286
9.215                0.707818082      74.1145901
9.216                0.708818732      73.8468193
9.217                0.709815951      73.5803088
9.218                0.710809727      73.3150508
9.219                0.711800048      73.0510378
9.22                 0.712786902      72.7882623
9.221                0.713770278      72.5267169
9.222                0.714750166       72.266394
9.223                0.715726556      72.0072864
9.224                0.716699439      71.7493866
9.225                0.717668805      71.4926873
9.226                0.718634646      71.2371813
9.227                0.719596955      70.9828613
9.228                0.720555725      70.7297201
9.229                0.721510948      70.4777505
9.23                 0.722462618      70.2269455
9.231                 0.72341073      69.9772979
9.232                0.724355278      69.7288008
9.233                0.725296258      69.4814471
9.234                0.726233664      69.2352299
9.235                0.727167493      68.9901422
9.236                0.728097741      68.7461771
9.237                0.729024406      68.5033279
9.238                0.729947483      68.2615878
9.239                0.730866972      68.0209499
9.24                 0.731782869      67.7814075
9.241                0.732695174       67.542954
9.242                0.733603886      67.3055828
9.243                0.734509002      67.0692872
9.244                0.735410524      66.8340607
9.245                0.736308451      66.5998967
9.246                0.737202783      66.3667888
9.247                0.738093521      66.1347306
9.248                0.738980666      65.9037155
9.249                0.739864218      65.6737373
9.25                 0.740744181      65.4447897
9.251                0.741620555      65.2168663
9.252                0.742493342       64.989961
9.253                0.743362546      64.7640674
9.254                0.744228169      64.5391794
9.255                0.745090214       64.315291
9.256                0.745948685       64.092396
9.257                0.746803585      63.8704883
9.258                0.747654918      63.6495619
9.259                0.748502689      63.4296109
9.26                 0.749346901      63.2106293
9.261                 0.75018756      62.9926112
9.262                 0.75102467      62.7755508
9.263                0.751858236      62.5594421
9.264                0.752688264      62.3442795
9.265                 0.75351476      62.1300572
9.266                 0.75433773      61.9167694
9.267                0.755157178      61.7044104
9.268                0.755973113      61.4929747
9.269                 0.75678554      61.2824566
9.27                 0.757594465      61.0728505
9.271                0.758399896      60.8641509
9.272                0.759201841      60.6563524
9.273                0.760000305      60.4494493
9.274                0.760795296      60.2434364
9.275                0.761586823      60.0383081
9.276                0.762374892      59.8340593
9.277                0.763159513      59.6306844
9.278                0.763940692      59.4281782
9.279                0.764718438      59.2265356
9.28                 0.765492759      59.0257512
9.281                0.766263665      58.8258198
9.282                0.767031164      58.6267364
9.283                0.767795264      58.4284957
9.284                0.768555974      58.2310928
9.285                0.769313305      58.0345224
9.286                0.770067264      57.8387798
9.287                0.770817861      57.6438597
9.288                0.771565107      57.4497574
9.289                0.772309009      57.2564678
9.29                 0.773049579      57.0639861
9.291                0.773786825      56.8723074
9.292                0.774520758      56.6814269
9.293                0.775251388      56.4913398
9.294                0.775978725      56.3020414
9.295                0.776702779      56.1135268
9.296                 0.77742356      55.9257915
9.297                0.778141079      55.7388307
9.298                0.778855347      55.5526398
9.299                0.779566373      55.3672142
9.3                  0.780274169      55.1825493
9.301                0.780978745      54.9986406
9.302                0.781680112      54.8154835
9.303                0.782378281      54.6330736
9.304                0.783073263      54.4514065
9.305                0.783765068      54.2704776
9.306                0.784453709      54.0902826
9.307                0.785139195      53.9108172
9.308                0.785821539      53.7320769
9.309                0.786500751      53.5540575
9.31                 0.787176843      53.3767548
9.311                0.787849826      53.2001643
9.312                0.788519711       53.024282
9.313                 0.78918651      52.8491036
9.314                0.789850235      52.6746249
9.315                0.790510896      52.5008419
9.316                0.791168506      52.3277503
9.317                0.791823076      52.1553461
9.318                0.792474617      51.9836253
9.319                0.793123142      51.8125839
9.32                 0.793768661      51.6422177
9.321                0.794411187      51.4725229
9.322                0.795050732      51.3034954
9.323                0.795687307      51.1351314
9.324                0.796320924      50.9674269
9.325                0.796951594      50.8003782
9.326                 0.79757933      50.6339812
9.327                0.798204144      50.4682323
9.328                0.798826047      50.3031275
9.329                0.799445051      50.1386632
9.33                 0.800061168      49.9748356
9.331                0.800674411      49.8116409
9.332                 0.80128479      49.6490755
9.333                0.801892317      49.4871357
9.334                0.802497006      49.3258178
9.335                0.803098867      49.1651183
9.336                0.803697913      49.0050334
9.337                0.804294155      48.8455597
9.338                0.804887606      48.6866936
9.339                0.805478277      48.5284315
9.34                  0.80606618      48.3707699
9.341                0.806651327      48.2137054
9.342                0.807233731      48.0572345
9.343                0.807813403      47.9013538
9.344                0.808390354      47.7460598
9.345                0.808964598      47.5913491
9.346                0.809536145      47.4372184
9.347                0.810105007      47.2836644
9.348                0.810671197      47.1306836
9.349                0.811234727      46.9782728
9.35                 0.811795608      46.8264288
9.351                0.812353851      46.6751482
9.352                 0.81290947      46.5244278
9.353                0.813462475      46.3742644
9.354                0.814012878      46.2246547
9.355                0.814560692      46.0755957
9.356                0.815105927      45.9270842
9.357                0.815648596       45.779117
9.358                 0.81618871      45.6316909
9.359                0.816726282       45.484803
9.36                 0.817261321      45.3384502
9.361                0.817793841      45.1926293
9.362                0.818323853      45.0473373
9.363                0.818851369      44.9025713
9.364                0.819376399      44.7583282
9.365                0.819898956      44.6146051
9.366                0.820419051       44.471399
9.367                0.820936695       44.328707
9.368                0.821451901      44.1865261
9.369                0.821964679      44.0448534
9.37                  0.82247504      43.9036861
9.371                0.822982997      43.7630214
9.372                 0.82348856      43.6228563
9.373                0.823991741       43.483188
9.374                0.824492551      43.3440138
9.375                0.824991001      43.2053308
9.376                0.825487103      43.0671363
9.377                0.825980867      42.9294275
9.378                0.826472305      42.7922017
9.379                0.826961428      42.6554562
9.38                 0.827448247      42.5191882
9.381                0.827932773      42.3833952
9.382                0.828415018      42.2480743
9.383                0.828894991       42.113223
9.384                0.829372703      41.9788387
9.385                0.829848167      41.8449187
9.386                0.830321393      41.7114605
9.387                 0.83079239      41.5784613
9.388                0.831261172      41.4459188
9.389                0.831727747      41.3138303
9.39                 0.832192126      41.1821933
9.391                0.832654322      41.0510054
9.392                0.833114343      40.9202639
9.393                0.833572201      40.7899664
9.394                0.834027906      40.6601104
9.395                0.834481469      40.5306936
9.396                  0.8349329      40.4017134
