! TOUCHSTONE file generated by CST DESIGN STUDIO
! Date and time: Wed Feb  5 13:36:07 2025
! Project name: C:\Work\MatlabApps\UnitCellOptimizationMatlab\CST\unitcell.cst
! Tree item: Tasks\Sweep1\SPara1\S-Parameters
! Header version: 2024
! Port assignment regex: !\s*Touchstone port\s*([0-9]+)\s*=\s*(CST MWS port|CST DES external port|CST DES block port)\s*(.+)\s* \(\"(.*)\"\)(\s*mode\s*([0-9]+))?.*
! Touchstone port assignment:
! Touchstone port 1 = CST DES external port 1 ("")
# GHz S MA R 50
9                    0.565032517      117.848994
9.001                 0.56618656      117.353367
9.002                0.567346728      116.860026
9.003                0.568512839      116.368971
9.004                0.569684715      115.880202
9.005                0.570862179      115.393719
9.006                0.572045054      114.909521
9.007                0.573233166      114.427607
9.008                0.574426342      113.947976
9.009                 0.57562441      113.470626
9.01                   0.5768272      112.995555
9.011                0.578034544       112.52276
9.012                0.579246275      112.052239
9.013                0.580462227      111.583988
9.014                0.581682238      111.118004
9.015                0.582906144      110.654283
9.016                0.584133787      110.192821
9.017                0.585365007      109.733614
9.018                0.586599647      109.276658
9.019                0.587837554      108.821947
9.02                 0.589078572      108.369476
9.021                0.590322552       107.91924
9.022                0.591569343      107.471233
9.023                0.592818797       107.02545
9.024                0.594070769      106.581884
9.025                0.595325114      106.140529
9.026                 0.59658169      105.701379
9.027                0.597840356      105.264427
9.028                0.599100974      104.829666
9.029                0.600363406      104.397088
9.03                 0.601627518      103.966688
9.031                0.602893176      103.538457
9.032                 0.60416025      103.112388
9.033                 0.60542861      102.688472
9.034                0.606698128      102.266703
9.035                0.607968678      101.847072
9.036                0.609240137       101.42957
9.037                0.610512384      101.014191
9.038                0.611785297      100.600924
9.039                0.613058758      100.189762
9.04                 0.614332651       99.780696
9.041                0.615606862       99.373717
9.042                0.616881278      98.9688163
9.043                0.618155787      98.5659849
9.044                0.619430281      98.1652137
9.045                0.620704652      97.7664935
9.046                0.621978795       97.369815
9.047                0.623252607      96.9751691
9.048                0.624525985      96.5825462
9.049                0.625798829      96.1919369
9.05                  0.62707104      95.8033317
9.051                0.628342523       95.416721
9.052                0.629613183      95.0320951
9.053                0.630882925      94.6494443
9.054                0.632151659      94.2687589
9.055                0.633419296       93.890029
9.056                0.634685746       93.513245
9.057                0.635950924      93.1383967
9.058                0.637214746      92.7654745
9.059                0.638477127      92.3944683
9.06                 0.639737986      92.0253681
9.061                0.640997245       91.658164
9.062                0.642254824       91.292846
9.063                0.643510648       90.929404
9.064                 0.64476464       90.567828
9.065                0.646016728       90.208108
9.066                 0.64726684      89.8502338
9.067                0.648514905      89.4941954
9.068                0.649760855      89.1399828
9.069                0.651004623      88.7875858
9.07                 0.652246141      88.4369943
9.071                0.653485347      88.0881984
9.072                0.654722177      87.7411878
9.073                0.655956569      87.3959527
9.074                0.657188464      87.0524828
9.075                0.658417802      86.7107681
9.076                0.659644528      86.3707987
9.077                0.660868583      86.0325645
9.078                0.662089915      85.6960554
9.079                0.663308469      85.3612616
9.08                 0.664524194      85.0281729
9.081                0.665737039      84.6967796
9.082                0.666946955      84.3670717
9.083                0.668153894      84.0390392
9.084                0.669357808      83.7126722
9.085                0.670558652      83.3879611
9.086                0.671756383      83.0648958
9.087                0.672950956      82.7434667
9.088                0.674142329      82.4236639
9.089                0.675330462      82.1054778
9.09                 0.676515316      81.7888986
9.091                 0.67769685      81.4739166
9.092                0.678875029      81.1605223
9.093                0.680049815      80.8487061
9.094                0.681221174      80.5384583
9.095                 0.68238907      80.2297695
9.096                0.683553472      79.9226301
9.097                0.684714346      79.6170307
9.098                0.685871663       79.312962
9.099                0.687025391      79.0104145
9.1                  0.688175501      78.7093789
9.101                0.689321966       78.409846
9.102                0.690464758      78.1118064
9.103                 0.69160385      77.8152509
9.104                0.692739219      77.5201705
9.105                0.693870838       77.226556
9.106                0.694998686      76.9343983
9.107                0.696122738      76.6436884
9.108                0.697242974      76.3544173
9.109                0.698359371      76.0665761
9.11                 0.699471911      75.7801558
9.111                0.700580575      75.4951476
9.112                0.701685342      75.2115427
9.113                0.702786197      74.9293324
9.114                0.703883121      74.6485079
9.115                0.704976099      74.3690606
9.116                0.706065116      74.0909818
9.117                0.707150157      73.8142631
9.118                0.708231207      73.5388957
9.119                0.709308254      73.2648713
9.12                 0.710381286      72.9921815
9.121                 0.71145029      72.7208178
9.122                0.712515255       72.450772
9.123                0.713576171      72.1820357
9.124                0.714633028      71.9146007
9.125                0.715685817      71.6484588
9.126                 0.71673453      71.3836018
9.127                0.717779157      71.1200217
9.128                0.718819693      70.8577105
9.129                0.719856129        70.59666
9.13                 0.720888461      70.3368624
9.131                0.721916682      70.0783098
9.132                0.722940788      69.8209942
9.133                0.723960773       69.564908
9.134                0.724976634      69.3100433
9.135                0.725988367      69.0563924
9.136                 0.72699597      68.8039477
9.137                0.727999439      68.5527015
9.138                0.728998773      68.3026463
9.139                0.729993971      68.0537746
9.14                 0.730985031      67.8060788
9.141                0.731971953      67.5595515
9.142                0.732954736      67.3141854
9.143                0.733933382      67.0699732
9.144                 0.73490789      66.8269075
9.145                0.735878262      66.5849811
9.146                0.736844499      66.3441868
9.147                0.737806604      66.1045174
9.148                0.738764578       65.865966
9.149                0.739718425      65.6285253
9.15                 0.740668148      65.3921884
9.151                0.741613749      65.1569484
9.152                0.742555234      64.9227983
9.153                0.743492606      64.6897312
9.154                 0.74442587      64.4577404
9.155                 0.74535503       64.226819
9.156                0.746280092      63.9969603
9.157                0.747201061      63.7681576
9.158                0.748117943      63.5404042
9.159                0.749030744      63.3136936
9.16                 0.749939471      63.0880192
9.161                0.750844131      62.8633745
9.162                 0.75174473       62.639753
9.163                0.752641275      62.4171482
9.164                0.753533774      62.1955539
9.165                0.754422236      61.9749636
9.166                0.755306667       61.755371
9.167                0.756187076      61.5367699
9.168                0.757063473      61.3191541
9.169                0.757935864      61.1025174
9.17                  0.75880426      60.8868537
9.171                 0.75966867      60.6721568
9.172                0.760529103      60.4584208
9.173                0.761385568      60.2456396
9.174                0.762238076      60.0338072
9.175                0.763086636      59.8229178
9.176                 0.76393126      59.6129654
9.177                0.764771956      59.4039441
9.178                0.765608736      59.1958483
9.179                 0.76644161      58.9886721
9.18                  0.76727059      58.7824098
9.181                0.768095686      58.5770557
9.182                 0.76891691      58.3726041
9.183                0.769734272      58.1690495
9.184                0.770547786      57.9663862
9.185                0.771357462      57.7646088
9.186                0.772163311      57.5637118
9.187                0.772965347      57.3636896
9.188                0.773763581      57.1645369
9.189                0.774558026      56.9662482
9.19                 0.775348693      56.7688183
9.191                0.776135595      56.5722419
9.192                0.776918745      56.3765135
9.193                0.777698156      56.1816281
9.194                0.778473839      55.9875804
9.195                0.779245809      55.7943653
9.196                0.780014078      55.6019776
9.197                0.780778658      55.4104122
9.198                0.781539565       55.219664
9.199                0.782296809      55.0297282
9.2                  0.783050406      54.8405995
9.201                0.783800367      54.6522732
9.202                0.784546708      54.4647443
9.203                0.785289441      54.2780078
9.204                0.786028579       54.092059
9.205                0.786764138       53.906893
9.206                0.787496129       53.722505
9.207                0.788224568      53.5388904
9.208                0.788949468      53.3560443
9.209                0.789670843       53.173962
9.21                 0.790388707       52.992639
9.211                0.791103073      52.8120706
9.212                0.791813957      52.6322521
9.213                0.792521372      52.4531792
9.214                0.793225332      52.2748471
9.215                0.793925851      52.0972514
9.216                0.794622944      51.9203877
9.217                0.795316625      51.7442515
9.218                0.796006908      51.5688385
9.219                0.796693808      51.3941441
9.22                 0.797377338      51.2201642
9.221                0.798057513      51.0468943
9.222                0.798734348      50.8743302
9.223                0.799407856      50.7024677
9.224                0.800078053      50.5313024
9.225                0.800744953      50.3608303
9.226                0.801408569      50.1910471
9.227                0.802068917      50.0219487
9.228                0.802726011       49.853531
9.229                0.803379866      49.6857899
9.23                 0.804030495      49.5187214
9.231                0.804677914      49.3523214
9.232                0.805322136      49.1865859
9.233                0.805963176       49.021511
9.234                0.806601049      48.8570926
9.235                0.807235769       48.693327
9.236                0.807867351      48.5302102
9.237                0.808495809      48.3677383
9.238                0.809121156      48.2059075
9.239                0.809743409       48.044714
9.24                 0.810362581      47.8841539
9.241                0.810978686      47.7242236
9.242                0.811591739      47.5649194
9.243                0.812201754      47.4062374
9.244                0.812808745       47.248174
9.245                0.813412728      47.0907255
9.246                0.814013716      46.9338884
9.247                0.814611723       46.777659
9.248                0.815206763      46.6220337
9.249                0.815798852       46.467009
9.25                 0.816388002      46.3125813
9.251                0.816974229      46.1587471
9.252                0.817557546      46.0055029
9.253                0.818137967      45.8528453
9.254                0.818715507      45.7007708
9.255                0.819290179       45.549276
9.256                0.819861998      45.3983575
9.257                0.820430978      45.2480119
9.258                0.820997132      45.0982359
9.259                0.821560474      44.9490262
9.26                 0.822121019      44.8003794
9.261                 0.82267878      44.6522923
9.262                 0.82323377      44.5047615
9.263                0.823786005       44.357784
9.264                0.824335497      44.2113564
9.265                 0.82488226      44.0654756
9.266                0.825426308      43.9201383
9.267                0.825967654      43.7753415
9.268                0.826506313       43.631082
9.269                0.827042296      43.4873567
9.27                 0.827575619      43.3441625
9.271                0.828106295      43.2014963
9.272                0.828634336      43.0593551
9.273                0.829159756      42.9177358
9.274                0.829682569      42.7766355
9.275                0.830202788      42.6360512
9.276                0.830720426      42.4959799
9.277                0.831235496      42.3564186
9.278                0.831748012      42.2173644
9.279                0.832257986      42.0788144
9.28                 0.832765431      41.9407658
9.281                0.833270361      41.8032156
9.282                0.833772789       41.666161
9.283                0.834272727      41.5295991
9.284                0.834770188      41.3935272
9.285                0.835265185      41.2579425
9.286                 0.83575773      41.1228421
9.287                0.836247837      40.9882234
9.288                0.836735519      40.8540835
9.289                0.837220787      40.7204198
9.29                 0.837703654      40.5872296
9.291                0.838184133      40.4545101
9.292                0.838662236      40.3222587
9.293                0.839137976      40.1904727
9.294                0.839611364      40.0591496
9.295                0.840082414      39.9282867
9.296                0.840551138      39.7978813
9.297                0.841017547       39.667931
9.298                0.841481654      39.5384331
9.299                 0.84194347      39.4093851
9.3                  0.842403009      39.2807844
9.301                0.842860282      39.1526286
9.302                  0.8433153      39.0249151
9.303                0.843768077      38.8976416
9.304                0.844218622      38.7708054
9.305                0.844666949      38.6444041
9.306                0.845113069      38.5184353
9.307                0.845556994      38.3928967
9.308                0.845998735      38.2677857
9.309                0.846438304         38.1431
9.31                 0.846875712      38.0188372
9.311                0.847310972       37.894995
9.312                0.847744093       37.771571
9.313                0.848175088      37.6485629
9.314                0.848603967      37.5259684
9.315                0.849030743      37.4037851
9.316                0.849455426      37.2820109
9.317                0.849878027      37.1606434
9.318                0.850298558      37.0396803
9.319                0.850717029      36.9191195
9.32                 0.851133452      36.7989587
9.321                0.851547837      36.6791957
9.322                0.851960195      36.5598283
9.323                0.852370537      36.4408543
9.324                0.852778874      36.3222715
9.325                0.853185216      36.2040779
9.326                0.853589575      36.0862711
9.327                 0.85399196      35.9688493
9.328                0.854392382      35.8518101
9.329                0.854790852      35.7351515
9.33                  0.85518738      35.6188714
9.331                0.855581977      35.5029678
9.332                0.855974653      35.3874385
9.333                0.856365417      35.2722816
9.334                0.856754281       35.157495
9.335                0.857141254      35.0430766
9.336                0.857526347      34.9290245
9.337                 0.85790957      34.8153367
9.338                0.858290932      34.7020111
9.339                0.858670444      34.5890458
9.34                 0.859048116      34.4764389
9.341                0.859423956      34.3641884
9.342                0.859797976      34.2522923
9.343                0.860170185      34.1407488
9.344                0.860540593      34.0295558
9.345                0.860909208      33.9187116
9.346                0.861276042      33.8082143
9.347                0.861641103      33.6980618
9.348                  0.8620044      33.5882525
9.349                0.862365944      33.4787844
9.35                 0.862725744      33.3696557
9.351                0.863083809      33.2608645
9.352                0.863440148      33.1524091
9.353                0.863794771      33.0442876
9.354                0.864147686      32.9364983
9.355                0.864498903      32.8290392
9.356                0.864848432      32.7219088
9.357                 0.86519628      32.6151052
9.358                0.865542457      32.5086266
9.359                0.865886972      32.4024713
9.36                 0.866229834      32.2966376
9.361                0.866571051      32.1911238
9.362                0.866910633      32.0859281
9.363                0.867248588      31.9810489
9.364                0.867584925      31.8764843
9.365                0.867919653      31.7722329
9.366                0.868252779      31.6682929
9.367                0.868584313      31.5646626
9.368                0.868914263      31.4613404
9.369                0.869242638      31.3583246
9.37                 0.869569446      31.2556137
9.371                0.869894695       31.153206
9.372                0.870218394      31.0510998
9.373                0.870540551      30.9492937
9.374                0.870861174      30.8477859
9.375                0.871180271       30.746575
9.376                 0.87149785      30.6456593
9.377                 0.87181392      30.5450372
9.378                0.872128489      30.4447073
9.379                0.872441564       30.344668
9.38                 0.872753154      30.2449177
9.381                0.873063265       30.145455
9.382                0.873371908      30.0462782
9.383                0.873679088      29.9473859
9.384                0.873984813      29.8487767
9.385                0.874289093      29.7504489
9.386                0.874591933      29.6524012
9.387                0.874893342       29.554632
9.388                0.875193328      29.4571398
9.389                0.875491897      29.3599234
9.39                 0.875789058      29.2629811
9.391                0.876084818      29.1663115
9.392                0.876379183      29.0699133
9.393                0.876672163      28.9737849
9.394                0.876963763      28.8779251
9.395                0.877253992      28.7823323
9.396                0.877542856      28.6870052
