! TOUCHSTONE file generated by CST DESIGN STUDIO
! Date and time: Wed Feb  5 13:36:14 2025
! Project name: C:\Work\MatlabApps\UnitCellOptimizationMatlab\CST\unitcell.cst
! Tree item: Tasks\Sweep1\SPara1\S-Parameters
! Header version: 2024
! Port assignment regex: !\s*Touchstone port\s*([0-9]+)\s*=\s*(CST MWS port|CST DES external port|CST DES block port)\s*(.+)\s* \(\"(.*)\"\)(\s*mode\s*([0-9]+))?.*
! Touchstone port assignment:
! Touchstone port 1 = CST DES external port 1 ("")
# GHz S MA R 50
9                    0.835611335       -84.33296
9.001                0.834956786     -84.5171217
9.002                0.834299256     -84.7019827
9.003                0.833638737     -84.8875464
9.004                 0.83297522      -85.073816
9.005                0.832308698     -85.2607952
9.006                0.831639163     -85.4484873
9.007                0.830966607     -85.6368957
9.008                0.830291022     -85.8260239
9.009                0.829612401     -86.0158754
9.01                 0.828930736     -86.2064538
9.011                0.828246019     -86.3977624
9.012                0.827558244     -86.5898049
9.013                0.826867403     -86.7825849
9.014                0.826173489     -86.9761057
9.015                0.825476494     -87.1703711
9.016                0.824776413     -87.3653847
9.017                0.824073237       -87.56115
9.018                0.823366962     -87.7576707
9.019                0.822657579     -87.9549504
9.02                 0.821945083     -88.1529929
9.021                0.821229467     -88.3518017
9.022                0.820510725     -88.5513806
9.023                0.819788851     -88.7517332
9.024                0.819063839     -88.9528635
9.025                0.818335684     -89.1547749
9.026                0.817604379     -89.3574714
9.027                 0.81686992     -89.5609567
9.028                0.816132301     -89.7652347
9.029                0.815391516      -89.970309
9.03                 0.814647562     -90.1761836
9.031                0.813900432     -90.3828623
9.032                0.813150123     -90.5903489
9.033                 0.81239663     -90.7986474
9.034                0.811639948     -91.0077616
9.035                0.810880074     -91.2176955
9.036                0.810117002     -91.4284529
9.037                0.809350731     -91.6400379
9.038                0.808581256     -91.8524543
9.039                0.807808573     -92.0657061
9.04                  0.80703268     -92.2797974
9.041                0.806253573     -92.4947322
9.042                0.805471249     -92.7105144
9.043                0.804685707     -92.9271481
9.044                0.803896944     -93.1446375
9.045                0.803104956     -93.3629864
9.046                0.802309744     -93.5821991
9.047                0.801511304     -93.8022796
9.048                0.800709636     -94.0232321
9.049                0.799904737     -94.2450607
9.05                 0.799096608     -94.4677695
9.051                0.798285247     -94.6913627
9.052                0.797470654     -94.9158445
9.053                0.796652829     -95.1412191
9.054                0.795831771     -95.3674907
9.055                0.795007481     -95.5946635
9.056                 0.79417996     -95.8227418
9.057                0.793349208     -96.0517298
9.058                0.792515226     -96.2816318
9.059                0.791678015     -96.5124521
9.06                 0.790837578     -96.7441949
9.061                0.789993917     -96.9768647
9.062                0.789147033     -97.2104657
9.063                0.788296929     -97.4450023
9.064                0.787443607     -97.6804787
9.065                0.786587073     -97.9168995
9.066                0.785727327      -98.154269
9.067                0.784864376     -98.3925915
9.068                0.783998221     -98.6318715
9.069                 0.78312887     -98.8721135
9.07                 0.782256325     -99.1133218
9.071                0.781380592     -99.3555009
9.072                0.780501677     -99.5986553
9.073                0.779619585     -99.8427894
9.074                0.778734324     -100.087908
9.075                0.777845899     -100.334015
9.076                0.776954317     -100.581115
9.077                0.776059586     -100.829213
9.078                0.775161715     -101.078313
9.079                 0.77426071     -101.328421
9.08                  0.77335658     -101.579539
9.081                0.772449335     -101.831674
9.082                0.771538984     -102.084829
9.083                0.770625536     -102.339009
9.084                0.769709003     -102.594219
9.085                0.768789394     -102.850463
9.086                0.767866721     -103.107746
9.087                0.766940995     -103.366073
9.088                0.766012228     -103.625448
9.089                0.765080434     -103.885875
9.09                 0.764145623     -104.147361
9.091                0.763207811     -104.409908
9.092                0.762267011     -104.673522
9.093                0.761323238     -104.938207
9.094                0.760376505     -105.203969
9.095                0.759426829     -105.470811
9.096                0.758474225     -105.738739
9.097                0.757518711     -106.007757
9.098                0.756560301      -106.27787
9.099                0.755599015     -106.549083
9.1                   0.75463487       -106.8214
9.101                0.753667884     -107.094825
9.102                0.752698076     -107.369365
9.103                0.751725467     -107.645023
9.104                0.750750075     -107.921803
9.105                0.749771922     -108.199712
9.106                 0.74879103     -108.478753
9.107                0.747807419     -108.758932
9.108                0.746821112     -109.040252
9.109                0.745832132     -109.322719
9.11                 0.744840504     -109.606338
9.111                 0.74384625     -109.891112
9.112                0.742849396     -110.177047
9.113                0.741849967     -110.464148
9.114                 0.74084799     -110.752419
9.115                 0.73984349     -111.041865
9.116                0.738836496      -111.33249
9.117                0.737827035     -111.624299
9.118                0.736815136     -111.917298
9.119                0.735800828      -112.21149
9.12                 0.734784141      -112.50688
9.121                0.733765105     -112.803473
9.122                0.732743753     -113.101273
9.123                0.731720115     -113.400286
9.124                0.730694225     -113.700515
9.125                0.729666115     -114.001966
9.126                0.728635821     -114.304643
9.127                0.727603376      -114.60855
9.128                0.726568817     -114.913692
9.129                0.725532179     -115.220073
9.13                 0.724493499     -115.527699
9.131                0.723452815     -115.836574
9.132                0.722410166     -116.146701
9.133                 0.72136559     -116.458086
9.134                0.720319127     -116.770733
9.135                0.719270819     -117.084647
9.136                0.718220706     -117.399831
9.137                 0.71716883     -117.716291
9.138                0.716115236      -118.03403
9.139                0.715059965     -118.353053
9.14                 0.714003064     -118.673364
9.141                0.712944577     -118.994968
9.142                 0.71188455     -119.317868
9.143                0.710823031     -119.642069
9.144                0.709760067     -119.967575
9.145                0.708695706     -120.294391
9.146                0.707629998     -120.622519
9.147                0.706562993     -120.951965
9.148                0.705494742     -121.282732
9.149                0.704425297     -121.614825
9.15                 0.703354711     -121.948246
9.151                0.702283037     -122.283001
9.152                0.701210329     -122.619093
9.153                0.700136642     -122.956526
9.154                0.699062033     -123.295303
9.155                0.697986558     -123.635429
9.156                0.696910276     -123.976906
9.157                0.695833244     -124.319739
9.158                0.694755521     -124.663931
9.159                 0.69367717     -125.009486
9.16                  0.69259825     -125.356407
9.161                0.691518823     -125.704697
9.162                0.690438952      -126.05436
9.163                0.689358702     -126.405399
9.164                0.688278136     -126.757817
9.165                 0.68719732     -127.111617
9.166                0.686116321     -127.466803
9.167                0.685035205     -127.823377
9.168                0.683954041     -128.181342
9.169                0.682872897     -128.540701
9.17                 0.681791844     -128.901457
9.171                0.680710952     -129.263613
9.172                0.679630293     -129.627171
9.173                0.678549938     -129.992133
9.174                0.677469962     -130.358502
9.175                0.676390438     -130.726281
9.176                0.675311442     -131.095471
9.177                0.674233048     -131.466076
9.178                0.673155334     -131.838096
9.179                0.672078378     -132.211534
9.18                 0.671002257     -132.586391
9.181                0.669927051      -132.96267
9.182                 0.66885284     -133.340373
9.183                0.667779705       -133.7195
9.184                0.666707728     -134.100053
9.185                 0.66563699     -134.482033
9.186                0.664567576     -134.865443
9.187                0.663499569     -135.250282
9.188                0.662433054     -135.636552
9.189                0.661368118     -136.024253
9.19                 0.660304846     -136.413387
9.191                0.659243327     -136.803955
9.192                0.658183647     -137.195955
9.193                0.657125896      -137.58939
9.194                0.656070163     -137.984258
9.195                0.655016539     -138.380561
9.196                0.653965115     -138.778298
9.197                0.652915982     -139.177469
9.198                0.651869233     -139.578073
9.199                0.650824961     -139.980111
9.2                   0.64978326     -140.383581
9.201                0.648744224     -140.788483
9.202                0.647707949     -141.194815
9.203                 0.64667453     -141.602577
9.204                0.645644064     -142.011767
9.205                0.644616648     -142.422384
9.206                0.643592379     -142.834427
9.207                0.642571356     -143.247892
9.208                0.641553678      -143.66278
9.209                0.640539443     -144.079086
9.21                 0.639528752      -144.49681
9.211                0.638521705     -144.915948
9.212                0.637518403     -145.336498
9.213                0.636518948     -145.758457
9.214                 0.63552344     -146.181822
9.215                0.634531983      -146.60659
9.216                0.633544679     -147.032757
9.217                0.632561632     -147.460319
9.218                0.631582944     -147.889273
9.219                0.630608719     -148.319615
9.22                 0.629639062      -148.75134
9.221                0.628674077     -149.184443
9.222                0.627713869     -149.618922
9.223                0.626758543     -150.054769
9.224                0.625808203      -150.49198
9.225                0.624862957     -150.930551
9.226                0.623922908     -151.370474
9.227                0.622988163     -151.811745
9.228                0.622058828     -152.254357
9.229                0.621135008     -152.698304
9.23                 0.620216811      -153.14358
9.231                0.619304342     -153.590178
9.232                0.618397707     -154.038091
9.233                0.617497012     -154.487311
9.234                0.616602364     -154.937832
9.235                0.615713869     -155.389646
9.236                0.614831632     -155.842744
9.237                 0.61395576     -156.297118
9.238                0.613086358      -156.75276
9.239                0.612223531     -157.209662
9.24                 0.611367386     -157.667815
9.241                0.610518027     -158.127208
9.242                0.609675559     -158.587833
9.243                0.608840086      -159.04968
9.244                0.608011712      -159.51274
9.245                0.607190542     -159.977001
9.246                0.606376678     -160.442454
9.247                0.605570223     -160.909087
9.248                 0.60477128      -161.37689
9.249                0.603979951     -161.845851
9.25                 0.603196336     -162.315959
9.251                0.602420537     -162.787202
9.252                0.601652653     -163.259568
9.253                0.600892785     -163.733045
9.254                 0.60014103     -164.207619
9.255                0.599397487     -164.683279
9.256                0.598662253     -165.160011
9.257                0.597935425     -165.637802
9.258                0.597217098     -166.116638
9.259                0.596507367     -166.596504
9.26                 0.595806326     -167.077388
9.261                0.595114067     -167.559275
9.262                0.594430683     -168.042149
9.263                0.593756264     -168.525996
9.264                0.593090901     -169.010801
9.265                0.592434682     -169.496548
9.266                0.591787695     -169.983221
9.267                0.591150027     -170.470805
9.268                0.590521762     -170.959284
9.269                0.589902985      -171.44864
9.27                 0.589293779     -171.938857
9.271                0.588694225     -172.429919
9.272                0.588104403     -172.921807
9.273                0.587524393     -173.414505
9.274                0.586954272     -173.907995
9.275                0.586394116     -174.402259
9.276                   0.585844     -174.897278
9.277                0.585303997     -175.393036
9.278                0.584774178     -175.889512
9.279                0.584254614     -176.386688
9.28                 0.583745372     -176.884545
9.281                0.583246521     -177.383064
9.282                0.582758125     -177.882226
9.283                0.582280248      -178.38201
9.284                0.581812951     -178.882398
9.285                0.581356296     -179.383368
9.286                 0.58091034     -179.884902
9.287                 0.58047514      179.613023
9.288                 0.58005075      179.110425
9.289                0.579637225      178.607326
9.29                 0.579234615      178.103747
9.291                 0.57884297      177.599709
9.292                0.578462336      177.095232
9.293                0.578092761      176.590339
9.294                0.577734286      176.085051
9.295                0.577386954      175.579389
9.296                0.577050805      175.073376
9.297                0.576725876      174.567032
9.298                0.576412203      174.060381
9.299                0.576109819      173.553443
9.3                  0.575818757      173.046242
9.301                0.575539046        172.5388
9.302                0.575270714      172.031139
9.303                0.575013785      171.523282
9.304                0.574768284       171.01525
9.305                0.574534231      170.507067
9.306                0.574311647      169.998756
9.307                0.574100547      169.490339
9.308                0.573900948      168.981839
9.309                0.573712861      168.473279
9.31                 0.573536299      167.964681
9.311                0.573371268      167.456069
9.312                0.573217776      166.947466
9.313                0.573075828      166.438893
9.314                0.572945425      165.930375
9.315                0.572826568      165.421934
9.316                0.572719254      164.913594
9.317                 0.57262348      164.405376
9.318                0.572539239      163.897304
9.319                0.572466523      163.389401
9.32                 0.572405321      162.881689
9.321                0.572355621      162.374191
9.322                0.572317408       161.86693
9.323                0.572290665      161.359929
9.324                0.572275374       160.85321
9.325                0.572271514      160.346795
9.326                0.572279062      159.840706
9.327                0.572297993      159.334967
9.328                0.572328279        158.8296
9.329                0.572369893      158.324625
9.33                 0.572422803      157.820066
9.331                0.572486975      157.315944
9.332                0.572562376      156.812281
9.333                0.572648969      156.309099
9.334                0.572746714      155.806418
9.335                0.572855571      155.304261
9.336                0.572975498      154.802648
9.337                 0.57310645      154.301601
9.338                0.573248382       153.80114
9.339                0.573401245      153.301285
9.34                 0.573564989      152.802059
9.341                0.573739563      152.303479
9.342                0.573924915      151.805568
9.343                0.574120988      151.308344
9.344                0.574327727      150.811828
9.345                0.574545074      150.316039
9.346                0.574772968      149.820997
9.347                0.575011348      149.326719
9.348                0.575260152      148.833227
9.349                0.575519314      148.340537
9.35                  0.57578877      147.848669
9.351                0.576068451       147.35764
9.352                0.576358289       146.86747
9.353                0.576658213      146.378174
9.354                0.576968153      145.889772
9.355                0.577288034      145.402281
9.356                0.577617784      144.915716
9.357                0.577957326      144.430096
9.358                0.578306584      143.945437
9.359                 0.57866548      143.461754
9.36                 0.579033935      142.979065
9.361                0.579411868      142.497385
9.362                  0.5797992      142.016728
9.363                0.580195846      141.537112
9.364                0.580601725       141.05855
9.365                0.581016751      140.581057
9.366                 0.58144084      140.104648
9.367                0.581873905      139.629337
9.368                0.582315859      139.155138
9.369                0.582766615      138.682064
9.37                 0.583226083      138.210129
9.371                0.583694174      137.739346
9.372                0.584170799      137.269728
9.373                0.584655865      136.801287
9.374                0.585149282      136.334036
9.375                0.585650956      135.867986
9.376                0.586160796       135.40315
9.377                0.586678708      134.939538
9.378                0.587204598      134.477162
9.379                0.587738372      134.016034
9.38                 0.588279934      133.556162
9.381                0.588829189      133.097559
9.382                0.589386041      132.640233
9.383                0.589950395      132.184195
9.384                0.590522154      131.729455
9.385                 0.59110122      131.276021
9.386                0.591687498      130.823902
9.387                0.592280889      130.373108
9.388                0.592881296      129.923647
9.389                0.593488622      129.475527
9.39                 0.594102768      129.028755
9.391                0.594723636       128.58334
9.392                0.595351129       128.13929
9.393                0.595985148       127.69661
9.394                0.596625596      127.255309
9.395                0.597272373      126.815393
9.396                0.597925381      126.376868
