! TOUCHSTONE file generated by CST DESIGN STUDIO
! Date and time: Wed Feb  5 13:36:22 2025
! Project name: C:\Work\MatlabApps\UnitCellOptimizationMatlab\CST\unitcell.cst
! Tree item: Tasks\Sweep1\SPara1\S-Parameters
! Header version: 2024
! Port assignment regex: !\s*Touchstone port\s*([0-9]+)\s*=\s*(CST MWS port|CST DES external port|CST DES block port)\s*(.+)\s* \(\"(.*)\"\)(\s*mode\s*([0-9]+))?.*
! Touchstone port assignment:
! Touchstone port 1 = CST DES external port 1 ("")
# GHz S MA R 50
9                     0.96899978     -45.8032351
9.001                 0.96891907     -45.8598802
9.002                0.968838098     -45.9166425
9.003                0.968756863     -45.9735224
9.004                0.968675363     -46.0305203
9.005                0.968593598     -46.0876365
9.006                0.968511567     -46.1448716
9.007                0.968429268     -46.2022257
9.008                0.968346701     -46.2596994
9.009                0.968263865      -46.317293
9.01                 0.968180759     -46.3750069
9.011                0.968097382     -46.4328415
9.012                0.968013733     -46.4907972
9.013                0.967929811     -46.5488744
9.014                0.967845614     -46.6070734
9.015                0.967761143     -46.6653947
9.016                0.967676396     -46.7238386
9.017                0.967591371     -46.7824057
9.018                0.967506069     -46.8410961
9.019                0.967420487     -46.8999105
9.02                 0.967334625     -46.9588491
9.021                0.967248482     -47.0179124
9.022                0.967162057     -47.0771008
9.023                0.967075349     -47.1364146
9.024                0.966988356     -47.1958544
9.025                0.966901078     -47.2554205
9.026                0.966813514     -47.3151133
9.027                0.966725663     -47.3749333
9.028                0.966637523     -47.4348808
9.029                0.966549093     -47.4949563
9.03                 0.966460373     -47.5551602
9.031                0.966371361      -47.615493
9.032                0.966282056      -47.675955
9.033                0.966192457     -47.7365466
9.034                0.966102564     -47.7972684
9.035                0.966012374     -47.8581207
9.036                0.965921887      -47.919104
9.037                0.965831102     -47.9802186
9.038                0.965740018     -48.0414651
9.039                0.965648632     -48.1028439
9.04                 0.965556946     -48.1643554
9.041                0.965464956         -48.226
9.042                0.965372662     -48.2877782
9.043                0.965280064     -48.3496905
9.044                0.965187159     -48.4117372
9.045                0.965093946     -48.4739189
9.046                0.965000425     -48.5362359
9.047                0.964906595     -48.5986887
9.048                0.964812453     -48.6612779
9.049                0.964717999     -48.7240038
9.05                 0.964623232     -48.7868668
9.051                0.964528151     -48.8498675
9.052                0.964432753     -48.9130063
9.053                0.964337039     -48.9762837
9.054                0.964241007     -49.0397002
9.055                0.964144655     -49.1032561
9.056                0.964047983      -49.166952
9.057                0.963950989     -49.2307883
9.058                0.963853671     -49.2947656
9.059                 0.96375603     -49.3588842
9.06                 0.963658063     -49.4231447
9.061                0.963559769     -49.4875476
9.062                0.963461147     -49.5520933
9.063                0.963362196     -49.6167822
9.064                0.963262914      -49.681615
9.065                0.963163301      -49.746592
9.066                0.963063354     -49.8117138
9.067                0.962963072     -49.8769808
9.068                0.962862455     -49.9423935
9.069                0.962761501     -50.0079525
9.07                 0.962660208     -50.0736583
9.071                0.962558576     -50.1395112
9.072                0.962456602     -50.2055119
9.073                0.962354286     -50.2716608
9.074                0.962251627     -50.3379584
9.075                0.962148622     -50.4044053
9.076                0.962045271     -50.4710019
9.077                0.961941572     -50.5377488
9.078                0.961837524     -50.6046464
9.079                0.961733125     -50.6716954
9.08                 0.961628375     -50.7388961
9.081                0.961523271     -50.8062491
9.082                0.961417812      -50.873755
9.083                0.961311997     -50.9414143
9.084                0.961205825     -51.0092274
9.085                0.961099294      -51.077195
9.086                0.960992402     -51.1453175
9.087                0.960885149     -51.2135955
9.088                0.960777532     -51.2820295
9.089                0.960669551       -51.35062
9.09                 0.960561203     -51.4193677
9.091                0.960452488     -51.4882729
9.092                0.960343404     -51.5573364
9.093                0.960233949     -51.6265585
9.094                0.960124122     -51.6959399
9.095                0.960013922     -51.7654812
9.096                0.959903347     -51.8351828
9.097                0.959792395     -51.9050453
9.098                0.959681065     -51.9750693
9.099                0.959569355     -52.0452553
9.1                  0.959457265     -52.1156039
9.101                0.959344792     -52.1861157
9.102                0.959231934     -52.2567913
9.103                0.959118691     -52.3276311
9.104                0.959005061     -52.3986358
9.105                0.958891042     -52.4698059
9.106                0.958776633     -52.5411421
9.107                0.958661831     -52.6126448
9.108                0.958546636     -52.6843148
9.109                0.958431046     -52.7561525
9.11                 0.958315059     -52.8281585
9.111                0.958198674     -52.9003335
9.112                0.958081888      -52.972678
9.113                0.957964701     -53.0451926
9.114                0.957847111     -53.1178779
9.115                0.957729116     -53.1907346
9.116                0.957610714     -53.2637631
9.117                0.957491905     -53.3369642
9.118                0.957372685     -53.4103384
9.119                0.957253054     -53.4838863
9.12                 0.957133009     -53.5576086
9.121                 0.95701255     -53.6315058
9.122                0.956891674     -53.7055785
9.123                0.956770379     -53.7798275
9.124                0.956648665     -53.8542533
9.125                0.956526529     -53.9288565
9.126                0.956403969     -54.0036378
9.127                0.956280984     -54.0785977
9.128                0.956157572      -54.153737
9.129                0.956033731     -54.2290562
9.13                  0.95590946      -54.304556
9.131                0.955784757     -54.3802371
9.132                0.955659619        -54.4561
9.133                0.955534046     -54.5321455
9.134                0.955408035     -54.6083741
9.135                0.955281584     -54.6847865
9.136                0.955154693     -54.7613834
9.137                0.955027358     -54.8381654
9.138                0.954899578     -54.9151332
9.139                0.954771351     -54.9922874
9.14                 0.954642676     -55.0696288
9.141                 0.95451355     -55.1471579
9.142                0.954383972     -55.2248755
9.143                 0.95425394     -55.3027822
9.144                0.954123451     -55.3808787
9.145                0.953992504     -55.4591657
9.146                0.953861098     -55.5376439
9.147                 0.95372923     -55.6163138
9.148                0.953596898     -55.6951764
9.149                  0.9534641     -55.7742321
9.15                 0.953330834     -55.8534817
9.151                0.953197099      -55.932926
9.152                0.953062893     -56.0125656
9.153                0.952928213     -56.0924011
9.154                0.952793057     -56.1724334
9.155                0.952657424     -56.2526632
9.156                0.952521311      -56.333091
9.157                0.952384717     -56.4137177
9.158                 0.95224764      -56.494544
9.159                0.952110077     -56.5755705
9.16                 0.951972026     -56.6567981
9.161                0.951833486     -56.7382274
9.162                0.951694454     -56.8198592
9.163                0.951554928     -56.9016941
9.164                0.951414907     -56.9837331
9.165                0.951274388     -57.0659766
9.166                0.951133368     -57.1484256
9.167                0.950991847     -57.2310808
9.168                0.950849822     -57.3139428
9.169                 0.95070729     -57.3970126
9.17                  0.95056425     -57.4802907
9.171                0.950420699      -57.563778
9.172                0.950276636     -57.6474753
9.173                0.950132058     -57.7313832
9.174                0.949986963     -57.8155027
9.175                0.949841348     -57.8998343
9.176                0.949695212      -57.984379
9.177                0.949548553     -58.0691374
9.178                0.949401368     -58.1541105
9.179                0.949253655     -58.2392988
9.18                 0.949105412     -58.3247034
9.181                0.948956636     -58.4103248
9.182                0.948807325      -58.496164
9.183                0.948657478     -58.5822217
9.184                0.948507091     -58.6684988
9.185                0.948356163      -58.754996
9.186                0.948204691     -58.8417141
9.187                0.948052673     -58.9286539
9.188                0.947900106     -59.0158164
9.189                0.947746989     -59.1032022
9.19                 0.947593319     -59.1908122
9.191                0.947439093     -59.2786473
9.192                 0.94728431     -59.3667082
9.193                0.947128967     -59.4549958
9.194                0.946973061     -59.5435109
9.195                 0.94681659     -59.6322544
9.196                0.946659553     -59.7212271
9.197                0.946501945     -59.8104299
9.198                0.946343766     -59.8998636
9.199                0.946185012      -59.989529
9.2                  0.946025681     -60.0794271
9.201                0.945865771     -60.1695586
9.202                0.945705279     -60.2599245
9.203                0.945544203     -60.3505256
9.204                0.945382541     -60.4413628
9.205                0.945220289      -60.532437
9.206                0.945057445      -60.623749
9.207                0.944894008     -60.7152997
9.208                0.944729973     -60.8070901
9.209                 0.94456534     -60.8991209
9.21                 0.944400105     -60.9913932
9.211                0.944234265     -61.0839077
9.212                0.944067819     -61.1766655
9.213                0.943900763     -61.2696673
9.214                0.943733096     -61.3629142
9.215                0.943564814      -61.456407
9.216                0.943395914     -61.5501467
9.217                0.943226395     -61.6441341
9.218                0.943056254     -61.7383702
9.219                0.942885488      -61.832856
9.22                 0.942714094     -61.9275923
9.221                0.942542069     -62.0225801
9.222                0.942369412     -62.1178204
9.223                0.942196119     -62.2133141
9.224                0.942022188      -62.309062
9.225                0.941847616     -62.4050653
9.226                  0.9416724     -62.5013248
9.227                0.941496538     -62.5978416
9.228                0.941320027     -62.6946165
9.229                0.941142863     -62.7916506
9.23                 0.940965046     -62.8889447
9.231                 0.94078657        -62.9865
9.232                0.940607435     -63.0843174
9.233                0.940427637     -63.1823978
9.234                0.940247173     -63.2807423
9.235                0.940066041     -63.3793518
9.236                0.939884237     -63.4782274
9.237                0.939701759     -63.5773701
9.238                0.939518604     -63.6767808
9.239                 0.93933477     -63.7764606
9.24                 0.939150253     -63.8764105
9.241                 0.93896505     -63.9766315
9.242                0.938779159     -64.0771246
9.243                0.938592577     -64.1778909
9.244                  0.9384053     -64.2789314
9.245                0.938217327     -64.3802472
9.246                0.938028653     -64.4818392
9.247                0.937839277     -64.5837086
9.248                0.937649195     -64.6858563
9.249                0.937458404     -64.7882835
9.25                 0.937266901     -64.8909912
9.251                0.937074684     -64.9939804
9.252                0.936881749     -65.0972522
9.253                0.936688093     -65.2008078
9.254                0.936493713     -65.3046481
9.255                0.936298607     -65.4087743
9.256                0.936102771     -65.5131875
9.257                0.935906203     -65.6178886
9.258                0.935708899      -65.722879
9.259                0.935510855     -65.8281595
9.26                  0.93531207     -65.9337314
9.261                 0.93511254     -66.0395958
9.262                0.934912263     -66.1457537
9.263                0.934711233     -66.2522063
9.264                 0.93450945     -66.3589547
9.265                 0.93430691         -66.466
9.266                0.934103608     -66.5733435
9.267                0.933899544     -66.6809861
9.268                0.933694712     -66.7889291
9.269                0.933489111     -66.8971736
9.27                 0.933282737     -67.0057207
9.271                0.933075586     -67.1145716
9.272                0.932867657     -67.2237275
9.273                0.932658944     -67.3331896
9.274                0.932449446     -67.4429589
9.275                0.932239159     -67.5530368
9.276                0.932028079     -67.6634243
9.277                0.931816205     -67.7741226
9.278                0.931603531      -67.885133
9.279                0.931390056     -67.9964567
9.28                 0.931175775     -68.1080947
9.281                0.930960686     -68.2200485
9.282                0.930744786      -68.332319
9.283                 0.93052807     -68.4449077
9.284                0.930310536     -68.5578156
9.285                0.930092181      -68.671044
9.286                   0.929873     -68.7845942
9.287                0.929652992     -68.8984674
9.288                0.929432152     -69.0126648
9.289                0.929210477     -69.1271877
9.29                 0.928987964     -69.2420373
9.291                0.928764609     -69.3572148
9.292                0.928540409     -69.4727216
9.293                0.928315361     -69.5885589
9.294                0.928089462      -69.704728
9.295                0.927862707     -69.8212301
9.296                0.927635094     -69.9380665
9.297                0.927406619     -70.0552386
9.298                0.927177279     -70.1727476
9.299                 0.92694707     -70.2905947
9.3                  0.926715989     -70.4087814
9.301                0.926484032     -70.5273089
9.302                0.926251196     -70.6461785
9.303                0.926017478     -70.7653916
9.304                0.925782875     -70.8849494
9.305                0.925547381     -71.0048534
9.306                0.925310995     -71.1251047
9.307                0.925073713     -71.2457049
9.308                0.924835531     -71.3666551
9.309                0.924596446     -71.4879568
9.31                 0.924356454     -71.6096114
9.311                0.924115551     -71.7316201
9.312                0.923873735     -71.8539843
9.313                0.923631002     -71.9767055
9.314                0.923387348     -72.0997849
9.315                 0.92314277      -72.223224
9.316                0.922897264     -72.3470242
9.317                0.922650826     -72.4711869
9.318                0.922403454     -72.5957134
9.319                0.922155143     -72.7206051
9.32                  0.92190589     -72.8458635
9.321                0.921655691       -72.97149
9.322                0.921404544      -73.097486
9.323                0.921152444     -73.2238529
9.324                0.920899387     -73.3505921
9.325                0.920645371     -73.4777052
9.326                0.920390391     -73.6051935
9.327                0.920134445     -73.7330584
9.328                0.919877528     -73.8613015
9.329                0.919619637     -73.9899242
9.33                 0.919360768     -74.1189279
9.331                0.919100917     -74.2483142
9.332                0.918840082     -74.3780844
9.333                0.918578259     -74.5082402
9.334                0.918315443     -74.6387829
9.335                0.918051632      -74.769714
9.336                0.917786821     -74.9010351
9.337                0.917521007     -75.0327477
9.338                0.917254187     -75.1648532
9.339                0.916986357     -75.2973532
9.34                 0.916717513     -75.4302493
9.341                0.916447652     -75.5635428
9.342                 0.91617677     -75.6972354
9.343                0.915904864     -75.8313286
9.344                0.915631929     -75.9658239
9.345                0.915357962     -76.1007229
9.346                0.915082961     -76.2360272
9.347                 0.91480692     -76.3717382
9.348                0.914529837     -76.5078576
9.349                0.914251708     -76.6443869
9.35                 0.913972528     -76.7813278
9.351                0.913692296     -76.9186817
9.352                0.913411007     -77.0564503
9.353                0.913128657     -77.1946352
9.354                0.912845243     -77.3332379
9.355                0.912560761     -77.4722602
9.356                0.912275208     -77.6117035
9.357                0.911988581     -77.7515695
9.358                0.911700875     -77.8918598
9.359                0.911412087      -78.032576
9.36                 0.911122213     -78.1737199
9.361                 0.91083125     -78.3152929
9.362                0.910539195     -78.4572969
9.363                0.910246043     -78.5997333
9.364                0.909951792     -78.7426039
9.365                0.909656437     -78.8859103
9.366                0.909359976     -79.0296542
9.367                0.909062405     -79.1738373
9.368                0.908763719     -79.3184612
9.369                0.908463916     -79.4635277
9.37                 0.908162993     -79.6090383
9.371                0.907860945     -79.7549949
9.372                 0.90755777     -79.9013991
9.373                0.907253463     -80.0482526
9.374                0.906948022     -80.1955571
9.375                0.906641442     -80.3433144
9.376                0.906333721     -80.4915261
9.377                0.906024856      -80.640194
9.378                0.905714841     -80.7893199
9.379                0.905403675     -80.9389054
9.38                 0.905091354     -81.0889523
9.381                0.904777875     -81.2394624
9.382                0.904463234     -81.3904374
9.383                0.904147427     -81.5418791
9.384                0.903830452     -81.6937892
9.385                0.903512305     -81.8461696
9.386                0.903192984     -81.9990219
9.387                0.902872483      -82.152348
9.388                0.902550802     -82.3061497
9.389                0.902227935     -82.4604287
9.39                 0.901903881     -82.6151868
9.391                0.901578635      -82.770426
9.392                0.901252195     -82.9261479
9.393                0.900924557     -83.0823543
9.394                0.900595718     -83.2390472
9.395                0.900265676     -83.3962283
9.396                0.899934427     -83.5538995
