! TOUCHSTONE file generated by CST DESIGN STUDIO
! Date and time: Wed Feb  5 13:36:17 2025
! Project name: C:\Work\MatlabApps\UnitCellOptimizationMatlab\CST\unitcell.cst
! Tree item: Tasks\Sweep1\SPara1\S-Parameters
! Header version: 2024
! Port assignment regex: !\s*Touchstone port\s*([0-9]+)\s*=\s*(CST MWS port|CST DES external port|CST DES block port)\s*(.+)\s* \(\"(.*)\"\)(\s*mode\s*([0-9]+))?.*
! Touchstone port assignment:
! Touchstone port 1 = CST DES external port 1 ("")
# GHz S MA R 50
9                    0.924912274     -61.3521396
9.001                0.924661416     -61.4502454
9.002                0.924409511     -61.5486341
9.003                0.924156554     -61.6473069
9.004                 0.92390254     -61.7462651
9.005                0.923647463     -61.8455096
9.006                0.923391318     -61.9450419
9.007                0.923134101     -62.0448629
9.008                0.922875807     -62.1449739
9.009                 0.92261643     -62.2453761
9.01                 0.922355966     -62.3460706
9.011                0.922094408     -62.4470588
9.012                0.921831753     -62.5483417
9.013                0.921567994     -62.6499206
9.014                0.921303127     -62.7517967
9.015                0.921037147     -62.8539712
9.016                0.920770047     -62.9564454
9.017                0.920501823     -63.0592205
9.018                 0.92023247     -63.1622977
9.019                0.919961982     -63.2656783
9.02                 0.919690354     -63.3693635
9.021                0.919417581     -63.4733547
9.022                0.919143657      -63.577653
9.023                0.918868576     -63.6822597
9.024                0.918592334     -63.7871761
9.025                0.918314924     -63.8924035
9.026                0.918036343     -63.9979433
9.027                0.917756582     -64.1037966
9.028                0.917475639     -64.2099647
9.029                0.917193506     -64.3164491
9.03                 0.916910178      -64.423251
9.031                0.916625651     -64.5303717
9.032                0.916339917     -64.6378125
9.033                0.916052972     -64.7455749
9.034                0.915764809     -64.8536601
9.035                0.915475424     -64.9620694
9.036                 0.91518481     -65.0708043
9.037                0.914892962     -65.1798661
9.038                0.914599874     -65.2892561
9.039                0.914305541     -65.3989758
9.04                 0.914009955     -65.5090265
9.041                0.913713113     -65.6194095
9.042                0.913415007     -65.7301264
9.043                0.913115633     -65.8411785
9.044                0.912814983     -65.9525671
9.045                0.912513053     -66.0642938
9.046                0.912209837     -66.1763599
9.047                0.911905327     -66.2887668
9.048                0.911599519     -66.4015161
9.049                0.911292407      -66.514609
9.05                 0.910983984     -66.6280472
9.051                0.910674245      -66.741832
9.052                0.910363184     -66.8559648
9.053                0.910050793     -66.9704473
9.054                0.909737068     -67.0852808
9.055                0.909422003     -67.2004668
9.056                 0.90910559     -67.3160068
9.057                0.908787825     -67.4319024
9.058                  0.9084687     -67.5481549
9.059                 0.90814821      -67.664766
9.06                 0.907826348     -67.7817371
9.061                0.907503109     -67.8990698
9.062                0.907178486     -68.0167656
9.063                0.906852472      -68.134826
9.064                0.906525062     -68.2532527
9.065                0.906196249     -68.3720471
9.066                0.905866027     -68.4912108
9.067                0.905534389     -68.6107454
9.068                 0.90520133     -68.7306524
9.069                0.904866842     -68.8509335
9.07                  0.90453092     -68.9715902
9.071                0.904193556     -69.0926242
9.072                0.903854746      -69.214037
9.073                0.903514481     -69.3358303
9.074                0.903172756     -69.4580057
9.075                0.902829564     -69.5805648
9.076                0.902484898     -69.7035092
9.077                0.902138753     -69.8268407
9.078                0.901791121     -69.9505608
9.079                0.901441997     -70.0746713
9.08                 0.901091372     -70.1991737
9.081                0.900739242     -70.3240698
9.082                0.900385598     -70.4493613
9.083                0.900030436     -70.5750498
9.084                0.899673747     -70.7011371
9.085                0.899315525     -70.8276248
9.086                0.898955764     -70.9545148
9.087                0.898594458     -71.0818086
9.088                0.898231598     -71.2095081
9.089                0.897867178      -71.337615
9.09                 0.897501193      -71.466131
9.091                0.897133634      -71.595058
9.092                0.896764496     -71.7243976
9.093                0.896393771     -71.8541516
9.094                0.896021453     -71.9843219
9.095                0.895647535     -72.1149102
9.096                0.895272009     -72.2459183
9.097                 0.89489487     -72.3773481
9.098                0.894516111     -72.5092013
9.099                0.894135723     -72.6414798
9.1                  0.893753702     -72.7741854
9.101                0.893370039       -72.90732
9.102                0.892984728     -73.0408854
9.103                0.892597762     -73.1748835
9.104                0.892209134     -73.3093161
9.105                0.891818837     -73.4441851
9.106                0.891426865     -73.5794925
9.107                0.891033209       -73.71524
9.108                0.890637864     -73.8514297
9.109                0.890240822     -73.9880634
9.11                 0.889842077      -74.125143
9.111                0.889441621     -74.2626705
9.112                0.889039447     -74.4006479
9.113                0.888635549      -74.539077
9.114                0.888229919     -74.6779598
9.115                0.887822551     -74.8172983
9.116                0.887413437     -74.9570945
9.117                0.887002571     -75.0973504
9.118                0.886589944     -75.2380679
9.119                0.886175552      -75.379249
9.12                 0.885759385     -75.5208958
9.121                0.885341438     -75.6630103
9.122                0.884921703     -75.8055946
9.123                0.884500174     -75.9486506
9.124                0.884076842     -76.0921804
9.125                0.883651702      -76.236186
9.126                0.883224746     -76.3806696
9.127                0.882795967     -76.5256332
9.128                0.882365358      -76.671079
9.129                0.881932913     -76.8170089
9.13                 0.881498623     -76.9634251
9.131                0.881062482     -77.1103297
9.132                0.880624483     -77.2577249
9.133                 0.88018462     -77.4056128
9.134                0.879742884     -77.5539954
9.135                0.879299269     -77.7028751
9.136                0.878853768     -77.8522539
9.137                0.878406374      -78.002134
9.138                 0.87795708     -78.1525175
9.139                0.877505879     -78.3034068
9.14                 0.877052764     -78.4548039
9.141                0.876597728     -78.6067112
9.142                0.876140764     -78.7591307
9.143                0.875681866     -78.9120648
9.144                0.875221025     -79.0655157
9.145                0.874758236     -79.2194856
9.146                0.874293492     -79.3739768
9.147                0.873826785     -79.5289915
9.148                0.873358108     -79.6845321
9.149                0.872887456     -79.8406009
9.15                  0.87241482        -79.9972
9.151                0.871940195     -80.1543319
9.152                0.871463573     -80.3119989
9.153                0.870984948     -80.4702032
9.154                0.870504313     -80.6289472
9.155                 0.87002166     -80.7882333
9.156                0.869536985     -80.9480639
9.157                0.869050279     -81.1084412
9.158                0.868561536     -81.2693677
9.159                0.868070749     -81.4308458
9.16                 0.867577913     -81.5928778
9.161                0.867083019     -81.7554662
9.162                0.866586063     -81.9186134
9.163                0.866087036     -82.0823218
9.164                0.865585934     -82.2465938
9.165                0.865082748      -82.411432
9.166                0.864577474     -82.5768386
9.167                0.864070103     -82.7428163
9.168                0.863560631     -82.9093676
9.169                0.863049051     -83.0764948
9.17                 0.862535357     -83.2442004
9.171                0.862019541     -83.4124871
9.172                0.861501599     -83.5813573
9.173                0.860981524     -83.7508135
9.174                0.860459309     -83.9208583
9.175                 0.85993495     -84.0914943
9.176                0.859408439     -84.2627239
9.177                0.858879771     -84.4345498
9.178                0.858348939     -84.6069745
9.179                0.857815939     -84.7800006
9.18                 0.857280764     -84.9536307
9.181                0.856743409     -85.1278675
9.182                0.856203867     -85.3027135
9.183                0.855662133     -85.4781714
9.184                0.855118202     -85.6542437
9.185                0.854572068     -85.8309333
9.186                0.854023726     -86.0082427
9.187                0.853473169     -86.1861745
9.188                0.852920393     -86.3647315
9.189                0.852365393     -86.5439164
9.19                 0.851808163     -86.7237318
9.191                0.851248698     -86.9041804
9.192                0.850686993     -87.0852651
9.193                0.850123043     -87.2669884
9.194                0.849556844     -87.4493532
9.195                0.848988389     -87.6323621
9.196                0.848417675      -87.816018
9.197                0.847844697     -88.0003236
9.198                0.847269451     -88.1852817
9.199                0.846691931      -88.370895
9.2                  0.846112133     -88.5571664
9.201                0.845530053     -88.7440987
9.202                0.844945687     -88.9316946
9.203                 0.84435903     -89.1199571
9.204                0.843770079     -89.3088889
9.205                0.843178829     -89.4984929
9.206                0.842585276     -89.6887719
9.207                0.841989417     -89.8797288
9.208                0.841391249     -90.0713664
9.209                0.840790767     -90.2636877
9.21                 0.840187968     -90.4566955
9.211                0.839582848     -90.6503928
9.212                0.838975405     -90.8447824
9.213                0.838365635     -91.0398672
9.214                0.837753535     -91.2356502
9.215                0.837139103     -91.4321344
9.216                0.836522335     -91.6293225
9.217                0.835903229     -91.8272177
9.218                0.835281782     -92.0258228
9.219                0.834657992     -92.2251409
9.22                 0.834031857     -92.4251749
9.221                0.833403373     -92.6259277
9.222                0.832772541     -92.8274024
9.223                0.832139356     -93.0296021
9.224                0.831503819     -93.2325296
9.225                0.830865926      -93.436188
9.226                0.830225677     -93.6405804
9.227                 0.82958307     -93.8457097
9.228                0.828938104     -94.0515791
9.229                0.828290779     -94.2581915
9.23                 0.827641092       -94.46555
9.231                0.826989044     -94.6736578
9.232                0.826334634     -94.8825177
9.233                0.825677862     -95.0921331
9.234                0.825018726     -95.3025068
9.235                0.824357228      -95.513642
9.236                0.823693367     -95.7255419
9.237                0.823027144     -95.9382095
9.238                0.822358559     -96.1516479
9.239                0.821687612     -96.3658602
9.24                 0.821014305     -96.5808497
9.241                0.820338638     -96.7966193
9.242                0.819660613     -97.0131723
9.243                0.818980232     -97.2305118
9.244                0.818297494     -97.4486409
9.245                0.817612404     -97.6675629
9.246                0.816924961     -97.8872807
9.247                0.816235169     -98.1077978
9.248                0.815543031     -98.3291171
9.249                0.814848547     -98.5512419
9.25                 0.814151722     -98.7741753
9.251                0.813452559     -98.9979206
9.252                 0.81275106      -99.222481
9.253                0.812047229     -99.4478596
9.254                 0.81134107     -99.6740595
9.255                0.810632586     -99.9010842
9.256                0.809921783     -100.128937
9.257                0.809208663      -100.35762
9.258                0.808493233     -100.587138
9.259                0.807775496     -100.817493
9.26                 0.807055458     -101.048689
9.261                0.806333125     -101.280729
9.262                0.805608501     -101.513616
9.263                0.804881593     -101.747353
9.264                0.804152407     -101.981944
9.265                0.803420949     -102.217392
9.266                0.802687226       -102.4537
9.267                0.801951245     -102.690871
9.268                0.801213013     -102.928909
9.269                0.800472538     -103.167816
9.27                 0.799729827     -103.407597
9.271                0.798984888     -103.648253
9.272                0.798237731      -103.88979
9.273                0.797488362     -104.132208
9.274                0.796736793     -104.375513
9.275                 0.79598303     -104.619707
9.276                0.795227086     -104.864793
9.277                0.794468968     -105.110775
9.278                0.793708687     -105.357656
9.279                0.792946254     -105.605439
9.28                  0.79218168     -105.854127
9.281                0.791414975     -106.103723
9.282                0.790646151     -106.354232
9.283                 0.78987522     -106.605655
9.284                0.789102195     -106.857996
9.285                0.788327086     -107.111259
9.286                0.787549908     -107.365446
9.287                0.786770674     -107.620561
9.288                0.785989396     -107.876607
9.289                0.785206089     -108.133587
9.29                 0.784420767     -108.391504
9.291                0.783633444     -108.650362
9.292                0.782844136     -108.910163
9.293                0.782052858     -109.170911
9.294                0.781259625     -109.432609
9.295                0.780464454      -109.69526
9.296                0.779667361     -109.958867
9.297                0.778868362     -110.223433
9.298                0.778067475     -110.488962
9.299                0.777264718     -110.755456
9.3                  0.776460109     -111.022919
9.301                0.775653665     -111.291353
9.302                0.774845406     -111.560762
9.303                0.774035351     -111.831149
9.304                 0.77322352     -112.102516
9.305                0.772409932     -112.374868
9.306                0.771594608     -112.648206
9.307                0.770777569     -112.922533
9.308                0.769958837     -113.197854
9.309                0.769138432      -113.47417
9.31                 0.768316377     -113.751485
9.311                0.767492695     -114.029802
9.312                0.766667409     -114.309122
9.313                0.765840542     -114.589451
9.314                0.765012118     -114.870789
9.315                0.764182161     -115.153141
9.316                0.763350697     -115.436509
9.317                 0.76251775     -115.720895
9.318                0.761683346     -116.006303
9.319                0.760847512     -116.292736
9.32                 0.760010274     -116.580195
9.321                0.759171659     -116.868684
9.322                0.758331695     -117.158206
9.323                 0.75749041     -117.448762
9.324                0.756647833     -117.740357
9.325                0.755803992     -118.032992
9.326                0.754958917      -118.32667
9.327                0.754112639     -118.621393
9.328                0.753265187     -118.917165
9.329                0.752416592     -119.213987
9.33                 0.751566887     -119.511862
9.331                0.750716102     -119.810793
9.332                0.749864271     -120.110782
9.333                0.749011427     -120.411831
9.334                0.748157603     -120.713943
9.335                0.747302832     -121.017119
9.336                 0.74644715     -121.321363
9.337                0.745590592     -121.626677
9.338                0.744733193     -121.933062
9.339                0.743874988     -122.240521
9.34                 0.743016016     -122.549056
9.341                0.742156312     -122.858669
9.342                0.741295914     -123.169362
9.343                0.740434861     -123.481137
9.344                0.739573191     -123.793996
9.345                0.738710942     -124.107942
9.346                0.737848156     -124.422975
9.347                0.736984872     -124.739098
9.348                0.736121131     -125.056312
9.349                0.735256973     -125.374619
9.35                 0.734392442     -125.694022
9.351                0.733527578     -126.014521
9.352                0.732662426     -126.336117
9.353                0.731797027     -126.658814
9.354                0.730931427     -126.982612
9.355                 0.73006567     -127.307512
9.356                  0.7291998     -127.633516
9.357                0.728333863     -127.960625
9.358                0.727467905      -128.28884
9.359                0.726601973     -128.618163
9.36                 0.725736113     -128.948595
9.361                0.724870374     -129.280137
9.362                0.724004802      -129.61279
9.363                0.723139448     -129.946554
9.364                0.722274359     -130.281431
9.365                0.721409586     -130.617422
9.366                0.720545179     -130.954526
9.367                0.719681189     -131.292746
9.368                0.718817665     -131.632081
9.369                0.717954662     -131.972532
9.37                  0.71709223       -132.3141
9.371                0.716230422     -132.656785
9.372                0.715369291     -133.000587
9.373                0.714508892     -133.345506
9.374                0.713649278     -133.691543
9.375                0.712790505     -134.038698
9.376                0.711932626      -134.38697
9.377                0.711075698     -134.736361
9.378                0.710219778     -135.086869
9.379                0.709364921     -135.438494
9.38                 0.708511185     -135.791236
9.381                0.707658627     -136.145095
9.382                0.706807305     -136.500069
9.383                0.705957278      -136.85616
9.384                0.705108605     -137.213365
9.385                0.704261345     -137.571684
9.386                0.703415558     -137.931117
9.387                0.702571303     -138.291661
9.388                0.701728642     -138.653317
9.389                0.700887636     -139.016083
9.39                 0.700048347     -139.379958
9.391                0.699210835     -139.744941
9.392                0.698375164     -140.111029
9.393                0.697541395     -140.478222
9.394                0.696709593     -140.846518
9.395                 0.69587982     -141.215915
9.396                0.695052141     -141.586411
