! TOUCHSTONE file generated by CST DESIGN STUDIO
! Date and time: Wed Feb  5 13:39:11 2025
! Project name: C:\Work\MatlabApps\UnitCellOptimizationMatlab\CST\unitcell.cst
! Tree item: Tasks\Sweep1\SPara1\S-Parameters
! Header version: 2024
! Port assignment regex: !\s*Touchstone port\s*([0-9]+)\s*=\s*(CST MWS port|CST DES external port|CST DES block port)\s*(.+)\s* \(\"(.*)\"\)(\s*mode\s*([0-9]+))?.*
! Touchstone port assignment:
! Touchstone port 1 = CST DES external port 1 ("")
# GHz S MA R 50
9                    0.957117666     -68.7991776
9.001                0.957013527     -68.9010557
9.002                0.956909064     -69.0031865
9.003                0.956804275     -69.1055708
9.004                0.956699159     -69.2082095
9.005                0.956593717     -69.3111032
9.006                0.956487945     -69.4142529
9.007                0.956381845     -69.5176593
9.008                0.956275414     -69.6213234
9.009                0.956168652     -69.7252458
9.01                 0.956061557     -69.8294275
9.011                0.955954129     -69.9338692
9.012                0.955846367     -70.0385718
9.013                 0.95573827     -70.1435362
9.014                0.955629837     -70.2487631
9.015                0.955521066     -70.3542535
9.016                0.955411958     -70.4600081
9.017                 0.95530251     -70.5660278
9.018                0.955192723     -70.6723134
9.019                0.955082594     -70.7788659
9.02                 0.954972124      -70.885686
9.021                 0.95486131     -70.9927746
9.022                0.954750153     -71.1001326
9.023                0.954638651     -71.2077608
9.024                0.954526803     -71.3156602
9.025                0.954414608     -71.4238314
9.026                0.954302065     -71.5322755
9.027                0.954189174     -71.6409933
9.028                0.954075933     -71.7499857
9.029                0.953962341     -71.8592536
9.03                 0.953848398     -71.9687978
9.031                0.953734102     -72.0786191
9.032                0.953619453     -72.1887186
9.033                0.953504449     -72.2990971
9.034                0.953389089     -72.4097555
9.035                0.953273373     -72.5206946
9.036                  0.9531573     -72.6319154
9.037                0.953040868     -72.7434188
9.038                0.952924077     -72.8552057
9.039                0.952806926     -72.9672769
9.04                 0.952689414     -73.0796334
9.041                0.952571539      -73.192276
9.042                0.952453302     -73.3052058
9.043                  0.9523347     -73.4184236
9.044                0.952215733     -73.5319303
9.045                  0.9520964     -73.6457268
9.046                0.951976701     -73.7598142
9.047                0.951856633     -73.8741932
9.048                0.951736197     -73.9888648
9.049                0.951615391       -74.10383
9.05                 0.951494214     -74.2190896
9.051                0.951372666     -74.3346447
9.052                0.951250745     -74.4504961
9.053                 0.95112845     -74.5666449
9.054                0.951005782     -74.6830918
9.055                0.950882737      -74.799838
9.056                0.950759317     -74.9168842
9.057                 0.95063552     -75.0342316
9.058                0.950511344     -75.1518809
9.059                0.950386789     -75.2698333
9.06                 0.950261855     -75.3880896
9.061                0.950136539     -75.5066508
9.062                0.950010842     -75.6255179
9.063                0.949884762     -75.7446918
9.064                0.949758299     -75.8641735
9.065                0.949631451      -75.983964
9.066                0.949504218     -76.1040642
9.067                0.949376598     -76.2244751
9.068                0.949248592     -76.3451978
9.069                0.949120197     -76.4662331
9.07                 0.948991414     -76.5875821
9.071                0.948862241     -76.7092457
9.072                0.948732677      -76.831225
9.073                0.948602721     -76.9535209
9.074                0.948472374     -77.0761344
9.075                0.948341633     -77.1990666
9.076                0.948210497     -77.3223183
9.077                0.948078967     -77.4458907
9.078                0.947947041     -77.5697847
9.079                0.947814719     -77.6940013
9.08                 0.947681999     -77.8185415
9.081                0.947548881     -77.9434064
9.082                0.947415363      -78.068597
9.083                0.947281446     -78.1941142
9.084                0.947147127     -78.3199591
9.085                0.947012407     -78.4461328
9.086                0.946877285     -78.5726361
9.087                0.946741759     -78.6994702
9.088                 0.94660583     -78.8266361
9.089                0.946469496     -78.9541348
9.09                 0.946332756     -79.0819674
9.091                0.946195609     -79.2101348
9.092                0.946058056     -79.3386382
9.093                0.945920094     -79.4674785
9.094                0.945781724     -79.5966568
9.095                0.945642944     -79.7261742
9.096                0.945503755     -79.8560316
9.097                0.945364154     -79.9862302
9.098                0.945224142     -80.1167709
9.099                0.945083717     -80.2476549
9.1                  0.944942879     -80.3788832
9.101                0.944801627     -80.5104569
9.102                0.944659961     -80.6423769
9.103                0.944517879     -80.7746444
9.104                0.944375382     -80.9072604
9.105                0.944232468     -81.0402261
9.106                0.944089136     -81.1735424
9.107                0.943945387     -81.3072104
9.108                0.943801219     -81.4412313
9.109                0.943656632      -81.575606
9.11                 0.943511624     -81.7103356
9.111                0.943366197     -81.8454214
9.112                0.943220348     -81.9808642
9.113                0.943074077     -82.1166652
9.114                0.942927384     -82.2528255
9.115                0.942780268     -82.3893461
9.116                0.942632728     -82.5262283
9.117                0.942484764     -82.6634729
9.118                0.942336376     -82.8010812
9.119                0.942187562     -82.9390542
9.12                 0.942038322      -83.077393
9.121                0.941888656     -83.2160988
9.122                0.941738563     -83.3551725
9.123                0.941588042     -83.4946154
9.124                0.941437094     -83.6344285
9.125                0.941285717      -83.774613
9.126                0.941133911     -83.9151698
9.127                0.940981676     -84.0561002
9.128                0.940829011     -84.1974053
9.129                0.940675915     -84.3390861
9.13                 0.940522389     -84.4811437
9.131                0.940368432     -84.6235794
9.132                0.940214043     -84.7663941
9.133                0.940059222     -84.9095891
9.134                0.939903969     -85.0531654
9.135                0.939748283     -85.1971241
9.136                0.939592164     -85.3414664
9.137                0.939435611     -85.4861935
9.138                0.939278625     -85.6313063
9.139                0.939121204     -85.7768061
9.14                 0.938963349      -85.922694
9.141                0.938805059      -86.068971
9.142                0.938646334     -86.2156384
9.143                0.938487174     -86.3626973
9.144                0.938327579     -86.5101487
9.145                0.938167547     -86.6579939
9.146                 0.93800708     -86.8062339
9.147                0.937846176       -86.95487
9.148                0.937684836     -87.1039031
9.149                 0.93752306     -87.2533345
9.15                 0.937360846     -87.4031654
9.151                0.937198196     -87.5533967
9.152                0.937035109     -87.7040298
9.153                0.936871584     -87.8550657
9.154                0.936707623     -88.0065055
9.155                0.936543224     -88.1583505
9.156                0.936378387     -88.3106017
9.157                0.936213114     -88.4632603
9.158                0.936047402     -88.6163274
9.159                0.935881254     -88.7698043
9.16                 0.935714668     -88.9236919
9.161                0.935547644     -89.0779916
9.162                0.935380184     -89.2327043
9.163                0.935212286     -89.3878314
9.164                 0.93504395     -89.5433738
9.165                0.934875178     -89.6993328
9.166                0.934705968     -89.8557095
9.167                0.934536322     -90.0125051
9.168                0.934366239     -90.1697207
9.169                 0.93419572     -90.3273575
9.17                 0.934024764     -90.4854165
9.171                0.933853373      -90.643899
9.172                0.933681545     -90.8028062
9.173                0.933509282      -90.962139
9.174                0.933336584     -91.1218988
9.175                0.933163451     -91.2820866
9.176                0.932989883     -91.4427037
9.177                0.932815881      -91.603751
9.178                0.932641445     -91.7652299
9.179                0.932466576     -91.9271414
9.18                 0.932291273     -92.0894867
9.181                0.932115538      -92.252267
9.182                0.931939371     -92.4154833
9.183                0.931762773     -92.5791369
9.184                0.931585743     -92.7432288
9.185                0.931408283     -92.9077602
9.186                0.931230392     -93.0727323
9.187                0.931052073     -93.2381462
9.188                0.930873324     -93.4040031
9.189                0.930694148      -93.570304
9.19                 0.930514544     -93.7370502
9.191                0.930334513     -93.9042427
9.192                0.930154057     -94.0718828
9.193                0.929973175     -94.2399714
9.194                0.929791868     -94.4085099
9.195                0.929610138     -94.5774992
9.196                0.929427986     -94.7469406
9.197                0.929245411     -94.9168352
9.198                0.929062415      -95.087184
9.199                0.928878999     -95.2579883
9.2                  0.928695164     -95.4292491
9.201                0.928510911     -95.6009676
9.202                 0.92832624     -95.7731449
9.203                0.928141153     -95.9457821
9.204                0.927955652     -96.1188804
9.205                0.927769736     -96.2924408
9.206                0.927583408     -96.4664645
9.207                0.927396667     -96.6409525
9.208                0.927209517     -96.8159061
9.209                0.927021957     -96.9913262
9.21                 0.926833989     -97.1672141
9.211                0.926645614     -97.3435707
9.212                0.926456835     -97.5203973
9.213                0.926267651     -97.6976948
9.214                0.926078064     -97.8754644
9.215                0.925888076     -98.0537073
9.216                0.925697689     -98.2324243
9.217                0.925506903     -98.4116168
9.218                0.925315721     -98.5912857
9.219                0.925124144     -98.7714321
9.22                 0.924932173     -98.9520571
9.221                 0.92473981     -99.1331617
9.222                0.924547057     -99.3147471
9.223                0.924353915     -99.4968143
9.224                0.924160387     -99.6793644
9.225                0.923966474     -99.8623984
9.226                0.923772177     -100.045917
9.227                0.923577499     -100.229922
9.228                0.923382442     -100.414414
9.229                0.923187008     -100.599394
9.23                 0.922991198     -100.784864
9.231                0.922795014     -100.970823
9.232                0.922598459     -101.157274
9.233                0.922401535     -101.344217
9.234                0.922204244     -101.531653
9.235                0.922006587     -101.719583
9.236                0.921808568     -101.908009
9.237                0.921610188     -102.096931
9.238                 0.92141145      -102.28635
9.239                0.921212357     -102.476267
9.24                 0.921012909     -102.666684
9.241                0.920813111     -102.857601
9.242                0.920612964     -103.049019
9.243                0.920412471      -103.24094
9.244                0.920211634     -103.433363
9.245                0.920010457     -103.626291
9.246                0.919808941     -103.819724
9.247                0.919607089     -104.013662
9.248                0.919404905     -104.208108
9.249                 0.91920239     -104.403062
9.25                 0.918999549     -104.598524
9.251                0.918796383     -104.794496
9.252                0.918592895     -104.990979
9.253                0.918389089     -105.187973
9.254                0.918184967      -105.38548
9.255                0.917980533       -105.5835
9.256                 0.91777579     -105.782035
9.257                 0.91757074     -105.981084
9.258                0.917365387      -106.18065
9.259                0.917159735     -106.380733
9.26                 0.916953786     -106.581333
9.261                0.916747544     -106.782452
9.262                0.916541013      -106.98409
9.263                0.916334195     -107.186248
9.264                0.916127094     -107.388928
9.265                0.915919714     -107.592129
9.266                0.915712059     -107.795853
9.267                0.915504132     -108.000101
9.268                0.915295936     -108.204873
9.269                0.915087476      -108.41017
9.27                 0.914878755     -108.615993
9.271                0.914669777     -108.822342
9.272                0.914460547     -109.029219
9.273                0.914251067     -109.236624
9.274                0.914041343     -109.444558
9.275                0.913831377     -109.653021
9.276                0.913621175     -109.862015
9.277                 0.91341074      -110.07154
9.278                0.913200077     -110.281596
9.279                 0.91298919     -110.492185
9.28                 0.912778083     -110.703307
9.281                0.912566761     -110.914962
9.282                0.912355228     -111.127152
9.283                0.912143489     -111.339877
9.284                0.911931547     -111.553137
9.285                0.911719409     -111.766934
9.286                0.911507078     -111.981267
9.287                0.911294559     -112.196139
9.288                0.911081857     -112.411548
9.289                0.910868978     -112.627495
9.29                 0.910655924     -112.843982
9.291                0.910442703     -113.061009
9.292                0.910229318     -113.278576
9.293                0.910015775     -113.496683
9.294                0.909802079     -113.715332
9.295                0.909588235     -113.934523
9.296                0.909374249     -114.154256
9.297                0.909160125     -114.374531
9.298                0.908945869      -114.59535
9.299                0.908731487     -114.816713
9.3                  0.908516983     -115.038619
9.301                0.908302365     -115.261071
9.302                0.908087636     -115.484067
9.303                0.907872803     -115.707608
9.304                0.907657871     -115.931695
9.305                0.907442847     -116.156328
9.306                0.907227736     -116.381507
9.307                0.907012543     -116.607233
9.308                0.906797276     -116.833506
9.309                 0.90658194     -117.060326
9.31                 0.906366541     -117.287694
9.311                0.906151085      -117.51561
9.312                0.905935579     -117.744074
9.313                0.905720028     -117.973086
9.314                0.905504439     -118.202647
9.315                0.905288818     -118.432756
9.316                0.905073173     -118.663415
9.317                0.904857509     -118.894623
9.318                0.904641832     -119.126379
9.319                0.904426151     -119.358686
9.32                  0.90421047     -119.591542
9.321                0.903994797     -119.824947
9.322                 0.90377914     -120.058903
9.323                0.903563504     -120.293408
9.324                0.903347896     -120.528463
9.325                0.903132324     -120.764068
9.326                0.902916795     -121.000222
9.327                0.902701315     -121.236927
9.328                0.902485892     -121.474182
9.329                0.902270534     -121.711986
9.33                 0.902055247      -121.95034
9.331                0.901840039     -122.189244
9.332                0.901624916     -122.428697
9.333                0.901409888       -122.6687
9.334                0.901194961     -122.909253
9.335                0.900980143     -123.150354
9.336                0.900765441     -123.392005
9.337                0.900550863     -123.634204
9.338                0.900336417     -123.876952
9.339                0.900122111     -124.120248
9.34                 0.899907953     -124.364092
9.341                 0.89969395     -124.608484
9.342                0.899480111     -124.853424
9.343                0.899266444     -125.098911
9.344                0.899052957     -125.344945
9.345                0.898839657     -125.591525
9.346                0.898626554     -125.838651
9.347                0.898413655     -126.086323
9.348                0.898200969     -126.334541
9.349                0.897988504     -126.583303
9.35                 0.897776269     -126.832609
9.351                0.897564272      -127.08246
9.352                0.897352522     -127.332853
9.353                0.897141028      -127.58379
9.354                0.896929797     -127.835268
9.355                 0.89671884     -128.087289
9.356                0.896508164      -128.33985
9.357                0.896297778     -128.592952
9.358                0.896087692     -128.846593
9.359                0.895877914     -129.100773
9.36                 0.895668454     -129.355492
9.361                 0.89545932     -129.610748
9.362                0.895250521     -129.866542
9.363                0.895042067     -130.122871
9.364                0.894833966     -130.379735
9.365                0.894626229     -130.637134
9.366                0.894418864     -130.895067
9.367                0.894211881     -131.153532
9.368                0.894005289     -131.412529
9.369                0.893799097     -131.672057
9.37                 0.893593315     -131.932115
9.371                0.893387953     -132.192701
9.372                 0.89318302     -132.453816
9.373                0.892978525     -132.715457
9.374                0.892774479     -132.977625
9.375                0.892570891     -133.240317
9.376                0.892367771     -133.503532
9.377                0.892165128      -133.76727
9.378                0.891962973      -134.03153
9.379                0.891761314     -134.296309
9.38                 0.891560164     -134.561608
9.381                 0.89135953     -134.827424
9.382                0.891159423     -135.093756
9.383                0.890959853     -135.360604
9.384                0.890760831     -135.627965
9.385                0.890562366     -135.895839
9.386                0.890364468     -136.164224
9.387                0.890167147     -136.433118
9.388                0.889970414     -136.702521
9.389                0.889774279      -136.97243
9.39                 0.889578753     -137.242845
9.391                0.889383844     -137.513763
9.392                0.889189564     -137.785183
9.393                0.888995924     -138.057104
9.394                0.888802932     -138.329524
9.395                0.888610601     -138.602441
9.396                0.888418939     -138.875853
