! TOUCHSTONE file generated by CST DESIGN STUDIO
! Date and time: Wed Feb  5 13:39:13 2025
! Project name: C:\Work\MatlabApps\UnitCellOptimizationMatlab\CST\unitcell.cst
! Tree item: Tasks\Sweep1\SPara1\S-Parameters
! Header version: 2024
! Port assignment regex: !\s*Touchstone port\s*([0-9]+)\s*=\s*(CST MWS port|CST DES external port|CST DES block port)\s*(.+)\s* \(\"(.*)\"\)(\s*mode\s*([0-9]+))?.*
! Touchstone port assignment:
! Touchstone port 1 = CST DES external port 1 ("")
# GHz S MA R 50
9                    0.959050348     -64.8722488
9.001                0.958955505     -64.9650947
9.002                0.958860368     -65.0581648
9.003                0.958764935     -65.1514597
9.004                0.958669206     -65.2449801
9.005                 0.95857318     -65.3387268
9.006                0.958476856     -65.4327006
9.007                0.958380233      -65.526902
9.008                 0.95828331      -65.621332
9.009                0.958186086     -65.7159911
9.01                 0.958088561     -65.8108802
9.011                0.957990733         -65.906
9.012                0.957892601     -66.0013512
9.013                0.957794164     -66.0969345
9.014                0.957695422     -66.1927507
9.015                0.957596374     -66.2888006
9.016                0.957497018     -66.3850849
9.017                0.957397353     -66.4816043
9.018                0.957297379     -66.5783597
9.019                0.957197095     -66.6753517
9.02                   0.9570965     -66.7725811
9.021                0.956995592     -66.8700488
9.022                0.956894371     -66.9677553
9.023                0.956792835     -67.0657016
9.024                0.956690985     -67.1638884
9.025                0.956588819     -67.2623165
9.026                0.956486335     -67.3609866
9.027                0.956383533     -67.4598995
9.028                0.956280413      -67.559056
9.029                0.956176972     -67.6584569
9.03                  0.95607321     -67.7581029
9.031                0.955969127     -67.8579949
9.032                0.955864721     -67.9581337
9.033                 0.95575999       -68.05852
9.034                0.955654935     -68.1591546
9.035                0.955549554     -68.2600383
9.036                0.955443846      -68.361172
9.037                0.955337811     -68.4625564
9.038                0.955231447     -68.5641924
9.039                0.955124753     -68.6660807
9.04                 0.955017728     -68.7682221
9.041                0.954910372     -68.8706175
9.042                0.954802683     -68.9732678
9.043                 0.95469466     -69.0761736
9.044                0.954586303     -69.1793359
9.045                0.954477611     -69.2827554
9.046                0.954368581      -69.386433
9.047                0.954259214     -69.4903695
9.048                0.954149509     -69.5945657
9.049                0.954039464     -69.6990225
9.05                 0.953929079     -69.8037408
9.051                0.953818352     -69.9087212
9.052                0.953707283     -70.0139648
9.053                 0.95359587     -70.1194724
9.054                0.953484113     -70.2252447
9.055                0.953372011     -70.3312826
9.056                0.953259562     -70.4375871
9.057                0.953146766     -70.5441589
9.058                0.953033622     -70.6509989
9.059                0.952920128     -70.7581079
9.06                 0.952806284     -70.8654869
9.061                0.952692089     -70.9731367
9.062                0.952577542     -71.0810582
9.063                0.952462641     -71.1892522
9.064                0.952347387     -71.2977196
9.065                0.952231777     -71.4064613
9.066                0.952115811     -71.5154781
9.067                0.951999487      -71.624771
9.068                0.951882806     -71.7343409
9.069                0.951765766     -71.8441885
9.07                 0.951648366     -71.9543149
9.071                0.951530604     -72.0647209
9.072                0.951412481     -72.1754074
9.073                0.951293995     -72.2863752
9.074                0.951175145     -72.3976254
9.075                 0.95105593     -72.5091588
9.076                0.950936349     -72.6209763
9.077                0.950816401     -72.7330788
9.078                0.950696086     -72.8454672
9.079                0.950575402     -72.9581424
9.08                 0.950454348     -73.0711055
9.081                0.950332924     -73.1843572
9.082                0.950211128     -73.2978985
9.083                0.950088959     -73.4117303
9.084                0.949966417     -73.5258535
9.085                0.949843501     -73.6402692
9.086                0.949720209     -73.7549781
9.087                0.949596541     -73.8699813
9.088                0.949472495     -73.9852797
9.089                0.949348071     -74.1008742
9.09                 0.949223268     -74.2167658
9.091                0.949098085     -74.3329554
9.092                0.948972521     -74.4494439
9.093                0.948846575     -74.5662324
9.094                0.948720246     -74.6833217
9.095                0.948593533     -74.8007129
9.096                0.948466436     -74.9184068
9.097                0.948338952     -75.0364045
9.098                0.948211082     -75.1547069
9.099                0.948082825     -75.2733149
9.1                  0.947954179     -75.3922296
9.101                0.947825144     -75.5114519
9.102                0.947695718     -75.6309828
9.103                0.947565902     -75.7508232
9.104                0.947435693     -75.8709742
9.105                0.947305092     -75.9914367
9.106                0.947174096     -76.1122118
9.107                0.947042706     -76.2333003
9.108                 0.94691092     -76.3547033
9.109                0.946778738     -76.4764218
9.11                 0.946646158     -76.5984568
9.111                 0.94651318     -76.7208092
9.112                0.946379803     -76.8434801
9.113                0.946246026     -76.9664705
9.114                0.946111848     -77.0897813
9.115                0.945977269     -77.2134137
9.116                0.945842287     -77.3373685
9.117                0.945706901     -77.4616468
9.118                0.945571112     -77.5862497
9.119                0.945434917     -77.7111781
9.12                 0.945298316      -77.836433
9.121                0.945161309     -77.9620156
9.122                0.945023894     -78.0879267
9.123                0.944886071     -78.2141675
9.124                0.944747838     -78.3407389
9.125                0.944609196      -78.467642
9.126                0.944470143     -78.5948779
9.127                0.944330678     -78.7224475
9.128                0.944190801     -78.8503519
9.129                0.944050511     -78.9785922
9.13                 0.943909807     -79.1071693
9.131                0.943768688     -79.2360844
9.132                0.943627154     -79.3653385
9.133                0.943485204     -79.4949326
9.134                0.943342837     -79.6248678
9.135                0.943200052     -79.7551451
9.136                0.943056849     -79.8857657
9.137                0.942913227     -80.0167305
9.138                0.942769184     -80.1480406
9.139                0.942624722     -80.2796971
9.14                 0.942479838      -80.411701
9.141                0.942334532     -80.5440535
9.142                0.942188804     -80.6767556
9.143                0.942042652     -80.8098083
9.144                0.941896076     -80.9432128
9.145                0.941749076     -81.0769701
9.146                0.941601651     -81.2110813
9.147                0.941453799     -81.3455474
9.148                0.941305521     -81.4803697
9.149                0.941156816      -81.615549
9.15                 0.941007683     -81.7510867
9.151                0.940858122     -81.8869836
9.152                0.940708131      -82.023241
9.153                0.940557711     -82.1598598
9.154                0.940406861     -82.2968413
9.155                 0.94025558     -82.4341865
9.156                0.940103868     -82.5718965
9.157                0.939951724     -82.7099724
9.158                0.939799148     -82.8484153
9.159                0.939646139     -82.9872264
9.16                 0.939492696     -83.1264066
9.161                0.939338819     -83.2659572
9.162                0.939184508     -83.4058793
9.163                0.939029762     -83.5461738
9.164                0.938874581     -83.6868421
9.165                0.938718964     -83.8278852
9.166                0.938562911     -83.9693041
9.167                0.938406421     -84.1111001
9.168                0.938249493     -84.2532742
9.169                0.938092129     -84.3958276
9.17                 0.937934326     -84.5387614
9.171                0.937776085     -84.6820767
9.172                0.937617405     -84.8257747
9.173                0.937458286     -84.9698564
9.174                0.937298728      -85.114323
9.175                 0.93713873     -85.2591757
9.176                0.936978293     -85.4044156
9.177                0.936817414     -85.5500437
9.178                0.936656095     -85.6960613
9.179                0.936494336     -85.8424695
9.18                 0.936332135     -85.9892693
9.181                0.936169492     -86.1364621
9.182                0.936006408     -86.2840488
9.183                0.935842882     -86.4320307
9.184                0.935678914     -86.5804089
9.185                0.935514504     -86.7291845
9.186                0.935349652     -86.8783586
9.187                0.935184357     -87.0279325
9.188                0.935018619     -87.1779073
9.189                0.934852438     -87.3282841
9.19                 0.934685815      -87.479064
9.191                0.934518748     -87.6302483
9.192                0.934351239      -87.781838
9.193                0.934183286     -87.9338344
9.194                 0.93401489     -88.0862385
9.195                0.933846051     -88.2390516
9.196                0.933676769     -88.3922747
9.197                0.933507044     -88.5459091
9.198                0.933336876     -88.6999559
9.199                0.933166264     -88.8544162
9.2                   0.93299521     -89.0092913
9.201                0.932823713     -89.1645822
9.202                0.932651774     -89.3202901
9.203                0.932479391     -89.4764162
9.204                0.932306567     -89.6329616
9.205                  0.9321333     -89.7899276
9.206                0.931959591     -89.9473152
9.207                 0.93178544     -90.1051256
9.208                0.931610848       -90.26336
9.209                0.931435814     -90.4220195
9.21                  0.93126034     -90.5811054
9.211                0.931084425     -90.7406186
9.212                0.930908069     -90.9005605
9.213                0.930731274     -91.0609322
9.214                0.930554039     -91.2217348
9.215                0.930376364     -91.3829695
9.216                0.930198251     -91.5446375
9.217                  0.9300197     -91.7067398
9.218                0.929840711     -91.8692778
9.219                0.929661284     -92.0322524
9.22                  0.92948142      -92.195665
9.221                0.929301121     -92.3595165
9.222                0.929120385     -92.5238083
9.223                0.928939215     -92.6885415
9.224                 0.92875761     -92.8537171
9.225                0.928575571     -93.0193364
9.226                0.928393099     -93.1854005
9.227                0.928210194     -93.3519106
9.228                0.928026858     -93.5188678
9.229                 0.92784309     -93.6862732
9.23                 0.927658893     -93.8541281
9.231                0.927474266     -94.0224335
9.232                0.927289211     -94.1911907
9.233                0.927103728     -94.3604007
9.234                0.926917818     -94.5300647
9.235                0.926731483     -94.7001838
9.236                0.926544722     -94.8707593
9.237                0.926357538     -95.0417921
9.238                0.926169931     -95.2132835
9.239                0.925981902     -95.3852346
9.24                 0.925793452     -95.5576466
9.241                0.925604582     -95.7305205
9.242                0.925415294     -95.9038575
9.243                0.925225589     -96.0776587
9.244                0.925035468     -96.2519252
9.245                0.924844932     -96.4266583
9.246                0.924653982     -96.6018589
9.247                 0.92446262     -96.7775282
9.248                0.924270847     -96.9536674
9.249                0.924078664     -97.1302775
9.25                 0.923886073     -97.3073597
9.251                0.923693075      -97.484915
9.252                0.923499672     -97.6629446
9.253                0.923305866     -97.8414496
9.254                0.923111657      -98.020431
9.255                0.922917047       -98.19989
9.256                0.922722039     -98.3798277
9.257                0.922526633     -98.5602451
9.258                0.922330831     -98.7411434
9.259                0.922134635     -98.9225236
9.26                 0.921938047     -99.1043868
9.261                0.921741069     -99.2867341
9.262                0.921543702     -99.4695666
9.263                0.921345948     -99.6528852
9.264                 0.92114781     -99.8366912
9.265                0.920949288     -100.020986
9.266                0.920750386     -100.205769
9.267                0.920551105     -100.391044
9.268                0.920351448     -100.576809
9.269                0.920151415     -100.763068
9.27                 0.919951011      -100.94982
9.271                0.919750236     -101.137066
9.272                0.919549093     -101.324808
9.273                0.919347584     -101.513047
9.274                0.919145712     -101.701784
9.275                0.918943478     -101.891019
9.276                0.918740886     -102.080754
9.277                0.918537938      -102.27099
9.278                0.918334636     -102.461728
9.279                0.918130983     -102.652968
9.28                 0.917926981     -102.844712
9.281                0.917722633     -103.036961
9.282                0.917517942     -103.229716
9.283                 0.91731291     -103.422977
9.284                0.917107541     -103.616746
9.285                0.916901836     -103.811024
9.286                  0.9166958     -104.005811
9.287                0.916489434     -104.201108
9.288                0.916282741     -104.396917
9.289                0.916075726     -104.593239
9.29                  0.91586839     -104.790073
9.291                0.915660737     -104.987422
9.292                0.915452769     -105.185286
9.293                0.915244491     -105.383666
9.294                0.915035905     -105.582564
9.295                0.914827015     -105.781978
9.296                0.914617824     -105.981912
9.297                0.914408335     -106.182365
9.298                0.914198552     -106.383339
9.299                0.913988479     -106.584834
9.3                  0.913778118     -106.786852
9.301                0.913567473     -106.989392
9.302                0.913356549     -107.192456
9.303                0.913145348     -107.396045
9.304                0.912933875      -107.60016
9.305                0.912722133       -107.8048
9.306                0.912510126     -108.009968
9.307                0.912297858     -108.215664
9.308                0.912085334     -108.421889
9.309                0.911872556     -108.628643
9.31                 0.911659529     -108.835927
9.311                0.911446257     -109.043743
9.312                0.911232745      -109.25209
9.313                0.911018996     -109.460969
9.314                0.910805016     -109.670382
9.315                0.910590807     -109.880329
9.316                0.910376375      -110.09081
9.317                0.910161724     -110.301827
9.318                0.909946858      -110.51338
9.319                0.909731783      -110.72547
9.32                 0.909516502     -110.938096
9.321                0.909301021     -111.151261
9.322                0.909085344     -111.364965
9.323                0.908869476     -111.579208
9.324                0.908653421     -111.793991
9.325                0.908437186     -112.009314
9.326                0.908220773     -112.225178
9.327                 0.90800419     -112.441584
9.328                 0.90778744     -112.658533
9.329                0.907570529     -112.876024
9.33                 0.907353463     -113.094059
9.331                0.907136245     -113.312637
9.332                0.906918882      -113.53176
9.333                 0.90670138     -113.751428
9.334                0.906483742     -113.971641
9.335                0.906265976       -114.1924
9.336                0.906048086     -114.413706
9.337                0.905830079     -114.635558
9.338                0.905611959     -114.857958
9.339                0.905393733     -115.080905
9.34                 0.905175406     -115.304401
9.341                0.904956985     -115.528445
9.342                0.904738474     -115.753037
9.343                0.904519881      -115.97818
9.344                0.904301211     -116.203871
9.345                 0.90408247     -116.430113
9.346                0.903863665     -116.656905
9.347                0.903644801     -116.884247
9.348                0.903425886     -117.112141
9.349                0.903206925     -117.340585
9.35                 0.902987924     -117.569581
9.351                0.902768891     -117.799129
9.352                0.902549832     -118.029228
9.353                0.902330752      -118.25988
9.354                 0.90211166     -118.491084
9.355                0.901892562      -118.72284
9.356                0.901673465     -118.955149
9.357                0.901454374     -119.188011
9.358                0.901235298     -119.421426
9.359                0.901016244     -119.655393
9.36                 0.900797218     -119.889914
9.361                0.900578227     -120.124988
9.362                0.900359279     -120.360615
9.363                 0.90014038     -120.596796
9.364                0.899921539      -120.83353
9.365                0.899702762     -121.070817
9.366                0.899484057     -121.308657
9.367                0.899265431     -121.547051
9.368                0.899046893     -121.785998
9.369                0.898828448     -122.025498
9.37                 0.898610106     -122.265551
9.371                0.898391874     -122.506157
9.372                0.898173759     -122.747315
9.373                 0.89795577     -122.989027
9.374                0.897737914      -123.23129
9.375                  0.8975202     -123.474107
9.376                0.897302634     -123.717475
9.377                0.897085227     -123.961394
9.378                0.896867984     -124.205866
9.379                0.896650916     -124.450889
9.38                 0.896434029     -124.696462
9.381                0.896217333     -124.942587
9.382                0.896000836     -125.189261
9.383                0.895784545     -125.436486
9.384                 0.89556847      -125.68426
9.385                 0.89535262     -125.932584
9.386                0.895137002     -126.181456
9.387                0.894921626     -126.430876
9.388                  0.8947065     -126.680844
9.389                0.894491632      -126.93136
9.39                 0.894277033     -127.182422
9.391                 0.89406271     -127.434031
9.392                0.893848673     -127.686185
9.393                0.893634931     -127.938885
9.394                0.893421492     -128.192128
9.395                0.893208366     -128.445916
9.396                0.892995562     -128.700247
