! TOUCHSTONE file generated by CST DESIGN STUDIO
! Date and time: Wed Feb  5 13:39:16 2025
! Project name: C:\Work\MatlabApps\UnitCellOptimizationMatlab\CST\unitcell.cst
! Tree item: Tasks\Sweep1\SPara1\S-Parameters
! Header version: 2024
! Port assignment regex: !\s*Touchstone port\s*([0-9]+)\s*=\s*(CST MWS port|CST DES external port|CST DES block port)\s*(.+)\s* \(\"(.*)\"\)(\s*mode\s*([0-9]+))?.*
! Touchstone port assignment:
! Touchstone port 1 = CST DES external port 1 ("")
# GHz S MA R 50
9                    0.962903119     -57.2373547
9.001                0.962826482     -57.3140478
9.002                0.962749611     -57.3909146
9.003                0.962672507     -57.4679556
9.004                0.962595167     -57.5451713
9.005                0.962517592     -57.6225623
9.006                0.962439781     -57.7001292
9.007                0.962361732     -57.7778724
9.008                0.962283445     -57.8557927
9.009                 0.96220492     -57.9338904
9.01                 0.962126154     -58.0121662
9.011                0.962047149     -58.0906207
9.012                0.961967902     -58.1692544
9.013                0.961888413     -58.2480678
9.014                0.961808681     -58.3270616
9.015                0.961728706     -58.4062363
9.016                0.961648486     -58.4855924
9.017                 0.96156802     -58.5651307
9.018                0.961487309     -58.6448516
9.019                 0.96140635     -58.7247556
9.02                 0.961325144     -58.8048435
9.021                0.961243689     -58.8851158
9.022                0.961161984      -58.965573
9.023                0.961080029     -59.0462158
9.024                0.960997823     -59.1270447
9.025                0.960915365     -59.2080604
9.026                0.960832654     -59.2892633
9.027                0.960749689     -59.3706542
9.028                 0.96066647     -59.4522337
9.029                0.960582995     -59.5340022
9.03                 0.960499264     -59.6159605
9.031                0.960415275     -59.6981091
9.032                0.960331029     -59.7804486
9.033                0.960246524     -59.8629797
9.034                0.960161759     -59.9457029
9.035                0.960076734     -60.0286189
9.036                0.959991447     -60.1117283
9.037                0.959905898     -60.1950316
9.038                0.959820085     -60.2785296
9.039                0.959734009     -60.3622228
9.04                 0.959647667     -60.4461119
9.041                 0.95956106     -60.5301975
9.042                0.959474186     -60.6144802
9.043                0.959387044     -60.6989607
9.044                0.959299634     -60.7836395
9.045                0.959211955     -60.8685174
9.046                0.959124005     -60.9535949
9.047                0.959035784     -61.0388727
9.048                0.958947291     -61.1243514
9.049                0.958858525     -61.2100317
9.05                 0.958769485     -61.2959143
9.051                0.958680171     -61.3819997
9.052                 0.95859058     -61.4682886
9.053                0.958500714     -61.5547818
9.054                0.958410569     -61.6414797
9.055                0.958320147     -61.7283832
9.056                0.958229445     -61.8154928
9.057                0.958138463     -61.9028092
9.058                0.958047199     -61.9903331
9.059                0.957955654     -62.0780652
9.06                 0.957863826      -62.166006
9.061                0.957771713     -62.2541564
9.062                0.957679316     -62.3425169
9.063                0.957586634     -62.4310883
9.064                0.957493664     -62.5198712
9.065                0.957400407     -62.6088663
9.066                0.957306862     -62.6980742
9.067                0.957213027     -62.7874958
9.068                0.957118901     -62.8771316
9.069                0.957024484     -62.9669823
9.07                 0.956929775     -63.0570487
9.071                0.956834773     -63.1473315
9.072                0.956739477     -63.2378312
9.073                0.956643885     -63.3285487
9.074                0.956547997     -63.4194847
9.075                0.956451813     -63.5106398
9.076                 0.95635533     -63.6020147
9.077                0.956258549     -63.6936102
9.078                0.956161467      -63.785427
9.079                0.956064085     -63.8774658
9.08                 0.955966401     -63.9697273
9.081                0.955868414     -64.0622122
9.082                0.955770124     -64.1549213
9.083                0.955671529     -64.2478553
9.084                0.955572628     -64.3410148
9.085                0.955473421     -64.4344007
9.086                0.955373906     -64.5280137
9.087                0.955274083     -64.6218544
9.088                 0.95517395     -64.7159238
9.089                0.955073506     -64.8102223
9.09                 0.954972751      -64.904751
9.091                0.954871684     -64.9995103
9.092                0.954770303     -65.0945013
9.093                0.954668608     -65.1897244
9.094                0.954566598     -65.2851806
9.095                0.954464271     -65.3808706
9.096                0.954361627     -65.4767951
9.097                0.954258664     -65.5729549
9.098                0.954155383     -65.6693507
9.099                0.954051781     -65.7659834
9.1                  0.953947857     -65.8628537
9.101                0.953843612     -65.9599623
9.102                0.953739043     -66.0573101
9.103                 0.95363415     -66.1548978
9.104                0.953528932     -66.2527262
9.105                0.953423387      -66.350796
9.106                0.953317515     -66.4491081
9.107                0.953211315     -66.5476633
9.108                0.953104786     -66.6464622
9.109                0.952997927     -66.7455058
9.11                 0.952890736     -66.8447949
9.111                0.952783213     -66.9443301
9.112                0.952675357     -67.0441123
9.113                0.952567167     -67.1441424
9.114                0.952458641     -67.2444211
9.115                0.952349779     -67.3449492
9.116                 0.95224058     -67.4457276
9.117                0.952131043      -67.546757
9.118                0.952021167     -67.6480383
9.119                 0.95191095     -67.7495723
9.12                 0.951800392     -67.8513598
9.121                0.951689492     -67.9534016
9.122                0.951578248     -68.0556986
9.123                0.951466661     -68.1582515
9.124                0.951354728     -68.2610613
9.125                0.951242448     -68.3641287
9.126                0.951129822     -68.4674547
9.127                0.951016847     -68.5710399
9.128                0.950903523     -68.6748854
9.129                0.950789848     -68.7789918
9.13                 0.950675822     -68.8833601
9.131                0.950561444     -68.9879912
9.132                0.950446713     -69.0928858
9.133                0.950331627     -69.1980448
9.134                0.950216185     -69.3034692
9.135                0.950100388     -69.4091596
9.136                0.949984233     -69.5151171
9.137                0.949867719     -69.6213425
9.138                0.949750846     -69.7278366
9.139                0.949633613     -69.8346003
9.14                 0.949516018     -69.9416346
9.141                0.949398061     -70.0489402
9.142                 0.94927974     -70.1565181
9.143                0.949161055     -70.2643691
9.144                0.949042005     -70.3724941
9.145                0.948922588     -70.4808941
9.146                0.948802803     -70.5895698
9.147                 0.94868265     -70.6985223
9.148                0.948562128     -70.8077523
9.149                0.948441235     -70.9172609
9.15                 0.948319971     -71.0270489
9.151                0.948198334     -71.1371171
9.152                0.948076324     -71.2474666
9.153                0.947953939     -71.3580983
9.154                0.947831179     -71.4690129
9.155                0.947708042     -71.5802115
9.156                0.947584528      -71.691695
9.157                0.947460635     -71.8034643
9.158                0.947336363     -71.9155204
9.159                 0.94721171      -72.027864
9.16                 0.947086676     -72.1404963
9.161                 0.94696126     -72.2534181
9.162                 0.94683546     -72.3666303
9.163                0.946709276      -72.480134
9.164                0.946582706     -72.5939299
9.165                 0.94645575     -72.7080192
9.166                0.946328407     -72.8224026
9.167                0.946200675     -72.9370813
9.168                0.946072555      -73.052056
9.169                0.945944043     -73.1673279
9.17                 0.945815141     -73.2828978
9.171                0.945685847     -73.3987667
9.172                0.945556159     -73.5149356
9.173                0.945426077     -73.6314054
9.174                  0.9452956     -73.7481771
9.175                0.945164728     -73.8652516
9.176                0.945033458     -73.9826301
9.177                 0.94490179     -74.1003133
9.178                0.944769724     -74.2183024
9.179                0.944637257     -74.3365982
9.18                  0.94450439     -74.4552019
9.181                0.944371121     -74.5741143
9.182                 0.94423745     -74.6933364
9.183                0.944103375     -74.8128693
9.184                0.943968895     -74.9327139
9.185                 0.94383401     -75.0528713
9.186                0.943698719     -75.1733425
9.187                 0.94356302     -75.2941283
9.188                0.943426914       -75.41523
9.189                0.943290398     -75.5366484
9.19                 0.943153472     -75.6583846
9.191                0.943016136     -75.7804396
9.192                0.942878388     -75.9028144
9.193                0.942740227       -76.02551
9.194                0.942601652     -76.1485275
9.195                0.942462664     -76.2718679
9.196                0.942323259     -76.3955322
9.197                0.942183439     -76.5195215
9.198                0.942043202     -76.6438367
9.199                0.941902547     -76.7684789
9.2                  0.941761473     -76.8934492
9.201                0.941619979     -77.0187486
9.202                0.941478066     -77.1443782
9.203                 0.94133573     -77.2703389
9.204                0.941192973     -77.3966319
9.205                0.941049793     -77.5232581
9.206                0.940906189     -77.6502187
9.207                0.940762161     -77.7775147
9.208                0.940617707     -77.9051472
9.209                0.940472827     -78.0331172
9.21                  0.94032752     -78.1614257
9.211                0.940181786      -78.290074
9.212                0.940035622     -78.4190629
9.213                 0.93988903     -78.5483937
9.214                0.939742007     -78.6780673
9.215                0.939594554     -78.8080849
9.216                0.939446669     -78.9384475
9.217                0.939298352     -79.0691563
9.218                0.939149602     -79.2002122
9.219                0.939000418     -79.3316164
9.22                 0.938850799       -79.46337
9.221                0.938700745     -79.5954741
9.222                0.938550256     -79.7279297
9.223                0.938399329     -79.8607379
9.224                0.938247966        -79.9939
9.225                0.938096164     -80.1274168
9.226                0.937943924     -80.2612897
9.227                0.937791244     -80.3955196
9.228                0.937638125     -80.5301077
9.229                0.937484565      -80.665055
9.23                 0.937330564     -80.8003628
9.231                 0.93717612     -80.9360321
9.232                0.937021235      -81.072064
9.233                0.936865906     -81.2084596
9.234                0.936710134     -81.3452202
9.235                0.936553917     -81.4823467
9.236                0.936397255     -81.6198403
9.237                0.936240149     -81.7577022
9.238                0.936082596     -81.8959334
9.239                0.935924597     -82.0345352
9.24                  0.93576615     -82.1735085
9.241                0.935607257     -82.3128547
9.242                0.935447915     -82.4525748
9.243                0.935288125     -82.5926699
9.244                0.935127885     -82.7331413
9.245                0.934967197     -82.8739899
9.246                0.934806058     -83.0152171
9.247                0.934644469     -83.1568239
9.248                 0.93448243     -83.2988114
9.249                0.934319939     -83.4411809
9.25                 0.934156996     -83.5839335
9.251                0.933993602     -83.7270703
9.252                0.933829755     -83.8705925
9.253                0.933665455     -84.0145013
9.254                0.933500702     -84.1587977
9.255                0.933335496     -84.3034831
9.256                0.933169837     -84.4485585
9.257                0.933003723     -84.5940251
9.258                0.932837155      -84.739884
9.259                0.932670132     -84.8861365
9.26                 0.932502654     -85.0327837
9.261                0.932334721     -85.1798268
9.262                0.932166333     -85.3272669
9.263                 0.93199749     -85.4751052
9.264                 0.93182819      -85.623343
9.265                0.931658435     -85.7719813
9.266                0.931488223     -85.9210213
9.267                0.931317556     -86.0704643
9.268                0.931146432     -86.2203114
9.269                0.930974851     -86.3705638
9.27                 0.930802814     -86.5212226
9.271                0.930630321     -86.6722891
9.272                 0.93045737     -86.8237645
9.273                0.930283963     -86.9756498
9.274                0.930110099     -87.1279464
9.275                0.929935779     -87.2806554
9.276                0.929761001      -87.433778
9.277                0.929585767     -87.5873153
9.278                0.929410076     -87.7412686
9.279                0.929233929     -87.8956391
9.28                 0.929057325     -88.0504279
9.281                0.928880265     -88.2056363
9.282                0.928702749     -88.3612653
9.283                0.928524776     -88.5173164
9.284                0.928346348     -88.6737905
9.285                0.928167464      -88.830689
9.286                0.927988124     -88.9880129
9.287                0.927808329     -89.1457636
9.288                 0.92762808     -89.3039422
9.289                0.927447375     -89.4625499
9.29                 0.927266217     -89.6215879
9.291                0.927084604     -89.7810574
9.292                0.926902538     -89.9409596
9.293                0.926720018     -90.1012956
9.294                0.926537046     -90.2620668
9.295                0.926353621     -90.4232742
9.296                0.926169744     -90.5849191
9.297                0.925985415     -90.7470027
9.298                0.925800636     -90.9095262
9.299                0.925615406     -91.0724907
9.3                  0.925429726     -91.2358976
9.301                0.925243597     -91.3997478
9.302                 0.92505702     -91.5640428
9.303                0.924869994     -91.7287836
9.304                0.924682521     -91.8939714
9.305                0.924494601     -92.0596075
9.306                0.924306235     -92.2256931
9.307                0.924117423     -92.3922292
9.308                0.923928168     -92.5592172
9.309                0.923738468     -92.7266582
9.31                 0.923548326     -92.8945535
9.311                0.923357742     -93.0629041
9.312                0.923166717     -93.2317113
9.313                0.922975252     -93.4009763
9.314                0.922783347     -93.5707002
9.315                0.922591004     -93.7408843
9.316                0.922398224     -93.9115297
9.317                0.922205008     -94.0826376
9.318                0.922011357     -94.2542093
9.319                0.921817271     -94.4262458
9.32                 0.921622753     -94.5987483
9.321                0.921427803     -94.7717181
9.322                0.921232423     -94.9451563
9.323                0.921036613      -95.119064
9.324                0.920840376     -95.2934425
9.325                0.920643712     -95.4682929
9.326                0.920446622     -95.6436164
9.327                0.920249109     -95.8194141
9.328                0.920051173     -95.9956873
9.329                0.919852816      -96.172437
9.33                 0.919654039     -96.3496644
9.331                0.919454845     -96.5273708
9.332                0.919255233     -96.7055571
9.333                0.919055207     -96.8842247
9.334                0.918854768     -97.0633746
9.335                0.918653916     -97.2430079
9.336                0.918452655     -97.4231259
9.337                0.918250986     -97.6037296
9.338                 0.91804891     -97.7848203
9.339                 0.91784643     -97.9663989
9.34                 0.917643547     -98.1484667
9.341                0.917440263     -98.3310248
9.342                 0.91723658     -98.5140743
9.343                  0.9170325     -98.6976163
9.344                0.916828025      -98.881652
9.345                0.916623157     -99.0661824
9.346                0.916417898     -99.2512087
9.347                0.916212251     -99.4367319
9.348                0.916006218     -99.6227532
9.349                  0.9157998     -99.8092736
9.35                    0.915593     -99.9962943
9.351                0.915385821     -100.183816
9.352                0.915178264     -100.371841
9.353                0.914970332     -100.560369
9.354                0.914762028     -100.749401
9.355                0.914553354     -100.938939
9.356                0.914344312     -101.128984
9.357                0.914134906     -101.319537
9.358                0.913925137     -101.510598
9.359                0.913715009     -101.702169
9.36                 0.913504524     -101.894251
9.361                0.913293685     -102.086845
9.362                0.913082495     -102.279952
9.363                0.912870956     -102.473573
9.364                0.912659072     -102.667709
9.365                0.912446845     -102.862361
9.366                0.912234279      -103.05753
9.367                0.912021376     -103.253218
9.368                 0.91180814     -103.449424
9.369                0.911594574      -103.64615
9.37                  0.91138068     -103.843397
9.371                0.911166463     -104.041166
9.372                0.910951926     -104.239458
9.373                0.910737071     -104.438274
9.374                0.910521902     -104.637615
9.375                0.910306424     -104.837481
9.376                0.910090638     -105.037875
9.377                 0.90987455     -105.238796
9.378                0.909658162     -105.440245
9.379                0.909441478     -105.642224
9.38                 0.909224502     -105.844734
9.381                0.909007237     -106.047775
9.382                0.908789688     -106.251348
9.383                0.908571858     -106.455454
9.384                0.908353752     -106.660094
9.385                0.908135373     -106.865269
9.386                0.907916725      -107.07098
9.387                0.907697812     -107.277227
9.388                 0.90747864     -107.484012
9.389                0.907259211     -107.691335
9.39                  0.90703953     -107.899197
9.391                0.906819602     -108.107598
9.392                 0.90659943     -108.316541
9.393                 0.90637902     -108.526025
9.394                0.906158376     -108.736051
9.395                0.905937502      -108.94662
9.396                0.905716403     -109.157733
