! TOUCHSTONE file generated by CST DESIGN STUDIO
! Date and time: Tue Feb  4 14:32:49 2025
! Project name: C:\Work\MatlabApps\UnitCellOptimizationMatlab\CST\unitcell.cst
! Tree item: Tasks\Sweep1\SPara1\S-Parameters
! Header version: 2024
! Port assignment regex: !\s*Touchstone port\s*([0-9]+)\s*=\s*(CST MWS port|CST DES external port|CST DES block port)\s*(.+)\s* \(\"(.*)\"\)(\s*mode\s*([0-9]+))?.*
! Touchstone port assignment:
! Touchstone port 1 = CST DES external port 1 ("")
# GHz S MA R 50
9                     0.95986747     -46.4070682
9.001                0.959797272     -46.4636853
9.002                0.959726844     -46.5204171
9.003                0.959656186     -46.5772638
9.004                0.959585297      -46.634226
9.005                0.959514177     -46.6913039
9.006                0.959442824     -46.7484979
9.007                0.959371237     -46.8058083
9.008                0.959299417     -46.8632355
9.009                0.959227362     -46.9207798
9.01                 0.959155071     -46.9784416
9.011                0.959082543     -47.0362212
9.012                0.959009779      -47.094119
9.013                0.958936776     -47.1521354
9.014                0.958863534     -47.2102706
9.015                0.958790053     -47.2685251
9.016                0.958716331     -47.3268991
9.017                0.958642367     -47.3853932
9.018                0.958568162     -47.4440076
9.019                0.958493713     -47.5027426
9.02                 0.958419021     -47.5615988
9.021                0.958344084     -47.6205763
9.022                0.958268901     -47.6796757
9.023                0.958193472     -47.7388972
9.024                0.958117796     -47.7982412
9.025                0.958041871     -47.8577081
9.026                0.957965698     -47.9172983
9.027                0.957889275     -47.9770122
9.028                0.957812602     -48.0368501
9.029                0.957735677     -48.0968123
9.03                 0.957658499     -48.1568994
9.031                0.957581069     -48.2171116
9.032                0.957503384     -48.2774493
9.033                0.957425444      -48.337913
9.034                0.957347249      -48.398503
9.035                0.957268797     -48.4592196
9.036                0.957190087     -48.5200633
9.037                0.957111118     -48.5810345
9.038                0.957031891     -48.6421335
9.039                0.956952403     -48.7033608
9.04                 0.956872653     -48.7647167
9.041                0.956792642     -48.8262017
9.042                0.956712368      -48.887816
9.043                 0.95663183     -48.9495602
9.044                0.956551027     -49.0114346
9.045                0.956469958     -49.0734396
9.046                0.956388623     -49.1355756
9.047                 0.95630702     -49.1978431
9.048                0.956225148     -49.2602424
9.049                0.956143007     -49.3227739
9.05                 0.956060596      -49.385438
9.051                0.955977914     -49.4482352
9.052                0.955894959     -49.5111659
9.053                0.955811731     -49.5742304
9.054                0.955728229     -49.6374292
9.055                0.955644452     -49.7007627
9.056                0.955560399     -49.7642313
9.057                0.955476069     -49.8278355
9.058                0.955391461     -49.8915756
9.059                0.955306574      -49.955452
9.06                 0.955221407     -50.0194653
9.061                0.955135959     -50.0836158
9.062                0.955050229     -50.1479039
9.063                0.954964217     -50.2123301
9.064                0.954877921     -50.2768948
9.065                 0.95479134     -50.3415984
9.066                0.954704473     -50.4064414
9.067                0.954617319     -50.4714242
9.068                0.954529878     -50.5365472
9.069                0.954442148     -50.6018109
9.07                 0.954354128     -50.6672157
9.071                0.954265817      -50.732762
9.072                0.954177214     -50.7984503
9.073                0.954088319     -50.8642811
9.074                 0.95399913     -50.9302547
9.075                0.953909645     -50.9963717
9.076                0.953819865     -51.0626324
9.077                0.953729788     -51.1290374
9.078                0.953639413     -51.1955871
9.079                0.953548739     -51.2622818
9.08                 0.953457765     -51.3291222
9.081                 0.95336649     -51.3961086
9.082                0.953274912     -51.4632415
9.083                0.953183032     -51.5305214
9.084                0.953090847     -51.5979487
9.085                0.952998357     -51.6655239
9.086                 0.95290556     -51.7332474
9.087                0.952812456     -51.8011198
9.088                0.952719043     -51.8691414
9.089                0.952625321     -51.9373128
9.09                 0.952531287     -52.0056345
9.091                0.952436942     -52.0741069
9.092                0.952342285     -52.1427304
9.093                0.952247313     -52.2115056
9.094                0.952152026      -52.280433
9.095                0.952056422      -52.349513
9.096                0.951960502     -52.4187461
9.097                0.951864263     -52.4881328
9.098                0.951767704     -52.5576736
9.099                0.951670825      -52.627369
9.1                  0.951573624     -52.6972194
9.101                  0.9514761     -52.7672254
9.102                0.951378252     -52.8373874
9.103                0.951280079      -52.907706
9.104                 0.95118158     -52.9781816
9.105                0.951082753     -53.0488148
9.106                0.950983597      -53.119606
9.107                0.950884111     -53.1905558
9.108                0.950784295     -53.2616646
9.109                0.950684147     -53.3329331
9.11                 0.950583665     -53.4043615
9.111                0.950482849     -53.4759506
9.112                0.950381697     -53.5477008
9.113                0.950280208     -53.6196126
9.114                0.950178382     -53.6916865
9.115                0.950076216     -53.7639231
9.116                 0.94997371     -53.8363229
9.117                0.949870862     -53.9088864
9.118                0.949767672     -53.9816141
9.119                0.949664138     -54.0545066
9.12                 0.949560258     -54.1275643
9.121                0.949456033     -54.2007879
9.122                0.949351459     -54.2741778
9.123                0.949246537     -54.3477346
9.124                0.949141265     -54.4214588
9.125                0.949035641      -54.495351
9.126                0.948929666     -54.5694117
9.127                0.948823336     -54.6436414
9.128                0.948716651     -54.7180407
9.129                 0.94860961     -54.7926102
9.13                 0.948502212     -54.8673504
9.131                0.948394455     -54.9422618
9.132                0.948286338      -55.017345
9.133                 0.94817786     -55.0926006
9.134                0.948069019      -55.168029
9.135                0.947959815      -55.243631
9.136                0.947850246      -55.319407
9.137                 0.94774031     -55.3953575
9.138                0.947630006     -55.4714833
9.139                0.947519334     -55.5477848
9.14                 0.947408291     -55.6242626
9.141                0.947296877     -55.7009173
9.142                0.947185091     -55.7777494
9.143                 0.94707293     -55.8547596
9.144                0.946960394     -55.9319484
9.145                0.946847481     -56.0093163
9.146                0.946734189     -56.0868641
9.147                0.946620519     -56.1645922
9.148                0.946506468     -56.2425013
9.149                0.946392035     -56.3205919
9.15                 0.946277218     -56.3988647
9.151                0.946162017     -56.4773202
9.152                 0.94604643     -56.5559591
9.153                0.945930456     -56.6347818
9.154                0.945814092     -56.7137891
9.155                0.945697339     -56.7929816
9.156                0.945580194     -56.8723598
9.157                0.945462656     -56.9519243
9.158                0.945344724     -57.0316758
9.159                0.945226397     -57.1116149
9.16                 0.945107672     -57.1917422
9.161                 0.94498855     -57.2720583
9.162                0.944869027     -57.3525639
9.163                0.944749104     -57.4332595
9.164                0.944628777     -57.5141458
9.165                0.944508047     -57.5952234
9.166                0.944386912     -57.6764929
9.167                 0.94426537      -57.757955
9.168                 0.94414342     -57.8396103
9.169                 0.94402106     -57.9214595
9.17                 0.943898289     -58.0035032
9.171                0.943775106      -58.085742
9.172                0.943651509     -58.1681765
9.173                0.943527497     -58.2508075
9.174                0.943403068     -58.3336356
9.175                 0.94327822     -58.4166613
9.176                0.943152954     -58.4998855
9.177                0.943027266     -58.5833087
9.178                0.942901155     -58.6669315
9.179                0.942774621     -58.7507548
9.18                 0.942647661      -58.834779
9.181                0.942520274      -58.919005
9.182                0.942392459     -59.0034332
9.183                0.942264214     -59.0880646
9.184                0.942135538     -59.1728996
9.185                0.942006428      -59.257939
9.186                0.941876885     -59.3431834
9.187                0.941746906     -59.4286336
9.188                0.941616489     -59.5142902
9.189                0.941485633     -59.6001539
9.19                 0.941354337     -59.6862254
9.191                  0.9412226     -59.7725055
9.192                0.941090418     -59.8589947
9.193                0.940957792     -59.9456937
9.194                 0.94082472     -60.0326034
9.195                0.940691199     -60.1197244
9.196                 0.94055723     -60.2070573
9.197                0.940422809      -60.294603
9.198                0.940287935     -60.3823621
9.199                0.940152608     -60.4703352
9.2                  0.940016824     -60.5585233
9.201                0.939880584     -60.6469269
9.202                0.939743885     -60.7355467
9.203                0.939606725     -60.8243836
9.204                0.939469104     -60.9134382
9.205                0.939331019     -61.0027113
9.206                0.939192469     -61.0922036
9.207                0.939053453     -61.1819158
9.208                0.938913968     -61.2718486
9.209                0.938774013     -61.3620029
9.21                 0.938633588     -61.4523793
9.211                0.938492689     -61.5429786
9.212                0.938351315     -61.6338016
9.213                0.938209466      -61.724849
9.214                0.938067139     -61.8161215
9.215                0.937924332     -61.9076199
9.216                0.937781044      -61.999345
9.217                0.937637274     -62.0912975
9.218                0.937493019     -62.1834782
9.219                0.937348279     -62.2758879
9.22                 0.937203051     -62.3685273
9.221                0.937057335     -62.4613972
9.222                0.936911127     -62.5544984
9.223                0.936764427     -62.6478317
9.224                0.936617233     -62.7413978
9.225                0.936469543     -62.8351976
9.226                0.936321356     -62.9292318
9.227                 0.93617267     -63.0235011
9.228                0.936023484     -63.1180066
9.229                0.935873795     -63.2127488
9.23                 0.935723602     -63.3077286
9.231                0.935572904     -63.4029468
9.232                0.935421698     -63.4984042
9.233                0.935269984     -63.5941017
9.234                0.935117759       -63.69004
9.235                0.934965021       -63.78622
9.236                 0.93481177     -63.8826424
9.237                0.934658003     -63.9793081
9.238                0.934503718     -64.0762179
9.239                0.934348915     -64.1733727
9.24                 0.934193591     -64.2707732
9.241                0.934037744     -64.3684204
9.242                0.933881373     -64.4663149
9.243                0.933724477     -64.5644578
9.244                0.933567052     -64.6628498
9.245                0.933409099     -64.7614917
9.246                0.933250615     -64.8603845
9.247                0.933091598     -64.9595289
9.248                0.932932046     -65.0589259
9.249                0.932771959     -65.1585762
9.25                 0.932611334     -65.2584807
9.251                0.932450169     -65.3586404
9.252                0.932288463      -65.459056
9.253                0.932126214     -65.5597285
9.254                 0.93196342     -65.6606586
9.255                0.931800079     -65.7618474
9.256                0.931636191     -65.8632956
9.257                0.931471752     -65.9650042
9.258                0.931306762      -66.066974
9.259                0.931141218     -66.1692059
9.26                  0.93097512     -66.2717008
9.261                0.930808464     -66.3744596
9.262                 0.93064125     -66.4774833
9.263                0.930473475     -66.5807726
9.264                0.930305138     -66.6843286
9.265                0.930136237     -66.7881521
9.266                 0.92996677      -66.892244
9.267                0.929796736     -66.9966053
9.268                0.929626133     -67.1012368
9.269                0.929454959     -67.2061395
9.27                 0.929283212     -67.3113143
9.271                0.929110891     -67.4167621
9.272                0.928937993     -67.5224839
9.273                0.928764518     -67.6284806
9.274                0.928590462     -67.7347531
9.275                0.928415826     -67.8413024
9.276                0.928240605     -67.9481295
9.277                  0.9280648     -68.0552351
9.278                0.927888408     -68.1626204
9.279                0.927711427     -68.2702863
9.28                 0.927533856     -68.3782337
9.281                0.927355693     -68.4864636
9.282                0.927176936     -68.5949769
9.283                0.926997583     -68.7037746
9.284                0.926817632     -68.8128577
9.285                0.926637083     -68.9222272
9.286                0.926455932      -69.031884
9.287                0.926274179     -69.1418291
9.288                0.926091821     -69.2520635
9.289                0.925908856     -69.3625881
9.29                 0.925725284     -69.4734041
9.291                0.925541101     -69.5845123
9.292                0.925356307     -69.6959138
9.293                  0.9251709     -69.8076095
9.294                0.924984877     -69.9196005
9.295                0.924798237     -70.0318877
9.296                0.924610979     -70.1444723
9.297                  0.9244231     -70.2573551
9.298                0.924234599     -70.3705372
9.299                0.924045474     -70.4840197
9.3                  0.923855723     -70.5978035
9.301                0.923665344     -70.7118897
9.302                0.923474336     -70.8262793
9.303                0.923282697     -70.9409733
9.304                0.923090425     -71.0559729
9.305                0.922897519     -71.1712789
9.306                0.922703976     -71.2868925
9.307                0.922509795     -71.4028147
9.308                0.922314974     -71.5190466
9.309                0.922119511     -71.6355892
9.31                 0.921923405     -71.7524435
9.311                0.921726654     -71.8696107
9.312                0.921529257     -71.9870918
9.313                 0.92133121     -72.1048879
9.314                0.921132514     -72.2229999
9.315                0.920933165     -72.3414291
9.316                0.920733162     -72.4601765
9.317                0.920532504     -72.5792432
9.318                0.920331189     -72.6986302
9.319                0.920129215     -72.8183386
9.32                  0.91992658     -72.9383696
9.321                0.919723283     -73.0587242
9.322                0.919519322     -73.1794035
9.323                0.919314695     -73.3004087
9.324                  0.9191094     -73.4217408
9.325                0.918903436     -73.5434009
9.326                0.918696802     -73.6653902
9.327                0.918489495     -73.7877098
9.328                0.918281514     -73.9103607
9.329                0.918072857     -74.0333442
9.33                 0.917863522     -74.1566613
9.331                0.917653508     -74.2803131
9.332                0.917442814     -74.4043009
9.333                0.917231436     -74.5286257
9.334                0.917019375     -74.6532886
9.335                0.916806628     -74.7782909
9.336                0.916593194     -74.9036336
9.337                 0.91637907      -75.029318
9.338                0.916164256     -75.1553451
9.339                 0.91594875     -75.2817161
9.34                 0.915732549     -75.4084322
9.341                0.915515654     -75.5354946
9.342                0.915298061     -75.6629044
9.343                 0.91507977     -75.7906627
9.344                0.914860778     -75.9187708
9.345                0.914641085     -76.0472298
9.346                0.914420688     -76.1760409
9.347                0.914199587     -76.3052054
9.348                0.913977779     -76.4347243
9.349                0.913755263     -76.5645988
9.35                 0.913532038     -76.6948302
9.351                0.913308102     -76.8254197
9.352                0.913083453     -76.9563685
9.353                0.912858091     -77.0876776
9.354                0.912632013     -77.2193485
9.355                0.912405219     -77.3513822
9.356                0.912177705     -77.4837801
9.357                0.911949473     -77.6165432
9.358                0.911720519     -77.7496728
9.359                0.911490842     -77.8831702
9.36                 0.911260441     -78.0170366
9.361                0.911029315     -78.1512731
9.362                0.910797462     -78.2858811
9.363                0.910564881     -78.4208617
9.364                0.910331571     -78.5562163
9.365                0.910097529      -78.691946
9.366                0.909862755     -78.8280521
9.367                0.909627248     -78.9645358
9.368                0.909391005     -79.1013985
9.369                0.909154027     -79.2386412
9.37                 0.908916311     -79.3762654
9.371                0.908677856     -79.5142722
9.372                0.908438661      -79.652663
9.373                0.908198725     -79.7914389
9.374                0.907958047     -79.9306013
9.375                0.907716625     -80.0701514
9.376                0.907474458     -80.2100906
9.377                0.907231545       -80.35042
9.378                0.906987885      -80.491141
9.379                0.906743477     -80.6322548
9.38                 0.906498319     -80.7737628
9.381                0.906252411     -80.9156662
9.382                0.906005751     -81.0579664
9.383                0.905758339     -81.2006645
9.384                0.905510172      -81.343762
9.385                0.905261251     -81.4872601
9.386                0.905011574     -81.6311601
9.387                0.904761141     -81.7754633
9.388                0.904509949     -81.9201711
9.389                0.904257999     -82.0652847
9.39                 0.904005289     -82.2108055
9.391                0.903751819     -82.3567348
9.392                0.903497587     -82.5030738
9.393                0.903242593      -82.649824
9.394                0.902986836     -82.7969867
9.395                0.902730315     -82.9445631
9.396                0.902473029     -83.0925547
