! TOUCHSTONE file generated by CST DESIGN STUDIO
! Date and time: Tue Feb  4 14:32:51 2025
! Project name: C:\Work\MatlabApps\UnitCellOptimizationMatlab\CST\unitcell.cst
! Tree item: Tasks\Sweep1\SPara1\S-Parameters
! Header version: 2024
! Port assignment regex: !\s*Touchstone port\s*([0-9]+)\s*=\s*(CST MWS port|CST DES external port|CST DES block port)\s*(.+)\s* \(\"(.*)\"\)(\s*mode\s*([0-9]+))?.*
! Touchstone port assignment:
! Touchstone port 1 = CST DES external port 1 ("")
# GHz S MA R 50
9                     0.96460621     -42.5613964
9.001                0.964549896     -42.6114494
9.002                0.964493402     -42.6615978
9.003                 0.96443673     -42.7118419
9.004                0.964379877      -42.762182
9.005                0.964322843     -42.8126184
9.006                0.964265628     -42.8631514
9.007                0.964208231     -42.9137811
9.008                0.964150651      -42.964508
9.009                0.964092888     -43.0153322
9.01                 0.964034941     -43.0662541
9.011                 0.96397681      -43.117274
9.012                0.963918494      -43.168392
9.013                0.963859992     -43.2196086
9.014                0.963801304      -43.270924
9.015                0.963742429     -43.3223384
9.016                0.963683366     -43.3738523
9.017                0.963624116     -43.4254658
9.018                0.963564676     -43.4771792
9.019                0.963505047     -43.5289928
9.02                 0.963445229      -43.580907
9.021                0.963385219      -43.632922
9.022                0.963325019     -43.6850381
9.023                0.963264626     -43.7372557
9.024                0.963204041     -43.7895749
9.025                0.963143262     -43.8419961
9.026                 0.96308229     -43.8945196
9.027                0.963021123     -43.9471457
9.028                0.962959762     -43.9998747
9.029                0.962898204     -44.0527069
9.03                  0.96283645     -44.1056425
9.031                0.962774498      -44.158682
9.032                0.962712349     -44.2118256
9.033                0.962650002     -44.2650735
9.034                0.962587455     -44.3184262
9.035                0.962524709     -44.3718839
9.036                0.962461762     -44.4254469
9.037                0.962398614     -44.4791156
9.038                0.962335264     -44.5328902
9.039                0.962271711     -44.5867711
9.04                 0.962207956     -44.6407585
9.041                0.962143997     -44.6948528
9.042                0.962079833     -44.7490543
9.043                0.962015463     -44.8033634
9.044                0.961950888     -44.8577802
9.045                0.961886106     -44.9123053
9.046                0.961821117     -44.9669387
9.047                 0.96175592      -45.021681
9.048                0.961690514     -45.0765324
9.049                0.961624899     -45.1314932
9.05                 0.961559073     -45.1865638
9.051                0.961493037     -45.2417445
9.052                0.961426789     -45.2970356
9.053                0.961360329     -45.3524374
9.054                0.961293656     -45.4079503
9.055                0.961226768     -45.4635746
9.056                0.961159667     -45.5193106
9.057                 0.96109235     -45.5751587
9.058                0.961024817     -45.6311192
9.059                0.960957068     -45.6871925
9.06                 0.960889101     -45.7433788
9.061                0.960820916     -45.7996785
9.062                0.960752512     -45.8560919
9.063                0.960683889     -45.9126194
9.064                0.960615045     -45.9692614
9.065                 0.96054598     -46.0260181
9.066                0.960476693       -46.08289
9.067                0.960407183     -46.1398773
9.068                 0.96033745     -46.1969804
9.069                0.960267492     -46.2541997
9.07                  0.96019731     -46.3115354
9.071                0.960126902      -46.368988
9.072                0.960056267     -46.4265579
9.073                0.959985406     -46.4842452
9.074                0.959914316     -46.5420505
9.075                0.959842997     -46.5999741
9.076                0.959771448     -46.6580163
9.077                0.959699669     -46.7161774
9.078                0.959627659     -46.7744579
9.079                0.959555417     -46.8328581
9.08                 0.959482942     -46.8913784
9.081                0.959410233     -46.9500191
9.082                 0.95933729     -47.0087806
9.083                0.959264112     -47.0676632
9.084                0.959190697     -47.1266674
9.085                0.959117046     -47.1857934
9.086                0.959043157     -47.2450417
9.087                 0.95896903     -47.3044127
9.088                0.958894663     -47.3639067
9.089                0.958820056      -47.423524
9.09                 0.958745208     -47.4832651
9.091                0.958670118     -47.5431303
9.092                0.958594786     -47.6031201
9.093                 0.95851921     -47.6632347
9.094                 0.95844339     -47.7234746
9.095                0.958367324     -47.7838402
9.096                0.958291013     -47.8443318
9.097                0.958214454     -47.9049499
9.098                0.958137648     -47.9656947
9.099                0.958060593     -48.0265668
9.1                  0.957983289     -48.0875664
9.101                0.957905734     -48.1486941
9.102                0.957827929     -48.2099501
9.103                0.957749871     -48.2713348
9.104                 0.95767156     -48.3328488
9.105                0.957592995     -48.3944923
9.106                0.957514176     -48.4562658
9.107                  0.9574351     -48.5181696
9.108                0.957355769     -48.5802042
9.109                 0.95727618     -48.6423699
9.11                 0.957196333     -48.7046673
9.111                0.957116226     -48.7670966
9.112                 0.95703586     -48.8296583
9.113                0.956955232     -48.8923528
9.114                0.956874343     -48.9551804
9.115                 0.95679319     -49.0181418
9.116                0.956711774     -49.0812371
9.117                0.956630093     -49.1444669
9.118                0.956548147     -49.2078315
9.119                0.956465934     -49.2713315
9.12                 0.956383454     -49.3349671
9.121                0.956300705     -49.3987389
9.122                0.956217687     -49.4626472
9.123                0.956134399     -49.5266924
9.124                0.956050839     -49.5908751
9.125                0.955967007     -49.6551956
9.126                0.955882902     -49.7196544
9.127                0.955798524     -49.7842518
9.128                 0.95571387     -49.8489884
9.129                 0.95562894     -49.9138645
9.13                 0.955543733     -49.9788806
9.131                0.955458248     -50.0440371
9.132                0.955372484     -50.1093345
9.133                 0.95528644     -50.1747733
9.134                0.955200115     -50.2403537
9.135                0.955113509     -50.3060764
9.136                0.955026619     -50.3719417
9.137                0.954939446     -50.4379501
9.138                0.954851988      -50.504102
9.139                0.954764244     -50.5703979
9.14                 0.954676213     -50.6368383
9.141                0.954587895     -50.7034235
9.142                0.954499287     -50.7701542
9.143                 0.95441039     -50.8370306
9.144                0.954321202     -50.9040533
9.145                0.954231721     -50.9712227
9.146                0.954141948     -51.0385393
9.147                0.954051881     -51.1060036
9.148                0.953961519      -51.173616
9.149                 0.95387086      -51.241377
9.15                 0.953779905     -51.3092871
9.151                0.953688651     -51.3773467
9.152                0.953597098     -51.4455564
9.153                0.953505245     -51.5139165
9.154                0.953413091     -51.5824275
9.155                0.953320634     -51.6510901
9.156                0.953227874     -51.7199045
9.157                0.953134809     -51.7888714
9.158                0.953041439     -51.8579911
9.159                0.952947762     -51.9272642
9.16                 0.952853777     -51.9966912
9.161                0.952759483     -52.0662726
9.162                 0.95266488     -52.1360088
9.163                0.952569965     -52.2059003
9.164                0.952474738     -52.2759477
9.165                0.952379198     -52.3461514
9.166                0.952283344      -52.416512
9.167                0.952187174     -52.4870299
9.168                0.952090688     -52.5577056
9.169                0.951993884     -52.6285397
9.17                 0.951896761     -52.6995327
9.171                0.951799319      -52.770685
9.172                0.951701555     -52.8419971
9.173                0.951603469     -52.9134697
9.174                 0.95150506     -52.9851032
9.175                0.951406327      -53.056898
9.176                0.951307267     -53.1288549
9.177                0.951207881     -53.2009741
9.178                0.951108168     -53.2732564
9.179                0.951008125     -53.3457022
9.18                 0.950907751      -53.418312
9.181                0.950807047     -53.4910863
9.182                 0.95070601     -53.5640258
9.183                0.950604639     -53.6371309
9.184                0.950502933     -53.7104021
9.185                0.950400891       -53.78384
9.186                0.950298512     -53.8574452
9.187                0.950195795     -53.9312181
9.188                0.950092737     -54.0051594
9.189                0.949989339     -54.0792695
9.19                 0.949885599     -54.1535491
9.191                0.949781515     -54.2279986
9.192                0.949677087     -54.3026186
9.193                0.949572314     -54.3774097
9.194                0.949467193     -54.4523724
9.195                0.949361724     -54.5275073
9.196                0.949255906     -54.6028149
9.197                0.949149737     -54.6782958
9.198                0.949043217     -54.7539506
9.199                0.948936343     -54.8297798
9.2                  0.948829115      -54.905784
9.201                0.948721531     -54.9819638
9.202                0.948613591     -55.0583197
9.203                0.948505292     -55.1348524
9.204                0.948396635     -55.2115623
9.205                0.948287616     -55.2884501
9.206                0.948178236     -55.3655164
9.207                0.948068492     -55.4427617
9.208                0.947958384     -55.5201866
9.209                 0.94784791     -55.5977917
9.21                  0.94773707     -55.6755777
9.211                0.947625861      -55.753545
9.212                0.947514282     -55.8316943
9.213                0.947402332     -55.9100263
9.214                0.947290011     -55.9885414
9.215                0.947177315     -56.0672402
9.216                0.947064245     -56.1461235
9.217                0.946950799     -56.2251918
9.218                0.946836975     -56.3044457
9.219                0.946722773     -56.3838858
9.22                  0.94660819     -56.4635127
9.221                0.946493226     -56.5433271
9.222                0.946377879     -56.6233296
9.223                0.946262148     -56.7035207
9.224                0.946146032     -56.7839011
9.225                0.946029528     -56.8644715
9.226                0.945912637     -56.9452324
9.227                0.945795356     -57.0261845
9.228                0.945677684     -57.1073285
9.229                 0.94555962     -57.1886649
9.23                 0.945441162     -57.2701944
9.231                0.945322309     -57.3519176
9.232                0.945203059     -57.4338352
9.233                0.945083412     -57.5159478
9.234                0.944963366     -57.5982561
9.235                0.944842919     -57.6807606
9.236                 0.94472207     -57.7634622
9.237                0.944600818     -57.8463614
9.238                0.944479161     -57.9294588
9.239                0.944357098     -58.0127552
9.24                 0.944234627     -58.0962512
9.241                0.944111747     -58.1799474
9.242                0.943988457     -58.2638446
9.243                0.943864755     -58.3479433
9.244                 0.94374064     -58.4322443
9.245                0.943616109     -58.5167483
9.246                0.943491163     -58.6014559
9.247                0.943365799     -58.6863678
9.248                0.943240016     -58.7714846
9.249                0.943113813     -58.8568071
9.25                 0.942987187      -58.942336
9.251                0.942860138     -59.0280719
9.252                0.942732664     -59.1140155
9.253                0.942604764     -59.2001676
9.254                0.942476436     -59.2865288
9.255                0.942347679     -59.3730998
9.256                 0.94221849     -59.4598813
9.257                 0.94208887     -59.5468741
9.258                0.941958816     -59.6340788
9.259                0.941828326     -59.7214961
9.26                   0.9416974     -59.8091268
9.261                0.941566035     -59.8969716
9.262                0.941434231     -59.9850312
9.263                0.941301986     -60.0733063
9.264                0.941169297     -60.1617977
9.265                0.941036165      -60.250506
9.266                0.940902586      -60.339432
9.267                 0.94076856     -60.4285765
9.268                0.940634086     -60.5179401
9.269                 0.94049916     -60.6075236
9.27                 0.940363783     -60.6973278
9.271                0.940227953     -60.7873533
9.272                0.940091667      -60.877601
9.273                0.939954925     -60.9680716
9.274                0.939817725     -61.0587658
9.275                0.939680065     -61.1496844
9.276                0.939541944     -61.2408281
9.277                 0.93940336     -61.3321978
9.278                0.939264311     -61.4237941
9.279                0.939124797     -61.5156178
9.28                 0.938984815     -61.6076698
9.281                0.938844364     -61.6999507
9.282                0.938703443     -61.7924614
9.283                0.938562049     -61.8852026
9.284                0.938420181     -61.9781751
9.285                0.938277838     -62.0713797
9.286                0.938135018     -62.1648172
9.287                0.937991719     -62.2584883
9.288                 0.93784794     -62.3523939
9.289                0.937703679     -62.4465348
9.29                 0.937558935     -62.5409117
9.291                0.937413705     -62.6355254
9.292                0.937267989     -62.7303768
9.293                0.937121785     -62.8254667
9.294                 0.93697509     -62.9207958
9.295                0.936827905      -63.016365
9.296                0.936680226     -63.1121751
9.297                0.936532052     -63.2082269
9.298                0.936383382     -63.3045213
9.299                0.936234213      -63.401059
9.3                  0.936084545     -63.4978409
9.301                0.935934376     -63.5948679
9.302                0.935783703     -63.6921406
9.303                0.935632526     -63.7896601
9.304                0.935480843     -63.8874271
9.305                0.935328651     -63.9854425
9.306                 0.93517595     -64.0837071
9.307                0.935022738     -64.1822217
9.308                0.934869013     -64.2809873
9.309                0.934714773     -64.3800047
9.31                 0.934560017     -64.4792747
9.311                0.934404743     -64.5787982
9.312                0.934248949      -64.678576
9.313                0.934092634     -64.7786091
9.314                0.933935796     -64.8788982
9.315                0.933778433     -64.9794444
9.316                0.933620544     -65.0802483
9.317                0.933462127     -65.1813111
9.318                 0.93330318     -65.2826334
9.319                0.933143701     -65.3842162
9.32                  0.93298369     -65.4860604
9.321                0.932823144     -65.5881669
9.322                0.932662061     -65.6905366
9.323                 0.93250044     -65.7931703
9.324                0.932338279      -65.896069
9.325                0.932175576     -65.9992336
9.326                 0.93201233      -66.102665
9.327                0.931848539     -66.2063642
9.328                0.931684201     -66.3103319
9.329                0.931519315     -66.4145692
9.33                 0.931353879     -66.5190769
9.331                0.931187891      -66.623856
9.332                0.931021349     -66.7289074
9.333                0.930854251     -66.8342321
9.334                0.930686597      -66.939831
9.335                0.930518384      -67.045705
9.336                0.930349611     -67.1518551
9.337                0.930180275     -67.2582821
9.338                0.930010375     -67.3649871
9.339                 0.92983991     -67.4719711
9.34                 0.929668878     -67.5792349
9.341                0.929497276     -67.6867795
9.342                0.929325103     -67.7946059
9.343                0.929152358     -67.9027151
9.344                0.928979039     -68.0111079
9.345                0.928805143     -68.1197855
9.346                 0.92863067     -68.2287487
9.347                0.928455618     -68.3379986
9.348                0.928279984     -68.4475361
9.349                0.928103767     -68.5573622
9.35                 0.927926966     -68.6674778
9.351                0.927749578     -68.7778841
9.352                0.927571602      -68.888582
9.353                0.927393036     -68.9995725
9.354                0.927213879     -69.1108565
9.355                0.927034129     -69.2224351
9.356                0.926853783     -69.3343094
9.357                0.926672841     -69.4464802
9.358                  0.9264913     -69.5589487
9.359                0.926309159     -69.6717158
9.36                 0.926126416     -69.7847826
9.361                0.925943069     -69.8981501
9.362                0.925759117     -70.0118193
9.363                0.925574558     -70.1257913
9.364                0.925389391      -70.240067
9.365                0.925203612     -70.3546477
9.366                0.925017221     -70.4695341
9.367                0.924830217     -70.5847275
9.368                0.924642597     -70.7002289
9.369                0.924454359     -70.8160393
9.37                 0.924265502     -70.9321598
9.371                0.924076025     -71.0485915
9.372                0.923885925     -71.1653353
9.373                  0.9236952     -71.2823924
9.374                 0.92350385     -71.3997639
9.375                0.923311872     -71.5174508
9.376                0.923119265     -71.6354542
9.377                0.922926027     -71.7537752
9.378                0.922732156     -71.8724149
9.379                0.922537651     -71.9913743
9.38                  0.92234251     -72.1106545
9.381                0.922146731     -72.2302567
9.382                0.921950313     -72.3501819
9.383                0.921753253     -72.4704313
9.384                0.921555551     -72.5910059
9.385                0.921357204     -72.7119069
9.386                0.921158212     -72.8331354
9.387                0.920958571     -72.9546924
9.388                0.920758282     -73.0765791
9.389                0.920557341     -73.1987967
9.39                 0.920355748     -73.3213462
9.391                  0.9201535     -73.4442288
9.392                0.919950596     -73.5674456
9.393                0.919747035     -73.6909978
9.394                0.919542815     -73.8148865
9.395                0.919337934     -73.9391128
9.396                 0.91913239     -74.0636779
