! TOUCHSTONE file generated by CST DESIGN STUDIO
! Date and time: Tue Feb  4 14:32:39 2025
! Project name: C:\Work\MatlabApps\UnitCellOptimizationMatlab\CST\unitcell.cst
! Tree item: Tasks\Sweep1\SPara1\S-Parameters
! Header version: 2024
! Port assignment regex: !\s*Touchstone port\s*([0-9]+)\s*=\s*(CST MWS port|CST DES external port|CST DES block port)\s*(.+)\s* \(\"(.*)\"\)(\s*mode\s*([0-9]+))?.*
! Touchstone port assignment:
! Touchstone port 1 = CST DES external port 1 ("")
# GHz S MA R 50
9                    0.912015184      -80.464678
9.001                0.911769737     -80.6025891
9.002                0.911523488     -80.7408892
9.003                0.911276434     -80.8795797
9.004                0.911028574     -81.0186618
9.005                0.910779906      -81.158137
9.006                 0.91053043     -81.2980064
9.007                0.910280142     -81.4382714
9.008                0.910029041     -81.5789334
9.009                0.909777127     -81.7199936
9.01                 0.909524397     -81.8614534
9.011                 0.90927085      -82.003314
9.012                0.909016484     -82.1455769
9.013                0.908761298     -82.2882434
9.014                 0.90850529     -82.4313147
9.015                0.908248459     -82.5747923
9.016                0.907990803     -82.7186774
9.017                0.907732322     -82.8629715
9.018                0.907473013     -83.0076758
9.019                0.907212875     -83.1527918
9.02                 0.906951907     -83.2983207
9.021                0.906690107      -83.444264
9.022                0.906427474     -83.5906229
9.023                0.906164007     -83.7373989
9.024                0.905899704     -83.8845934
9.025                0.905634565     -84.0322076
9.026                0.905368587     -84.1802429
9.027                 0.90510177     -84.3287009
9.028                0.904834113     -84.4775827
9.029                0.904565614     -84.6268898
9.03                 0.904296272     -84.7766236
9.031                0.904026085     -84.9267854
9.032                0.903755054     -85.0773767
9.033                0.903483176     -85.2283988
9.034                0.903210451     -85.3798532
9.035                0.902936878     -85.5317411
9.036                0.902662455     -85.6840641
9.037                0.902387182     -85.8368235
9.038                0.902111057     -85.9900208
9.039                 0.90183408     -86.1436572
9.04                  0.90155625     -86.2977343
9.041                0.901277566     -86.4522534
9.042                0.900998026      -86.607216
9.043                0.900717631     -86.7626235
9.044                0.900436379     -86.9184772
9.045                 0.90015427     -87.0747786
9.046                0.899871303     -87.2315292
9.047                0.899587476     -87.3887303
9.048                0.899302791     -87.5463834
9.049                0.899017245     -87.7044899
9.05                 0.898730838     -87.8630512
9.051                 0.89844357     -88.0220687
9.052                 0.89815544     -88.1815439
9.053                0.897866447     -88.3414783
9.054                0.897576591     -88.5018732
9.055                0.897285872     -88.6627301
9.056                0.896994289     -88.8240505
9.057                0.896701842     -88.9858357
9.058                0.896408531     -89.1480872
9.059                0.896114354     -89.3108065
9.06                 0.895819312     -89.4739949
9.061                0.895523405     -89.6376541
9.062                0.895226633     -89.8017853
9.063                0.894928994     -89.9663901
9.064                 0.89463049     -90.1314699
9.065                 0.89433112     -90.2970261
9.066                0.894030883     -90.4630602
9.067                0.893729781     -90.6295737
9.068                0.893427813      -90.796568
9.069                0.893124979     -90.9640445
9.07                 0.892821279     -91.1320048
9.071                0.892516714     -91.3004502
9.072                0.892211283     -91.4693823
9.073                0.891904987     -91.6388025
9.074                0.891597826     -91.8087122
9.075                0.891289801      -91.979113
9.076                0.890980911     -92.1500062
9.077                0.890671158     -92.3213933
9.078                0.890360542     -92.4932759
9.079                0.890049064     -92.6656553
9.08                 0.889736723      -92.838533
9.081                0.889423521     -93.0119105
9.082                0.889109458     -93.1857893
9.083                0.888794535     -93.3601708
9.084                0.888478753     -93.5350564
9.085                0.888162112     -93.7104477
9.086                0.887844614      -93.886346
9.087                0.887526259     -94.0627529
9.088                0.887207049     -94.2396698
9.089                0.886886984     -94.4170982
9.09                 0.886566066     -94.5950395
9.091                0.886244296     -94.7734952
9.092                0.885921674     -94.9524668
9.093                0.885598203     -95.1319556
9.094                0.885273883     -95.3119632
9.095                0.884948716     -95.4924911
9.096                0.884622704     -95.6735406
9.097                0.884295847     -95.8551132
9.098                0.883968148     -96.0372104
9.099                0.883639607     -96.2198337
9.1                  0.883310228     -96.4029844
9.101                0.882980011      -96.586664
9.102                0.882648958      -96.770874
9.103                0.882317072     -96.9556159
9.104                0.881984353     -97.1408909
9.105                0.881650805     -97.3267007
9.106                0.881316429     -97.5130466
9.107                0.880981227     -97.6999301
9.108                0.880645202     -97.8873525
9.109                0.880308355     -98.0753154
9.11                  0.87997069     -98.2638202
9.111                0.879632208     -98.4528682
9.112                0.879292913      -98.642461
9.113                0.878952805     -98.8325999
9.114                 0.87861189     -99.0232863
9.115                0.878270168     -99.2145217
9.116                0.877927642     -99.4063075
9.117                0.877584316     -99.5986451
9.118                0.877240193     -99.7915358
9.119                0.876895275     -99.9849811
9.12                 0.876549566     -100.178982
9.121                0.876203068     -100.373541
9.122                0.875855785     -100.568659
9.123                0.875507721     -100.764336
9.124                0.875158878     -100.960575
9.125                 0.87480926     -101.157377
9.126                 0.87445887     -101.354744
9.127                0.874107713     -101.552676
9.128                0.873755792     -101.751175
9.129                 0.87340311     -101.950242
9.13                 0.873049672     -102.149879
9.131                0.872695482     -102.350087
9.132                0.872340543     -102.550868
9.133                 0.87198486     -102.752222
9.134                0.871628437     -102.954151
9.135                0.871271278     -103.156657
9.136                0.870913388      -103.35974
9.137                0.870554771     -103.563403
9.138                0.870195432     -103.767646
9.139                0.869835376      -103.97247
9.14                 0.869474606     -104.177878
9.141                0.869113128     -104.383869
9.142                0.868750948     -104.590447
9.143                0.868388069     -104.797611
9.144                0.868024498     -105.005363
9.145                0.867660239     -105.213704
9.146                0.867295298     -105.422636
9.147                0.866929679     -105.632159
9.148                 0.86656339     -105.842276
9.149                0.866196435     -106.052987
9.15                 0.865828819     -106.264294
9.151                 0.86546055     -106.476197
9.152                0.865091632     -106.688698
9.153                0.864722072     -106.901798
9.154                0.864351876     -107.115498
9.155                0.863981051       -107.3298
9.156                0.863609601     -107.544705
9.157                0.863237535     -107.760213
9.158                0.862864857     -107.976326
9.159                0.862491576     -108.193045
9.16                 0.862117698     -108.410372
9.161                 0.86174323     -108.628307
9.162                0.861368178     -108.846851
9.163                 0.86099255     -109.066006
9.164                0.860616353     -109.285772
9.165                0.860239594     -109.506151
9.166                0.859862281     -109.727144
9.167                0.859484421     -109.948751
9.168                0.859106022     -110.170975
9.169                0.858727092     -110.393815
9.17                 0.858347638     -110.617273
9.171                0.857967668      -110.84135
9.172                0.857587191     -111.066047
9.173                0.857206215     -111.291365
9.174                0.856824748     -111.517304
9.175                0.856442798     -111.743867
9.176                0.856060374     -111.971053
9.177                0.855677485     -112.198864
9.178                 0.85529414       -112.4273
9.179                0.854910347     -112.656363
9.18                 0.854526115     -112.886053
9.181                0.854141454     -113.116371
9.182                0.853756373     -113.347318
9.183                0.853370882     -113.578896
9.184                0.852984989     -113.811104
9.185                0.852598705     -114.043943
9.186                0.852212038     -114.277415
9.187                0.851825001      -114.51152
9.188                0.851437601     -114.746259
9.189                0.851049849     -114.981632
9.19                 0.850661756     -115.217641
9.191                0.850273332     -115.454286
9.192                0.849884588     -115.691568
9.193                0.849495533     -115.929487
9.194                 0.84910618     -116.168044
9.195                0.848716538      -116.40724
9.196                0.848326619     -116.647075
9.197                0.847936434      -116.88755
9.198                0.847545994     -117.128666
9.199                0.847155311     -117.370423
9.2                  0.846764396     -117.612821
9.201                0.846373261     -117.855862
9.202                0.845981917     -118.099546
9.203                0.845590377     -118.343872
9.204                0.845198653     -118.588843
9.205                0.844806756     -118.834457
9.206                0.844414699     -119.080716
9.207                0.844022495      -119.32762
9.208                0.843630156      -119.57517
9.209                0.843237695     -119.823365
9.21                 0.842845124     -120.072206
9.211                0.842452457     -120.321693
9.212                0.842059707     -120.571827
9.213                0.841666886     -120.822609
9.214                0.841274009     -121.074037
9.215                0.840881089     -121.326113
9.216                0.840488139     -121.578836
9.217                0.840095173     -121.832208
9.218                0.839702205     -122.086227
9.219                0.839309249     -122.340894
9.22                 0.838916319      -122.59621
9.221                 0.83852343     -122.852174
9.222                0.838130596     -123.108787
9.223                 0.83773783     -123.366047
9.224                0.837345149     -123.623957
9.225                0.836952567     -123.882514
9.226                0.836560098     -124.141721
9.227                0.836167758     -124.401575
9.228                0.835775562     -124.662078
9.229                0.835383525     -124.923229
9.23                 0.834991663     -125.185027
9.231                0.834599991     -125.447474
9.232                0.834208525     -125.710568
9.233                 0.83381728     -125.974309
9.234                0.833426274     -126.238698
9.235                0.833035521     -126.503733
9.236                0.832645037     -126.769415
9.237                 0.83225484     -127.035743
9.238                0.831864946     -127.302717
9.239                 0.83147537     -127.570336
9.24                 0.831086131       -127.8386
9.241                0.830697244     -128.107508
9.242                0.830308727     -128.377061
9.243                0.829920596     -128.647257
9.244                0.829532869     -128.918095
9.245                0.829145563     -129.189576
9.246                0.828758696     -129.461699
9.247                0.828372284     -129.734463
9.248                0.827986346     -130.007867
9.249                0.827600899      -130.28191
9.25                 0.827215961     -130.556593
9.251                 0.82683155     -130.831913
9.252                0.826447684     -131.107871
9.253                0.826064382     -131.384465
9.254                0.825681661     -131.661695
9.255                 0.82529954     -131.939559
9.256                0.824918038     -132.218057
9.257                0.824537173     -132.497187
9.258                0.824156963     -132.776949
9.259                0.823777428     -133.057342
9.26                 0.823398587     -133.338364
9.261                0.823020458     -133.620015
9.262                0.822643061     -133.902292
9.263                0.822266415     -134.185196
9.264                0.821890538     -134.468724
9.265                0.821515452     -134.752876
9.266                0.821141174      -135.03765
9.267                0.820767725     -135.323045
9.268                0.820395124     -135.609059
9.269                0.820023391     -135.895692
9.27                 0.819652545      -136.18294
9.271                0.819282608     -136.470804
9.272                0.818913598     -136.759281
9.273                0.818545536     -137.048371
9.274                0.818178442      -137.33807
9.275                0.817812336     -137.628378
9.276                0.817447238     -137.919294
9.277                0.817083169     -138.210814
9.278                0.816720149     -138.502938
9.279                0.816358199     -138.795663
9.28                  0.81599734     -139.088989
9.281                0.815637591     -139.382912
9.282                0.815278974     -139.677431
9.283                0.814921509     -139.972544
9.284                0.814565217      -140.26825
9.285                 0.81421012     -140.564545
9.286                0.813856237     -140.861428
9.287                 0.81350359     -141.158897
9.288                  0.8131522     -141.456949
9.289                0.812802087     -141.755583
9.29                 0.812453274     -142.054795
9.291                0.812105781     -142.354585
9.292                0.811759629     -142.654949
9.293                0.811414839     -142.955885
9.294                0.811071433      -143.25739
9.295                0.810729432     -143.559463
9.296                0.810388856     -143.862101
9.297                0.810049729       -144.1653
9.298                 0.80971207     -144.469059
9.299                0.809375901     -144.773375
9.3                  0.809041243     -145.078245
9.301                0.808708118     -145.383667
9.302                0.808376547     -145.689637
9.303                0.808046552     -145.996153
9.304                0.807718153     -146.303213
9.305                0.807391372     -146.610812
9.306                0.807066231     -146.918949
9.307                0.806742751      -147.22762
9.308                0.806420953     -147.536822
9.309                0.806100858     -147.846552
9.31                 0.805782489     -148.156807
9.311                0.805465865     -148.467585
9.312                0.805151008      -148.77888
9.313                 0.80483794     -149.090692
9.314                0.804526682     -149.403015
9.315                0.804217255     -149.715848
9.316                 0.80390968     -150.029186
9.317                0.803603977     -150.343026
9.318                 0.80330017     -150.657364
9.319                0.802998277     -150.972198
9.32                  0.80269832     -151.287524
9.321                 0.80240032     -151.603337
9.322                0.802104299     -151.919635
9.323                0.801810275     -152.236413
9.324                0.801518272     -152.553669
9.325                0.801228308     -152.871398
9.326                0.800940404     -153.189596
9.327                0.800654582      -153.50826
9.328                0.800370861     -153.827386
9.329                0.800089262     -154.146969
9.33                 0.799809805     -154.467007
9.331                0.799532511     -154.787494
9.332                0.799257398     -155.108427
9.333                0.798984488     -155.429802
9.334                  0.7987138     -155.751615
9.335                0.798445354     -156.073861
9.336                 0.79817917     -156.396536
9.337                0.797915266     -156.719636
9.338                0.797653664     -157.043157
9.339                0.797394381     -157.367094
9.34                 0.797137437     -157.691443
9.341                0.796882852       -158.0162
9.342                0.796630643      -158.34136
9.343                0.796380831     -158.666919
9.344                0.796133433     -158.992871
9.345                0.795888469     -159.319213
9.346                0.795645956     -159.645941
9.347                0.795405913     -159.973048
9.348                0.795168358     -160.300531
9.349                0.794933309     -160.628385
9.35                 0.794700783     -160.956605
9.351                0.794470799     -161.285187
9.352                0.794243374     -161.614125
9.353                0.794018525     -161.943415
9.354                0.793796269     -162.273051
9.355                0.793576624     -162.603029
9.356                0.793359605     -162.933344
9.357                0.793145231     -163.263991
9.358                0.792933516     -163.594965
9.359                0.792724478      -163.92626
9.36                 0.792518132     -164.257872
9.361                0.792314494     -164.589796
9.362                0.792113581     -164.922025
9.363                0.791915406     -165.254556
9.364                0.791719986     -165.587383
9.365                0.791527336       -165.9205
9.366                0.791337471     -166.253903
9.367                0.791150404     -166.587585
9.368                0.790966151     -166.921543
9.369                0.790784726     -167.255769
9.37                 0.790606142     -167.590259
9.371                0.790430414     -167.925007
9.372                0.790257555     -168.260009
9.373                0.790087578     -168.595257
9.374                0.789920497     -168.930748
9.375                0.789756324     -169.266474
9.376                0.789595071     -169.602432
9.377                0.789436751     -169.938614
9.378                0.789281377     -170.275016
9.379                0.789128959     -170.611631
9.38                 0.788979511     -170.948455
9.381                0.788833042     -171.285481
9.382                0.788689564     -171.622704
9.383                0.788549088     -171.960117
9.384                0.788411625     -172.297716
9.385                0.788277184     -172.635494
9.386                0.788145777     -172.973446
9.387                0.788017412     -173.311565
9.388                0.787892099     -173.649847
9.389                0.787769848     -173.988284
9.39                 0.787650667     -174.326871
9.391                0.787534565     -174.665603
9.392                0.787421551     -175.004473
9.393                0.787311633     -175.343475
9.394                0.787204818     -175.682603
9.395                0.787101114     -176.021852
9.396                 0.78700053     -176.361216
