! TOUCHSTONE file generated by CST DESIGN STUDIO
! Date and time: Tue Feb  4 14:32:44 2025
! Project name: C:\Work\MatlabApps\UnitCellOptimizationMatlab\CST\unitcell.cst
! Tree item: Tasks\Sweep1\SPara1\S-Parameters
! Header version: 2024
! Port assignment regex: !\s*Touchstone port\s*([0-9]+)\s*=\s*(CST MWS port|CST DES external port|CST DES block port)\s*(.+)\s* \(\"(.*)\"\)(\s*mode\s*([0-9]+))?.*
! Touchstone port assignment:
! Touchstone port 1 = CST DES external port 1 ("")
# GHz S MA R 50
9                    0.940506943     -60.8213962
9.001                0.940369607     -60.9076295
9.002                0.940231809      -60.994073
9.003                0.940093547     -61.0807276
9.004                0.939954821     -61.1675938
9.005                0.939815627     -61.2546724
9.006                0.939675966     -61.3419642
9.007                0.939535834     -61.4294697
9.008                 0.93939523     -61.5171898
9.009                0.939254153     -61.6051251
9.01                   0.9391126     -61.6932764
9.011                0.938970571     -61.7816443
9.012                0.938828064     -61.8702297
9.013                0.938685076     -61.9590331
9.014                0.938541607     -62.0480555
9.015                0.938397654     -62.1372974
9.016                0.938253216     -62.2267596
9.017                0.938108291     -62.3164429
9.018                0.937962878      -62.406348
9.019                0.937816974     -62.4964756
9.02                 0.937670579     -62.5868265
9.021                0.937523689     -62.6774014
9.022                0.937376304     -62.7682011
9.023                0.937228423     -62.8592264
9.024                0.937080042     -62.9504779
9.025                0.936931161     -63.0419565
9.026                0.936781777     -63.1336629
9.027                 0.93663189     -63.2255978
9.028                0.936481496     -63.3177621
9.029                0.936330596     -63.4101565
9.03                 0.936179186     -63.5027818
9.031                0.936027264     -63.5956387
9.032                0.935874831     -63.6887281
9.033                0.935721882     -63.7820506
9.034                0.935568417     -63.8756072
9.035                0.935414435     -63.9693986
9.036                0.935259932     -64.0634255
9.037                0.935104908     -64.1576888
9.038                 0.93494936     -64.2521893
9.039                0.934793287     -64.3469278
9.04                 0.934636687      -64.441905
9.041                0.934479559     -64.5371217
9.042                  0.9343219     -64.6325789
9.043                0.934163708     -64.7282772
9.044                0.934004983     -64.8242176
9.045                0.933845721     -64.9204007
9.046                0.933685922     -65.0168275
9.047                0.933525583     -65.1134988
9.048                0.933364702     -65.2104153
9.049                0.933203279      -65.307578
9.05                  0.93304131     -65.4049875
9.051                0.932878794     -65.5026449
9.052                 0.93271573     -65.6005509
9.053                0.932552115     -65.6987063
9.054                0.932387948      -65.797112
9.055                0.932223227     -65.8957689
9.056                 0.93205795     -65.9946778
9.057                0.931892114     -66.0938395
9.058                0.931725719     -66.1932549
9.059                0.931558762     -66.2929249
9.06                 0.931391242     -66.3928503
9.061                0.931223157      -66.493032
9.062                0.931054504     -66.5934708
9.063                0.930885282     -66.6941677
9.064                 0.93071549     -66.7951234
9.065                0.930545124     -66.8963389
9.066                0.930374184     -66.9978151
9.067                0.930202668     -67.0995529
9.068                0.930030573      -67.201553
9.069                0.929857898     -67.3038165
9.07                  0.92968464     -67.4063442
9.071                0.929510799      -67.509137
9.072                0.929336371     -67.6121958
9.073                0.929161356     -67.7155215
9.074                0.928985751      -67.819115
9.075                0.928809554     -67.9229772
9.076                0.928632764     -68.0271091
9.077                0.928455379     -68.1315115
9.078                0.928277396     -68.2361854
9.079                0.928098814     -68.3411317
9.08                 0.927919631     -68.4463512
9.081                0.927739845     -68.5518451
9.082                0.927559454     -68.6576141
9.083                0.927378456     -68.7636592
9.084                0.927196849     -68.8699813
9.085                0.927014632     -68.9765815
9.086                0.926831802     -69.0834605
9.087                0.926648358     -69.1906195
9.088                0.926464298     -69.2980592
9.089                0.926279619     -69.4057808
9.09                  0.92609432     -69.5137851
9.091                0.925908398     -69.6220731
9.092                0.925721853     -69.7306458
9.093                0.925534682     -69.8395041
9.094                0.925346883      -69.948649
9.095                0.925158454     -70.0580814
9.096                0.924969393     -70.1678025
9.097                0.924779699      -70.277813
9.098                0.924589369     -70.3881141
9.099                0.924398402     -70.4987067
9.1                  0.924206795     -70.6095918
9.101                0.924014547     -70.7207704
9.102                0.923821656     -70.8322434
9.103                0.923628119      -70.944012
9.104                0.923433936      -71.056077
9.105                0.923239103     -71.1684396
9.106                 0.92304362     -71.2811006
9.107                0.922847484     -71.3940612
9.108                0.922650693     -71.5073223
9.109                0.922453245      -71.620885
9.11                 0.922255139     -71.7347502
9.111                0.922056372     -71.8489191
9.112                0.921856943     -71.9633926
9.113                0.921656849     -72.0781718
9.114                 0.92145609     -72.1932577
9.115                0.921254662     -72.3086514
9.116                0.921052564     -72.4243539
9.117                0.920849794     -72.5403662
9.118                 0.92064635     -72.6566894
9.119                0.920442231     -72.7733246
9.12                 0.920237434     -72.8902728
9.121                0.920031957      -73.007535
9.122                0.919825799     -73.1251124
9.123                0.919618957      -73.243006
9.124                0.919411431     -73.3612169
9.125                0.919203217     -73.4797461
9.126                0.918994314     -73.5985948
9.127                0.918784721     -73.7177639
9.128                0.918574434     -73.8372547
9.129                0.918363453     -73.9570681
9.13                 0.918151776     -74.0772054
9.131                  0.9179394     -74.1976675
9.132                0.917726324     -74.3184556
9.133                0.917512546     -74.4395707
9.134                0.917298064      -74.561014
9.135                0.917082876     -74.6827866
9.136                0.916866981     -74.8048897
9.137                0.916650376     -74.9273242
9.138                 0.91643306     -75.0500914
9.139                0.916215031     -75.1731923
9.14                 0.915996287     -75.2966281
9.141                0.915776827     -75.4203999
9.142                0.915556647     -75.5445089
9.143                0.915335748     -75.6689561
9.144                0.915114126     -75.7937428
9.145                 0.91489178       -75.91887
9.146                0.914668709      -76.044339
9.147                 0.91444491     -76.1701508
9.148                0.914220382     -76.2963066
9.149                0.913995123     -76.4228076
9.15                 0.913769131     -76.5496549
9.151                0.913542404     -76.6768497
9.152                0.913314941     -76.8043931
9.153                 0.91308674     -76.9322864
9.154                  0.9128578     -77.0605307
9.155                0.912628118     -77.1891271
9.156                0.912397693     -77.3180769
9.157                0.912166523     -77.4473813
9.158                0.911934606     -77.5770414
9.159                0.911701941     -77.7070583
9.16                 0.911468526     -77.8374334
9.161                 0.91123436     -77.9681678
9.162                 0.91099944     -78.0992627
9.163                0.910763766     -78.2307193
9.164                0.910527335     -78.3625388
9.165                0.910290146     -78.4947224
9.166                0.910052197     -78.6272714
9.167                0.909813486     -78.7601869
9.168                0.909574013     -78.8934702
9.169                0.909333775     -79.0271224
9.17                 0.909092772     -79.1611449
9.171                   0.908851     -79.2955388
9.172                 0.90860846     -79.4303054
9.173                0.908365148     -79.5654458
9.174                0.908121065     -79.7009615
9.175                0.907876208     -79.8368535
9.176                0.907630575     -79.9731231
9.177                0.907384166     -80.1097716
9.178                0.907136979     -80.2468003
9.179                0.906889012     -80.3842103
9.18                 0.906640264      -80.522003
9.181                0.906390734     -80.6601795
9.182                0.906140419     -80.7987412
9.183                 0.90588932     -80.9376894
9.184                0.905637434     -81.0770252
9.185                 0.90538476       -81.21675
9.186                0.905131297      -81.356865
9.187                0.904877043     -81.4973715
9.188                0.904621997     -81.6382709
9.189                0.904366158     -81.7795643
9.19                 0.904109524      -81.921253
9.191                0.903852095     -82.0633385
9.192                0.903593869     -82.2058218
9.193                0.903334844     -82.3487045
9.194                 0.90307502     -82.4919876
9.195                0.902814396     -82.6356726
9.196                 0.90255297     -82.7797607
9.197                0.902290741     -82.9242533
9.198                0.902027708     -83.0691516
9.199                 0.90176387      -83.214457
9.2                  0.901499226     -83.3601707
9.201                0.901233774     -83.5062942
9.202                0.900967515     -83.6528286
9.203                0.900700446     -83.7997754
9.204                0.900432567     -83.9471359
9.205                0.900163877     -84.0949113
9.206                0.899894374     -84.2431031
9.207                0.899624059     -84.3917125
9.208                 0.89935293     -84.5407409
9.209                0.899080985     -84.6901895
9.21                 0.898808226     -84.8400599
9.211                0.898534649     -84.9903532
9.212                0.898260256     -85.1410709
9.213                0.897985044     -85.2922143
9.214                0.897709014     -85.4437847
9.215                0.897432164     -85.5957835
9.216                0.897154494      -85.748212
9.217                0.896876003     -85.9010716
9.218                0.896596691     -86.0543636
9.219                0.896316556     -86.2080895
9.22                 0.896035599     -86.3622505
9.221                0.895753819     -86.5168481
9.222                0.895471215     -86.6718835
9.223                0.895187787     -86.8273582
9.224                0.894903534     -86.9832736
9.225                0.894618456     -87.1396309
9.226                0.894332553     -87.2964316
9.227                0.894045824     -87.4536771
9.228                0.893758269     -87.6113686
9.229                0.893469887     -87.7695077
9.23                 0.893180679     -87.9280957
9.231                0.892890644     -88.0871339
9.232                0.892599782     -88.2466237
9.233                0.892308092     -88.4065666
9.234                0.892015575     -88.5669639
9.235                0.891722231      -88.727817
9.236                0.891428059     -88.8891272
9.237                 0.89113306     -89.0508961
9.238                0.890837233     -89.2131249
9.239                0.890540579      -89.375815
9.24                 0.890243097     -89.5389679
9.241                0.889944788     -89.7025849
9.242                0.889645653     -89.8666675
9.243                 0.88934569      -90.031217
9.244                0.889044901     -90.1962349
9.245                0.888743286     -90.3617224
9.246                0.888440845     -90.5276811
9.247                0.888137579     -90.6941123
9.248                0.887833487     -90.8610175
9.249                0.887528571     -91.0283979
9.25                 0.887222831     -91.1962551
9.251                0.886916268     -91.3645904
9.252                0.886608882     -91.5334053
9.253                0.886300673     -91.7027011
9.254                0.885991643     -91.8724792
9.255                0.885681792      -92.042741
9.256                0.885371122      -92.213488
9.257                0.885059632     -92.3847215
9.258                0.884747324      -92.556443
9.259                0.884434199     -92.7286538
9.26                 0.884120257     -92.9013554
9.261                  0.8838055     -93.0745492
9.262                0.883489929     -93.2482365
9.263                0.883173545     -93.4224187
9.264                0.882856349     -93.5970973
9.265                0.882538343     -93.7722737
9.266                0.882219527     -93.9479493
9.267                0.881899904     -94.1241254
9.268                0.881579474     -94.3008035
9.269                0.881258238      -94.477985
9.27                   0.8809362     -94.6556712
9.271                0.880613359     -94.8338635
9.272                0.880289718     -95.0125635
9.273                0.879965279     -95.1917724
9.274                0.879640042     -95.3714916
9.275                0.879314011     -95.5517225
9.276                0.878987186     -95.7324666
9.277                0.878659571     -95.9137252
9.278                0.878331165     -96.0954997
9.279                0.878001973     -96.2777915
9.28                 0.877671996      -96.460602
9.281                0.877341235     -96.6439325
9.282                0.877009694     -96.8277845
9.283                0.876677375     -97.0121593
9.284                 0.87634428     -97.1970583
9.285                0.876010411     -97.3824828
9.286                0.875675771     -97.5684343
9.287                0.875340362     -97.7549141
9.288                0.875004188     -97.9419235
9.289                0.874667251      -98.129464
9.29                 0.874329553     -98.3175369
9.291                0.873991098     -98.5061435
9.292                0.873651888     -98.6952853
9.293                0.873311926     -98.8849635
9.294                0.872971216     -99.0751795
9.295                0.872629761     -99.2659347
9.296                0.872287563     -99.4572304
9.297                0.871944627     -99.6490679
9.298                0.871600955     -99.8414486
9.299                 0.87125655     -100.034374
9.3                  0.870911417     -100.227845
9.301                0.870565559     -100.421863
9.302                 0.87021898      -100.61643
9.303                0.869871683     -100.811546
9.304                0.869523672     -101.007213
9.305                0.869174951     -101.203433
9.306                0.868825524     -101.400207
9.307                0.868475395     -101.597535
9.308                0.868124569      -101.79542
9.309                0.867773049     -101.993863
9.31                  0.86742084     -102.192864
9.311                0.867067946     -102.392425
9.312                0.866714371     -102.592548
9.313                0.866360121     -102.793234
9.314                0.866005199     -102.994483
9.315                0.865649612     -103.196298
9.316                0.865293362     -103.398678
9.317                0.864936456     -103.601627
9.318                0.864578898     -103.805144
9.319                0.864220694     -104.009232
9.32                 0.863861848     -104.213891
9.321                0.863502366     -104.419122
9.322                0.863142253     -104.624928
9.323                0.862781515     -104.831308
9.324                0.862420157     -105.038264
9.325                0.862058184     -105.245797
9.326                0.861695604     -105.453909
9.327                0.861332421     -105.662601
9.328                0.860968641     -105.871874
9.329                 0.86060427     -106.081728
9.33                 0.860239315     -106.292166
9.331                0.859873782     -106.503188
9.332                0.859507677     -106.714795
9.333                0.859141006     -106.926989
9.334                0.858773776      -107.13977
9.335                0.858405993      -107.35314
9.336                0.858037665       -107.5671
9.337                0.857668798      -107.78165
9.338                0.857299399     -107.996793
9.339                0.856929475     -108.212529
9.34                 0.856559034     -108.428858
9.341                0.856188081     -108.645783
9.342                0.855816625     -108.863304
9.343                0.855444674     -109.081422
9.344                0.855072234     -109.300138
9.345                0.854699314     -109.519453
9.346                0.854325921     -109.739369
9.347                0.853952063     -109.959885
9.348                0.853577748     -110.181004
9.349                0.853202984     -110.402725
9.35                 0.852827779     -110.625051
9.351                0.852452142     -110.847981
9.352                0.852076081     -111.071517
9.353                0.851699604      -111.29566
9.354                0.851322721     -111.520411
9.355                 0.85094544      -111.74577
9.356                0.850567769     -111.971738
9.357                0.850189719     -112.198317
9.358                0.849811297     -112.425506
9.359                0.849432514     -112.653307
9.36                 0.849053378     -112.881721
9.361                0.848673899     -113.110748
9.362                0.848294086      -113.34039
9.363                 0.84791395     -113.570646
9.364                0.847533499     -113.801519
9.365                0.847152745     -114.033007
9.366                0.846771696     -114.265113
9.367                0.846390363     -114.497837
9.368                0.846008757     -114.731179
9.369                0.845626887      -114.96514
9.37                 0.845244764     -115.199721
9.371                0.844862399     -115.434923
9.372                0.844479803     -115.670746
9.373                0.844096986      -115.90719
9.374                 0.84371396     -116.144257
9.375                0.843330735     -116.381947
9.376                0.842947323      -116.62026
9.377                0.842563734     -116.859197
9.378                0.842179982     -117.098759
9.379                0.841796076     -117.338946
9.38                 0.841412029     -117.579758
9.381                0.841027853     -117.821195
9.382                0.840643559      -118.06326
9.383                 0.84025916     -118.305951
9.384                0.839874668     -118.549269
9.385                0.839490095     -118.793214
9.386                0.839105454     -119.037788
9.387                0.838720757     -119.282989
9.388                0.838336016      -119.52882
9.389                0.837951246     -119.775279
9.39                 0.837566458     -120.022367
9.391                0.837181665     -120.270084
9.392                0.836796882     -120.518431
9.393                 0.83641212     -120.767408
9.394                0.836027394     -121.017015
9.395                0.835642717     -121.267252
9.396                0.835258103     -121.518119
