! TOUCHSTONE file generated by CST DESIGN STUDIO
! Date and time: Tue Feb  4 14:32:38 2025
! Project name: C:\Work\MatlabApps\UnitCellOptimizationMatlab\CST\unitcell.cst
! Tree item: Tasks\Sweep1\SPara1\S-Parameters
! Header version: 2024
! Port assignment regex: !\s*Touchstone port\s*([0-9]+)\s*=\s*(CST MWS port|CST DES external port|CST DES block port)\s*(.+)\s* \(\"(.*)\"\)(\s*mode\s*([0-9]+))?.*
! Touchstone port assignment:
! Touchstone port 1 = CST DES external port 1 ("")
# GHz S MA R 50
9                    0.900899525     -88.1388319
9.001                0.900609828     -88.2992608
9.002                0.900319282     -88.4601555
9.003                0.900027887     -88.6215175
9.004                0.899735643     -88.7833483
9.005                0.899442548     -88.9456492
9.006                0.899148603      -89.108422
9.007                0.898853807     -89.2716679
9.008                 0.89855816     -89.4353884
9.009                0.898261661     -89.5995852
9.01                 0.897964309     -89.7642595
9.011                0.897666106      -89.929413
9.012                 0.89736705     -90.0950471
9.013                0.897067141     -90.2611633
9.014                0.896766379      -90.427763
9.015                0.896464765     -90.5948479
9.016                0.896162297     -90.7624193
9.017                0.895858976     -90.9304787
9.018                0.895554801     -91.0990277
9.019                0.895249774     -91.2680677
9.02                 0.894943894     -91.4376002
9.021                 0.89463716     -91.6076268
9.022                0.894329574     -91.7781489
9.023                0.894021136      -91.949168
9.024                0.893711845     -92.1206856
9.025                0.893401703     -92.2927032
9.026                0.893090708     -92.4652224
9.027                0.892778863     -92.6382445
9.028                0.892466167     -92.8117711
9.029                0.892152621     -92.9858038
9.03                 0.891838225     -93.1603439
9.031                 0.89152298      -93.335393
9.032                0.891206887     -93.5109527
9.033                0.890889946     -93.6870243
9.034                0.890572159     -93.8636094
9.035                0.890253525     -94.0407096
9.036                0.889934046     -94.2183262
9.037                0.889613722     -94.3964608
9.038                0.889292556     -94.5751148
9.039                0.888970547     -94.7542899
9.04                 0.888647696     -94.9339874
9.041                0.888324006     -95.1142089
9.042                0.887999477     -95.2949559
9.043                 0.88767411     -95.4762298
9.044                0.887347907     -95.6580322
9.045                0.887020868     -95.8403645
9.046                0.886692997     -96.0232283
9.047                0.886364293     -96.2066249
9.048                0.886034759      -96.390556
9.049                0.885704396     -96.5750229
9.05                 0.885373206     -96.7600273
9.051                 0.88504119     -96.9455705
9.052                0.884708351      -97.131654
9.053                 0.88437469     -97.3182793
9.054                 0.88404021     -97.5054479
9.055                0.883704911     -97.6931613
9.056                0.883368797     -97.8814209
9.057                0.883031869     -98.0702282
9.058                 0.88269413     -98.2595847
9.059                0.882355582     -98.4494918
9.06                 0.882016228      -98.639951
9.061                0.881676069     -98.8309638
9.062                0.881335108     -99.0225316
9.063                0.880993348     -99.2146558
9.064                0.880650791      -99.407338
9.065                0.880307441     -99.6005794
9.066                0.879963299     -99.7943817
9.067                0.879618369     -99.9887463
9.068                0.879272654     -100.183674
9.069                0.878926157     -100.379168
9.07                 0.878578881     -100.575228
9.071                0.878230828     -100.771855
9.072                0.877882003     -100.969053
9.073                0.877532409      -101.16682
9.074                0.877182049     -101.365161
9.075                0.876830926     -101.564074
9.076                0.876479045     -101.763563
9.077                0.876126408     -101.963628
9.078                 0.87577302     -102.164271
9.079                0.875418884     -102.365493
9.08                 0.875064005     -102.567296
9.081                0.874708386      -102.76968
9.082                0.874352031     -102.972648
9.083                0.873994945     -103.176201
9.084                0.873637132     -103.380339
9.085                0.873278597     -103.585065
9.086                0.872919343     -103.790379
9.087                0.872559375     -103.996284
9.088                0.872198698      -104.20278
9.089                0.871837318     -104.409869
9.09                 0.871475237     -104.617551
9.091                0.871112462     -104.825829
9.092                0.870748998     -105.034704
9.093                0.870384849     -105.244177
9.094                 0.87002002     -105.454248
9.095                0.869654518     -105.664921
9.096                0.869288348     -105.876195
9.097                0.868921514     -106.088072
9.098                0.868554024     -106.300553
9.099                0.868185881      -106.51364
9.1                  0.867817093     -106.727333
9.101                0.867447665     -106.941635
9.102                0.867077603     -107.156546
9.103                0.866706913     -107.372067
9.104                0.866335601       -107.5882
9.105                0.865963675     -107.804946
9.106                0.865591139     -108.022305
9.107                0.865218002      -108.24028
9.108                0.864844269     -108.458871
9.109                0.864469947      -108.67808
9.11                 0.864095043     -108.897907
9.111                0.863719565     -109.118354
9.112                0.863343518     -109.339422
9.113                0.862966911     -109.561112
9.114                0.862589751     -109.783425
9.115                0.862212045     -110.006362
9.116                  0.8618338     -110.229924
9.117                0.861455025     -110.454113
9.118                0.861075728     -110.678929
9.119                0.860695915     -110.904373
9.12                 0.860315595     -111.130446
9.121                0.859934776      -111.35715
9.122                0.859553467     -111.584486
9.123                0.859171676     -111.812454
9.124                0.858789411     -112.041055
9.125                0.858406681      -112.27029
9.126                0.858023494     -112.500161
9.127                 0.85763986     -112.730668
9.128                0.857255788     -112.961812
9.129                0.856871286     -113.193594
9.13                 0.856486363     -113.426014
9.131                 0.85610103     -113.659075
9.132                0.855715296     -113.892776
9.133                0.855329169     -114.127118
9.134                 0.85494266     -114.362103
9.135                0.854555779     -114.597731
9.136                0.854168536     -114.834002
9.137                 0.85378094     -115.070918
9.138                0.853393003      -115.30848
9.139                0.853004733     -115.546687
9.14                 0.852616143     -115.785541
9.141                0.852227241     -116.025043
9.142                 0.85183804     -116.265193
9.143                 0.85144855     -116.505992
9.144                0.851058781      -116.74744
9.145                0.850668746     -116.989538
9.146                0.850278455     -117.232287
9.147                 0.84988792     -117.475687
9.148                0.849497152     -117.719739
9.149                0.849106162     -117.964444
9.15                 0.848714964     -118.209801
9.151                0.848323567     -118.455812
9.152                0.847931986     -118.702477
9.153                0.847540231     -118.949796
9.154                0.847148315      -119.19777
9.155                 0.84675625     -119.446399
9.156                0.846364049     -119.695684
9.157                0.845971725     -119.945625
9.158                0.845579291     -120.196222
9.159                0.845186759     -120.447476
9.16                 0.844794143     -120.699387
9.161                0.844401455     -120.951956
9.162                 0.84400871     -121.205181
9.163                 0.84361592     -121.459065
9.164                  0.8432231     -121.713607
9.165                0.842830263     -121.968807
9.166                0.842437422     -122.224665
9.167                0.842044593     -122.481182
9.168                0.841651789     -122.738358
9.169                0.841259024     -122.996192
9.17                 0.840866313     -123.254685
9.171                0.840473671     -123.513837
9.172                0.840081111     -123.773648
9.173                 0.83968865     -124.034117
9.174                0.839296302     -124.295246
9.175                0.838904081     -124.557033
9.176                0.838512004     -124.819479
9.177                0.838120085     -125.082583
9.178                0.837728341     -125.346345
9.179                0.837336786     -125.610766
9.18                 0.836945436     -125.875845
9.181                0.836554308     -126.141581
9.182                0.836163417     -126.407975
9.183                0.835772779     -126.675026
9.184                0.835382411     -126.942734
9.185                0.834992329     -127.211099
9.186                 0.83460255     -127.480119
9.187                0.834213089     -127.749796
9.188                0.833823965     -128.020127
9.189                0.833435193     -128.291113
9.19                 0.833046791     -128.562753
9.191                0.832658776     -128.835048
9.192                0.832271165     -129.107995
9.193                0.831883976     -129.381594
9.194                0.831497226     -129.655846
9.195                0.831110932     -129.930749
9.196                0.830725112     -130.206302
9.197                0.830339785     -130.482505
9.198                0.829954967     -130.759357
9.199                0.829570678     -131.036857
9.2                  0.829186935     -131.315005
9.201                0.828803757     -131.593798
9.202                0.828421162     -131.873238
9.203                0.828039168     -132.153322
9.204                0.827657794     -132.434049
9.205                 0.82727706     -132.715419
9.206                0.826896983     -132.997431
9.207                0.826517583     -133.280083
9.208                0.826138878     -133.563375
9.209                0.825760888     -133.847304
9.21                 0.825383632      -134.13187
9.211                 0.82500713     -134.417073
9.212                  0.8246314     -134.702909
9.213                0.824256463     -134.989379
9.214                0.823882338      -135.27648
9.215                0.823509045     -135.564212
9.216                0.823136603     -135.852573
9.217                0.822765032     -136.141561
9.218                0.822394353     -136.431175
9.219                0.822024585     -136.721414
9.22                 0.821655749     -137.012275
9.221                0.821287865     -137.303757
9.222                0.820920953      -137.59586
9.223                0.820555033     -137.888579
9.224                0.820190126     -138.181915
9.225                0.819826253     -138.475866
9.226                0.819463434     -138.770428
9.227                0.819101689     -139.065602
9.228                 0.81874104     -139.361384
9.229                0.818381507     -139.657773
9.23                 0.818023112     -139.954766
9.231                0.817665874     -140.252363
9.232                0.817309816     -140.550559
9.233                0.816954957     -140.849355
9.234                 0.81660132     -141.148747
9.235                0.816248924     -141.448733
9.236                0.815897793     -141.749311
9.237                0.815547945     -142.050478
9.238                0.815199404     -142.352233
9.239                 0.81485219     -142.654573
9.24                 0.814506324     -142.957495
9.241                0.814161828     -143.260997
9.242                0.813818724     -143.565077
9.243                0.813477032     -143.869732
9.244                0.813136774      -144.17496
9.245                0.812797972     -144.480757
9.246                0.812460647     -144.787121
9.247                 0.81212482      -145.09405
9.248                0.811790514      -145.40154
9.249                0.811457749     -145.709589
9.25                 0.811126547     -146.018194
9.251                 0.81079693     -146.327352
9.252                0.810468919     -146.637061
9.253                0.810142536     -146.947316
9.254                0.809817802     -147.258116
9.255                0.809494739     -147.569456
9.256                0.809173369     -147.881335
9.257                0.808853712     -148.193748
9.258                 0.80853579     -148.506693
9.259                0.808219626     -148.820167
9.26                 0.807905239     -149.134165
9.261                0.807592652     -149.448685
9.262                0.807281886     -149.763723
9.263                0.806972962     -150.079276
9.264                0.806665902     -150.395341
9.265                0.806360726     -150.711913
9.266                0.806057457      -151.02899
9.267                0.805756115     -151.346567
9.268                0.805456721     -151.664642
9.269                0.805159297      -151.98321
9.27                 0.804863862     -152.302267
9.271                0.804570439     -152.621811
9.272                0.804279049     -152.941836
9.273                0.803989711      -153.26234
9.274                0.803702447     -153.583317
9.275                0.803417277     -153.904766
9.276                0.803134222      -154.22668
9.277                0.802853302     -154.549057
9.278                0.802574538     -154.871892
9.279                0.802297951      -155.19518
9.28                 0.802023559     -155.518919
9.281                0.801751384     -155.843104
9.282                0.801481444      -156.16773
9.283                0.801213762     -156.492793
9.284                0.800948355     -156.818288
9.285                0.800685244     -157.144213
9.286                0.800424448     -157.470561
9.287                0.800165986     -157.797328
9.288                0.799909879     -158.124511
9.289                0.799656145     -158.452104
9.29                 0.799404803     -158.780103
9.291                0.799155872     -159.108503
9.292                0.798909371       -159.4373
9.293                0.798665318     -159.766489
9.294                0.798423733     -160.096065
9.295                0.798184632     -160.426023
9.296                0.797948035     -160.756359
9.297                 0.79771396     -161.087067
9.298                0.797482424     -161.418144
9.299                0.797253445     -161.749583
9.3                   0.79702704      -162.08138
9.301                0.796803227     -162.413529
9.302                0.796582024     -162.746027
9.303                0.796363446     -163.078867
9.304                0.796147512     -163.412045
9.305                0.795934237     -163.745556
9.306                0.795723637     -164.079393
9.307                0.795515731     -164.413553
9.308                0.795310532      -164.74803
9.309                0.795108057     -165.082818
9.31                 0.794908323     -165.417912
9.311                0.794711343     -165.753307
9.312                0.794517134     -166.088997
9.313                 0.79432571     -166.424978
9.314                0.794137087     -166.761243
9.315                0.793951278     -167.097787
9.316                0.793768299     -167.434605
9.317                0.793588163     -167.771691
9.318                0.793410884     -168.109039
9.319                0.793236477     -168.446644
9.32                 0.793064954       -168.7845
9.321                0.792896328     -169.122602
9.322                0.792730613     -169.460943
9.323                0.792567821     -169.799519
9.324                0.792407966     -170.138323
9.325                0.792251058      -170.47735
9.326                 0.79209711     -170.816594
9.327                0.791946135     -171.156049
9.328                0.791798142     -171.495709
9.329                0.791653144     -171.835568
9.33                 0.791511152     -172.175621
9.331                0.791372175     -172.515862
9.332                0.791236226     -172.856284
9.333                0.791103313     -173.196882
9.334                0.790973447      -173.53765
9.335                0.790846637     -173.878581
9.336                0.790722893      -174.21967
9.337                0.790602223     -174.560911
9.338                0.790484637     -174.902298
9.339                0.790370143     -175.243824
9.34                  0.79025875     -175.585484
9.341                0.790150465     -175.927271
9.342                0.790045296      -176.26918
9.343                 0.78994325     -176.611204
9.344                0.789844334     -176.953337
9.345                0.789748556     -177.295573
9.346                0.789655922     -177.637905
9.347                0.789566437     -177.980329
9.348                0.789480109     -178.322837
9.349                0.789396942     -178.665423
9.35                 0.789316942     -179.008082
9.351                0.789240113     -179.350806
9.352                0.789166462      -179.69359
9.353                0.789095991      179.963573
9.354                0.789028706      179.620688
9.355                 0.78896461      179.277762
9.356                0.788903707      178.934802
9.357                0.788845999      178.591813
9.358                 0.78879149      178.248802
9.359                0.788740183      177.905774
9.36                 0.788692079      177.562737
9.361                0.788647181      177.219697
9.362                0.788605491      176.876659
9.363                 0.78856701       176.53363
9.364                0.788531738      176.190617
9.365                0.788499677      175.847625
9.366                0.788470828       175.50466
9.367                 0.78844519       175.16173
9.368                0.788422764       174.81884
9.369                0.788403548      174.475996
9.37                 0.788387543      174.133205
9.371                0.788374747      173.790474
9.372                0.788365158      173.447807
9.373                0.788358776      173.105211
9.374                0.788355598      172.762693
9.375                0.788355622      172.420259
9.376                0.788358846      172.077915
9.377                0.788365266      171.735667
9.378                 0.78837488      171.393522
9.379                0.788387684      171.051485
9.38                 0.788403674      170.709562
9.381                0.788422847       170.36776
9.382                0.788445197      170.026085
9.383                0.788470721      169.684543
9.384                0.788499413       169.34314
9.385                0.788531268      169.001883
9.386                0.788566281      168.660776
9.387                0.788604445      168.319827
9.388                0.788645756      167.979041
9.389                0.788690206      167.638424
9.39                 0.788737788      167.297982
9.391                0.788788497      166.957722
9.392                0.788842324      166.617649
9.393                0.788899262      166.277769
9.394                0.788959304      165.938088
9.395                 0.78902244      165.598611
9.396                0.789088664      165.259346
