! TOUCHSTONE file generated by CST DESIGN STUDIO
! Date and time: Tue Feb  4 15:59:50 2025
! Project name: C:\Work\MatlabApps\UnitCellOptimizationMatlab\CST\unitcell.cst
! Tree item: Tasks\Sweep1\SPara1\S-Parameters
! Header version: 2024
! Port assignment regex: !\s*Touchstone port\s*([0-9]+)\s*=\s*(CST MWS port|CST DES external port|CST DES block port)\s*(.+)\s* \(\"(.*)\"\)(\s*mode\s*([0-9]+))?.*
! Touchstone port assignment:
! Touchstone port 1 = CST DES external port 1 ("")
# GHz S MA R 50
9                    0.978516647     -65.2085665
9.001                0.978468798     -65.3019741
9.002                0.978420798      -65.395605
9.003                0.978372646     -65.4894598
9.004                0.978324341     -65.5835392
9.005                0.978275883     -65.6778441
9.006                0.978227272     -65.7723751
9.007                0.978178507     -65.8671328
9.008                0.978129589     -65.9621181
9.009                0.978080515     -66.0573316
9.01                 0.978031287     -66.1527741
9.011                0.977981903     -66.2484462
9.012                0.977932363     -66.3443488
9.013                0.977882666     -66.4404825
9.014                0.977832813     -66.5368481
9.015                0.977782802     -66.6334463
9.016                0.977732634     -66.7302778
9.017                0.977682307     -66.8273434
9.018                0.977631822     -66.9246439
9.019                0.977581177     -67.0221799
9.02                 0.977530373     -67.1199522
9.021                0.977479409     -67.2179616
9.022                0.977428284     -67.3162087
9.023                0.977376999     -67.4146945
9.024                0.977325552     -67.5134195
9.025                0.977273943     -67.6123847
9.026                0.977222171     -67.7115906
9.027                0.977170237     -67.8110382
9.028                 0.97711814     -67.9107281
9.029                0.977065879     -68.0106612
9.03                 0.977013454     -68.1108381
9.031                0.976960864     -68.2112598
9.032                0.976908109     -68.3119268
9.033                0.976855189     -68.4128401
9.034                0.976802102     -68.5140004
9.035                0.976748849     -68.6154085
9.036                 0.97669543     -68.7170651
9.037                0.976641842     -68.8189711
9.038                0.976588087     -68.9211272
9.039                0.976534164     -69.0235343
9.04                 0.976480072     -69.1261931
9.041                0.976425811     -69.2291044
9.042                 0.97637138      -69.332269
9.043                0.976316778     -69.4356878
9.044                0.976262007     -69.5393615
9.045                0.976207064     -69.6432909
9.046                0.976151949     -69.7474768
9.047                0.976096663     -69.8519201
9.048                0.976041204     -69.9566216
9.049                0.975985572     -70.0615821
9.05                 0.975929767     -70.1668024
9.051                0.975873788     -70.2722833
9.052                0.975817635     -70.3780256
9.053                0.975761307     -70.4840302
9.054                0.975704804     -70.5902979
9.055                0.975648125     -70.6968295
9.056                 0.97559127      -70.803626
9.057                0.975534239      -70.910688
9.058                 0.97547703     -71.0180164
9.059                0.975419644     -71.1256121
9.06                  0.97536208      -71.233476
9.061                0.975304337     -71.3416088
9.062                0.975246416     -71.4500114
9.063                0.975188315     -71.5586847
9.064                0.975130035     -71.6676295
9.065                0.975071574     -71.7768467
9.066                0.975012933     -71.8863372
9.067                 0.97495411     -71.9961017
9.068                0.974895106     -72.1061412
9.069                 0.97483592     -72.2164565
9.07                 0.974776551     -72.3270485
9.071                0.974716999      -72.437918
9.072                0.974657264      -72.549066
9.073                0.974597345     -72.6604933
9.074                0.974537241     -72.7722008
9.075                0.974476953     -72.8841894
9.076                 0.97441648     -72.9964599
9.077                0.974355821     -73.1090132
9.078                0.974294976     -73.2218503
9.079                0.974233944      -73.334972
9.08                 0.974172725     -73.4483792
9.081                0.974111319     -73.5620728
9.082                0.974049725     -73.6760537
9.083                0.973987942     -73.7903228
9.084                0.973925971      -73.904881
9.085                0.973863811     -74.0197292
9.086                0.973801461     -74.1348683
9.087                0.973738921     -74.2502992
9.088                 0.97367619     -74.3660229
9.089                0.973613269     -74.4820402
9.09                 0.973550156     -74.5983521
9.091                0.973486851     -74.7149595
9.092                0.973423354     -74.8318633
9.093                0.973359664     -74.9490644
9.094                0.973295781     -75.0665638
9.095                0.973231705     -75.1843624
9.096                0.973167435     -75.3024611
9.097                 0.97310297     -75.4208609
9.098                 0.97303831     -75.5395626
9.099                0.972973456     -75.6585673
9.1                  0.972908405     -75.7778758
9.101                0.972843159     -75.8974892
9.102                0.972777716     -76.0174083
9.103                0.972712077     -76.1376341
9.104                 0.97264624     -76.2581676
9.105                0.972580205     -76.3790097
9.106                0.972513972     -76.5001614
9.107                0.972447541     -76.6216236
9.108                0.972380911     -76.7433972
9.109                0.972314082     -76.8654834
9.11                 0.972247052     -76.9878829
9.111                0.972179823     -77.1105968
9.112                0.972112394     -77.2336261
9.113                0.972044763     -77.3569716
9.114                0.971976931     -77.4806345
9.115                0.971908898     -77.6046156
9.116                0.971840663      -77.728916
9.117                0.971772225     -77.8535366
9.118                0.971703584     -77.9784784
9.119                0.971634741     -78.1037424
9.12                 0.971565694     -78.2293296
9.121                0.971496443     -78.3552409
9.122                0.971426987     -78.4814774
9.123                0.971357328     -78.6080401
9.124                0.971287463     -78.7349299
9.125                0.971217393     -78.8621478
9.126                0.971147117     -78.9896949
9.127                0.971076635     -79.1175722
9.128                0.971005947     -79.2457806
9.129                0.970935052     -79.3743211
9.13                  0.97086395     -79.5031948
9.131                0.970792641     -79.6324027
9.132                0.970721124     -79.7619458
9.133                0.970649399     -79.8918251
9.134                0.970577466     -80.0220417
9.135                0.970505324     -80.1525964
9.136                0.970432973     -80.2834905
9.137                0.970360412     -80.4147248
9.138                0.970287642     -80.5463004
9.139                0.970214663     -80.6782183
9.14                 0.970141472     -80.8104796
9.141                0.970068072     -80.9430853
9.142                0.969994461     -81.0760365
9.143                0.969920638     -81.2093341
9.144                0.969846604     -81.3429791
9.145                0.969772359     -81.4769728
9.146                0.969697902      -81.611316
9.147                0.969623232     -81.7460098
9.148                 0.96954835     -81.8810552
9.149                0.969473255     -82.0164534
9.15                 0.969397948     -82.1522053
9.151                0.969322427     -82.2883121
9.152                0.969246692     -82.4247746
9.153                0.969170744     -82.5615941
9.154                0.969094582     -82.6987715
9.155                0.969018206     -82.8363079
9.156                0.968941616     -82.9742044
9.157                0.968864811     -83.1124621
9.158                0.968787791     -83.2510819
9.159                0.968710556     -83.3900649
9.16                 0.968633106     -83.5294123
9.161                 0.96855544      -83.669125
9.162                0.968477559     -83.8092042
9.163                0.968399462     -83.9496509
9.164                0.968321149     -84.0904662
9.165                 0.96824262     -84.2316511
9.166                0.968163875     -84.3732067
9.167                0.968084913     -84.5151341
9.168                0.968005734     -84.6574344
9.169                0.967926339     -84.8001087
9.17                 0.967846727     -84.9431579
9.171                0.967766898     -85.0865833
9.172                0.967686852     -85.2303858
9.173                0.967606589     -85.3745666
9.174                0.967526108     -85.5191267
9.175                 0.96744541     -85.6640673
9.176                0.967364494     -85.8093893
9.177                 0.96728336      -85.955094
9.178                0.967202009     -86.1011823
9.179                 0.96712044     -86.2476554
9.18                 0.967038653     -86.3945143
9.181                0.966956648     -86.5417602
9.182                0.966874426     -86.6893941
9.183                0.966791985     -86.8374171
9.184                0.966709326     -86.9858303
9.185                0.966626449     -87.1346349
9.186                0.966543354     -87.2838318
9.187                0.966460041     -87.4334223
9.188                 0.96637651     -87.5834073
9.189                0.966292761      -87.733788
9.19                 0.966208793     -87.8845654
9.191                0.966124608     -88.0357408
9.192                0.966040204     -88.1873151
9.193                0.965955583     -88.3392895
9.194                0.965870744      -88.491665
9.195                0.965785687     -88.6444428
9.196                0.965700412     -88.7976239
9.197                0.965614919     -88.9512096
9.198                0.965529209     -89.1052007
9.199                0.965443281     -89.2595985
9.2                  0.965357136     -89.4144041
9.201                0.965270774     -89.5696185
9.202                0.965184195     -89.7252429
9.203                0.965097398     -89.8812783
9.204                0.965010385     -90.0377259
9.205                0.964923155     -90.1945867
9.206                0.964835709     -90.3518619
9.207                0.964748046     -90.5095525
9.208                0.964660168     -90.6676596
9.209                0.964572073     -90.8261844
9.21                 0.964483763      -90.985128
9.211                0.964395237     -91.1444913
9.212                0.964306496     -91.3042756
9.213                 0.96421754      -91.464482
9.214                 0.96412837     -91.6251115
9.215                0.964038985     -91.7861652
9.216                0.963949386     -91.9476442
9.217                0.963859573     -92.1095496
9.218                0.963769547     -92.2718825
9.219                0.963679308     -92.4346441
9.22                 0.963588855     -92.5978353
9.221                0.963498191     -92.7614573
9.222                0.963407314     -92.9255112
9.223                0.963316226     -93.0899981
9.224                0.963224926      -93.254919
9.225                0.963133415      -93.420275
9.226                0.963041694     -93.5860673
9.227                0.962949763     -93.7522968
9.228                0.962857622     -93.9189648
9.229                0.962765273     -94.0860722
9.23                 0.962672714     -94.2536202
9.231                0.962579947     -94.4216098
9.232                0.962486973     -94.5900421
9.233                0.962393792     -94.7589181
9.234                0.962300403     -94.9282391
9.235                0.962206809     -95.0980059
9.236                 0.96211301     -95.2682198
9.237                0.962019005     -95.4388817
9.238                0.961924796     -95.6099928
9.239                0.961830384      -95.781554
9.24                 0.961735768     -95.9535665
9.241                 0.96164095     -96.1260313
9.242                 0.96154593     -96.2989494
9.243                0.961450709      -96.472322
9.244                0.961355288     -96.6461501
9.245                0.961259667     -96.8204347
9.246                0.961163847     -96.9951768
9.247                0.961067829     -97.1703776
9.248                0.960971613      -97.346038
9.249                0.960875201     -97.5221591
9.25                 0.960778592     -97.6987419
9.251                0.960681789     -97.8757875
9.252                0.960584791     -98.0532969
9.253                  0.9604876     -98.2312711
9.254                0.960390217     -98.4097111
9.255                0.960292642      -98.588618
9.256                0.960194876     -98.7679927
9.257                 0.96009692     -98.9478364
9.258                0.959998775     -99.1281499
9.259                0.959900442     -99.3089343
9.26                 0.959801923     -99.4901906
9.261                0.959703217     -99.6719199
9.262                0.959604327      -99.854123
9.263                0.959505252     -100.036801
9.264                0.959405995     -100.219955
9.265                0.959306556     -100.403585
9.266                0.959206936     -100.587694
9.267                0.959107136     -100.772281
9.268                0.959007158     -100.957348
9.269                0.958907003     -101.142896
9.27                 0.958806672     -101.328925
9.271                0.958706166     -101.515437
9.272                0.958605486     -101.702433
9.273                0.958504633     -101.889913
9.274                 0.95840361     -102.077879
9.275                0.958302416     -102.266331
9.276                0.958201054      -102.45527
9.277                0.958099524     -102.644698
9.278                0.957997829     -102.834614
9.279                0.957895969     -103.025021
9.28                 0.957793946     -103.215919
9.281                0.957691761     -103.407308
9.282                0.957589416     -103.599191
9.283                0.957486912     -103.791567
9.284                 0.95738425     -103.984437
9.285                0.957281433     -104.177803
9.286                0.957178461     -104.371665
9.287                0.957075336     -104.566024
9.288                0.956972061     -104.760881
9.289                0.956868635     -104.956237
9.29                 0.956765062     -105.152093
9.291                0.956661342     -105.348449
9.292                0.956557478     -105.545307
9.293                0.956453471     -105.742666
9.294                0.956349322     -105.940529
9.295                0.956245034     -106.138895
9.296                0.956140608     -106.337766
9.297                0.956036047     -106.537142
9.298                0.955931351     -106.737025
9.299                0.955826523     -106.937414
9.3                  0.955721564     -107.138311
9.301                0.955616478     -107.339716
9.302                0.955511264      -107.54163
9.303                0.955405926     -107.744055
9.304                0.955300466     -107.946989
9.305                0.955194884     -108.150436
9.306                0.955089185     -108.354394
9.307                0.954983368     -108.558865
9.308                0.954877438     -108.763849
9.309                0.954771395     -108.969348
9.31                 0.954665241     -109.175361
9.311                 0.95455898      -109.38189
9.312                0.954452613     -109.588935
9.313                0.954346143     -109.796497
9.314                0.954239571     -110.004576
9.315                  0.9541329     -110.213173
9.316                0.954026132     -110.422289
9.317                 0.95391927     -110.631924
9.318                0.953812316     -110.842079
9.319                0.953705272     -111.052754
9.32                 0.953598141     -111.263951
9.321                0.953490925     -111.475669
9.322                0.953383627     -111.687909
9.323                0.953276249     -111.900671
9.324                0.953168793     -112.113957
9.325                0.953061263     -112.327767
9.326                0.952953661       -112.5421
9.327                0.952845989     -112.756959
9.328                0.952738251     -112.972342
9.329                0.952630448     -113.188251
9.33                 0.952522584     -113.404687
9.331                0.952414661     -113.621649
9.332                0.952306682     -113.839137
9.333                 0.95219865     -114.057153
9.334                0.952090568     -114.275697
9.335                0.951982438      -114.49477
9.336                0.951874263      -114.71437
9.337                0.951766047       -114.9345
9.338                0.951657792     -115.155159
9.339                0.951549502     -115.376347
9.34                 0.951441178     -115.598065
9.341                0.951332825     -115.820314
9.342                0.951224446     -116.043093
9.343                0.951116042     -116.266403
9.344                0.951007619     -116.490244
9.345                0.950899178     -116.714617
9.346                0.950790723     -116.939521
9.347                0.950682257     -117.164957
9.348                0.950573784     -117.390924
9.349                0.950465307     -117.617424
9.35                 0.950356828     -117.844457
9.351                0.950248352     -118.072022
9.352                0.950139881     -118.300119
9.353                 0.95003142     -118.528749
9.354                0.949922972     -118.757913
9.355                0.949814539     -118.987609
9.356                0.949706126     -119.217838
9.357                0.949597736     -119.448601
9.358                0.949489373     -119.679897
9.359                 0.94938104     -119.911726
9.36                  0.94927274     -120.144088
9.361                0.949164479     -120.376984
9.362                0.949056258     -120.610412
9.363                0.948948082     -120.844374
9.364                0.948839955     -121.078869
9.365                0.948731881     -121.313898
9.366                0.948623863     -121.549459
9.367                0.948515904     -121.785553
9.368                 0.94840801     -122.022179
9.369                0.948300183     -122.259339
9.37                 0.948192429      -122.49703
9.371                 0.94808475     -122.735254
9.372                 0.94797715      -122.97401
9.373                0.947869634     -123.213298
9.374                0.947762206     -123.453117
9.375                 0.94765487     -123.693468
9.376                 0.94754763     -123.934349
9.377                 0.94744049     -124.175762
9.378                0.947333454     -124.417704
9.379                0.947226526     -124.660177
9.38                 0.947119711      -124.90318
9.381                0.947013013     -125.146711
9.382                0.946906436     -125.390772
9.383                0.946799985     -125.635361
9.384                0.946693663     -125.880479
9.385                0.946587475     -126.126123
9.386                0.946481426     -126.372295
9.387                 0.94637552     -126.618994
9.388                0.946269762     -126.866219
9.389                0.946164155     -127.113969
9.39                 0.946058705     -127.362244
9.391                0.945953415     -127.611043
9.392                0.945848291     -127.860366
9.393                0.945743337     -128.110212
9.394                0.945638558     -128.360581
9.395                0.945533957     -128.611471
9.396                0.945429541     -128.862883
