! TOUCHSTONE file generated by CST DESIGN STUDIO
! Date and time: Tue Feb  4 15:59:35 2025
! Project name: C:\Work\MatlabApps\UnitCellOptimizationMatlab\CST\unitcell.cst
! Tree item: Tasks\Sweep1\SPara1\S-Parameters
! Header version: 2024
! Port assignment regex: !\s*Touchstone port\s*([0-9]+)\s*=\s*(CST MWS port|CST DES external port|CST DES block port)\s*(.+)\s* \(\"(.*)\"\)(\s*mode\s*([0-9]+))?.*
! Touchstone port assignment:
! Touchstone port 1 = CST DES external port 1 ("")
# GHz S MA R 50
9                    0.974249496     -84.2021218
9.001                0.974179529     -84.3405669
9.002                0.974109347     -84.4793707
9.003                0.974038952     -84.6185342
9.004                0.973968341     -84.7580585
9.005                0.973897516     -84.8979446
9.006                0.973826475     -85.0381936
9.007                0.973755219     -85.1788064
9.008                0.973683747     -85.3197841
9.009                0.973612059     -85.4611277
9.01                 0.973540155     -85.6028383
9.011                0.973468034     -85.7449169
9.012                0.973395697     -85.8873645
9.013                0.973323143     -86.0301822
9.014                0.973250371      -86.173371
9.015                0.973177382      -86.316932
9.016                0.973104175     -86.4608661
9.017                0.973030751     -86.6051745
9.018                0.972957108     -86.7498582
9.019                0.972883247     -86.8949181
9.02                 0.972809167     -87.0403555
9.021                0.972734869     -87.1861712
9.022                0.972660351     -87.3323664
9.023                0.972585615     -87.4789421
9.024                0.972510659     -87.6258994
9.025                0.972435484     -87.7732392
9.026                 0.97236009     -87.9209627
9.027                0.972284475     -88.0690709
9.028                0.972208641     -88.2175648
9.029                0.972132587     -88.3664455
9.03                 0.972056312      -88.515714
9.031                0.971979818     -88.6653715
9.032                0.971903102     -88.8154188
9.033                0.971826167     -88.9658572
9.034                 0.97174901     -89.1166877
9.035                0.971671634     -89.2679112
9.036                0.971594036     -89.4195289
9.037                0.971516217     -89.5715418
9.038                0.971438177     -89.7239509
9.039                0.971359917     -89.8767574
9.04                 0.971281435     -90.0299622
9.041                0.971202732     -90.1835665
9.042                0.971123808     -90.3375712
9.043                0.971044663     -90.4919774
9.044                0.970965297     -90.6467863
9.045                0.970885709     -90.8019987
9.046                  0.9708059     -90.9576159
9.047                 0.97072587     -91.1136388
9.048                0.970645619     -91.2700684
9.049                0.970565147      -91.426906
9.05                 0.970484453     -91.5841524
9.051                0.970403538     -91.7418088
9.052                0.970322403     -91.8998761
9.053                0.970241046     -92.0583555
9.054                0.970159468      -92.217248
9.055                 0.97007767     -92.3765547
9.056                0.969995651     -92.5362765
9.057                0.969913411     -92.6964146
9.058                0.969830951       -92.85697
9.059                 0.96974827     -93.0179437
9.06                 0.969665369     -93.1793368
9.061                0.969582248     -93.3411503
9.062                0.969498907     -93.5033853
9.063                0.969415346     -93.6660428
9.064                0.969331566     -93.8291238
9.065                0.969247566     -93.9926294
9.066                0.969163347     -94.1565607
9.067                0.969078909     -94.3209186
9.068                0.968994252     -94.4857043
9.069                0.968909376     -94.6509186
9.07                 0.968824282     -94.8165628
9.071                0.968738971     -94.9826377
9.072                0.968653441     -95.1491445
9.073                0.968567694     -95.3160841
9.074                 0.96848173     -95.4834576
9.075                0.968395549     -95.6512661
9.076                0.968309151     -95.8195104
9.077                0.968222537     -95.9881917
9.078                0.968135707      -96.157311
9.079                0.968048662     -96.3268693
9.08                 0.967961402     -96.4968676
9.081                0.967873926     -96.6673069
9.082                0.967786237     -96.8381883
9.083                0.967698333     -97.0095126
9.084                0.967610217      -97.181281
9.085                0.967521887     -97.3534945
9.086                0.967433344      -97.526154
9.087                0.967344589     -97.6992605
9.088                0.967255623     -97.8728151
9.089                0.967166446     -98.0468187
9.09                 0.967077057     -98.2212724
9.091                0.966987459      -98.396177
9.092                0.966897652     -98.5715336
9.093                0.966807635     -98.7473432
9.094                 0.96671741     -98.9236068
9.095                0.966626977     -99.1003253
9.096                0.966536337     -99.2774996
9.097                0.966445491     -99.4551308
9.098                0.966354438     -99.6332199
9.099                0.966263181     -99.8117677
9.1                  0.966171718     -99.9907753
9.101                0.966080052     -100.170244
9.102                0.965988183     -100.350173
9.103                0.965896111     -100.530566
9.104                0.965803837     -100.711422
9.105                0.965711363     -100.892742
9.106                0.965618688     -101.074528
9.107                0.965525814      -101.25678
9.108                0.965432741       -101.4395
9.109                0.965339471     -101.622687
9.11                 0.965246003     -101.806344
9.111                 0.96515234     -101.990471
9.112                0.965058482     -102.175068
9.113                0.964964429     -102.360138
9.114                0.964870183      -102.54568
9.115                0.964775744     -102.731695
9.116                0.964681114     -102.918185
9.117                0.964586294     -103.105151
9.118                0.964491284     -103.292592
9.119                0.964396086     -103.480511
9.12                   0.9643007     -103.668908
9.121                0.964205128     -103.857783
9.122                0.964109371     -104.047139
9.123                0.964013429     -104.236974
9.124                0.963917305     -104.427291
9.125                0.963820998     -104.618091
9.126                0.963724511     -104.809373
9.127                0.963627844     -105.001139
9.128                0.963530999      -105.19339
9.129                0.963433977     -105.386126
9.13                 0.963336779     -105.579348
9.131                0.963239406     -105.773058
9.132                0.963141859     -105.967255
9.133                0.963044141     -106.161941
9.134                0.962946252     -106.357117
9.135                0.962848193     -106.552782
9.136                0.962749967     -106.748939
9.137                0.962651573     -106.945587
9.138                0.962553015     -107.142728
9.139                0.962454293     -107.340361
9.14                 0.962355408     -107.538489
9.141                0.962256363     -107.737112
9.142                0.962157158     -107.936229
9.143                0.962057796     -108.135843
9.144                0.961958277     -108.335953
9.145                0.961858603     -108.536561
9.146                0.961758777     -108.737667
9.147                0.961658799     -108.939272
9.148                0.961558671     -109.141376
9.149                0.961458396     -109.343981
9.15                 0.961357973     -109.547086
9.151                0.961257406     -109.750692
9.152                0.961156697     -109.954801
9.153                0.961055846     -110.159412
9.154                0.960954855     -110.364526
9.155                0.960853727     -110.570145
9.156                0.960752464     -110.776267
9.157                0.960651066     -110.982895
9.158                0.960549537     -111.190028
9.159                0.960447877     -111.397668
9.16                 0.960346089     -111.605814
9.161                0.960244176     -111.814467
9.162                0.960142138     -112.023628
9.163                0.960039978     -112.233298
9.164                0.959937698     -112.443476
9.165                  0.9598353     -112.654163
9.166                0.959732787      -112.86536
9.167                0.959630159     -113.077068
9.168                0.959527421     -113.289286
9.169                0.959424572     -113.502015
9.17                 0.959321617     -113.715256
9.171                0.959218557     -113.929009
9.172                0.959115394     -114.143275
9.173                 0.95901213     -114.358053
9.174                0.958908769     -114.573344
9.175                0.958805312     -114.789149
9.176                0.958701761     -115.005468
9.177                 0.95859812     -115.222302
9.178                 0.95849439      -115.43965
9.179                0.958390574     -115.657513
9.18                 0.958286675     -115.875891
9.181                0.958182695     -116.094785
9.182                0.958078636     -116.314195
9.183                0.957974501     -116.534121
9.184                0.957870293     -116.754564
9.185                0.957766014     -116.975523
9.186                0.957661667     -117.196999
9.187                0.957557255     -117.418993
9.188                 0.95745278     -117.641503
9.189                0.957348245     -117.864532
9.19                 0.957243653     -118.088078
9.191                0.957139007     -118.312141
9.192                0.957034309     -118.536723
9.193                0.956929563     -118.761823
9.194                0.956824771     -118.987442
9.195                0.956719936     -119.213579
9.196                0.956615061     -119.440234
9.197                0.956510149     -119.667408
9.198                0.956405203       -119.8951
9.199                0.956300226     -120.123311
9.2                  0.956195221     -120.352041
9.201                0.956090192     -120.581289
9.202                 0.95598514     -120.811056
9.203                0.955880071     -121.041342
9.204                0.955774986     -121.272146
9.205                0.955669888     -121.503469
9.206                0.955564782     -121.735311
9.207                 0.95545967      -121.96767
9.208                0.955354556     -122.200548
9.209                0.955249442     -122.433944
9.21                 0.955144333     -122.667859
9.211                0.955039232      -122.90229
9.212                0.954934141      -123.13724
9.213                0.954829065     -123.372707
9.214                0.954724007     -123.608692
9.215                 0.95461897     -123.845193
9.216                0.954513959     -124.082211
9.217                0.954408975     -124.319746
9.218                0.954304024     -124.557796
9.219                0.954199109     -124.796363
9.22                 0.954094232     -125.035445
9.221                0.953989399     -125.275043
9.222                0.953884612     -125.515155
9.223                0.953779876     -125.755782
9.224                0.953675194     -125.996923
9.225                0.953570569     -126.238577
9.226                0.953466007     -126.480745
9.227                0.953361509     -126.723426
9.228                0.953257081     -126.966618
9.229                0.953152726     -127.210323
9.23                 0.953048449     -127.454538
9.231                0.952944252     -127.699265
9.232                 0.95284014     -127.944501
9.233                0.952736118     -128.190247
9.234                0.952632188     -128.436502
9.235                0.952528355     -128.683265
9.236                0.952424624     -128.930536
9.237                0.952320997     -129.178314
9.238                 0.95221748     -129.426598
9.239                0.952114077     -129.675388
9.24                 0.952010791     -129.924682
9.241                0.951907627     -130.174481
9.242                0.951804588     -130.424783
9.243                0.951701681     -130.675587
9.244                0.951598907     -130.926893
9.245                0.951496273       -131.1787
9.246                0.951393782     -131.431007
9.247                0.951291438     -131.683813
9.248                0.951189246     -131.937117
9.249                 0.95108721     -132.190918
9.25                 0.950985335     -132.445215
9.251                0.950883625     -132.700008
9.252                0.950782085     -132.955295
9.253                0.950680718     -133.211075
9.254                 0.95057953     -133.467348
9.255                0.950478525     -133.724111
9.256                0.950377708     -133.981365
9.257                0.950277083     -134.239107
9.258                0.950176654     -134.497337
9.259                0.950076427     -134.756054
9.26                 0.949976406     -135.015256
9.261                0.949876595     -135.274942
9.262                   0.949777     -135.535111
9.263                0.949677624     -135.795762
9.264                0.949578473     -136.056893
9.265                0.949479552     -136.318503
9.266                0.949380864     -136.580591
9.267                0.949282415     -136.843155
9.268                 0.94918421     -137.106194
9.269                0.949086254     -137.369707
9.27                  0.94898855     -137.633692
9.271                0.948891104     -137.898147
9.272                0.948793922     -138.163071
9.273                0.948697007     -138.428463
9.274                0.948600364     -138.694321
9.275                0.948503999     -138.960644
9.276                0.948407916     -139.227429
9.277                 0.94831212     -139.494676
9.278                0.948216616     -139.762382
9.279                 0.94812141     -140.030546
9.28                 0.948026505     -140.299167
9.281                0.947931907     -140.568242
9.282                0.947837621      -140.83777
9.283                0.947743652     -141.107749
9.284                0.947650005     -141.378177
9.285                0.947556684     -141.649052
9.286                0.947463695     -141.920373
9.287                0.947371043     -142.192138
9.288                0.947278733     -142.464345
9.289                 0.94718677     -142.736991
9.29                 0.947095158     -143.010076
9.291                0.947003903     -143.283596
9.292                 0.94691301      -143.55755
9.293                0.946822484     -143.831937
9.294                 0.94673233     -144.106753
9.295                0.946642553     -144.381996
9.296                0.946553158     -144.657666
9.297                 0.94646415     -144.933759
9.298                0.946375534     -145.210273
9.299                0.946287316     -145.487206
9.3                  0.946199499     -145.764557
9.301                 0.94611209     -146.042322
9.302                0.946025093     -146.320499
9.303                0.945938514     -146.599087
9.304                0.945852357     -146.878083
9.305                0.945766628     -147.157484
9.306                0.945681331     -147.437288
9.307                0.945596471     -147.717493
9.308                0.945512055     -147.998096
9.309                0.945428085     -148.279095
9.31                 0.945344569     -148.560488
9.311                 0.94526151     -148.842271
9.312                0.945178913     -149.124443
9.313                0.945096785        -149.407
9.314                0.945015129     -149.689941
9.315                 0.94493395     -149.973262
9.316                0.944853254     -150.256962
9.317                0.944773046     -150.541037
9.318                 0.94469333     -150.825484
9.319                0.944614111     -151.110301
9.32                 0.944535395     -151.395486
9.321                0.944457186     -151.681035
9.322                0.944379489     -151.966946
9.323                0.944302309     -152.253216
9.324                0.944225651     -152.539842
9.325                 0.94414952     -152.826821
9.326                 0.94407392     -153.114151
9.327                0.943998856     -153.401828
9.328                0.943924334     -153.689849
9.329                0.943850357     -153.978212
9.33                 0.943776931     -154.266914
9.331                 0.94370406     -154.555951
9.332                 0.94363175     -154.845321
9.333                0.943560004      -155.13502
9.334                0.943488827     -155.425046
9.335                0.943418225     -155.715395
9.336                0.943348201     -156.006064
9.337                0.943278761     -156.297051
9.338                0.943209908     -156.588351
9.339                0.943141647     -156.879963
9.34                 0.943073984     -157.171881
9.341                0.943006921     -157.464104
9.342                0.942940465     -157.756628
9.343                0.942874619      -158.04945
9.344                0.942809387     -158.342567
9.345                0.942744774     -158.635974
9.346                0.942680784     -158.929669
9.347                0.942617422     -159.223649
9.348                0.942554692      -159.51791
9.349                0.942492598     -159.812448
9.35                 0.942431144     -160.107261
9.351                0.942370334     -160.402344
9.352                0.942310173     -160.697695
9.353                0.942250664     -160.993309
9.354                0.942191812     -161.289184
9.355                0.942133621     -161.585316
9.356                0.942076094     -161.881701
9.357                0.942019235     -162.178335
9.358                 0.94196305     -162.475215
9.359                 0.94190754     -162.772338
9.36                  0.94185271       -163.0697
9.361                0.941798565     -163.367297
9.362                0.941745106     -163.665125
9.363                0.941692339     -163.963181
9.364                0.941640267     -164.261461
9.365                0.941588893     -164.559962
9.366                0.941538221     -164.858679
9.367                0.941488255      -165.15761
9.368                0.941438998     -165.456749
9.369                0.941390453     -165.756094
9.37                 0.941342623      -166.05564
9.371                0.941295513     -166.355384
9.372                0.941249124     -166.655321
9.373                0.941203461     -166.955449
9.374                0.941158527     -167.255763
9.375                0.941114325     -167.556259
9.376                0.941070857     -167.856934
9.377                0.941028127     -168.157783
9.378                0.940986137     -168.458803
9.379                0.940944891     -168.759989
9.38                 0.940904392     -169.061338
9.381                0.940864642     -169.362846
9.382                0.940825643     -169.664508
9.383                0.940787399     -169.966321
9.384                0.940749913     -170.268281
9.385                0.940713186     -170.570383
9.386                0.940677222     -170.872624
9.387                0.940642022        -171.175
9.388                0.940607589     -171.477506
9.389                0.940573926     -171.780139
9.39                 0.940541035     -172.082894
9.391                0.940508917     -172.385768
9.392                0.940477576     -172.688756
9.393                0.940447013     -172.991854
9.394                 0.94041723     -173.295058
9.395                 0.94038823     -173.598364
9.396                0.940360013     -173.901768
