! TOUCHSTONE file generated by CST DESIGN STUDIO
! Date and time: Tue Feb  4 15:59:42 2025
! Project name: C:\Work\MatlabApps\UnitCellOptimizationMatlab\CST\unitcell.cst
! Tree item: Tasks\Sweep1\SPara1\S-Parameters
! Header version: 2024
! Port assignment regex: !\s*Touchstone port\s*([0-9]+)\s*=\s*(CST MWS port|CST DES external port|CST DES block port)\s*(.+)\s* \(\"(.*)\"\)(\s*mode\s*([0-9]+))?.*
! Touchstone port assignment:
! Touchstone port 1 = CST DES external port 1 ("")
# GHz S MA R 50
9                    0.976009327     -76.1295225
9.001                0.975948263     -76.2476303
9.002                0.975887007     -76.3660366
9.003                0.975825558     -76.4847422
9.004                0.975763917     -76.6037481
9.005                0.975702083     -76.7230553
9.006                0.975640055     -76.8426645
9.007                0.975577833     -76.9625768
9.008                0.975515417      -77.082793
9.009                0.975452806     -77.2033142
9.01                 0.975389999     -77.3241411
9.011                0.975326996     -77.4452749
9.012                0.975263798     -77.5667163
9.013                0.975200402     -77.6884663
9.014                 0.97513681     -77.8105258
9.015                 0.97507302     -77.9328959
9.016                0.975009033     -78.0555774
9.017                0.974944846     -78.1785713
9.018                0.974880462     -78.3018785
9.019                0.974815878     -78.4254999
9.02                 0.974751094     -78.5494366
9.021                0.974686111     -78.6736895
9.022                0.974620927     -78.7982594
9.023                0.974555543     -78.9231475
9.024                0.974489957     -79.0483546
9.025                 0.97442417     -79.1738817
9.026                0.974358181     -79.2997297
9.027                 0.97429199     -79.4258997
9.028                0.974225596     -79.5523925
9.029                0.974158999     -79.6792092
9.03                 0.974092198     -79.8063508
9.031                0.974025194     -79.9338181
9.032                0.973957985     -80.0616122
9.033                0.973890571     -80.1897341
9.034                0.973822953     -80.3181846
9.035                 0.97375513     -80.4469649
9.036                  0.9736871     -80.5760758
9.037                0.973618865     -80.7055185
9.038                0.973550423     -80.8352937
9.039                0.973481774     -80.9654027
9.04                 0.973412918     -81.0958462
9.041                0.973343855     -81.2266253
9.042                0.973274584     -81.3577411
9.043                0.973205105     -81.4891945
9.044                0.973135417     -81.6209865
9.045                 0.97306552      -81.753118
9.046                0.972995414     -81.8855902
9.047                0.972925099      -82.018404
9.048                0.972854574     -82.1515603
9.049                0.972783839     -82.2850603
9.05                 0.972712893     -82.4189049
9.051                0.972641736     -82.5530951
9.052                0.972570369     -82.6876319
9.053                 0.97249879     -82.8225164
9.054                0.972426999     -82.9577495
9.055                0.972354997     -83.0933323
9.056                0.972282782     -83.2292658
9.057                0.972210354      -83.365551
9.058                0.972137714     -83.5021889
9.059                0.972064861     -83.6391806
9.06                 0.971991794      -83.776527
9.061                0.971918514     -83.9142291
9.062                 0.97184502     -84.0522881
9.063                0.971771312      -84.190705
9.064                0.971697389     -84.3294807
9.065                0.971623252     -84.4686162
9.066                  0.9715489     -84.6081128
9.067                0.971474333     -84.7479712
9.068                 0.97139955     -84.8881927
9.069                0.971324552     -85.0287781
9.07                 0.971249339     -85.1697286
9.071                0.971173909     -85.3110452
9.072                0.971098263      -85.452729
9.073                  0.9710224     -85.5947809
9.074                0.970946322      -85.737202
9.075                0.970870026     -85.8799933
9.076                0.970793513      -86.023156
9.077                0.970716784     -86.1666909
9.078                0.970639837     -86.3105993
9.079                0.970562672      -86.454882
9.08                  0.97048529     -86.5995403
9.081                0.970407691      -86.744575
9.082                0.970329873     -86.8899873
9.083                0.970251837     -87.0357782
9.084                0.970173584     -87.1819487
9.085                0.970095112        -87.3285
9.086                0.970016421      -87.475433
9.087                0.969937512     -87.6227488
9.088                0.969858385     -87.7704485
9.089                0.969779039      -87.918533
9.09                 0.969699474     -88.0670036
9.091                 0.96961969     -88.2158612
9.092                0.969539688     -88.3651068
9.093                0.969459466     -88.5147415
9.094                0.969379026     -88.6647665
9.095                0.969298366     -88.8151826
9.096                0.969217487     -88.9659911
9.097                0.969136389     -89.1171929
9.098                0.969055072     -89.2687891
9.099                0.968973536     -89.4207807
9.1                  0.968891781     -89.5731689
9.101                0.968809807     -89.7259547
9.102                0.968727613      -89.879139
9.103                  0.9686452     -90.0327231
9.104                0.968562569     -90.1867079
9.105                0.968479718     -90.3410945
9.106                0.968396648      -90.495884
9.107                 0.96831336     -90.6510773
9.108                0.968229852     -90.8066757
9.109                0.968146126     -90.9626801
9.11                 0.968062181     -91.1190915
9.111                0.967978018     -91.2759111
9.112                0.967893636     -91.4331399
9.113                0.967809036     -91.5907789
9.114                0.967724217     -91.7488292
9.115                0.967639181     -91.9072919
9.116                0.967553927      -92.066168
9.117                0.967468454     -92.2254586
9.118                0.967382765     -92.3851647
9.119                0.967296858     -92.5452873
9.12                 0.967210734     -92.7058276
9.121                0.967124392     -92.8667865
9.122                0.967037835     -93.0281652
9.123                 0.96695106     -93.1899646
9.124                0.966864069     -93.3521858
9.125                0.966776863     -93.5148299
9.126                 0.96668944     -93.6778979
9.127                0.966601802     -93.8413908
9.128                0.966513949     -94.0053098
9.129                0.966425881     -94.1696557
9.13                 0.966337599     -94.3344298
9.131                0.966249102     -94.4996329
9.132                0.966160391     -94.6652662
9.133                0.966071467     -94.8313307
9.134                0.965982329     -94.9978274
9.135                0.965892979     -95.1647573
9.136                0.965803416     -95.3321216
9.137                0.965713642     -95.4999211
9.138                0.965623655      -95.668157
9.139                0.965533458     -95.8368303
9.14                  0.96544305     -96.0059419
9.141                0.965352432     -96.1754929
9.142                0.965261604     -96.3454844
9.143                0.965170566     -96.5159173
9.144                 0.96507932     -96.6867927
9.145                0.964987866     -96.8581115
9.146                0.964896204     -97.0298748
9.147                0.964804335     -97.2020837
9.148                0.964712259      -97.374739
9.149                0.964619977     -97.5478418
9.15                  0.96452749     -97.7213931
9.151                0.964434798     -97.8953939
9.152                0.964341901     -98.0698451
9.153                0.964248802     -98.2447479
9.154                0.964155499     -98.4201031
9.155                0.964061994     -98.5959118
9.156                0.963968288     -98.7721749
9.157                0.963874381     -98.9488934
9.158                0.963780273     -99.1260683
9.159                0.963685967     -99.3037006
9.16                 0.963591461     -99.4817911
9.161                0.963496758      -99.660341
9.162                0.963401858     -99.8393512
9.163                0.963306762     -100.018822
9.164                 0.96321147     -100.198756
9.165                0.963115984     -100.379153
9.166                0.963020304     -100.560013
9.167                0.962924432     -100.741339
9.168                0.962828367     -100.923131
9.169                0.962732112     -101.105389
9.17                 0.962635666     -101.288115
9.171                0.962539032      -101.47131
9.172                0.962442209     -101.654975
9.173                0.962345199      -101.83911
9.174                0.962248003     -102.023717
9.175                0.962150622     -102.208796
9.176                0.962053057     -102.394348
9.177                0.961955309     -102.580375
9.178                0.961857379     -102.766876
9.179                0.961759268     -102.953854
9.18                 0.961660978     -103.141308
9.181                0.961562509      -103.32924
9.182                0.961463863     -103.517651
9.183                 0.96136504     -103.706541
9.184                0.961266043     -103.895911
9.185                0.961166872     -104.085763
9.186                0.961067529     -104.276096
9.187                0.960968015     -104.466912
9.188                0.960868331     -104.658212
9.189                0.960768478     -104.849997
9.19                 0.960668458     -105.042267
9.191                0.960568272     -105.235022
9.192                0.960467922     -105.428265
9.193                0.960367409     -105.621996
9.194                0.960266734     -105.816215
9.195                0.960165899     -106.010923
9.196                0.960064906     -106.206122
9.197                0.959963755     -106.401811
9.198                0.959862448     -106.597992
9.199                0.959760988     -106.794665
9.2                  0.959659375     -106.991832
9.201                0.959557611     -107.189492
9.202                0.959455697     -107.387647
9.203                0.959353636     -107.586297
9.204                0.959251429     -107.785444
9.205                0.959149078     -107.985087
9.206                0.959046584     -108.185228
9.207                0.958943949     -108.385867
9.208                0.958841175     -108.587004
9.209                0.958738263     -108.788642
9.21                 0.958635216     -108.990779
9.211                0.958532035     -109.193418
9.212                0.958428723     -109.396557
9.213                 0.95832528       -109.6002
9.214                0.958221709     -109.804344
9.215                0.958118012     -110.008993
9.216                0.958014191     -110.214145
9.217                0.957910248     -110.419802
9.218                0.957806185     -110.625964
9.219                0.957702003     -110.832632
9.22                 0.957597706     -111.039807
9.221                0.957493294     -111.247488
9.222                0.957388771     -111.455677
9.223                0.957284138     -111.664374
9.224                0.957179397      -111.87358
9.225                0.957074551     -112.083294
9.226                0.956969602     -112.293519
9.227                0.956864552     -112.504253
9.228                0.956759404     -112.715499
9.229                0.956654159     -112.927255
9.23                  0.95654882     -113.139523
9.231                0.956443389     -113.352302
9.232                 0.95633787     -113.565595
9.233                0.956232263       -113.7794
9.234                0.956126573     -113.993719
9.235                  0.9560208     -114.208551
9.236                0.955914948     -114.423898
9.237                0.955809019     -114.639759
9.238                0.955703016     -114.856134
9.239                0.955596941     -115.073026
9.24                 0.955490797     -115.290432
9.241                0.955384587     -115.508355
9.242                0.955278313     -115.726794
9.243                0.955171977      -115.94575
9.244                0.955065584     -116.165222
9.245                0.954959134     -116.385211
9.246                0.954852632     -116.605718
9.247                 0.95474608     -116.826743
9.248                0.954639481     -117.048285
9.249                0.954532837     -117.270346
9.25                 0.954426152     -117.492925
9.251                0.954319429     -117.716023
9.252                 0.95421267     -117.939639
9.253                0.954105879     -118.163774
9.254                0.953999058     -118.388428
9.255                 0.95389221     -118.613601
9.256                0.953785339     -118.839294
9.257                0.953678448     -119.065506
9.258                 0.95357154     -119.292237
9.259                0.953464618     -119.519489
9.26                 0.953357685     -119.747259
9.261                0.953250744      -119.97555
9.262                0.953143799      -120.20436
9.263                0.953036853      -120.43369
9.264                0.952929909     -120.663539
9.265                0.952822971     -120.893909
9.266                0.952716042     -121.124797
9.267                0.952609125     -121.356206
9.268                0.952502224     -121.588134
9.269                0.952395342     -121.820582
9.27                 0.952288483     -122.053549
9.271                 0.95218165     -122.287035
9.272                0.952074847      -122.52104
9.273                0.951968077     -122.755564
9.274                0.951861344     -122.990607
9.275                0.951754652     -123.226168
9.276                0.951648004     -123.462248
9.277                0.951541404     -123.698846
9.278                0.951434855     -123.935962
9.279                0.951328362     -124.173595
9.28                 0.951221928     -124.411746
9.281                0.951115557     -124.650414
9.282                0.951009253     -124.889598
9.283                0.950903019     -125.129299
9.284                 0.95079686     -125.369516
9.285                0.950690779     -125.610248
9.286                0.950584781     -125.851495
9.287                0.950478869     -126.093258
9.288                0.950373047     -126.335535
9.289                 0.95026732     -126.578325
9.29                 0.950161691     -126.821629
9.291                0.950056164     -127.065446
9.292                0.949950745     -127.309776
9.293                0.949845435     -127.554617
9.294                0.949740241     -127.799969
9.295                0.949635166     -128.045832
9.296                0.949530214     -128.292206
9.297                0.949425389     -128.539088
9.298                0.949320697      -128.78648
9.299                 0.94921614      -129.03438
9.3                  0.949111724     -129.282787
9.301                0.949007452     -129.531701
9.302                 0.94890333     -129.781121
9.303                0.948799361     -130.031046
9.304                0.948695549     -130.281476
9.305                  0.9485919     -130.532409
9.306                0.948488418     -130.783846
9.307                0.948385107     -131.035784
9.308                0.948281972     -131.288224
9.309                0.948179017     -131.541163
9.31                 0.948076247     -131.794603
9.311                0.947973667      -132.04854
9.312                 0.94787128     -132.302975
9.313                0.947769092     -132.557907
9.314                0.947667108     -132.813334
9.315                0.947565331     -133.069255
9.316                0.947463767      -133.32567
9.317                 0.94736242     -133.582578
9.318                0.947261295     -133.839976
9.319                0.947160397     -134.097865
9.32                 0.947059731     -134.356242
9.321                0.946959301     -134.615108
9.322                0.946859112      -134.87446
9.323                 0.94675917     -135.134297
9.324                0.946659478     -135.394619
9.325                0.946560041     -135.655423
9.326                0.946460865     -135.916709
9.327                0.946361955     -136.178475
9.328                0.946263315      -136.44072
9.329                 0.94616495     -136.703443
9.33                 0.946066866     -136.966642
9.331                0.945969067     -137.230316
9.332                0.945871558     -137.494463
9.333                0.945774344     -137.759082
9.334                 0.94567743     -138.024171
9.335                0.945580821     -138.289729
9.336                0.945484522     -138.555754
9.337                0.945388539     -138.822245
9.338                0.945292876       -139.0892
9.339                0.945197538     -139.356618
9.34                 0.945102531     -139.624497
9.341                0.945007859     -139.892834
9.342                0.944913527      -140.16163
9.343                0.944819541     -140.430881
9.344                0.944725906     -140.700586
9.345                0.944632627     -140.970743
9.346                0.944539709     -141.241351
9.347                0.944447157     -141.512408
9.348                0.944354977     -141.783911
9.349                0.944263172     -142.055859
9.35                  0.94417175     -142.328251
9.351                0.944080714     -142.601083
9.352                 0.94399007     -142.874354
9.353                0.943899823     -143.148063
9.354                0.943809978     -143.422207
9.355                0.943720541     -143.696784
9.356                0.943631516     -143.971792
9.357                0.943542909     -144.247229
9.358                0.943454725     -144.523093
9.359                0.943366969     -144.799381
9.36                 0.943279646     -145.076092
9.361                0.943192762     -145.353224
9.362                0.943106321     -145.630773
9.363                0.943020329     -145.908739
9.364                0.942934791     -146.187118
9.365                0.942849712     -146.465909
9.366                0.942765097     -146.745108
9.367                0.942680952     -147.024714
9.368                0.942597281     -147.304725
9.369                 0.94251409     -147.585137
9.37                 0.942431383     -147.865949
9.371                0.942349167     -148.147158
9.372                0.942267445     -148.428762
9.373                0.942186224     -148.710757
9.374                0.942105508     -148.993142
9.375                0.942025302     -149.275914
9.376                0.941945612     -149.559071
9.377                0.941866442     -149.842609
9.378                0.941787798     -150.126526
9.379                0.941709684      -150.41082
9.38                 0.941632105     -150.695487
9.381                0.941555068     -150.980526
9.382                0.941478575     -151.265933
9.383                0.941402634     -151.551706
9.384                0.941327247     -151.837841
9.385                0.941252421     -152.124337
9.386                0.941178161     -152.411189
9.387                 0.94110447     -152.698396
9.388                0.941031355     -152.985955
9.389                 0.94095882     -153.273862
9.39                 0.940886869     -153.562114
9.391                0.940815508     -153.850709
9.392                0.940744741     -154.139644
9.393                0.940674573     -154.428915
9.394                 0.94060501      -154.71852
9.395                0.940536055     -155.008456
9.396                0.940467713     -155.298719
