! TOUCHSTONE file generated by CST DESIGN STUDIO
! Date and time: Tue Feb  4 15:59:47 2025
! Project name: C:\Work\MatlabApps\UnitCellOptimizationMatlab\CST\unitcell.cst
! Tree item: Tasks\Sweep1\SPara1\S-Parameters
! Header version: 2024
! Port assignment regex: !\s*Touchstone port\s*([0-9]+)\s*=\s*(CST MWS port|CST DES external port|CST DES block port)\s*(.+)\s* \(\"(.*)\"\)(\s*mode\s*([0-9]+))?.*
! Touchstone port assignment:
! Touchstone port 1 = CST DES external port 1 ("")
# GHz S MA R 50
9                    0.977499002     -69.5856706
9.001                0.977445713     -69.6885188
9.002                0.977392256     -69.7916192
9.003                 0.97733863     -69.8949726
9.004                0.977284836     -69.9985798
9.005                0.977230873     -70.1024416
9.006                0.977176739     -70.2065589
9.007                0.977122436     -70.3109323
9.008                0.977067962     -70.4155627
9.009                0.977013317      -70.520451
9.01                 0.976958501     -70.6255979
9.011                0.976903512     -70.7310042
9.012                0.976848351     -70.8366708
9.013                0.976793017     -70.9425985
9.014                0.976737509      -71.048788
9.015                0.976681828     -71.1552402
9.016                0.976625972      -71.261956
9.017                0.976569942     -71.3689361
9.018                0.976513736     -71.4761814
9.019                0.976457355     -71.5836927
9.02                 0.976400797     -71.6914709
9.021                0.976344063     -71.7995167
9.022                0.976287151      -71.907831
9.023                0.976230062     -72.0164147
9.024                0.976172795     -72.1252686
9.025                0.976115349     -72.2343935
9.026                0.976057725     -72.3437903
9.027                0.975999921     -72.4534599
9.028                0.975941937      -72.563403
9.029                0.975883773     -72.6736206
9.03                 0.975825428     -72.7841134
9.031                0.975766902     -72.8948825
9.032                0.975708194     -73.0059285
9.033                0.975649303     -73.1172525
9.034                0.975590231     -73.2288551
9.035                0.975530975     -73.3407374
9.036                0.975471535     -73.4529002
9.037                0.975411912     -73.5653444
9.038                0.975352104     -73.6780707
9.039                0.975292111     -73.7910802
9.04                 0.975231933     -73.9043737
9.041                0.975171569     -74.0179521
9.042                0.975111019     -74.1318162
9.043                0.975050282      -74.245967
9.044                0.974989358     -74.3604053
9.045                0.974928246     -74.4751321
9.046                0.974866947     -74.5901482
9.047                0.974805459     -74.7054545
9.048                0.974743782     -74.8210519
9.049                0.974681915     -74.9369414
9.05                 0.974619859     -75.0531237
9.051                0.974557613        -75.1696
9.052                0.974495176     -75.2863709
9.053                0.974432547     -75.4034375
9.054                0.974369728     -75.5208007
9.055                0.974306716     -75.6384614
9.056                0.974243512     -75.7564205
9.057                0.974180115     -75.8746789
9.058                0.974116524     -75.9932375
9.059                 0.97405274     -76.1120973
9.06                 0.973988762     -76.2312592
9.061                 0.97392459     -76.3507242
9.062                0.973860222     -76.4704931
9.063                0.973795659     -76.5905669
9.064                0.973730901     -76.7109465
9.065                0.973665946     -76.8316329
9.066                0.973600794      -76.952627
9.067                0.973535445     -77.0739297
9.068                0.973469899     -77.1955421
9.069                0.973404155      -77.317465
9.07                 0.973338213     -77.4396994
9.071                0.973272072     -77.5622462
9.072                0.973205732     -77.6851064
9.073                0.973139193      -77.808281
9.074                0.973072454      -77.931771
9.075                0.973005514     -78.0555771
9.076                0.972938374     -78.1797006
9.077                0.972871033     -78.3041422
9.078                 0.97280349      -78.428903
9.079                0.972735746      -78.553984
9.08                 0.972667799      -78.679386
9.081                 0.97259965     -78.8051102
9.082                0.972531298     -78.9311574
9.083                0.972462743     -79.0575286
9.084                0.972393984     -79.1842249
9.085                0.972325021     -79.3112472
9.086                0.972255853     -79.4385964
9.087                0.972186481     -79.5662737
9.088                0.972116904     -79.6942799
9.089                0.972047121      -79.822616
9.09                 0.971977132     -79.9512831
9.091                0.971906937     -80.0802821
9.092                0.971836536     -80.2096141
9.093                0.971765928     -80.3392799
9.094                0.971695113     -80.4692808
9.095                 0.97162409     -80.5996175
9.096                0.971552859     -80.7302912
9.097                 0.97148142     -80.8613028
9.098                0.971409773     -80.9926534
9.099                0.971337916     -81.1243439
9.1                  0.971265851     -81.2563754
9.101                0.971193576     -81.3887489
9.102                0.971121092     -81.5214654
9.103                0.971048397     -81.6545259
9.104                0.970975492     -81.7879314
9.105                0.970902377      -81.921683
9.106                 0.97082905     -82.0557817
9.107                0.970755513     -82.1902284
9.108                0.970681764     -82.3250243
9.109                0.970607803     -82.4601704
9.11                  0.97053363     -82.5956676
9.111                0.970459245      -82.731517
9.112                0.970384647     -82.8677197
9.113                0.970309836     -83.0042766
9.114                0.970234813     -83.1411889
9.115                0.970159576     -83.2784575
9.116                0.970084125     -83.4160835
9.117                0.970008461     -83.5540679
9.118                0.969932583     -83.6924118
9.119                0.969856491     -83.8311162
9.12                 0.969780184     -83.9701821
9.121                0.969703662     -84.1096107
9.122                0.969626926     -84.2494029
9.123                0.969549975     -84.3895597
9.124                0.969472808     -84.5300824
9.125                0.969395426     -84.6709718
9.126                0.969317828     -84.8122291
9.127                0.969240015     -84.9538552
9.128                0.969161985     -85.0958514
9.129                 0.96908374     -85.2382185
9.13                 0.969005278     -85.3809577
9.131                0.968926599     -85.5240701
9.132                0.968847704     -85.6675566
9.133                0.968768593     -85.8114184
9.134                0.968689264     -85.9556564
9.135                0.968609719     -86.1002719
9.136                0.968529956     -86.2452658
9.137                0.968449976     -86.3906392
9.138                0.968369779     -86.5363931
9.139                0.968289365     -86.6825287
9.14                 0.968208733     -86.8290469
9.141                0.968127883      -86.975949
9.142                0.968046816     -87.1232358
9.143                0.967965531     -87.2709086
9.144                0.967884028     -87.4189684
9.145                0.967802308     -87.5674161
9.146                 0.96772037     -87.7162531
9.147                0.967638213     -87.8654801
9.148                0.967555839     -88.0150985
9.149                0.967473247     -88.1651092
9.15                 0.967390437     -88.3155133
9.151                0.967307409     -88.4663118
9.152                0.967224164      -88.617506
9.153                  0.9671407     -88.7690967
9.154                0.967057018     -88.9210852
9.155                0.966973119     -89.0734724
9.156                0.966889002     -89.2262595
9.157                0.966804667     -89.3794476
9.158                0.966720114     -89.5330376
9.159                0.966635344     -89.6870308
9.16                 0.966550356     -89.8414281
9.161                0.966465151     -89.9962306
9.162                0.966379729     -90.1514395
9.163                0.966294089     -90.3070557
9.164                0.966208233     -90.4630804
9.165                0.966122159     -90.6195147
9.166                0.966035869     -90.7763596
9.167                0.965949362     -90.9336161
9.168                0.965862638     -91.0912855
9.169                0.965775699     -91.2493687
9.17                 0.965688543     -91.4078668
9.171                0.965601171     -91.5667809
9.172                0.965513584     -91.7261121
9.173                0.965425781     -91.8858614
9.174                0.965337763     -92.0460299
9.175                 0.96524953     -92.2066188
9.176                0.965161082      -92.367629
9.177                 0.96507242     -92.5290616
9.178                0.964983543     -92.6909177
9.179                0.964894453     -92.8531984
9.18                 0.964805149     -93.0159047
9.181                0.964715632     -93.1790377
9.182                0.964625901     -93.3425985
9.183                0.964535959     -93.5065881
9.184                0.964445804     -93.6710076
9.185                0.964355437     -93.8358581
9.186                0.964264859     -94.0011406
9.187                0.964174069     -94.1668562
9.188                0.964083069     -94.3330059
9.189                0.963991859     -94.4995908
9.19                 0.963900439     -94.6666119
9.191                0.963808809     -94.8340704
9.192                0.963716971     -95.0019672
9.193                0.963624924     -95.1703034
9.194                0.963532669     -95.3390801
9.195                0.963440207     -95.5082983
9.196                0.963347538      -95.677959
9.197                0.963254662     -95.8480633
9.198                0.963161581     -96.0186122
9.199                0.963068294     -96.1896068
9.2                  0.962974803     -96.3610481
9.201                0.962881108     -96.5329371
9.202                0.962787209     -96.7052749
9.203                0.962693108     -96.8780625
9.204                0.962598804     -97.0513009
9.205                0.962504299     -97.2249911
9.206                0.962409592     -97.3991342
9.207                0.962314686     -97.5737312
9.208                 0.96221958     -97.7487831
9.209                0.962124276     -97.9242909
9.21                 0.962028773     -98.1002557
9.211                0.961933074     -98.2766783
9.212                0.961837178     -98.4535599
9.213                0.961741086     -98.6309014
9.214                0.961644799     -98.8087039
9.215                0.961548319     -98.9869682
9.216                0.961451645     -99.1656955
9.217                0.961354779     -99.3448867
9.218                0.961257721     -99.5245428
9.219                0.961160474     -99.7046647
9.22                 0.961063036     -99.8852534
9.221                 0.96096541      -100.06631
9.222                0.960867596     -100.247835
9.223                0.960769595      -100.42983
9.224                0.960671409     -100.612296
9.225                0.960573038     -100.795234
9.226                0.960474483     -100.978644
9.227                0.960375746     -101.162527
9.228                0.960276827     -101.346885
9.229                0.960177728     -101.531719
9.23                 0.960078449     -101.717028
9.231                0.959978992     -101.902815
9.232                0.959879358     -102.089081
9.233                0.959779548     -102.275825
9.234                0.959679564      -102.46305
9.235                0.959579406     -102.650755
9.236                0.959479076     -102.838942
9.237                0.959378574     -103.027612
9.238                0.959277904     -103.216766
9.239                0.959177064     -103.406404
9.24                 0.959076058     -103.596527
9.241                0.958974886     -103.787137
9.242                 0.95887355     -103.978234
9.243                 0.95877205     -104.169818
9.244                0.958670389     -104.361892
9.245                0.958568568     -104.554455
9.246                0.958466589     -104.747509
9.247                0.958364452     -104.941054
9.248                0.958262159     -105.135092
9.249                0.958159713     -105.329622
9.25                 0.958057113     -105.524646
9.251                0.957954363     -105.720165
9.252                0.957851463     -105.916179
9.253                0.957748416      -106.11269
9.254                0.957645222     -106.309697
9.255                0.957541884     -106.507203
9.256                0.957438402     -106.705207
9.257                 0.95733478      -106.90371
9.258                0.957231019     -107.102713
9.259                 0.95712712     -107.302217
9.26                 0.957023085     -107.502223
9.261                0.956918916     -107.702731
9.262                0.956814615     -107.903742
9.263                0.956710184     -108.105256
9.264                0.956605624     -108.307276
9.265                0.956500938       -108.5098
9.266                0.956396127      -108.71283
9.267                0.956291194     -108.916367
9.268                0.956186141      -109.12041
9.269                0.956080968     -109.324962
9.27                  0.95597568     -109.530022
9.271                0.955870277     -109.735591
9.272                0.955764761      -109.94167
9.273                0.955659136     -110.148259
9.274                0.955553402      -110.35536
9.275                0.955447563     -110.562972
9.276                 0.95534162     -110.771096
9.277                0.955235576     -110.979733
9.278                0.955129432     -111.188883
9.279                0.955023192     -111.398547
9.28                 0.954916857     -111.608725
9.281                 0.95481043     -111.819419
9.282                0.954703913     -112.030628
9.283                0.954597309     -112.242353
9.284                 0.95449062     -112.454595
9.285                0.954383848     -112.667354
9.286                0.954276997      -112.88063
9.287                0.954170068     -113.094424
9.288                0.954063064     -113.308737
9.289                0.953955987     -113.523568
9.29                 0.953848841     -113.738919
9.291                0.953741628      -113.95479
9.292                 0.95363435      -114.17118
9.293                 0.95352701     -114.388092
9.294                0.953419612     -114.605524
9.295                0.953312157     -114.823478
9.296                0.953204648     -115.041953
9.297                0.953097089     -115.260951
9.298                0.952989482      -115.48047
9.299                 0.95288183     -115.700513
9.3                  0.952774135     -115.921078
9.301                0.952666402     -116.142167
9.302                0.952558632     -116.363779
9.303                0.952450829     -116.585915
9.304                0.952342995     -116.808575
9.305                0.952235135      -117.03176
9.306                 0.95212725     -117.255469
9.307                0.952019344     -117.479703
9.308                 0.95191142     -117.704461
9.309                0.951803481     -117.929745
9.31                 0.951695531     -118.155554
9.311                0.951587573     -118.381889
9.312                0.951479609     -118.608749
9.313                0.951371643     -118.836134
9.314                0.951263679     -119.064046
9.315                 0.95115572     -119.292483
9.316                0.951047769     -119.521447
9.317                 0.95093983     -119.750936
9.318                0.950831906     -119.980951
9.319                   0.950724     -120.211492
9.32                 0.950616116     -120.442559
9.321                0.950508257     -120.674153
9.322                0.950400428     -120.906272
9.323                0.950292631     -121.138917
9.324                0.950184871     -121.372088
9.325                 0.95007715     -121.605785
9.326                0.949969473     -121.840008
9.327                0.949861843     -122.074756
9.328                0.949754265     -122.310029
9.329                0.949646741     -122.545828
9.33                 0.949539275     -122.782152
9.331                0.949431872     -123.019001
9.332                0.949324535     -123.256374
9.333                0.949217268     -123.494272
9.334                0.949110075     -123.732694
9.335                 0.94900296     -123.971641
9.336                0.948895927      -124.21111
9.337                0.948788979     -124.451104
9.338                0.948682122      -124.69162
9.339                0.948575358     -124.932659
9.34                 0.948468693      -125.17422
9.341                 0.94836213     -125.416303
9.342                0.948255672     -125.658908
9.343                0.948149326     -125.902034
9.344                0.948043094      -126.14568
9.345                 0.94793698     -126.389847
9.346                 0.94783099     -126.634533
9.347                0.947725127     -126.879739
9.348                0.947619396     -127.125463
9.349                0.947513801     -127.371706
9.35                 0.947408346     -127.618466
9.351                0.947303036     -127.865743
9.352                0.947197875     -128.113537
9.353                0.947092867     -128.361846
9.354                0.946988017      -128.61067
9.355                 0.94688333     -128.860009
9.356                 0.94677881     -129.109861
9.357                0.946674461     -129.360227
9.358                0.946570289     -129.611104
9.359                0.946466297     -129.862493
9.36                  0.94636249     -130.114393
9.361                0.946258874     -130.366803
9.362                0.946155452     -130.619722
9.363                0.946052229     -130.873149
9.364                 0.94594921     -131.127083
9.365                  0.9458464     -131.381523
9.366                0.945743803     -131.636469
9.367                0.945641424      -131.89192
9.368                0.945539268     -132.147874
9.369                0.945437341     -132.404331
9.37                 0.945335645     -132.661289
9.371                0.945234188     -132.918748
9.372                0.945132972     -133.176706
9.373                0.945032004     -133.435163
9.374                0.944931288     -133.694116
9.375                0.944830829     -133.953566
9.376                0.944730633     -134.213511
9.377                0.944630703     -134.473949
9.378                0.944531046      -134.73488
9.379                0.944431665     -134.996302
9.38                 0.944332567     -135.258214
9.381                0.944233755     -135.520614
9.382                0.944135236     -135.783502
9.383                0.944037014     -136.046877
9.384                0.943939095     -136.310735
9.385                0.943841483     -136.575077
9.386                0.943744183     -136.839901
9.387                0.943647201     -137.105205
9.388                0.943550543     -137.370989
9.389                0.943454212     -137.637249
9.39                 0.943358214     -137.903986
9.391                0.943262555     -138.171197
9.392                 0.94316724      -138.43888
9.393                0.943072273     -138.707035
9.394                 0.94297766      -138.97566
9.395                0.942883407     -139.244752
9.396                0.942789518     -139.514311
