! TOUCHSTONE file generated by CST DESIGN STUDIO
! Date and time: Tue Feb  4 16:08:49 2025
! Project name: C:\Work\MatlabApps\UnitCellOptimizationMatlab\CST\unitcell.cst
! Tree item: Tasks\Sweep1\SPara1\S-Parameters
! Header version: 2024
! Port assignment regex: !\s*Touchstone port\s*([0-9]+)\s*=\s*(CST MWS port|CST DES external port|CST DES block port)\s*(.+)\s* \(\"(.*)\"\)(\s*mode\s*([0-9]+))?.*
! Touchstone port assignment:
! Touchstone port 1 = CST DES external port 1 ("")
# GHz S MA R 50
9                    0.964944137      -41.290627
9.001                0.964885998     -41.3384447
9.002                  0.9648277     -41.3863502
9.003                0.964769242      -41.434344
9.004                0.964710624     -41.4824263
9.005                0.964651846     -41.5305972
9.006                0.964592907     -41.5788572
9.007                0.964533806     -41.6272063
9.008                0.964474543     -41.6756449
9.009                0.964415118     -41.7241733
9.01                 0.964355529     -41.7727916
9.011                0.964295776     -41.8215002
9.012                0.964235859     -41.8702993
9.013                0.964175777     -41.9191892
9.014                 0.96411553     -41.9681702
9.015                0.964055117     -42.0172424
9.016                0.963994537     -42.0664062
9.017                 0.96393379     -42.1156618
9.018                0.963872876     -42.1650096
9.019                0.963811793     -42.2144497
9.02                 0.963750541     -42.2639824
9.021                0.963689121      -42.313608
9.022                 0.96362753     -42.3633268
9.023                0.963565768     -42.4131391
9.024                0.963503836     -42.4630451
9.025                0.963441732      -42.513045
9.026                0.963379455     -42.5631392
9.027                0.963317006      -42.613328
9.028                0.963254383     -42.6636115
9.029                0.963191586     -42.7139902
9.03                 0.963128615     -42.7644642
9.031                0.963065468     -42.8150338
9.032                0.963002146     -42.8656994
9.033                0.962938647     -42.9164612
9.034                0.962874972     -42.9673195
9.035                0.962811118     -43.0182745
9.036                0.962747087     -43.0693266
9.037                0.962682876     -43.1204761
9.038                0.962618486     -43.1717231
9.039                0.962553916     -43.2230681
9.04                 0.962489166     -43.2745112
9.041                0.962424234     -43.3260529
9.042                 0.96235912     -43.3776933
9.043                0.962293823     -43.4294328
9.044                0.962228344     -43.4812716
9.045                 0.96216268     -43.5332101
9.046                0.962096833     -43.5852486
9.047                  0.9620308     -43.6373872
9.048                0.961964581     -43.6896265
9.049                0.961898176     -43.7419665
9.05                 0.961831584     -43.7944077
9.051                0.961764804     -43.8469503
9.052                0.961697836     -43.8995946
9.053                 0.96163068      -43.952341
9.054                0.961563333     -44.0051897
9.055                0.961495796      -44.058141
9.056                0.961428069     -44.1111953
9.057                0.961360149     -44.1643528
9.058                0.961292038     -44.2176138
9.059                0.961223733     -44.2709788
9.06                 0.961155235     -44.3244479
9.061                0.961086543     -44.3780214
9.062                0.961017656     -44.4316998
9.063                0.960948573     -44.4854833
9.064                0.960879293     -44.5393722
9.065                0.960809817     -44.5933668
9.066                0.960740143     -44.6474674
9.067                0.960670271     -44.7016745
9.068                  0.9606002     -44.7559882
9.069                0.960529929     -44.8104089
9.07                 0.960459457     -44.8649369
9.071                0.960388784     -44.9195725
9.072                 0.96031791     -44.9743162
9.073                0.960246832     -45.0291681
9.074                0.960175552     -45.0841286
9.075                0.960104067      -45.139198
9.076                0.960032378     -45.1943768
9.077                0.959960483     -45.2496651
9.078                0.959888382     -45.3050633
9.079                0.959816075     -45.3605718
9.08                 0.959743559     -45.4161908
9.081                0.959670835     -45.4719208
9.082                0.959597903     -45.5277621
9.083                 0.95952476     -45.5837149
9.084                0.959451407     -45.6397796
9.085                0.959377842     -45.6959567
9.086                0.959304065     -45.7522463
9.087                0.959230076     -45.8086488
9.088                0.959155873     -45.8651646
9.089                0.959081455     -45.9217941
9.09                 0.959006823     -45.9785375
9.091                0.958931975     -46.0353953
9.092                 0.95885691     -46.0923677
9.093                0.958781627     -46.1494551
9.094                0.958706127     -46.2066579
9.095                0.958630407     -46.2639764
9.096                0.958554468     -46.3214109
9.097                0.958478309     -46.3789618
9.098                0.958401928     -46.4366296
9.099                0.958325325     -46.4944144
9.1                  0.958248499     -46.5523167
9.101                0.958171449     -46.6103369
9.102                0.958094175     -46.6684753
9.103                0.958016676     -46.7267322
9.104                0.957938951      -46.785108
9.105                0.957860999     -46.8436032
9.106                0.957782819     -46.9022179
9.107                0.957704411     -46.9609527
9.108                0.957625773     -47.0198079
9.109                0.957546906     -47.0787838
9.11                 0.957467807     -47.1378808
9.111                0.957388477     -47.1970994
9.112                0.957308914     -47.2564398
9.113                0.957229117     -47.3159024
9.114                0.957149087     -47.3754877
9.115                0.957068821     -47.4351959
9.116                0.956988319     -47.4950275
9.117                 0.95690758     -47.5549829
9.118                0.956826604     -47.6150624
9.119                0.956745389     -47.6752664
9.12                 0.956663935     -47.7355953
9.121                0.956582241     -47.7960495
9.122                0.956500306     -47.8566294
9.123                0.956418128     -47.9173353
9.124                0.956335708     -47.9781676
9.125                0.956253044     -48.0391268
9.126                0.956170136     -48.1002133
9.127                0.956086982     -48.1614273
9.128                0.956003581     -48.2227694
9.129                0.955919934     -48.2842399
9.13                 0.955836038     -48.3458392
9.131                0.955751894     -48.4075677
9.132                0.955667499     -48.4694259
9.133                0.955582854      -48.531414
9.134                0.955497957     -48.5935326
9.135                0.955412807     -48.6557821
9.136                0.955327404     -48.7181627
9.137                0.955241746      -48.780675
9.138                0.955155833     -48.8433194
9.139                0.955069663     -48.9060962
9.14                 0.954983237     -48.9690059
9.141                0.954896552     -49.0320489
9.142                0.954809608     -49.0952256
9.143                0.954722404     -49.1585364
9.144                0.954634939     -49.2219818
9.145                0.954547212     -49.2855622
9.146                0.954459222     -49.3492779
9.147                0.954370969     -49.4131295
9.148                0.954282451     -49.4771173
9.149                0.954193666     -49.5412418
9.15                 0.954104616     -49.6055034
9.151                0.954015297     -49.6699025
9.152                 0.95392571     -49.7344396
9.153                0.953835853      -49.799115
9.154                0.953745726     -49.8639294
9.155                0.953655327     -49.9288829
9.156                0.953564656     -49.9939762
9.157                0.953473711     -50.0592096
9.158                0.953382491     -50.1245836
9.159                0.953290996     -50.1900987
9.16                 0.953199224     -50.2557552
9.161                0.953107175     -50.3215537
9.162                0.953014847     -50.3874945
9.163                 0.95292224     -50.4535781
9.164                0.952829352     -50.5198051
9.165                0.952736183     -50.5861757
9.166                 0.95264273     -50.6526906
9.167                0.952548995       -50.71935
9.168                0.952454974     -50.7861546
9.169                0.952360668     -50.8531048
9.17                 0.952266075     -50.9202009
9.171                0.952171194     -50.9874436
9.172                0.952076024     -51.0548332
9.173                0.951980564     -51.1223702
9.174                0.951884814     -51.1900551
9.175                0.951788771     -51.2578884
9.176                0.951692435     -51.3258705
9.177                0.951595806     -51.3940019
9.178                 0.95149888     -51.4622831
9.179                0.951401659     -51.5307145
9.18                  0.95130414     -51.5992967
9.181                0.951206323     -51.6680301
9.182                0.951108206     -51.7369152
9.183                0.951009788     -51.8059525
9.184                0.950911069     -51.8751425
9.185                0.950812047     -51.9444857
9.186                0.950712721     -52.0139825
9.187                 0.95061309     -52.0836334
9.188                0.950513153      -52.153439
9.189                0.950412908     -52.2233998
9.19                 0.950312355     -52.2935162
9.191                0.950211493     -52.3637887
9.192                 0.95011032     -52.4342178
9.193                0.950008835     -52.5048041
9.194                0.949907037     -52.5755481
9.195                0.949804925     -52.6464502
9.196                0.949702498      -52.717511
9.197                0.949599754     -52.7887309
9.198                0.949496693     -52.8601106
9.199                0.949393314     -52.9316504
9.2                  0.949289614      -53.003351
9.201                0.949185594     -53.0752128
9.202                0.949081251     -53.1472364
9.203                0.948976585     -53.2194223
9.204                0.948871595      -53.291771
9.205                0.948766278      -53.364283
9.206                0.948660635     -53.4369589
9.207                0.948554664     -53.5097992
9.208                0.948448364     -53.5828044
9.209                0.948341733     -53.6559751
9.21                  0.94823477     -53.7293118
9.211                0.948127475      -53.802815
9.212                0.948019846     -53.8764853
9.213                0.947911881     -53.9503233
9.214                0.947803579     -54.0243294
9.215                 0.94769494     -54.0985042
9.216                0.947585962     -54.1728483
9.217                0.947476644     -54.2473623
9.218                0.947366985     -54.3220466
9.219                0.947256982     -54.3969018
9.22                 0.947146636     -54.4719285
9.221                0.947035944     -54.5471273
9.222                0.946924907     -54.6224987
9.223                0.946813521     -54.6980432
9.224                0.946701787     -54.7737615
9.225                0.946589702     -54.8496541
9.226                0.946477266     -54.9257215
9.227                0.946364477     -55.0019645
9.228                0.946251334     -55.0783834
9.229                0.946137835     -55.1549789
9.23                  0.94602398     -55.2317517
9.231                0.945909768     -55.3087021
9.232                0.945795195      -55.385831
9.233                0.945680263     -55.4631387
9.234                0.945564969      -55.540626
9.235                0.945449311     -55.6182934
9.236                0.945333289     -55.6961415
9.237                0.945216901     -55.7741709
9.238                0.945100147     -55.8523821
9.239                0.944983024     -55.9307759
9.24                 0.944865531     -56.0093528
9.241                0.944747667     -56.0881133
9.242                0.944629431     -56.1670582
9.243                 0.94451082      -56.246188
9.244                0.944391835     -56.3255032
9.245                0.944272474     -56.4050047
9.246                0.944152734     -56.4846928
9.247                0.944032616     -56.5645684
9.248                0.943912116     -56.6446319
9.249                0.943791235      -56.724884
9.25                 0.943669971     -56.8053254
9.251                0.943548322     -56.8859566
9.252                0.943426287     -56.9667783
9.253                0.943303865     -57.0477911
9.254                0.943181054     -57.1289957
9.255                0.943057852     -57.2103927
9.256                0.942934259     -57.2919827
9.257                0.942810273     -57.3737664
9.258                0.942685892     -57.4557443
9.259                0.942561116     -57.5379173
9.26                 0.942435943     -57.6202858
9.261                 0.94231037     -57.7028506
9.262                0.942184398     -57.7856123
9.263                0.942058024     -57.8685716
9.264                0.941931247     -57.9517291
9.265                0.941804066     -58.0350855
9.266                0.941676479     -58.1186415
9.267                0.941548484     -58.2023976
9.268                0.941420081     -58.2863547
9.269                0.941291268     -58.3705132
9.27                 0.941162043     -58.4548741
9.271                0.941032405     -58.5394378
9.272                0.940902352     -58.6242051
9.273                0.940771883     -58.7091766
9.274                0.940640997     -58.7943531
9.275                0.940509692     -58.8797353
9.276                0.940377966     -58.9653237
9.277                0.940245818     -59.0511192
9.278                0.940113247     -59.1371224
9.279                0.939980251     -59.2233339
9.28                 0.939846828     -59.3097546
9.281                0.939712977      -59.396385
9.282                0.939578697      -59.483226
9.283                0.939443986     -59.5702782
9.284                0.939308842     -59.6575423
9.285                0.939173264      -59.745019
9.286                0.939037251     -59.8327091
9.287                0.938900801     -59.9206132
9.288                0.938763911     -60.0087321
9.289                0.938626582     -60.0970666
9.29                 0.938488811     -60.1856172
9.291                0.938350597     -60.2743849
9.292                0.938211938     -60.3633702
9.293                0.938072833     -60.4525739
9.294                0.937933279     -60.5419968
9.295                0.937793277     -60.6316396
9.296                0.937652823     -60.7215031
9.297                0.937511917     -60.8115879
9.298                0.937370556     -60.9018949
9.299                 0.93722874     -60.9924247
9.3                  0.937086466     -61.0831782
9.301                0.936943733     -61.1741561
9.302                 0.93680054     -61.2653591
9.303                0.936656885      -61.356788
9.304                0.936512766     -61.4484437
9.305                0.936368182     -61.5403267
9.306                0.936223131      -61.632438
9.307                0.936077612     -61.7247783
9.308                0.935931622     -61.8173483
9.309                0.935785161     -61.9101489
9.31                 0.935638226     -62.0031807
9.311                0.935490816     -62.0964447
9.312                 0.93534293     -62.1899416
9.313                0.935194566     -62.2836722
9.314                0.935045721     -62.3776372
9.315                0.934896396     -62.4718375
9.316                0.934746587     -62.5662739
9.317                0.934596293     -62.6609472
9.318                0.934445513     -62.7558581
9.319                0.934294245     -62.8510075
9.32                 0.934142488     -62.9463962
9.321                0.933990239      -63.042025
9.322                0.933837497     -63.1378948
9.323                 0.93368426     -63.2340063
9.324                0.933530527     -63.3303603
9.325                0.933376296     -63.4269577
9.326                0.933221566     -63.5237994
9.327                0.933066334     -63.6208861
9.328                0.932910599     -63.7182187
9.329                0.932754359      -63.815798
9.33                 0.932597614     -63.9136249
9.331                 0.93244036     -64.0117002
9.332                0.932282596     -64.1100247
9.333                0.932124321     -64.2085993
9.334                0.931965533     -64.3074249
9.335                 0.93180623     -64.4065023
9.336                0.931646411     -64.5058324
9.337                0.931486073      -64.605416
9.338                0.931325216      -64.705254
9.339                0.931163837     -64.8053473
9.34                 0.931001934     -64.9056967
9.341                0.930839507     -65.0063031
9.342                0.930676553     -65.1071674
9.343                0.930513071     -65.2082905
9.344                0.930349058     -65.3096732
9.345                0.930184514     -65.4113165
9.346                0.930019436     -65.5132212
9.347                0.929853823     -65.6153882
9.348                0.929687672     -65.7178185
9.349                0.929520983     -65.8205129
9.35                 0.929353754     -65.9234723
9.351                0.929185982     -66.0266976
9.352                0.929017667     -66.1301898
9.353                0.928848806     -66.2339497
9.354                0.928679397     -66.3379783
9.355                0.928509439     -66.4422764
9.356                0.928338931     -66.5468451
9.357                 0.92816787     -66.6516852
9.358                0.927996254     -66.7567977
9.359                0.927824083     -66.8621835
9.36                 0.927651353     -66.9678435
9.361                0.927478064     -67.0737787
9.362                0.927304214       -67.17999
9.363                0.927129801     -67.2864783
9.364                0.926954823     -67.3932447
9.365                0.926779279       -67.50029
9.366                0.926603166     -67.6076152
9.367                0.926426483     -67.7152213
9.368                0.926249229     -67.8231093
9.369                0.926071401       -67.93128
9.37                 0.925892997     -68.0397345
9.371                0.925714017     -68.1484737
9.372                0.925534458     -68.2574987
9.373                0.925354318     -68.3668103
9.374                0.925173597     -68.4764096
9.375                0.924992291     -68.5862976
9.376                0.924810399     -68.6964752
9.377                 0.92462792     -68.8069434
9.378                0.924444852     -68.9177033
9.379                0.924261193     -69.0287558
9.38                 0.924076941      -69.140102
9.381                0.923892095     -69.2517427
9.382                0.923706652     -69.3636792
9.383                0.923520611     -69.4759123
9.384                0.923333971      -69.588443
9.385                0.923146729     -69.7012725
9.386                0.922958884     -69.8144016
9.387                0.922770434     -69.9278316
9.388                0.922581378     -70.0415632
9.389                0.922391713     -70.1555977
9.39                 0.922201438     -70.2699361
9.391                0.922010551     -70.3845793
9.392                 0.92181905     -70.4995284
9.393                0.921626934     -70.6147845
9.394                0.921434202     -70.7303486
9.395                 0.92124085     -70.8462217
9.396                0.921046878      -70.962405
