! TOUCHSTONE file generated by CST DESIGN STUDIO
! Date and time: Tue Feb  4 16:08:50 2025
! Project name: C:\Work\MatlabApps\UnitCellOptimizationMatlab\CST\unitcell.cst
! Tree item: Tasks\Sweep1\SPara1\S-Parameters
! Header version: 2024
! Port assignment regex: !\s*Touchstone port\s*([0-9]+)\s*=\s*(CST MWS port|CST DES external port|CST DES block port)\s*(.+)\s* \(\"(.*)\"\)(\s*mode\s*([0-9]+))?.*
! Touchstone port assignment:
! Touchstone port 1 = CST DES external port 1 ("")
# GHz S MA R 50
9                    0.968940944     -37.8889506
9.001                0.968894359     -37.9317997
9.002                0.968847648     -37.9747227
9.003                0.968800812     -38.0177197
9.004                0.968753849      -38.060791
9.005                 0.96870676     -38.1039368
9.006                0.968659544     -38.1471572
9.007                  0.9686122     -38.1904525
9.008                0.968564729     -38.2338228
9.009                0.968517129     -38.2772685
9.01                 0.968469401     -38.3207897
9.011                0.968421544     -38.3643865
9.012                0.968373557     -38.4080593
9.013                0.968325441     -38.4518083
9.014                0.968277194     -38.4956335
9.015                0.968228816     -38.5395354
9.016                0.968180308      -38.583514
9.017                0.968131667     -38.6275696
9.018                0.968082895     -38.6717024
9.019                 0.96803399     -38.7159126
9.02                 0.967984952     -38.7602004
9.021                0.967935781     -38.8045661
9.022                0.967886477     -38.8490099
9.023                0.967837038     -38.8935319
9.024                0.967787464     -38.9381325
9.025                0.967737755     -38.9828118
9.026                0.967687911       -39.02757
9.027                0.967637931     -39.0724075
9.028                0.967587815     -39.1173243
9.029                0.967537561     -39.1623207
9.03                 0.967487171      -39.207397
9.031                0.967436642     -39.2525533
9.032                0.967385976     -39.2977899
9.033                 0.96733517     -39.3431071
9.034                0.967284226     -39.3885049
9.035                0.967233142     -39.4339838
9.036                0.967181918     -39.4795439
9.037                0.967130553     -39.5251854
9.038                0.967079048     -39.5709085
9.039                0.967027401     -39.6167136
9.04                 0.966975612     -39.6626008
9.041                0.966923681     -39.7085703
9.042                0.966871607     -39.7546225
9.043                0.966819389     -39.8007574
9.044                0.966767028     -39.8469754
9.045                0.966714523     -39.8932768
9.046                0.966661872     -39.9396616
9.047                0.966609077     -39.9861302
9.048                0.966556136     -40.0326829
9.049                0.966503048     -40.0793198
9.05                 0.966449814     -40.1260411
9.051                0.966396432     -40.1728472
9.052                0.966342903     -40.2197383
9.053                0.966289226     -40.2667146
9.054                  0.9662354     -40.3137764
9.055                0.966181425     -40.3609238
9.056                  0.9661273     -40.4081572
9.057                0.966073025     -40.4554768
9.058                0.966018599     -40.5028829
9.059                0.965964023     -40.5503756
9.06                 0.965909294     -40.5979552
9.061                0.965854413     -40.6456221
9.062                0.965799379     -40.6933764
9.063                0.965744193     -40.7412183
9.064                0.965688852     -40.7891482
9.065                0.965633357     -40.8371664
9.066                0.965577707     -40.8852729
9.067                0.965521902     -40.9334682
9.068                0.965465941     -40.9817524
9.069                0.965409824     -41.0301258
9.07                  0.96535355     -41.0785887
9.071                0.965297118     -41.1271413
9.072                0.965240529     -41.1757839
9.073                 0.96518378     -41.2245167
9.074                0.965126873     -41.2733401
9.075                0.965069806     -41.3222542
9.076                0.965012579     -41.3712594
9.077                0.964955192     -41.4203559
9.078                0.964897643     -41.4695439
9.079                0.964839932     -41.5188237
9.08                 0.964782059     -41.5681957
9.081                0.964724023       -41.61766
9.082                0.964665824     -41.6672169
9.083                 0.96460746     -41.7168668
9.084                0.964548932     -41.7666098
9.085                0.964490239     -41.8164462
9.086                 0.96443138     -41.8663764
9.087                0.964372355     -41.9164005
9.088                0.964313163     -41.9665189
9.089                0.964253803     -42.0167318
9.09                 0.964194276     -42.0670396
9.091                 0.96413458     -42.1174424
9.092                0.964074715     -42.1679406
9.093                 0.96401468     -42.2185345
9.094                0.963954475     -42.2692243
9.095                0.963894099     -42.3200103
9.096                0.963833551     -42.3708927
9.097                0.963772831      -42.421872
9.098                0.963711939     -42.4729483
9.099                0.963650873     -42.5241219
9.1                  0.963589634     -42.5753932
9.101                 0.96352822     -42.6267623
9.102                0.963466631     -42.6782297
9.103                0.963404866     -42.7297956
9.104                0.963342925     -42.7814603
9.105                0.963280807      -42.833224
9.106                0.963218511     -42.8850871
9.107                0.963156037     -42.9370498
9.108                0.963093385     -42.9891125
9.109                0.963030553     -43.0412755
9.11                 0.962967541      -43.093539
9.111                0.962904349     -43.1459033
9.112                0.962840975     -43.1983688
9.113                0.962777419     -43.2509357
9.114                0.962713681     -43.3036043
9.115                 0.96264976      -43.356375
9.116                0.962585655     -43.4092481
9.117                0.962521365     -43.4622238
9.118                 0.96245689     -43.5153024
9.119                 0.96239223     -43.5684843
9.12                 0.962327383     -43.6217698
9.121                0.962262349     -43.6751591
9.122                0.962197128     -43.7286526
9.123                0.962131718     -43.7822507
9.124                0.962066119     -43.8359535
9.125                 0.96200033     -43.8897615
9.126                0.961934351     -43.9436749
9.127                0.961868181      -43.997694
9.128                 0.96180182     -44.0518192
9.129                0.961735266     -44.1060508
9.13                 0.961668519     -44.1603891
9.131                0.961601578     -44.2148344
9.132                0.961534443      -44.269387
9.133                0.961467112     -44.3240474
9.134                0.961399587     -44.3788157
9.135                0.961331864     -44.4336923
9.136                0.961263945     -44.4886775
9.137                0.961195827     -44.5437717
9.138                0.961127511     -44.5989752
9.139                0.961058996     -44.6542884
9.14                 0.960990281     -44.7097114
9.141                0.960921365     -44.7652448
9.142                0.960852248     -44.8208888
9.143                0.960782929     -44.8766437
9.144                0.960713407     -44.9325099
9.145                0.960643681     -44.9884877
9.146                0.960573752     -45.0445775
9.147                0.960503617     -45.1007796
9.148                0.960433277     -45.1570943
9.149                 0.96036273      -45.213522
9.15                 0.960291976     -45.2700631
9.151                0.960221014     -45.3267177
9.152                0.960149844     -45.3834864
9.153                0.960078464     -45.4403695
9.154                0.960006874     -45.4973672
9.155                0.959935073       -45.55448
9.156                0.959863061     -45.6117082
9.157                0.959790837     -45.6690522
9.158                0.959718399     -45.7265122
9.159                0.959645747     -45.7840888
9.16                 0.959572881     -45.8417821
9.161                0.959499799     -45.8995926
9.162                0.959426502     -45.9575207
9.163                0.959352987     -46.0155666
9.164                0.959279254     -46.0737308
9.165                0.959205304     -46.1320136
9.166                0.959131133     -46.1904153
9.167                0.959056743     -46.2489364
9.168                0.958982132     -46.3075772
9.169                  0.9589073     -46.3663381
9.17                 0.958832244     -46.4252194
9.171                0.958756966     -46.4842215
9.172                0.958681464     -46.5433449
9.173                0.958605737     -46.6025897
9.174                0.958529784     -46.6619565
9.175                0.958453605     -46.7214456
9.176                0.958377198     -46.7810574
9.177                0.958300564     -46.8407922
9.178                0.958223701     -46.9006505
9.179                0.958146608     -46.9606326
9.18                 0.958069284     -47.0207389
9.181                0.957991729     -47.0809698
9.182                0.957913942     -47.1413256
9.183                0.957835922     -47.2018068
9.184                0.957757668     -47.2624138
9.185                 0.95767918     -47.3231469
9.186                0.957600455     -47.3840065
9.187                0.957521495      -47.444993
9.188                0.957442297     -47.5061069
9.189                0.957362861     -47.5673484
9.19                 0.957283186     -47.6287181
9.191                0.957203272     -47.6902162
9.192                0.957123117     -47.7518433
9.193                 0.95704272     -47.8135997
9.194                0.956962081     -47.8754857
9.195                0.956881198     -47.9375019
9.196                0.956800071     -47.9996486
9.197                  0.9567187     -48.0619262
9.198                0.956637082     -48.1243352
9.199                0.956555218     -48.1868759
9.2                  0.956473106     -48.2495488
9.201                0.956390745     -48.3123542
9.202                0.956308135     -48.3752926
9.203                0.956225274     -48.4383644
9.204                0.956142162       -48.50157
9.205                0.956058798     -48.5649099
9.206                0.955975181     -48.6283844
9.207                0.955891309      -48.691994
9.208                0.955807183     -48.7557391
9.209                0.955722801     -48.8196202
9.21                 0.955638162     -48.8836376
9.211                0.955553265     -48.9477917
9.212                 0.95546811     -49.0120832
9.213                0.955382695     -49.0765122
9.214                 0.95529702     -49.1410794
9.215                0.955211083      -49.205785
9.216                0.955124883     -49.2706296
9.217                 0.95503842     -49.3356137
9.218                0.954951693     -49.4007375
9.219                0.954864701     -49.4660017
9.22                 0.954777442     -49.5314065
9.221                0.954689916     -49.5969526
9.222                0.954602122     -49.6626402
9.223                0.954514058     -49.7284699
9.224                0.954425725     -49.7944421
9.225                 0.95433712     -49.8605573
9.226                0.954248243      -49.926816
9.227                0.954159093     -49.9932185
9.228                 0.95406967     -50.0597653
9.229                 0.95397997     -50.1264569
9.23                 0.953889995     -50.1932938
9.231                0.953799743     -50.2602764
9.232                0.953709213     -50.3274052
9.233                0.953618403     -50.3946806
9.234                0.953527314     -50.4621032
9.235                0.953435943     -50.5296733
9.236                 0.95334429     -50.5973915
9.237                0.953252354     -50.6652582
9.238                0.953160134     -50.7332739
9.239                0.953067628     -50.8014391
9.24                 0.952974836     -50.8697543
9.241                0.952881757     -50.9382199
9.242                 0.95278839     -51.0068364
9.243                0.952694733     -51.0756044
9.244                0.952600785     -51.1445242
9.245                0.952506546     -51.2135964
9.246                0.952412015     -51.2828215
9.247                 0.95231719     -51.3521999
9.248                 0.95222207     -51.4217322
9.249                0.952126654     -51.4914189
9.25                 0.952030941     -51.5612604
9.251                0.951934931     -51.6312572
9.252                0.951838621     -51.7014099
9.253                0.951742011     -51.7717189
9.254                  0.9516451     -51.8421848
9.255                0.951547887      -51.912808
9.256                0.951450371     -51.9835892
9.257                0.951352549     -52.0545286
9.258                0.951254423      -52.125627
9.259                0.951155989     -52.1968848
9.26                 0.951057248     -52.2683025
9.261                0.950958197     -52.3398807
9.262                0.950858837     -52.4116198
9.263                0.950759165     -52.4835203
9.264                0.950659181     -52.5555829
9.265                0.950558884      -52.627808
9.266                0.950458272     -52.7001962
9.267                0.950357344      -52.772748
9.268                0.950256099     -52.8454639
9.269                0.950154536     -52.9183444
9.27                 0.950052654     -52.9913902
9.271                0.949950452     -53.0646016
9.272                0.949847928     -53.1379794
9.273                0.949745081     -53.2115239
9.274                 0.94964191     -53.2852358
9.275                0.949538415     -53.3591156
9.276                0.949434593     -53.4331639
9.277                0.949330443     -53.5073811
9.278                0.949225965     -53.5817679
9.279                0.949121158     -53.6563248
9.28                 0.949016019     -53.7310524
9.281                0.948910548     -53.8059512
9.282                0.948804743     -53.8810218
9.283                0.948698604     -53.9562648
9.284                0.948592129     -54.0316806
9.285                0.948485317       -54.10727
9.286                0.948378167     -54.1830333
9.287                0.948270678     -54.2589713
9.288                0.948162847     -54.3350846
9.289                0.948054675     -54.4113735
9.29                 0.947946159     -54.4878389
9.291                0.947837299     -54.5644811
9.292                0.947728093     -54.6413009
9.293                0.947618541     -54.7182988
9.294                 0.94750864     -54.7954753
9.295                0.947398389     -54.8728312
9.296                0.947287788     -54.9503669
9.297                0.947176835     -55.0280831
9.298                0.947065529     -55.1059803
9.299                0.946953868     -55.1840592
9.3                  0.946841851     -55.2623203
9.301                0.946729477     -55.3407643
9.302                0.946616745     -55.4193918
9.303                0.946503653     -55.4982033
9.304                  0.9463902     -55.5771995
9.305                0.946276385     -55.6563811
9.306                0.946162206     -55.7357485
9.307                0.946047663     -55.8153024
9.308                0.945932753     -55.8950435
9.309                0.945817476     -55.9749724
9.31                 0.945701829     -56.0550897
9.311                0.945585813      -56.135396
9.312                0.945469425     -56.2158919
9.313                0.945352664     -56.2965781
9.314                0.945235529     -56.3774552
9.315                0.945118018     -56.4585239
9.316                0.945000131     -56.5397848
9.317                0.944881865     -56.6212385
9.318                 0.94476322     -56.7028856
9.319                0.944644194     -56.7847269
9.32                 0.944524786     -56.8667629
9.321                0.944404993     -56.9489944
9.322                0.944284816     -57.0314219
9.323                0.944164253     -57.1140461
9.324                0.944043301     -57.1968678
9.325                 0.94392196     -57.2798874
9.326                0.943800229     -57.3631058
9.327                0.943678106     -57.4465236
9.328                0.943555589     -57.5301414
9.329                0.943432678     -57.6139599
9.33                  0.94330937     -57.6979797
9.331                0.943185665     -57.7822017
9.332                0.943061561     -57.8666264
9.333                0.942937056     -57.9512544
9.334                 0.94281215     -58.0360866
9.335                 0.94268684     -58.1211236
9.336                0.942561126     -58.2063661
9.337                0.942435005     -58.2918147
9.338                0.942308477     -58.3774702
9.339                 0.94218154     -58.4633333
9.34                 0.942054192     -58.5494046
9.341                0.941926432     -58.6356848
9.342                0.941798259     -58.7221748
9.343                0.941669671     -58.8088751
9.344                0.941540667     -58.8957864
9.345                0.941411245     -58.9829096
9.346                0.941281404     -59.0702453
9.347                0.941151142     -59.1577942
9.348                0.941020458     -59.2455571
9.349                0.940889351     -59.3335346
9.35                 0.940757818     -59.4217275
9.351                0.940625858     -59.5101365
9.352                 0.94049347     -59.5987624
9.353                0.940360653     -59.6876059
9.354                0.940227404     -59.7766677
9.355                0.940093723     -59.8659486
9.356                0.939959608     -59.9554493
9.357                0.939825057     -60.0451705
9.358                0.939690068     -60.1351131
9.359                0.939554641     -60.2252777
9.36                 0.939418774     -60.3156651
9.361                0.939282465     -60.4062761
9.362                0.939145713     -60.4971113
9.363                0.939008515     -60.5881717
9.364                0.938870872     -60.6794579
9.365                 0.93873278     -60.7709708
9.366                0.938594239      -60.862711
9.367                0.938455247     -60.9546794
9.368                0.938315802     -61.0468768
9.369                0.938175903     -61.1393038
9.37                 0.938035549     -61.2319614
9.371                0.937894737     -61.3248502
9.372                0.937753466     -61.4179711
9.373                0.937611735     -61.5113249
9.374                0.937469542     -61.6049123
9.375                0.937326885     -61.6987342
9.376                0.937183764     -61.7927914
9.377                0.937040175     -61.8870846
9.378                0.936896118     -61.9816147
9.379                0.936751591     -62.0763824
9.38                 0.936606593     -62.1713887
9.381                0.936461121     -62.2666342
9.382                0.936315175     -62.3621199
9.383                0.936168752     -62.4578465
9.384                0.936021852     -62.5538148
9.385                0.935874471     -62.6500258
9.386                 0.93572661     -62.7464802
9.387                0.935578266     -62.8431788
9.388                0.935429437     -62.9401225
9.389                0.935280123     -63.0373122
9.39                 0.935130321     -63.1347486
9.391                0.934980029     -63.2324326
9.392                0.934829247     -63.3303652
9.393                0.934677971      -63.428547
9.394                0.934526202      -63.526979
9.395                0.934373937      -63.625662
9.396                0.934221174     -63.7245969
