! TOUCHSTONE file generated by CST DESIGN STUDIO
! Date and time: Tue Feb  4 16:08:35 2025
! Project name: C:\Work\MatlabApps\UnitCellOptimizationMatlab\CST\unitcell.cst
! Tree item: Tasks\Sweep1\SPara1\S-Parameters
! Header version: 2024
! Port assignment regex: !\s*Touchstone port\s*([0-9]+)\s*=\s*(CST MWS port|CST DES external port|CST DES block port)\s*(.+)\s* \(\"(.*)\"\)(\s*mode\s*([0-9]+))?.*
! Touchstone port assignment:
! Touchstone port 1 = CST DES external port 1 ("")
# GHz S MA R 50
9                    0.889998393     -94.6073766
9.001                0.889670274     -94.7867542
9.002                0.889341277     -94.9666512
9.003                0.889011401     -95.1470692
9.004                0.888680649     -95.3280096
9.005                0.888349023     -95.5094738
9.006                0.888016522     -95.6914634
9.007                 0.88768315     -95.8739798
9.008                0.887348906     -96.0570245
9.009                0.887013794     -96.2405989
9.01                 0.886677814     -96.4247045
9.011                0.886340968     -96.6093427
9.012                0.886003259     -96.7945151
9.013                0.885664687     -96.9802231
9.014                0.885325255      -97.166468
9.015                0.884984965     -97.3532515
9.016                0.884643818     -97.5405749
9.017                0.884301817     -97.7284397
9.018                0.883958964     -97.9168473
9.019                0.883615262     -98.1057992
9.02                 0.883270711     -98.2952968
9.021                0.882925316     -98.4853416
9.022                0.882579078      -98.675935
9.023                   0.882232     -98.8670784
9.024                0.881884085     -99.0587733
9.025                0.881535335      -99.251021
9.026                0.881185752     -99.4438231
9.027                 0.88083534     -99.6371808
9.028                0.880484102     -99.8310958
9.029                0.880132041     -100.025569
9.03                 0.879779159     -100.220603
9.031                 0.87942546     -100.416198
9.032                0.879070947     -100.612355
9.033                0.878715623     -100.809077
9.034                0.878359491     -101.006364
9.035                0.878002556     -101.204219
9.036                0.877644821     -101.402641
9.037                0.877286289     -101.601634
9.038                0.876926963     -101.801197
9.039                0.876566849     -102.001333
9.04                 0.876205949     -102.202043
9.041                0.875844268     -102.403328
9.042                0.875481809     -102.605189
9.043                0.875118577     -102.807629
9.044                0.874754576     -103.010647
9.045                0.874389811     -103.214246
9.046                0.874024285     -103.418427
9.047                0.873658003     -103.623192
9.048                0.873290971      -103.82854
9.049                0.872923192     -104.034475
9.05                 0.872554671     -104.240997
9.051                0.872185414     -104.448107
9.052                0.871815424     -104.655807
9.053                0.871444708     -104.864098
9.054                 0.87107327     -105.072981
9.055                0.870701116     -105.282458
9.056                0.870328251      -105.49253
9.057                0.869954681     -105.703198
9.058                 0.86958041     -105.914463
9.059                0.869205446     -106.126327
9.06                 0.868829792      -106.33879
9.061                0.868453457     -106.551855
9.062                0.868076444     -106.765521
9.063                0.867698761     -106.979792
9.064                0.867320414     -107.194666
9.065                0.866941408     -107.410147
9.066                0.866561751     -107.626235
9.067                0.866181449      -107.84293
9.068                0.865800508     -108.060235
9.069                0.865418935     -108.278151
9.07                 0.865036737     -108.496678
9.071                0.864653921     -108.715817
9.072                0.864270494     -108.935571
9.073                0.863886463     -109.155939
9.074                0.863501836     -109.376924
9.075                0.863116619     -109.598526
9.076                0.862730821     -109.820745
9.077                0.862344448     -110.043584
9.078                0.861957509     -110.267043
9.079                0.861570012     -110.491124
9.08                 0.861181964     -110.715827
9.081                0.860793374     -110.941153
9.082                0.860404249     -111.167103
9.083                0.860014599     -111.393679
9.084                0.859624431     -111.620881
9.085                0.859233754     -111.848711
9.086                0.858842577     -112.077168
9.087                0.858450909     -112.306255
9.088                0.858058758     -112.535971
9.089                0.857666134     -112.766319
9.09                 0.857273045     -112.997298
9.091                0.856879501      -113.22891
9.092                0.856485512     -113.461155
9.093                0.856091087     -113.694035
9.094                0.855696236      -113.92755
9.095                0.855300968     -114.161701
9.096                0.854905293     -114.396489
9.097                0.854509222     -114.631915
9.098                0.854112764     -114.867978
9.099                0.853715931     -115.104681
9.1                  0.853318732     -115.342024
9.101                0.852921177     -115.580007
9.102                0.852523279     -115.818631
9.103                0.852125046     -116.057898
9.104                0.851726492     -116.297806
9.105                0.851327625     -116.538358
9.106                0.850928459     -116.779554
9.107                0.850529003     -117.021394
9.108                 0.85012927      -117.26388
9.109                0.849729271      -117.50701
9.11                 0.849329019     -117.750787
9.111                0.848928523     -117.995211
9.112                0.848527798     -118.240281
9.113                0.848126855     -118.485999
9.114                0.847725705     -118.732366
9.115                0.847324363      -118.97938
9.116                0.846922839     -119.227044
9.117                0.846521148     -119.475357
9.118                0.846119301      -119.72432
9.119                0.845717311     -119.973933
9.12                 0.845315192     -120.224196
9.121                0.844912958      -120.47511
9.122                 0.84451062     -120.726675
9.123                0.844108193     -120.978891
9.124                0.843705691     -121.231759
9.125                0.843303126     -121.485278
9.126                0.842900514      -121.73945
9.127                0.842497867     -121.994273
9.128                0.842095201     -122.249749
9.129                0.841692529     -122.505877
9.13                 0.841289866     -122.762657
9.131                0.840887226     -123.020091
9.132                0.840484625     -123.278176
9.133                0.840082077     -123.536915
9.134                0.839679596     -123.796305
9.135                0.839277198     -124.056349
9.136                0.838874899     -124.317045
9.137                0.838472713     -124.578393
9.138                0.838070657     -124.840394
9.139                0.837668745     -125.103047
9.14                 0.837266993     -125.366352
9.141                0.836865418     -125.630309
9.142                0.836464035     -125.894917
9.143                0.836062861     -126.160177
9.144                0.835661912     -126.426087
9.145                0.835261203     -126.692649
9.146                0.834860753     -126.959861
9.147                0.834460576     -127.227723
9.148                0.834060691     -127.496234
9.149                0.833661114     -127.765395
9.15                 0.833261862     -128.035204
9.151                0.832862952     -128.305662
9.152                0.832464402     -128.576767
9.153                0.832066229      -128.84852
9.154                 0.83166845     -129.120919
9.155                0.831271084     -129.393964
9.156                0.830874147     -129.667655
9.157                0.830477658      -129.94199
9.158                0.830081635     -130.216969
9.159                0.829686096     -130.492591
9.16                 0.829291059     -130.768856
9.161                0.828896542     -131.045762
9.162                0.828502565     -131.323308
9.163                0.828109145     -131.601495
9.164                0.827716301     -131.880321
9.165                0.827324053     -132.159784
9.166                0.826932418     -132.439885
9.167                0.826541417     -132.720621
9.168                0.826151067     -133.001992
9.169                 0.82576139     -133.283998
9.17                 0.825372402     -133.566635
9.171                0.824984125     -133.849905
9.172                0.824596578     -134.133804
9.173                 0.82420978     -134.418333
9.174                0.823823751     -134.703489
9.175                0.823438511     -134.989272
9.176                 0.82305408      -135.27568
9.177                0.822670478     -135.562711
9.178                0.822287725     -135.850365
9.179                0.821905841      -136.13864
9.18                 0.821524846     -136.427534
9.181                0.821144761     -136.717045
9.182                0.820765606     -137.007173
9.183                0.820387403     -137.297916
9.184                 0.82001017     -137.589271
9.185                 0.81963393     -137.881238
9.186                0.819258702     -138.173814
9.187                0.818884509     -138.466997
9.188                0.818511369     -138.760787
9.189                0.818139306      -139.05518
9.19                 0.817768338     -139.350176
9.191                0.817398489     -139.645771
9.192                0.817029778     -139.941965
9.193                0.816662228     -140.238755
9.194                0.816295859     -140.536139
9.195                0.815930692     -140.834115
9.196                 0.81556675     -141.132681
9.197                0.815204053     -141.431835
9.198                0.814842623     -141.731574
9.199                0.814482481     -142.031896
9.2                   0.81412365     -142.332799
9.201                 0.81376615      -142.63428
9.202                0.813410004     -142.936337
9.203                0.813055232     -143.238968
9.204                0.812701857      -143.54217
9.205                0.812349901     -143.845941
9.206                0.811999385     -144.150277
9.207                 0.81165033     -144.455177
9.208                 0.81130276     -144.760638
9.209                0.810956695     -145.066657
9.21                 0.810612157     -145.373231
9.211                0.810269168     -145.680357
9.212                0.809927751     -145.988034
9.213                0.809587926     -146.296257
9.214                0.809249717     -146.605024
9.215                0.808913143     -146.914331
9.216                0.808578228     -147.224177
9.217                0.808244994     -147.534558
9.218                0.807913461      -147.84547
9.219                0.807583652     -148.156911
9.22                 0.807255589     -148.468878
9.221                0.806929294     -148.781367
9.222                0.806604787     -149.094374
9.223                0.806282091     -149.407898
9.224                0.805961228     -149.721933
9.225                0.805642219     -150.036478
9.226                0.805325086     -150.351528
9.227                 0.80500985      -150.66708
9.228                0.804696533      -150.98313
9.229                0.804385157     -151.299676
9.23                 0.804075742     -151.616712
9.231                 0.80376831     -151.934236
9.232                0.803462882     -152.252244
9.233                0.803159481     -152.570733
9.234                0.802858125     -152.889697
9.235                0.802558838     -153.209134
9.236                 0.80226164      -153.52904
9.237                0.801966552      -153.84941
9.238                0.801673594     -154.170241
9.239                0.801382788     -154.491529
9.24                 0.801094154      -154.81327
9.241                0.800807713     -155.135459
9.242                0.800523485     -155.458093
9.243                0.800241491     -155.781167
9.244                0.799961751     -156.104678
9.245                0.799684285      -156.42862
9.246                0.799409113     -156.752989
9.247                0.799136256     -157.077782
9.248                0.798865733     -157.402994
9.249                0.798597563      -157.72862
9.25                 0.798331767     -158.054657
9.251                0.798068364     -158.381098
9.252                0.797807374     -158.707941
9.253                0.797548814      -159.03518
9.254                0.797292706      -159.36281
9.255                0.797039067     -159.690828
9.256                0.796787916     -160.019228
9.257                0.796539272     -160.348006
9.258                0.796293153     -160.677157
9.259                0.796049578     -161.006676
9.26                 0.795808565     -161.336558
9.261                0.795570132     -161.666798
9.262                0.795334296     -161.997392
9.263                0.795101076     -162.328334
9.264                0.794870488      -162.65962
9.265                0.794642551     -162.991244
9.266                0.794417281     -163.323201
9.267                0.794194694     -163.655487
9.268                0.793974809     -163.988096
9.269                0.793757641     -164.321023
9.27                 0.793543207     -164.654263
9.271                0.793331523      -164.98781
9.272                0.793122604      -165.32166
9.273                0.792916467     -165.655806
9.274                0.792713127     -165.990244
9.275                  0.7925126     -166.324969
9.276                  0.7923149     -166.659974
9.277                0.792120043     -166.995255
9.278                0.791928042     -167.330806
9.279                0.791738913     -167.666621
9.28                  0.79155267     -168.002696
9.281                0.791369327     -168.339024
9.282                0.791188896     -168.675599
9.283                0.791011393     -169.012417
9.284                 0.79083683     -169.349472
9.285                 0.79066522     -169.686758
9.286                0.790496577     -170.024269
9.287                0.790330911        -170.362
9.288                0.790168237     -170.699945
9.289                0.790008565     -171.038098
9.29                 0.789851908     -171.376453
9.291                0.789698277     -171.715005
9.292                0.789547684     -172.053748
9.293                0.789400139     -172.392676
9.294                0.789255653     -172.731783
9.295                0.789114236     -173.071063
9.296                0.788975899     -173.410511
9.297                0.788840652      -173.75012
9.298                0.788708504     -174.089884
9.299                0.788579465     -174.429798
9.3                  0.788453543     -174.769855
9.301                0.788330748      -175.11005
9.302                0.788211088     -175.450377
9.303                0.788094571     -175.790829
9.304                0.787981206     -176.131401
9.305                0.787870999     -176.472086
9.306                0.787763959     -176.812878
9.307                0.787660092     -177.153772
9.308                0.787559405     -177.494761
9.309                0.787461904     -177.835839
9.31                 0.787367597        -178.177
9.311                0.787276488     -178.518238
9.312                0.787188584     -178.859547
9.313                0.787103889      -179.20092
9.314                0.787022409     -179.542352
9.315                0.786944148     -179.883836
9.316                0.786869112      179.774634
9.317                0.786797303      179.433063
9.318                0.786728725      179.091459
9.319                0.786663383      178.749828
9.32                  0.78660128      178.408174
9.321                0.786542418      178.066506
9.322                0.786486799      177.724828
9.323                0.786434427      177.383148
9.324                0.786385303       177.04147
9.325                0.786339429      176.699802
9.326                0.786296806       176.35815
9.327                0.786257435       176.01652
9.328                0.786221317      175.674917
9.329                0.786188453      175.333349
9.33                 0.786158842      174.991821
9.331                0.786132485       174.65034
9.332                 0.78610938      174.308911
9.333                0.786089528      173.967542
9.334                0.786072927      173.626237
9.335                0.786059575      173.285003
9.336                0.786049472      172.943847
9.337                0.786042614      172.602774
9.338                   0.786039      172.261791
9.339                0.786038627      171.920903
9.34                 0.786041492      171.580117
9.341                0.786047592      171.239439
9.342                0.786056924      170.898875
9.343                0.786069483      170.558431
9.344                0.786085266      170.218113
9.345                0.786104268      169.877927
9.346                0.786126484      169.537879
9.347                0.786151909      169.197976
9.348                0.786180539      168.858222
9.349                0.786212368      168.518625
9.35                 0.786247389       168.17919
9.351                0.786285596      167.839922
9.352                0.786326984      167.500829
9.353                0.786371545      167.161915
9.354                0.786419273      166.823188
9.355                0.786470159      166.484652
9.356                0.786524197      166.146313
9.357                0.786581379      165.808178
9.358                0.786641696      165.470251
9.359                0.786705141       165.13254
9.36                 0.786771704      164.795049
9.361                0.786841377      164.457784
9.362                 0.78691415      164.120752
9.363                0.786990014      163.783957
9.364                0.787068959      163.447406
9.365                0.787150976      163.111104
9.366                0.787236053      162.775056
9.367                0.787324181      162.439268
9.368                0.787415349      162.103747
9.369                0.787509545      161.768496
9.37                 0.787606759      161.433522
9.371                0.787706979      161.098831
9.372                0.787810193      160.764427
9.373                 0.78791639      160.430316
9.374                0.788025556      160.096503
9.375                0.788137681      159.762994
9.376                 0.78825275      159.429795
9.377                0.788370752      159.096909
9.378                0.788491672      158.764344
9.379                0.788615498      158.432102
9.38                 0.788742217      158.100191
9.381                0.788871813      157.768615
9.382                0.789004274      157.437379
9.383                0.789139585      157.106489
9.384                0.789277732      156.775949
9.385                  0.7894187      156.445764
9.386                0.789562474      156.115939
9.387                 0.78970904      155.786479
9.388                0.789858382       155.45739
9.389                0.790010484      155.128675
9.39                 0.790165332       154.80034
9.391                 0.79032291       154.47239
9.392                0.790483201      154.144829
9.393                0.790646189      153.817661
9.394                0.790811858      153.490893
9.395                0.790980193      153.164527
9.396                0.791151175       152.83857
