! TOUCHSTONE file generated by CST DESIGN STUDIO
! Date and time: Tue Feb  4 16:08:41 2025
! Project name: C:\Work\MatlabApps\UnitCellOptimizationMatlab\CST\unitcell.cst
! Tree item: Tasks\Sweep1\SPara1\S-Parameters
! Header version: 2024
! Port assignment regex: !\s*Touchstone port\s*([0-9]+)\s*=\s*(CST MWS port|CST DES external port|CST DES block port)\s*(.+)\s* \(\"(.*)\"\)(\s*mode\s*([0-9]+))?.*
! Touchstone port assignment:
! Touchstone port 1 = CST DES external port 1 ("")
# GHz S MA R 50
9                    0.932648616     -65.2448255
9.001                0.932478775      -65.341303
9.002                0.932308383      -65.438024
9.003                0.932137439     -65.5349892
9.004                0.931965941     -65.6321997
9.005                0.931793886      -65.729656
9.006                0.931621274     -65.8273592
9.007                0.931448103     -65.9253099
9.008                0.931274369     -66.0235091
9.009                0.931100073     -66.1219576
9.01                 0.930925211     -66.2206562
9.011                0.930749782     -66.3196057
9.012                0.930573784     -66.4188071
9.013                0.930397215     -66.5182611
9.014                0.930220073     -66.6179686
9.015                0.930042357     -66.7179304
9.016                0.929864064     -66.8181475
9.017                0.929685193     -66.9186206
9.018                0.929505742     -67.0193507
9.019                0.929325708     -67.1203386
9.02                  0.92914509     -67.2215851
9.021                0.928963887     -67.3230912
9.022                0.928782096     -67.4248577
9.023                0.928599715     -67.5268855
9.024                0.928416742     -67.6291755
9.025                0.928233176     -67.7317286
9.026                0.928049014     -67.8345456
9.027                0.927864255     -67.9376274
9.028                0.927678897      -68.040975
9.029                0.927492938     -68.1445892
9.03                 0.927306375     -68.2484709
9.031                0.927119208     -68.3526211
9.032                0.926931434     -68.4570406
9.033                0.926743051     -68.5617304
9.034                0.926554057     -68.6666913
9.035                 0.92636445     -68.7719243
9.036                 0.92617423     -68.8774304
9.037                0.925983392     -68.9832103
9.038                0.925791936     -69.0892651
9.039                 0.92559986     -69.1955956
9.04                 0.925407162     -69.3022029
9.041                0.925213839     -69.4090878
9.042                0.925019891     -69.5162513
9.043                0.924825314     -69.6236944
9.044                0.924630108     -69.7314179
9.045                0.924434269     -69.8394228
9.046                0.924237797     -69.9477101
9.047                0.924040689     -70.0562807
9.048                0.923842943     -70.1651355
9.049                0.923644558     -70.2742757
9.05                 0.923445531      -70.383702
9.051                0.923245861     -70.4934155
9.052                0.923045546     -70.6034171
9.053                0.922844583     -70.7137079
9.054                0.922642971     -70.8242888
9.055                0.922440707     -70.9351607
9.056                0.922237791     -71.0463247
9.057                 0.92203422     -71.1577817
9.058                0.921829991     -71.2695328
9.059                0.921625104     -71.3815789
9.06                 0.921419556      -71.493921
9.061                0.921213345     -71.6065602
9.062                 0.92100647     -71.7194974
9.063                0.920798928     -71.8327336
9.064                0.920590718     -71.9462699
9.065                0.920381837     -72.0601072
9.066                0.920172284     -72.1742466
9.067                0.919962056     -72.2886891
9.068                0.919751153     -72.4034357
9.069                0.919539571     -72.5184875
9.07                  0.91932731     -72.6338455
9.071                0.919114366     -72.7495106
9.072                0.918900739      -72.865484
9.073                0.918686426     -72.9817667
9.074                0.918471426     -73.0983598
9.075                0.918255736     -73.2152642
9.076                0.918039354      -73.332481
9.077                 0.91782228     -73.4500113
9.078                 0.91760451     -73.5678561
9.079                0.917386043     -73.6860166
9.08                 0.917166877     -73.8044937
9.081                0.916947011     -73.9232885
9.082                0.916726441     -74.0424021
9.083                0.916505168     -74.1618356
9.084                0.916283187       -74.28159
9.085                0.916060499     -74.4016665
9.086                  0.9158371      -74.522066
9.087                 0.91561299     -74.6427898
9.088                0.915388166     -74.7638388
9.089                0.915162626     -74.8852142
9.09                 0.914936368     -75.0069171
9.091                0.914709391     -75.1289486
9.092                0.914481693     -75.2513097
9.093                0.914253272     -75.3740017
9.094                0.914024127     -75.4970255
9.095                0.913794254     -75.6203823
9.096                0.913563654     -75.7440732
9.097                0.913332323     -75.8680994
9.098                 0.91310026      -75.992462
9.099                0.912867463      -76.117162
9.1                  0.912633931     -76.2422007
9.101                0.912399661     -76.3675791
9.102                0.912164653     -76.4932984
9.103                0.911928904     -76.6193597
9.104                0.911692412     -76.7457642
9.105                0.911455175      -76.872513
9.106                0.911217193     -76.9996073
9.107                0.910978463     -77.1270482
9.108                0.910738983     -77.2548369
9.109                0.910498753     -77.3829745
9.11                 0.910257769     -77.5114622
9.111                0.910016031     -77.6403012
9.112                0.909773537     -77.7694926
9.113                0.909530285     -77.8990376
9.114                0.909286273     -78.0289374
9.115                  0.9090415     -78.1591931
9.116                0.908795964      -78.289806
9.117                0.908549664     -78.4207772
9.118                0.908302598     -78.5521079
9.119                0.908054764     -78.6837993
9.12                 0.907806161     -78.8158526
9.121                0.907556787      -78.948269
9.122                 0.90730664     -79.0810497
9.123                 0.90705572     -79.2141958
9.124                0.906804024     -79.3477087
9.125                0.906551551     -79.4815895
9.126                  0.9062983     -79.6158395
9.127                0.906044268     -79.7504597
9.128                0.905789455     -79.8854516
9.129                0.905533859     -80.0208162
9.13                 0.905277479     -80.1565548
9.131                0.905020312     -80.2926687
9.132                0.904762358      -80.429159
9.133                0.904503616     -80.5660271
9.134                0.904244083      -80.703274
9.135                0.903983759     -80.8409012
9.136                0.903722641     -80.9789098
9.137                 0.90346073      -81.117301
9.138                0.903198023     -81.2560762
9.139                0.902934518     -81.3952366
9.14                 0.902670216     -81.5347834
9.141                0.902405114     -81.6747178
9.142                0.902139211     -81.8150412
9.143                0.901872506     -81.9557548
9.144                0.901604998     -82.0968599
9.145                0.901336685     -82.2383578
9.146                0.901067567     -82.3802496
9.147                0.900797641     -82.5225368
9.148                0.900526908     -82.6652205
9.149                0.900255365     -82.8083021
9.15                 0.899983012     -82.9517828
9.151                0.899709848     -83.0956639
9.152                0.899435871     -83.2399467
9.153                 0.89916108     -83.3846326
9.154                0.898885475     -83.5297227
9.155                0.898609055     -83.6752184
9.156                0.898331818      -83.821121
9.157                0.898053763     -83.9674318
9.158                 0.89777489      -84.114152
9.159                0.897495197     -84.2612831
9.16                 0.897214684     -84.4088263
9.161                 0.89693335     -84.5567829
9.162                0.896651194     -84.7051542
9.163                0.896368215     -84.8539415
9.164                0.896084413     -85.0031462
9.165                0.895799786     -85.1527697
9.166                0.895514334     -85.3028131
9.167                0.895228056     -85.4532778
9.168                0.894940952     -85.6041652
9.169                 0.89465302     -85.7554766
9.17                  0.89436426     -85.9072133
9.171                0.894074672     -86.0593767
9.172                0.893784256      -86.211968
9.173                0.893493009     -86.3649887
9.174                0.893200932     -86.5184401
9.175                0.892908025     -86.6723234
9.176                0.892614287     -86.8266401
9.177                0.892319718     -86.9813915
9.178                0.892024316      -87.136579
9.179                0.891728083     -87.2922038
9.18                 0.891431016     -87.4482674
9.181                0.891133117     -87.6047711
9.182                0.890834385     -87.7617162
9.183                 0.89053482     -87.9191041
9.184                0.890234421     -88.0769362
9.185                0.889933189     -88.2352138
9.186                0.889631122     -88.3939383
9.187                0.889328222     -88.5531111
9.188                0.889024488     -88.7127334
9.189                 0.88871992     -88.8728068
9.19                 0.888414518     -89.0333325
9.191                0.888108282     -89.1943118
9.192                0.887801213     -89.3557463
9.193                0.887493309     -89.5176372
9.194                0.887184573     -89.6799859
9.195                0.886875003     -89.8427939
9.196                  0.8865646     -90.0060623
9.197                0.886253365     -90.1697928
9.198                0.885941297     -90.3339865
9.199                0.885628397     -90.4986449
9.2                  0.885314666     -90.6637694
9.201                0.885000103     -90.8293613
9.202                 0.88468471     -90.9954221
9.203                0.884368487      -91.161953
9.204                0.884051435     -91.3289556
9.205                0.883733554      -91.496431
9.206                0.883414845     -91.6643809
9.207                0.883095309     -91.8328064
9.208                0.882774946     -92.0017091
9.209                0.882453757     -92.1710902
9.21                 0.882131743     -92.3409512
9.211                0.881808906     -92.5112934
9.212                0.881485246     -92.6821183
9.213                0.881160763     -92.8534272
9.214                 0.88083546     -93.0252215
9.215                0.880509338     -93.1975025
9.216                0.880182396     -93.3702717
9.217                0.879854638     -93.5435304
9.218                0.879526063     -93.7172801
9.219                0.879196674      -93.891522
9.22                 0.878866472     -94.0662576
9.221                0.878535458     -94.2414883
9.222                0.878203633     -94.4172154
9.223                   0.877871     -94.5934403
9.224                 0.87753756     -94.7701644
9.225                0.877203314      -94.947389
9.226                0.876868265     -95.1251156
9.227                0.876532413     -95.3033455
9.228                0.876195762     -95.4820801
9.229                0.875858312     -95.6613207
9.23                 0.875520066     -95.8410687
9.231                0.875181026     -96.0213256
9.232                0.874841194     -96.2020926
9.233                0.874500572     -96.3833711
9.234                0.874159163     -96.5651625
9.235                0.873816967     -96.7474682
9.236                0.873473989     -96.9302895
9.237                 0.87313023     -97.1136277
9.238                0.872785693     -97.2974843
9.239                0.872440381     -97.4818605
9.24                 0.872094295     -97.6667578
9.241                0.871747439     -97.8521774
9.242                0.871399816     -98.0381208
9.243                0.871051427     -98.2245892
9.244                0.870702277      -98.411584
9.245                0.870352368     -98.5991066
9.246                0.870001703     -98.7871583
9.247                0.869650285     -98.9757404
9.248                0.869298117     -99.1648542
9.249                0.868945204     -99.3545011
9.25                 0.868591547     -99.5446823
9.251                 0.86823715     -99.7353993
9.252                0.867882017     -99.9266533
9.253                0.867526152     -100.118446
9.254                0.867169557     -100.310778
9.255                0.866812237     -100.503651
9.256                0.866454196     -100.697066
9.257                0.866095437     -100.891025
9.258                0.865735964     -101.085528
9.259                0.865375782     -101.280578
9.26                 0.865014893     -101.476175
9.261                0.864653304     -101.672321
9.262                0.864291017     -101.869017
9.263                0.863928037     -102.066264
9.264                0.863564369     -102.264063
9.265                0.863200017     -102.462416
9.266                0.862834986     -102.661324
9.267                 0.86246928     -102.860789
9.268                0.862102904     -103.060811
9.269                0.861735863     -103.261391
9.27                 0.861368162     -103.462532
9.271                0.860999807     -103.664234
9.272                0.860630801     -103.866498
9.273                0.860261151     -104.069326
9.274                0.859890861     -104.272718
9.275                0.859519937     -104.476677
9.276                0.859148385     -104.681203
9.277                 0.85877621     -104.886297
9.278                0.858403418     -105.091961
9.279                0.858030015     -105.298195
9.28                 0.857656005     -105.505001
9.281                0.857281397     -105.712381
9.282                0.856906194     -105.920334
9.283                0.856530405     -106.128863
9.284                0.856154034     -106.337968
9.285                0.855777088     -106.547651
9.286                0.855399575     -106.757913
9.287                0.855021499     -106.968754
9.288                0.854642868     -107.180176
9.289                0.854263689     -107.392181
9.29                 0.853883968     -107.604768
9.291                0.853503713      -107.81794
9.292                 0.85312293     -108.031696
9.293                0.852741627     -108.246039
9.294                0.852359811     -108.460969
9.295                0.851977489     -108.676488
9.296                0.851594669     -108.892595
9.297                0.851211358     -109.109294
9.298                0.850827564     -109.326583
9.299                0.850443295     -109.544465
9.3                  0.850058559      -109.76294
9.301                0.849673364     -109.982009
9.302                0.849287717     -110.201674
9.303                0.848901628     -110.421935
9.304                0.848515104     -110.642793
9.305                0.848128154     -110.864248
9.306                0.847740786     -111.086303
9.307                 0.84735301     -111.308958
9.308                0.846964833     -111.532213
9.309                0.846576266      -111.75607
9.31                 0.846187316      -111.98053
9.311                0.845797993     -112.205592
9.312                0.845408306     -112.431259
9.313                0.845018265     -112.657531
9.314                0.844627879     -112.884408
9.315                0.844237158     -113.111892
9.316                 0.84384611     -113.339984
9.317                0.843454747     -113.568683
9.318                0.843063078     -113.797991
9.319                0.842671113     -114.027909
9.32                 0.842278863     -114.258437
9.321                0.841886337     -114.489575
9.322                0.841493546     -114.721326
9.323                  0.8411005     -114.953689
9.324                0.840707211     -115.186665
9.325                0.840313689     -115.420254
9.326                0.839919944     -115.654458
9.327                0.839525988     -115.889276
9.328                0.839131832      -116.12471
9.329                0.838737487      -116.36076
9.33                 0.838342965     -116.597427
9.331                0.837948277      -116.83471
9.332                0.837553434     -117.072611
9.333                0.837158449     -117.311131
9.334                0.836763333     -117.550268
9.335                0.836368098     -117.790025
9.336                0.835972757     -118.030402
9.337                0.835577321     -118.271398
9.338                0.835181803     -118.513015
9.339                0.834786215     -118.755252
9.34                  0.83439057      -118.99811
9.341                 0.83399488      -119.24159
9.342                0.833599159     -119.485692
9.343                0.833203419     -119.730416
9.344                0.832807674     -119.975762
9.345                0.832411936      -120.22173
9.346                0.832016219     -120.468322
9.347                0.831620537     -120.715537
9.348                0.831224903     -120.963374
9.349                 0.83082933     -121.211836
9.35                 0.830433832     -121.460921
9.351                0.830038424      -121.71063
9.352                0.829643119     -121.960962
9.353                0.829247932     -122.211919
9.354                0.828852877     -122.463499
9.355                0.828457968     -122.715704
9.356                 0.82806322     -122.968533
9.357                0.827668647     -123.221986
9.358                0.827274265     -123.476062
9.359                0.826880087     -123.730763
9.36                  0.82648613     -123.986088
9.361                0.826092408     -124.242037
9.362                0.825698937     -124.498609
9.363                0.825305731     -124.755805
9.364                0.824912807     -125.013624
9.365                 0.82452018     -125.272066
9.366                0.824127865     -125.531131
9.367                0.823735879     -125.790819
9.368                0.823344237     -126.051129
9.369                0.822952956     -126.312062
9.37                 0.822562052     -126.573616
9.371                0.822171541     -126.835791
9.372                0.821781439     -127.098587
9.373                0.821391763     -127.362004
9.374                0.821002529     -127.626041
9.375                0.820613755     -127.890697
9.376                0.820225457     -128.155972
9.377                0.819837652     -128.421866
9.378                0.819450357     -128.688378
9.379                 0.81906359     -128.955508
9.38                 0.818677367     -129.223254
9.381                0.818291706     -129.491616
9.382                0.817906624     -129.760593
9.383                0.817522139     -130.030185
9.384                 0.81713827     -130.300392
9.385                0.816755032     -130.571211
9.386                0.816372445     -130.842642
9.387                0.815990527     -131.114685
9.388                0.815609295     -131.387339
9.389                0.815228767     -131.660602
9.39                 0.814848963     -131.934474
9.391                  0.8144699     -132.208954
9.392                0.814091596     -132.484041
9.393                0.813714071     -132.759733
9.394                0.813337342      -133.03603
9.395                 0.81296143     -133.312931
9.396                0.812586351     -133.590434
