! TOUCHSTONE file generated by CST DESIGN STUDIO
! Date and time: Tue Feb  4 16:08:47 2025
! Project name: C:\Work\MatlabApps\UnitCellOptimizationMatlab\CST\unitcell.cst
! Tree item: Tasks\Sweep1\SPara1\S-Parameters
! Header version: 2024
! Port assignment regex: !\s*Touchstone port\s*([0-9]+)\s*=\s*(CST MWS port|CST DES external port|CST DES block port)\s*(.+)\s* \(\"(.*)\"\)(\s*mode\s*([0-9]+))?.*
! Touchstone port assignment:
! Touchstone port 1 = CST DES external port 1 ("")
# GHz S MA R 50
9                    0.960272845     -45.0842744
9.001                0.960197276     -45.1380781
9.002                0.960121552     -45.1919911
9.003                0.960045671     -45.2460136
9.004                0.959969632      -45.300146
9.005                0.959893433     -45.3543884
9.006                0.959817075     -45.4087411
9.007                0.959740555     -45.4632045
9.008                0.959663873     -45.5177787
9.009                0.959587028      -45.572464
9.01                 0.959510019     -45.6272608
9.011                0.959432844     -45.6821693
9.012                0.959355503     -45.7371897
9.013                0.959277993     -45.7923225
9.014                0.959200315     -45.8475677
9.015                0.959122468     -45.9029258
9.016                0.959044449      -45.958397
9.017                0.958966258     -46.0139816
9.018                0.958887894     -46.0696798
9.019                0.958809356     -46.1254921
9.02                 0.958730642     -46.1814187
9.021                0.958651751     -46.2374598
9.022                0.958572683     -46.2936158
9.023                0.958493436     -46.3498869
9.024                0.958414009     -46.4062736
9.025                0.958334401      -46.462776
9.026                0.958254611     -46.5193945
9.027                0.958174637     -46.5761295
9.028                0.958094479     -46.6329811
9.029                0.958014134     -46.6899497
9.03                 0.957933603     -46.7470357
9.031                0.957852884     -46.8042393
9.032                0.957771976     -46.8615609
9.033                0.957690877     -46.9190008
9.034                0.957609587     -46.9765592
9.035                0.957528104     -47.0342367
9.036                0.957446427     -47.0920333
9.037                0.957364555     -47.1499496
9.038                0.957282487     -47.2079857
9.039                0.957200221     -47.2661421
9.04                 0.957117757     -47.3244191
9.041                0.957035093     -47.3828169
9.042                0.956952228     -47.4413361
9.043                0.956869161     -47.4999768
9.044                 0.95678589     -47.5587394
9.045                0.956702415     -47.6176243
9.046                0.956618735     -47.6766317
9.047                0.956534847     -47.7357622
9.048                0.956450751     -47.7950159
9.049                0.956366446     -47.8543933
9.05                 0.956281931     -47.9138947
9.051                0.956197203     -47.9735204
9.052                0.956112263     -48.0332708
9.053                0.956027109     -48.0931463
9.054                 0.95594174     -48.1531472
9.055                0.955856154     -48.2132739
9.056                 0.95577035     -48.2735267
9.057                0.955684327      -48.333906
9.058                0.955598085     -48.3944122
9.059                0.955511621     -48.4550456
9.06                 0.955424934     -48.5158066
9.061                0.955338024     -48.5766955
9.062                0.955250889     -48.6377128
9.063                0.955163527     -48.6988589
9.064                0.955075938      -48.760134
9.065                0.954988121     -48.8215386
9.066                0.954900074      -48.883073
9.067                0.954811795     -48.9447376
9.068                0.954723285     -49.0065329
9.069                0.954634541     -49.0684592
9.07                 0.954545562     -49.1305168
9.071                0.954456347     -49.1927062
9.072                0.954366895     -49.2550277
9.073                0.954277205     -49.3174818
9.074                0.954187275     -49.3800689
9.075                0.954097105     -49.4427893
9.076                0.954006692     -49.5056434
9.077                0.953916036     -49.5686316
9.078                0.953825135     -49.6317544
9.079                0.953733989     -49.6950121
9.08                 0.953642595     -49.7584051
9.081                0.953550953     -49.8219339
9.082                0.953459062     -49.8855988
9.083                 0.95336692     -49.9494003
9.084                0.953274526     -50.0133387
9.085                0.953181879     -50.0774146
9.086                0.953088977     -50.1416282
9.087                 0.95299582       -50.20598
9.088                0.952902406     -50.2704705
9.089                0.952808733        -50.3351
9.09                 0.952714801      -50.399869
9.091                0.952620608     -50.4647779
9.092                0.952526153     -50.5298271
9.093                0.952431435     -50.5950171
9.094                0.952336453     -50.6603482
9.095                0.952241205     -50.7258209
9.096                0.952145689     -50.7914357
9.097                0.952049906     -50.8571929
9.098                0.951953852     -50.9230931
9.099                0.951857528     -50.9891366
9.1                  0.951760932     -51.0553239
9.101                0.951664063     -51.1216554
9.102                0.951566919     -51.1881316
9.103                0.951469498     -51.2547529
9.104                0.951371801     -51.3215198
9.105                0.951273825     -51.3884327
9.106                 0.95117557      -51.455492
9.107                0.951077033     -51.5226983
9.108                0.950978215     -51.5900519
9.109                0.950879112     -51.6575534
9.11                 0.950779725     -51.7252031
9.111                0.950680051     -51.7930016
9.112                 0.95058009     -51.8609493
9.113                 0.95047984     -51.9290467
9.114                  0.9503793     -51.9972942
9.115                0.950278469     -52.0656924
9.116                0.950177345     -52.1342416
9.117                0.950075927     -52.2029423
9.118                0.949974214     -52.2717951
9.119                0.949872204     -52.3408004
9.12                 0.949769896     -52.4099586
9.121                0.949667289     -52.4792703
9.122                0.949564381     -52.5487359
9.123                0.949461172      -52.618356
9.124                0.949357659     -52.6881309
9.125                0.949253842     -52.7580612
9.126                0.949149719     -52.8281474
9.127                0.949045289       -52.89839
9.128                0.948940551     -52.9687894
9.129                0.948835502     -53.0393462
9.13                 0.948730143     -53.1100609
9.131                0.948624471     -53.1809339
9.132                0.948518485     -53.2519657
9.133                0.948412184     -53.3231569
9.134                0.948305566      -53.394508
9.135                0.948198631     -53.4660194
9.136                0.948091376     -53.5376917
9.137                0.947983801     -53.6095254
9.138                0.947875904     -53.6815209
9.139                0.947767684     -53.7536789
9.14                 0.947659139     -53.8259998
9.141                0.947550268     -53.8984842
9.142                0.947441069     -53.9711325
9.143                0.947331542     -54.0439454
9.144                0.947221685     -54.1169232
9.145                0.947111496     -54.1900666
9.146                0.947000975      -54.263376
9.147                0.946890119     -54.3368521
9.148                0.946778928     -54.4104953
9.149                0.946667399     -54.4843061
9.15                 0.946555533     -54.5582852
9.151                0.946443326      -54.632433
9.152                0.946330778     -54.7067501
9.153                0.946217888      -54.781237
9.154                0.946104654     -54.8558943
9.155                0.945991074     -54.9307226
9.156                0.945877148     -55.0057223
9.157                0.945762873      -55.080894
9.158                0.945648249     -55.1562384
9.159                0.945533274     -55.2317558
9.16                 0.945417946      -55.307447
9.161                0.945302264     -55.3833124
9.162                0.945186228     -55.4593526
9.163                0.945069834     -55.5355683
9.164                0.944953082     -55.6119598
9.165                0.944835971     -55.6885279
9.166                0.944718499     -55.7652731
9.167                0.944600664      -55.842196
9.168                0.944482466     -55.9192971
9.169                0.944363902      -55.996577
9.17                 0.944244971     -56.0740363
9.171                0.944125672     -56.1516757
9.172                0.944006003     -56.2294955
9.173                0.943885963     -56.3074966
9.174                0.943765551     -56.3856794
9.175                0.943644765     -56.4640445
9.176                0.943523602     -56.5425926
9.177                0.943402063     -56.6213242
9.178                0.943280146     -56.7002399
9.179                0.943157848     -56.7793403
9.18                 0.943035169     -56.8586261
9.181                0.942912107     -56.9380978
9.182                0.942788661     -57.0177561
9.183                0.942664829     -57.0976015
9.184                0.942540609     -57.1776347
9.185                   0.942416     -57.2578563
9.186                0.942291001     -57.3382669
9.187                 0.94216561     -57.4188671
9.188                0.942039826     -57.4996575
9.189                0.941913647     -57.5806388
9.19                 0.941787071     -57.6618116
9.191                0.941660097     -57.7431765
9.192                0.941532724     -57.8247342
9.193                 0.94140495     -57.9064852
9.194                0.941276773     -57.9884303
9.195                0.941148192     -58.0705701
9.196                0.941019205     -58.1529051
9.197                0.940889812     -58.2354361
9.198                0.940760009     -58.3181637
9.199                0.940629797     -58.4010886
9.2                  0.940499172     -58.4842113
9.201                0.940368134     -58.5675326
9.202                0.940236682      -58.651053
9.203                0.940104813     -58.7347734
9.204                0.939972526     -58.8186942
9.205                0.939839819     -58.9028163
9.206                0.939706691     -58.9871402
9.207                 0.93957314     -59.0716666
9.208                0.939439165     -59.1563962
9.209                0.939304765     -59.2413297
9.21                 0.939169936     -59.3264677
9.211                0.939034679     -59.4118109
9.212                0.938898991       -59.49736
9.213                0.938762871     -59.5831158
9.214                0.938626317     -59.6690787
9.215                0.938489328     -59.7552497
9.216                0.938351901     -59.8416293
9.217                0.938214036     -59.9282182
9.218                 0.93807573     -60.0150172
9.219                0.937936983     -60.1020269
9.22                 0.937797792     -60.1892481
9.221                0.937658157     -60.2766814
9.222                0.937518074     -60.3643275
9.223                0.937377543     -60.4521873
9.224                0.937236562     -60.5402613
9.225                 0.93709513     -60.6285503
9.226                0.936953244      -60.717055
9.227                0.936810903     -60.8057761
9.228                0.936668106     -60.8947144
9.229                0.936524851     -60.9838706
9.23                 0.936381136     -61.0732454
9.231                0.936236959     -61.1628395
9.232                0.936092319     -61.2526537
9.233                0.935947214     -61.3426887
9.234                0.935801643     -61.4329452
9.235                0.935655604     -61.5234241
9.236                0.935509095      -61.614126
9.237                0.935362115     -61.7050516
9.238                0.935214661     -61.7962018
9.239                0.935066732     -61.8875773
9.24                 0.934918328     -61.9791789
9.241                0.934769444     -62.0710072
9.242                0.934620081     -62.1630631
9.243                0.934470237     -62.2553474
9.244                0.934319909     -62.3478607
9.245                0.934169096      -62.440604
9.246                0.934017797     -62.5335778
9.247                0.933866009     -62.6267831
9.248                0.933713731     -62.7202206
9.249                0.933560961      -62.813891
9.25                 0.933407698     -62.9077953
9.251                 0.93325394      -63.001934
9.252                0.933099685     -63.0963082
9.253                0.932944931     -63.1909184
9.254                0.932789677     -63.2857656
9.255                 0.93263392     -63.3808505
9.256                 0.93247766      -63.476174
9.257                0.932320895     -63.5717368
9.258                0.932163622     -63.6675397
9.259                 0.93200584     -63.7635836
9.26                 0.931847547     -63.8598693
9.261                0.931688742     -63.9563976
9.262                0.931529423     -64.0531692
9.263                0.931369588     -64.1501851
9.264                0.931209235     -64.2474461
9.265                0.931048362     -64.3449529
9.266                0.930886969     -64.4427065
9.267                0.930725052     -64.5407076
9.268                0.930562611     -64.6389571
9.269                0.930399643     -64.7374558
9.27                 0.930236147     -64.8362046
9.271                0.930072121     -64.9352044
9.272                0.929907563     -65.0344559
9.273                0.929742471       -65.13396
9.274                0.929576845     -65.2337176
9.275                0.929410681     -65.3337296
9.276                0.929243978     -65.4339967
9.277                0.929076735     -65.5345199
9.278                0.928908949     -65.6353001
9.279                0.928740619     -65.7363381
9.28                 0.928571743     -65.8376347
9.281                 0.92840232     -65.9391909
9.282                0.928232347     -66.0410076
9.283                0.928061822     -66.1430856
9.284                0.927890745     -66.2454258
9.285                0.927719112     -66.3480291
9.286                0.927546923     -66.4508964
9.287                0.927374176     -66.5540286
9.288                0.927200868     -66.6574265
9.289                0.927026998     -66.7610912
9.29                 0.926852564     -66.8650235
9.291                0.926677565     -66.9692243
9.292                0.926501998     -67.0736945
9.293                0.926325862     -67.1784351
9.294                0.926149155     -67.2834469
9.295                0.925971875     -67.3887309
9.296                 0.92579402      -67.494288
9.297                0.925615589     -67.6001192
9.298                 0.92543658     -67.7062253
9.299                0.925256991     -67.8126073
9.3                   0.92507682     -67.9192662
9.301                0.924896065     -68.0262028
9.302                0.924714725     -68.1334182
9.303                0.924532797     -68.2409132
9.304                0.924350281     -68.3486889
9.305                0.924167174     -68.4567462
9.306                0.923983474      -68.565086
9.307                0.923799179     -68.6737093
9.308                0.923614289      -68.782617
9.309                  0.9234288     -68.8918102
9.31                 0.923242712     -69.0012898
9.311                0.923056022     -69.1110568
9.312                0.922868728     -69.2211121
9.313                0.922680829     -69.3314568
9.314                0.922492323     -69.4420918
9.315                0.922303209     -69.5530181
9.316                0.922113483     -69.6642367
9.317                0.921923146     -69.7757486
9.318                0.921732194     -69.8875548
9.319                0.921540626     -69.9996563
9.32                  0.92134844     -70.1120541
9.321                0.921155635     -70.2247492
9.322                0.920962208     -70.3377426
9.323                0.920768158     -70.4510353
9.324                0.920573483     -70.5646284
9.325                0.920378182     -70.6785229
9.326                0.920182252     -70.7927197
9.327                0.919985691       -70.90722
9.328                0.919788499     -71.0220247
9.329                0.919590672     -71.1371349
9.33                 0.919392211     -71.2525517
9.331                0.919193111      -71.368276
9.332                0.918993373     -71.4843089
9.333                0.918792994     -71.6006514
9.334                0.918591972     -71.7173047
9.335                0.918390305     -71.8342698
9.336                0.918187993     -71.9515476
9.337                0.917985032     -72.0691394
9.338                0.917781422     -72.1870461
9.339                0.917577161     -72.3052688
9.34                 0.917372246     -72.4238086
9.341                0.917166677     -72.5426666
9.342                 0.91696045     -72.6618438
9.343                0.916753566     -72.7813413
9.344                0.916546021     -72.9011602
9.345                0.916337815     -73.0213017
9.346                0.916128945     -73.1417667
9.347                0.915919411     -73.2625564
9.348                0.915709209     -73.3836719
9.349                0.915498338     -73.5051143
9.35                 0.915286798     -73.6268847
9.351                0.915074585     -73.7489842
9.352                0.914861699     -73.8714138
9.353                0.914648137     -73.9941749
9.354                0.914433899     -74.1172683
9.355                0.914218982     -74.2406953
9.356                0.914003384     -74.3644571
9.357                0.913787105     -74.4885546
9.358                0.913570142     -74.6129891
9.359                0.913352494     -74.7377617
9.36                 0.913134159     -74.8628735
9.361                0.912915135     -74.9883257
9.362                0.912695421     -75.1141195
9.363                0.912475016     -75.2402558
9.364                0.912253918     -75.3667361
9.365                0.912032124     -75.4935612
9.366                0.911809634     -75.6207326
9.367                0.911586447     -75.7482512
9.368                0.911362559     -75.8761183
9.369                0.911137971      -76.004335
9.37                 0.910912679     -76.1329025
9.371                0.910686684      -76.261822
9.372                0.910459983     -76.3910947
9.373                0.910232574     -76.5207217
9.374                0.910004457     -76.6507042
9.375                 0.90977563     -76.7810435
9.376                0.909546091     -76.9117406
9.377                0.909315838     -77.0427969
9.378                0.909084871     -77.1742135
9.379                0.908853188     -77.3059915
9.38                 0.908620787     -77.4381323
9.381                0.908387667      -77.570637
9.382                0.908153827     -77.7035069
9.383                0.907919265      -77.836743
9.384                0.907683979     -77.9703468
9.385                 0.90744797     -78.1043193
9.386                0.907211234     -78.2386618
9.387                 0.90697377     -78.3733756
9.388                0.906735578     -78.5084618
9.389                0.906496657     -78.6439217
9.39                 0.906257003     -78.7797566
9.391                0.906016617     -78.9159676
9.392                0.905775498     -79.0525561
9.393                0.905533643     -79.1895232
9.394                0.905291051     -79.3268702
9.395                0.905047722     -79.4645984
9.396                0.904803654     -79.6027091
