! TOUCHSTONE file generated by CST DESIGN STUDIO
! Date and time: Tue Feb  4 16:08:46 2025
! Project name: C:\Work\MatlabApps\UnitCellOptimizationMatlab\CST\unitcell.cst
! Tree item: Tasks\Sweep1\SPara1\S-Parameters
! Header version: 2024
! Port assignment regex: !\s*Touchstone port\s*([0-9]+)\s*=\s*(CST MWS port|CST DES external port|CST DES block port)\s*(.+)\s* \(\"(.*)\"\)(\s*mode\s*([0-9]+))?.*
! Touchstone port assignment:
! Touchstone port 1 = CST DES external port 1 ("")
# GHz S MA R 50
9                    0.954816277     -49.3219602
9.001                  0.9547259     -49.3834647
9.002                0.954635265     -49.4450993
9.003                 0.95454437     -49.5068643
9.004                0.954453215     -49.5687602
9.005                0.954361798     -49.6307874
9.006                0.954270119     -49.6929463
9.007                0.954178177     -49.7552372
9.008                0.954085971     -49.8176606
9.009                0.953993499     -49.8802169
9.01                 0.953900761     -49.9429065
9.011                0.953807756     -50.0057297
9.012                0.953714482      -50.068687
9.013                0.953620939     -50.1317789
9.014                0.953527125     -50.1950056
9.015                0.953433041     -50.2583677
9.016                0.953338683     -50.3218655
9.017                0.953244053     -50.3854995
9.018                0.953149148       -50.44927
9.019                0.953053967     -50.5131775
9.02                  0.95295851     -50.5772224
9.021                0.952862775     -50.6414051
9.022                0.952766762     -50.7057261
9.023                0.952670469     -50.7701858
9.024                0.952573895     -50.8347845
9.025                 0.95247704     -50.8995228
9.026                0.952379901      -50.964401
9.027                0.952282479     -51.0294196
9.028                0.952184771      -51.094579
9.029                0.952086778     -51.1598797
9.03                 0.951988497      -51.225322
9.031                0.951889928     -51.2909065
9.032                 0.95179107     -51.3566335
9.033                0.951691922     -51.4225036
9.034                0.951592481      -51.488517
9.035                0.951492749     -51.5546744
9.036                0.951392722     -51.6209761
9.037                0.951292401     -51.6874226
9.038                0.951191784     -51.7540143
9.039                0.951090869     -51.8207517
9.04                 0.950989657     -51.8876352
9.041                0.950888145     -51.9546653
9.042                0.950786333     -52.0218424
9.043                 0.95068422      -52.089167
9.044                0.950581803     -52.1566396
9.045                0.950479083     -52.2242606
9.046                0.950376058     -52.2920305
9.047                0.950272727     -52.3599498
9.048                0.950169088     -52.4280188
9.049                0.950065141     -52.4962381
9.05                 0.949960885     -52.5646082
9.051                0.949856318     -52.6331295
9.052                0.949751439     -52.7018025
9.053                0.949646247     -52.7706277
9.054                 0.94954074     -52.8396055
9.055                0.949434919     -52.9087364
9.056                 0.94932878     -52.9780209
9.057                0.949222324     -53.0474595
9.058                0.949115549     -53.1170527
9.059                0.949008454      -53.186801
9.06                 0.948901037     -53.2567047
9.061                0.948793298     -53.3267646
9.062                0.948685235     -53.3969809
9.063                0.948576846     -53.4673543
9.064                0.948468132     -53.5378851
9.065                0.948359091      -53.608574
9.066                 0.94824972     -53.6794214
9.067                 0.94814002     -53.7504278
9.068                0.948029989     -53.8215938
9.069                0.947919625     -53.8929197
9.07                 0.947808928     -53.9644062
9.071                0.947697896     -54.0360537
9.072                0.947586527     -54.1078627
9.073                0.947474822     -54.1798338
9.074                0.947362778     -54.2519675
9.075                0.947250394     -54.3242642
9.076                0.947137669     -54.3967246
9.077                0.947024601     -54.4693491
9.078                 0.94691119     -54.5421382
9.079                0.946797434     -54.6150925
9.08                 0.946683331     -54.6882125
9.081                0.946568881     -54.7614988
9.082                0.946454083     -54.8349517
9.083                0.946338934      -54.908572
9.084                0.946223434     -54.9823601
9.085                0.946107581     -55.0563166
9.086                0.945991374     -55.1304419
9.087                0.945874812     -55.2047367
9.088                0.945757893     -55.2792015
9.089                0.945640616     -55.3538368
9.09                  0.94552298     -55.4286432
9.091                0.945404983     -55.5036211
9.092                0.945286624     -55.5787713
9.093                0.945167902     -55.6540942
9.094                0.945048815     -55.7295903
9.095                0.944929362     -55.8052603
9.096                0.944809542     -55.8811047
9.097                0.944689354      -55.957124
9.098                0.944568795     -56.0333189
9.099                0.944447865     -56.1096898
9.1                  0.944326562     -56.1862374
9.101                0.944204884     -56.2629622
9.102                0.944082832     -56.3398648
9.103                0.943960402     -56.4169458
9.104                0.943837594     -56.4942057
9.105                0.943714407     -56.5716451
9.106                0.943590838     -56.6492646
9.107                0.943466887     -56.7270648
9.108                0.943342551     -56.8050463
9.109                0.943217831     -56.8832096
9.11                 0.943092724     -56.9615554
9.111                0.942967229     -57.0400842
9.112                0.942841344     -57.1187967
9.113                0.942715068     -57.1976934
9.114                  0.9425884     -57.2767749
9.115                0.942461338     -57.3560418
9.116                 0.94233388     -57.4354948
9.117                0.942206026     -57.5151343
9.118                0.942077774     -57.5949612
9.119                0.941949122     -57.6749759
9.12                 0.941820069      -57.755179
9.121                0.941690614     -57.8355712
9.122                0.941560755     -57.9161532
9.123                 0.94143049     -57.9969254
9.124                0.941299818     -58.0778886
9.125                0.941168738     -58.1590433
9.126                0.941037248     -58.2403902
9.127                0.940905346     -58.3219299
9.128                0.940773032     -58.4036631
9.129                0.940640303     -58.4855904
9.13                 0.940507158     -58.5677123
9.131                0.940373596     -58.6500296
9.132                0.940239616      -58.732543
9.133                0.940105214     -58.8152529
9.134                0.939970391     -58.8981601
9.135                0.939835145     -58.9812653
9.136                0.939699473      -59.064569
9.137                0.939563375     -59.1480719
9.138                0.939426849     -59.2317748
9.139                0.939289894     -59.3156782
9.14                 0.939152508     -59.3997828
9.141                0.939014688     -59.4840892
9.142                0.938876435     -59.5685982
9.143                0.938737746     -59.6533104
9.144                 0.93859862     -59.7382264
9.145                0.938459055      -59.823347
9.146                0.938319049     -59.9086728
9.147                0.938178602     -59.9942045
9.148                0.938037711     -60.0799427
9.149                0.937896375     -60.1658882
9.15                 0.937754592     -60.2520417
9.151                 0.93761236     -60.3384038
9.152                0.937469679     -60.4249752
9.153                0.937326547     -60.5117566
9.154                0.937182961     -60.5987487
9.155                0.937038921     -60.6859522
9.156                0.936894425     -60.7733678
9.157                 0.93674947     -60.8609962
9.158                0.936604056     -60.9488382
9.159                0.936458181     -61.0368943
9.16                 0.936311843     -61.1251654
9.161                0.936165041     -61.2136522
9.162                0.936017773     -61.3023553
9.163                0.935870037     -61.3912755
9.164                0.935721832     -61.4804135
9.165                0.935573156       -61.56977
9.166                0.935424008     -61.6593457
9.167                0.935274385     -61.7491415
9.168                0.935124287      -61.839158
9.169                0.934973711     -61.9293959
9.17                 0.934822655      -62.019856
9.171                0.934671119     -62.1105391
9.172                0.934519101     -62.2014458
9.173                0.934366598      -62.292577
9.174                0.934213609     -62.3839333
9.175                0.934060133     -62.4755155
9.176                0.933906168     -62.5673244
9.177                0.933751712     -62.6593608
9.178                0.933596763     -62.7516253
9.179                 0.93344132     -62.8441188
9.18                 0.933285381      -62.936842
9.181                0.933128944     -63.0297958
9.182                0.932972008     -63.1229807
9.183                0.932814571     -63.2163977
9.184                0.932656631     -63.3100476
9.185                0.932498187      -63.403931
9.186                0.932339236     -63.4980488
9.187                0.932179778     -63.5924017
9.188                0.932019809     -63.6869906
9.189                 0.93185933     -63.7818163
9.19                 0.931698337     -63.8768795
9.191                 0.93153683      -63.972181
9.192                0.931374806     -64.0677216
9.193                0.931212263     -64.1635022
9.194                0.931049201     -64.2595235
9.195                0.930885617     -64.3557864
9.196                0.930721509     -64.4522917
9.197                0.930556876     -64.5490401
9.198                0.930391716     -64.6460325
9.199                0.930226027     -64.7432697
9.2                  0.930059807     -64.8407526
9.201                0.929893055     -64.9384819
9.202                0.929725769     -65.0364585
9.203                0.929557948     -65.1346832
9.204                0.929389588      -65.233157
9.205                 0.92922069     -65.3318805
9.206                 0.92905125     -65.4308546
9.207                0.928881267     -65.5300802
9.208                 0.92871074     -65.6295582
9.209                0.928539666     -65.7292894
9.21                 0.928368043     -65.8292746
9.211                0.928195871     -65.9295147
9.212                0.928023147     -66.0300105
9.213                0.927849869      -66.130763
9.214                0.927676036     -66.2317729
9.215                0.927501645     -66.3330412
9.216                0.927326696     -66.4345687
9.217                0.927151186     -66.5363564
9.218                0.926975113      -66.638405
9.219                0.926798476     -66.7407154
9.22                 0.926621272     -66.8432886
9.221                0.926443501     -66.9461254
9.222                0.926265159     -67.0492268
9.223                0.926086247     -67.1525936
9.224                 0.92590676     -67.2562267
9.225                0.925726699      -67.360127
9.226                 0.92554606     -67.4642954
9.227                0.925364843     -67.5687328
9.228                0.925183044     -67.6734402
9.229                0.925000664     -67.7784184
9.23                 0.924817699     -67.8836684
9.231                0.924634148      -67.989191
9.232                0.924450009     -68.0949873
9.233                 0.92426528     -68.2010581
9.234                 0.92407996     -68.3074043
9.235                0.923894046     -68.4140269
9.236                0.923707537     -68.5209269
9.237                0.923520431     -68.6281051
9.238                0.923332727     -68.7355625
9.239                0.923144421     -68.8433001
9.24                 0.922955513     -68.9513187
9.241                0.922766001     -69.0596195
9.242                0.922575883     -69.1682032
9.243                0.922385157     -69.2770708
9.244                0.922193821     -69.3862234
9.245                0.922001873     -69.4956619
9.246                0.921809312     -69.6053872
9.247                0.921616136     -69.7154004
9.248                0.921422343     -69.8257023
9.249                0.921227931     -69.9362941
9.25                 0.921032898     -70.0471766
9.251                0.920837243     -70.1583508
9.252                0.920640963     -70.2698177
9.253                0.920444058     -70.3815784
9.254                0.920246524     -70.4936338
9.255                0.920048361     -70.6059849
9.256                0.919849566     -70.7186327
9.257                0.919650138     -70.8315782
9.258                0.919450075     -70.9448224
9.259                0.919249375     -71.0583664
9.26                 0.919048036     -71.1722111
9.261                0.918846056     -71.2863575
9.262                0.918643434     -71.4008068
9.263                0.918440168     -71.5155598
9.264                0.918236256     -71.6306177
9.265                0.918031696     -71.7459814
9.266                0.917826487     -71.8616521
9.267                0.917620626     -71.9776306
9.268                0.917414113     -72.0939182
9.269                0.917206944     -72.2105157
9.27                 0.916999119     -72.3274243
9.271                0.916790636     -72.4446451
9.272                0.916581492      -72.562179
9.273                0.916371686     -72.6800271
9.274                0.916161217     -72.7981905
9.275                0.915950082     -72.9166702
9.276                0.915738279     -73.0354674
9.277                0.915525808     -73.1545831
9.278                0.915312666     -73.2740183
9.279                0.915098852     -73.3937741
9.28                 0.914884364     -73.5138517
9.281                0.914669199      -73.634252
9.282                0.914453357     -73.7549763
9.283                0.914236836     -73.8760255
9.284                0.914019633     -73.9974008
9.285                0.913801748     -74.1191033
9.286                0.913583178      -74.241134
9.287                0.913363922     -74.3634941
9.288                0.913143978     -74.4861847
9.289                0.912923344     -74.6092069
9.29                 0.912702019     -74.7325618
9.291                0.912480001     -74.8562505
9.292                0.912257289     -74.9802741
9.293                 0.91203388     -75.1046338
9.294                0.911809773     -75.2293307
9.295                0.911584967     -75.3543659
9.296                 0.91135946     -75.4797406
9.297                 0.91113325     -75.6054558
9.298                0.910906335     -75.7315128
9.299                0.910678714     -75.8579127
9.3                  0.910450386     -75.9846566
9.301                0.910221348     -76.1117457
9.302                0.909991599     -76.2391811
9.303                0.909761138     -76.3669639
9.304                0.909529963     -76.4950954
9.305                0.909298072     -76.6235768
9.306                0.909065464      -76.752409
9.307                0.908832138     -76.8815935
9.308                0.908598091     -77.0111312
9.309                0.908363322     -77.1410234
9.31                 0.908127831     -77.2712713
9.311                0.907891614     -77.4018761
9.312                0.907654671     -77.5328389
9.313                0.907417001     -77.6641609
9.314                0.907178601     -77.7958433
9.315                 0.90693947     -77.9278874
9.316                0.906699608     -78.0602943
9.317                0.906459012     -78.1930651
9.318                0.906217681     -78.3262012
9.319                0.905975613     -78.4597037
9.32                 0.905732808     -78.5935739
9.321                0.905489264     -78.7278129
9.322                0.905244979      -78.862422
9.323                0.904999952     -78.9974023
9.324                0.904754183     -79.1327552
9.325                0.904507668     -79.2684818
9.326                0.904260408     -79.4045834
9.327                  0.9040124     -79.5410612
9.328                0.903763644     -79.6779164
9.329                0.903514139     -79.8151503
9.33                 0.903263882     -79.9527641
9.331                0.903012873     -80.0907591
9.332                0.902761111     -80.2291364
9.333                0.902508594     -80.3678975
9.334                0.902255322     -80.5070434
9.335                0.902001292     -80.6465755
9.336                0.901746504     -80.7864951
9.337                0.901490957     -80.9268033
9.338                 0.90123465     -81.0675015
9.339                0.900977581     -81.2085908
9.34                 0.900719749     -81.3500727
9.341                0.900461154     -81.4919484
9.342                0.900201794     -81.6342191
9.343                0.899941669     -81.7768861
9.344                0.899680777     -81.9199507
9.345                0.899419117     -82.0634142
9.346                0.899156688     -82.2072779
9.347                 0.89889349      -82.351543
9.348                0.898629521     -82.4962109
9.349                0.898364781     -82.6412828
9.35                 0.898099269     -82.7867601
9.351                0.897832983      -82.932644
9.352                0.897565924     -83.0789359
9.353                 0.89729809      -83.225637
9.354                 0.89702948     -83.3727487
9.355                0.896760094     -83.5202722
9.356                 0.89648993     -83.6682089
9.357                0.896218989     -83.8165602
9.358                 0.89594727     -83.9653272
9.359                0.895674771     -84.1145114
9.36                 0.895401493      -84.264114
9.361                0.895127434     -84.4141364
9.362                0.894852594       -84.56458
9.363                0.894576973     -84.7154459
9.364                0.894300569     -84.8667356
9.365                0.894023383     -85.0184504
9.366                0.893745414     -85.1705917
9.367                0.893466662     -85.3231607
9.368                0.893187126     -85.4761588
9.369                0.892906805     -85.6295874
9.37                   0.8926257     -85.7834478
9.371                0.892343809     -85.9377413
9.372                0.892061134     -86.0924693
9.373                0.891777673     -86.2476331
9.374                0.891493426     -86.4032341
9.375                0.891208393     -86.5592737
9.376                0.890922574     -86.7157531
9.377                0.890635968     -86.8726738
9.378                0.890348577     -87.0300371
9.379                0.890060398     -87.1878443
9.38                 0.889771434     -87.3460969
9.381                0.889481682     -87.5047961
9.382                0.889191145     -87.6639434
9.383                0.888899821     -87.8235402
9.384                 0.88860771     -87.9835877
9.385                0.888314814     -88.1440873
9.386                0.888021131     -88.3050405
9.387                0.887726663     -88.4664485
9.388                0.887431409     -88.6283128
9.389                 0.88713537     -88.7906348
9.39                 0.886838546     -88.9534157
9.391                0.886540937      -89.116657
9.392                0.886242545     -89.2803601
9.393                0.885943369     -89.4445263
9.394                0.885643409      -89.609157
9.395                0.885342667     -89.7742537
9.396                0.885041143     -89.9398175
