! TOUCHSTONE file generated by CST DESIGN STUDIO
! Date and time: Tue Feb  4 16:08:44 2025
! Project name: C:\Work\MatlabApps\UnitCellOptimizationMatlab\CST\unitcell.cst
! Tree item: Tasks\Sweep1\SPara1\S-Parameters
! Header version: 2024
! Port assignment regex: !\s*Touchstone port\s*([0-9]+)\s*=\s*(CST MWS port|CST DES external port|CST DES block port)\s*(.+)\s* \(\"(.*)\"\)(\s*mode\s*([0-9]+))?.*
! Touchstone port assignment:
! Touchstone port 1 = CST DES external port 1 ("")
# GHz S MA R 50
9                    0.948459496     -54.0589796
9.001                0.948347512     -54.1299329
9.002                 0.94823519     -54.2010452
9.003                 0.94812253      -54.272317
9.004                0.948009531     -54.3437488
9.005                 0.94789619     -54.4153412
9.006                0.947782508     -54.4870947
9.007                0.947668482     -54.5590098
9.008                0.947554111     -54.6310869
9.009                0.947439395     -54.7033267
9.01                 0.947324331     -54.7757296
9.011                0.947208919     -54.8482961
9.012                0.947093157     -54.9210268
9.013                0.946977043     -54.9939222
9.014                0.946860578     -55.0669828
9.015                0.946743758     -55.1402092
9.016                0.946626583     -55.2136018
9.017                0.946509052     -55.2871613
9.018                0.946391164     -55.3608881
9.019                0.946272916     -55.4347828
9.02                 0.946154308     -55.5088459
9.021                0.946035338      -55.583078
9.022                0.945916005     -55.6574795
9.023                0.945796308     -55.7320512
9.024                0.945676245     -55.8067934
9.025                0.945555814     -55.8817068
9.026                0.945435016     -55.9567918
9.027                0.945313847     -56.0320491
9.028                0.945192308     -56.1074793
9.029                0.945070395     -56.1830827
9.03                 0.944948109     -56.2588601
9.031                0.944825448      -56.334812
9.032                 0.94470241     -56.4109389
9.033                0.944578993     -56.4872414
9.034                0.944455198     -56.5637201
9.035                0.944331021     -56.6403756
9.036                0.944206462     -56.7172083
9.037                 0.94408152      -56.794219
9.038                0.943956192     -56.8714081
9.039                0.943830478     -56.9487762
9.04                 0.943704376      -57.026324
9.041                0.943577884      -57.104052
9.042                0.943451002     -57.1819608
9.043                0.943323728     -57.2600509
9.044                 0.94319606     -57.3383231
9.045                0.943067997     -57.4167777
9.046                0.942939537     -57.4954156
9.047                0.942810679     -57.5742372
9.048                0.942681422     -57.6532431
9.049                0.942551764      -57.732434
9.05                 0.942421704     -57.8118104
9.051                 0.94229124      -57.891373
9.052                 0.94216037     -57.9711223
9.053                0.942029094      -58.051059
9.054                 0.94189741     -58.1311837
9.055                0.941765316      -58.211497
9.056                 0.94163281     -58.2919995
9.057                0.941499892     -58.3726918
9.058                 0.94136656     -58.4535745
9.059                0.941232812     -58.5346484
9.06                 0.941098647     -58.6159139
9.061                0.940964063     -58.6973718
9.062                0.940829059     -58.7790226
9.063                0.940693633      -58.860867
9.064                0.940557784     -58.9429056
9.065                 0.94042151     -59.0251391
9.066                 0.94028481     -59.1075681
9.067                0.940147681     -59.1901932
9.068                0.940010124     -59.2730151
9.069                0.939872135     -59.3560344
9.07                 0.939733714     -59.4392519
9.071                0.939594859      -59.522668
9.072                0.939455568     -59.6062835
9.073                0.939315841     -59.6900991
9.074                0.939175674     -59.7741154
9.075                0.939035067      -59.858333
9.076                0.938894018     -59.9427527
9.077                0.938752526     -60.0273751
9.078                0.938610588     -60.1122008
9.079                0.938468204     -60.1972306
9.08                 0.938325372      -60.282465
9.081                 0.93818209     -60.3679049
9.082                0.938038357     -60.4535508
9.083                 0.93789417     -60.5394034
9.084                0.937749529     -60.6254635
9.085                0.937604432     -60.7117317
9.086                0.937458877     -60.7982087
9.087                0.937312862     -60.8848951
9.088                0.937166386     -60.9717918
9.089                0.937019448     -61.0588994
9.09                 0.936872045     -61.1462185
9.091                0.936724176     -61.2337499
9.092                0.936575839     -61.3214943
9.093                0.936427033     -61.4094524
9.094                0.936277757     -61.4976249
9.095                0.936128007     -61.5860125
9.096                0.935977784      -61.674616
9.097                0.935827084      -61.763436
9.098                0.935675907     -61.8524732
9.099                0.935524251     -61.9417285
9.1                  0.935372113     -62.0312025
9.101                0.935219494     -62.1208959
9.102                0.935066389     -62.2108095
9.103                0.934912799      -62.300944
9.104                0.934758722     -62.3913002
9.105                0.934604155     -62.4818787
9.106                0.934449097     -62.5726804
9.107                0.934293546     -62.6637059
9.108                0.934137501     -62.7549561
9.109                0.933980959     -62.8464316
9.11                  0.93382392     -62.9381332
9.111                0.933666381     -63.0300617
9.112                0.933508341     -63.1222179
9.113                0.933349798     -63.2146024
9.114                0.933190751     -63.3072161
9.115                0.933031196     -63.4000597
9.116                0.932871134     -63.4931341
9.117                0.932710562     -63.5864398
9.118                0.932549478     -63.6799779
9.119                0.932387881     -63.7737489
9.12                 0.932225768     -63.8677537
9.121                0.932063139     -63.9619931
9.122                0.931899991     -64.0564679
9.123                0.931736322     -64.1511789
9.124                0.931572132     -64.2461267
9.125                0.931407417     -64.3413124
9.126                0.931242177     -64.4367365
9.127                 0.93107641     -64.5324001
9.128                0.930910113     -64.6283037
9.129                0.930743285     -64.7244483
9.13                 0.930575925     -64.8208347
9.131                 0.93040803     -64.9174636
9.132                0.930239598     -65.0143359
9.133                0.930070629     -65.1114525
9.134                 0.92990112      -65.208814
9.135                0.929731069     -65.3064214
9.136                0.929560474     -65.4042755
9.137                0.929389334     -65.5023771
9.138                0.929217647      -65.600727
9.139                0.929045412     -65.6993261
9.14                 0.928872625     -65.7981752
9.141                0.928699286     -65.8972752
9.142                0.928525393     -65.9966269
9.143                0.928350944     -66.0962311
9.144                0.928175937     -66.1960887
9.145                 0.92800037     -66.2962006
9.146                0.927824241     -66.3965676
9.147                0.927647549     -66.4971905
9.148                0.927470292     -66.5980703
9.149                0.927292468     -66.6992078
9.15                 0.927114075     -66.8006038
9.151                0.926935111     -66.9022593
9.152                0.926755575     -67.0041751
9.153                0.926575465     -67.1063521
9.154                0.926394778     -67.2087912
9.155                0.926213514     -67.3114932
9.156                0.926031669      -67.414459
9.157                0.925849243     -67.5176896
9.158                0.925666233     -67.6211859
9.159                0.925482638     -67.7249486
9.16                 0.925298456     -67.8289788
9.161                0.925113685     -67.9332773
9.162                0.924928323     -68.0378451
9.163                0.924742368      -68.142683
9.164                0.924555818     -68.2477919
9.165                0.924368673     -68.3531729
9.166                0.924180928     -68.4588267
9.167                0.923992584     -68.5647543
9.168                0.923803638     -68.6709567
9.169                0.923614088     -68.7774347
9.17                 0.923423932     -68.8841893
9.171                0.923233169     -68.9912215
9.172                0.923041796     -69.0985322
9.173                0.922849812     -69.2061222
9.174                0.922657215     -69.3139926
9.175                0.922464003     -69.4221444
9.176                0.922270174     -69.5305783
9.177                0.922075727     -69.6392955
9.178                0.921880659     -69.7482969
9.179                0.921684968     -69.8575833
9.18                 0.921488654     -69.9671559
9.181                0.921291713     -70.0770155
9.182                0.921094145     -70.1871632
9.183                0.920895947     -70.2975999
9.184                0.920697117     -70.4083265
9.185                0.920497654     -70.5193441
9.186                0.920297555     -70.6306536
9.187                0.920096819     -70.7422561
9.188                0.919895444     -70.8541525
9.189                0.919693429     -70.9663437
9.19                  0.91949077     -71.0788309
9.191                0.919287468      -71.191615
9.192                0.919083518      -71.304697
9.193                0.918878921      -71.418078
9.194                0.918673673     -71.5317588
9.195                0.918467774     -71.6457406
9.196                0.918261221     -71.7600243
9.197                0.918054012     -71.8746111
9.198                0.917846146     -71.9895018
9.199                0.917637621     -72.1046975
9.2                  0.917428435     -72.2201993
9.201                0.917218586     -72.3360081
9.202                0.917008072     -72.4521251
9.203                0.916796892     -72.5685512
9.204                0.916585043     -72.6852876
9.205                0.916372525     -72.8023351
9.206                0.916159334      -72.919695
9.207                 0.91594547     -73.0373682
9.208                 0.91573093     -73.1553558
9.209                0.915515713     -73.2736589
9.21                 0.915299817     -73.3922785
9.211                0.915083241     -73.5112157
9.212                0.914865981     -73.6304716
9.213                0.914648037     -73.7500471
9.214                0.914429407     -73.8699435
9.215                0.914210089     -73.9901618
9.216                0.913990081      -74.110703
9.217                0.913769382     -74.2315683
9.218                0.913547989     -74.3527587
9.219                0.913325902     -74.4742754
9.22                 0.913103117     -74.5961194
9.221                0.912879635     -74.7182918
9.222                0.912655452     -74.8407937
9.223                0.912430567     -74.9636263
9.224                0.912204979     -75.0867906
9.225                0.911978685     -75.2102878
9.226                0.911751685     -75.3341189
9.227                0.911523975     -75.4582851
9.228                0.911295555     -75.5827876
9.229                0.911066423     -75.7076274
9.23                 0.910836578     -75.8328056
9.231                0.910606016     -75.9583234
9.232                0.910374738      -76.084182
9.233                0.910142741     -76.2103824
9.234                0.909910024     -76.3369258
9.235                0.909676584     -76.4638134
9.236                0.909442421     -76.5910463
9.237                0.909207533     -76.7186256
9.238                0.908971918     -76.8465525
9.239                0.908735574     -76.9748282
9.24                 0.908498501     -77.1034539
9.241                0.908260695     -77.2324306
9.242                0.908022157     -77.3617596
9.243                0.907782883      -77.491442
9.244                0.907542874     -77.6214789
9.245                0.907302126     -77.7518717
9.246                0.907060639     -77.8826214
9.247                0.906818411     -78.0137293
9.248                0.906575441     -78.1451965
9.249                0.906331727     -78.2770242
9.25                 0.906087268     -78.4092136
9.251                0.905842061     -78.5417659
9.252                0.905596107     -78.6746824
9.253                0.905349402     -78.8079641
9.254                0.905101947     -78.9416123
9.255                0.904853739     -79.0756283
9.256                0.904604777     -79.2100131
9.257                0.904355059     -79.3447681
9.258                0.904104585     -79.4798945
9.259                0.903853352     -79.6153935
9.26                  0.90360136     -79.7512662
9.261                0.903348608      -79.887514
9.262                0.903095093     -80.0241381
9.263                0.902840815     -80.1611396
9.264                0.902585772     -80.2985199
9.265                0.902329963     -80.4362801
9.266                0.902073386     -80.5744215
9.267                0.901816042     -80.7129454
9.268                0.901557927      -80.851853
9.269                0.901299042     -80.9911455
9.27                 0.901039384     -81.1308243
9.271                0.900778953     -81.2708904
9.272                0.900517748     -81.4113453
9.273                0.900255767     -81.5521902
9.274                 0.89999301     -81.6934263
9.275                0.899729475     -81.8350549
9.276                0.899465161     -81.9770773
9.277                0.899200067     -82.1194947
9.278                0.898934192     -82.2623085
9.279                0.898667535     -82.4055198
9.28                 0.898400095     -82.5491301
9.281                0.898131871     -82.6931405
9.282                0.897862863     -82.8375523
9.283                0.897593068     -82.9823669
9.284                0.897322487     -83.1275855
9.285                0.897051118     -83.2732094
9.286                0.896778961       -83.41924
9.287                0.896506014     -83.5656784
9.288                0.896232277     -83.7125261
9.289                0.895957749     -83.8597843
9.29                  0.89568243     -84.0074543
9.291                0.895406318     -84.1555375
9.292                0.895129413      -84.304035
9.293                0.894851714     -84.4529484
9.294                 0.89457322     -84.6022788
9.295                0.894293932     -84.7520276
9.296                0.894013847     -84.9021961
9.297                0.893732966     -85.0527856
9.298                0.893451289     -85.2037975
9.299                0.893168813     -85.3552331
9.3                   0.89288554     -85.5070937
9.301                0.892601468     -85.6593806
9.302                0.892316598     -85.8120951
9.303                0.892030927     -85.9652387
9.304                0.891744458     -86.1188126
9.305                0.891457188     -86.2728182
9.306                0.891169118     -86.4272568
9.307                0.890880247     -86.5821298
9.308                0.890590575     -86.7374385
9.309                0.890300102     -86.8931842
9.31                 0.890008827     -87.0493683
9.311                0.889716751     -87.2059921
9.312                0.889423873     -87.3630571
9.313                0.889130194     -87.5205644
9.314                0.888835712     -87.6785156
9.315                0.888540429      -87.836912
9.316                0.888244343     -87.9957548
9.317                0.887947456     -88.1550455
9.318                0.887649767     -88.3147855
9.319                0.887351277      -88.474976
9.32                 0.887051985     -88.6356185
9.321                0.886751891     -88.7967143
9.322                0.886450997     -88.9582648
9.323                0.886149302     -89.1202713
9.324                0.885846806     -89.2827352
9.325                 0.88554351     -89.4456579
9.326                0.885239414     -89.6090407
9.327                0.884934519     -89.7728851
9.328                0.884628825     -89.9371924
9.329                0.884322333     -90.1019639
9.33                 0.884015043      -90.267201
9.331                0.883706955     -90.4329051
9.332                0.883398071     -90.5990776
9.333                0.883088391     -90.7657199
9.334                0.882777916     -90.9328332
9.335                0.882466646     -91.1004191
9.336                0.882154583     -91.2684788
9.337                0.881841728     -91.4370138
9.338                 0.88152808     -91.6060254
9.339                0.881213641     -91.7755151
9.34                 0.880898413      -91.945484
9.341                0.880582396     -92.1159338
9.342                0.880265591     -92.2868656
9.343                   0.879948      -92.458281
9.344                0.879629623     -92.6301812
9.345                0.879310463     -92.8025677
9.346                0.878990519     -92.9754418
9.347                0.878669794      -93.148805
9.348                 0.87834829     -93.3226585
9.349                0.878026006     -93.4970037
9.35                 0.877702946     -93.6718421
9.351                 0.87737911      -93.847175
9.352                  0.8770545     -94.0230037
9.353                0.876729119     -94.1993297
9.354                0.876402967     -94.3761543
9.355                0.876076046     -94.5534789
9.356                0.875748359     -94.7313049
9.357                0.875419907     -94.9096335
9.358                0.875090691     -95.0884662
9.359                0.874760716     -95.2678044
9.36                 0.874429981     -95.4476494
9.361                 0.87409849     -95.6280026
9.362                0.873766244     -95.8088653
9.363                0.873433247     -95.9902389
9.364                  0.8730995     -96.1721247
9.365                0.872765005     -96.3545241
9.366                0.872429765     -96.5374385
9.367                0.872093784     -96.7208692
9.368                0.871757062     -96.9048175
9.369                0.871419603     -97.0892848
9.37                  0.87108141     -97.2742725
9.371                0.870742485     -97.4597819
9.372                0.870402832     -97.6458142
9.373                0.870062453      -97.832371
9.374                0.869721351     -98.0194534
9.375                0.869379529     -98.2070628
9.376                0.869036991     -98.3952006
9.377                0.868693739     -98.5838681
9.378                0.868349777     -98.7730665
9.379                0.868005109     -98.9627973
9.38                 0.867659737     -99.1530617
9.381                0.867313665      -99.343861
9.382                0.866966898     -99.5351965
9.383                0.866619437     -99.7270697
9.384                0.866271288     -99.9194816
9.385                0.865922453     -100.112434
9.386                0.865572938     -100.305927
9.387                0.865222745     -100.499963
9.388                0.864871879     -100.694544
9.389                0.864520344     -100.889669
9.39                 0.864168144     -101.085341
9.391                0.863815284     -101.281561
9.392                0.863461767      -101.47833
9.393                0.863107598     -101.675649
9.394                0.862752782      -101.87352
9.395                0.862397324     -102.071944
9.396                0.862041227     -102.270922
