! TOUCHSTONE file generated by CST DESIGN STUDIO
! Date and time: Tue Feb  4 13:42:04 2025
! Project name: C:\Work\MatlabApps\UnitCellOptimizationMatlab\CST\unitcell.cst
! Tree item: Tasks\Sweep1\SPara1\S-Parameters
! Header version: 2024
! Port assignment regex: !\s*Touchstone port\s*([0-9]+)\s*=\s*(CST MWS port|CST DES external port|CST DES block port)\s*(.+)\s* \(\"(.*)\"\)(\s*mode\s*([0-9]+))?.*
! Touchstone port assignment:
! Touchstone port 1 = CST DES external port 1 ("")
# GHz S MA R 50
9                    0.932375486     -69.2163598
9.001                0.932204224     -69.3249043
9.002                0.932032341      -69.433739
9.003                0.931859835     -69.5428649
9.004                0.931686705      -69.652283
9.005                0.931512947     -69.7619943
9.006                0.931338559     -69.8719998
9.007                 0.93116354     -69.9823006
9.008                0.930987887     -70.0928976
9.009                0.930811598     -70.2037918
9.01                 0.930634671     -70.3149844
9.011                0.930457103     -70.4264763
9.012                0.930278893     -70.5382686
9.013                0.930100038     -70.6503622
9.014                0.929920536     -70.7627584
9.015                0.929740385      -70.875458
9.016                0.929559583     -70.9884621
9.017                0.929378127     -71.1017718
9.018                0.929196015     -71.2153882
9.019                0.929013245     -71.3293122
9.02                 0.928829815     -71.4435451
9.021                0.928645723     -71.5580877
9.022                0.928460966     -71.6729413
9.023                0.928275543     -71.7881068
9.024                 0.92808945     -71.9035853
9.025                0.927902686      -72.019378
9.026                0.927715249     -72.1354859
9.027                0.927527136     -72.2519101
9.028                0.927338345     -72.3686517
9.029                0.927148874     -72.4857117
9.03                 0.926958721     -72.6030914
9.031                0.926767883     -72.7207917
9.032                0.926576359     -72.8388138
9.033                0.926384146     -72.9571588
9.034                0.926191241     -73.0758278
9.035                0.925997644     -73.1948219
9.036                0.925803351     -73.3141422
9.037                 0.92560836     -73.4337899
9.038                0.925412669     -73.5537661
9.039                0.925216276     -73.6740719
9.04                 0.925019179     -73.7947085
9.041                0.924821375      -73.915677
9.042                0.924622863     -74.0369785
9.043                0.924423639     -74.1586142
9.044                0.924223703     -74.2805851
9.045                0.924023051     -74.4028926
9.046                0.923821681     -74.5255377
9.047                0.923619592     -74.6485216
9.048                0.923416781     -74.7718454
9.049                0.923213246     -74.8955104
9.05                 0.923008985     -75.0195177
9.051                0.922803995     -75.1438684
9.052                0.922598275     -75.2685637
9.053                0.922391822     -75.3936049
9.054                0.922184634     -75.5189931
9.055                0.921976709     -75.6447294
9.056                0.921768045     -75.7708152
9.057                0.921558639     -75.8972515
9.058                 0.92134849     -76.0240396
9.059                0.921137595     -76.1511807
9.06                 0.920925952     -76.2786759
9.061                 0.92071356     -76.4065266
9.062                0.920500415     -76.5347339
9.063                0.920286516     -76.6632989
9.064                0.920071861     -76.7922231
9.065                0.919856447     -76.9215075
9.066                0.919640273     -77.0511533
9.067                0.919423336     -77.1811619
9.068                0.919205635     -77.3115345
9.069                0.918987166     -77.4422723
9.07                 0.918767929     -77.5733765
9.071                0.918547921     -77.7048483
9.072                 0.91832714     -77.8366891
9.073                0.918105583     -77.9689001
9.074                 0.91788325     -78.1014825
9.075                0.917660137     -78.2344376
9.076                0.917436244     -78.3677667
9.077                0.917211567      -78.501471
9.078                0.916986104     -78.6355518
9.079                0.916759855     -78.7700103
9.08                 0.916532816     -78.9048479
9.081                0.916304986     -79.0400657
9.082                0.916076363     -79.1756652
9.083                0.915846945     -79.3116476
9.084                 0.91561673     -79.4480141
9.085                0.915385715     -79.5847661
9.086                  0.9151539     -79.7219049
9.087                0.914921282     -79.8594317
9.088                0.914687859     -79.9973479
9.089                0.914453629     -80.1356548
9.09                  0.91421859     -80.2743537
9.091                0.913982741     -80.4134458
9.092                 0.91374608     -80.5529325
9.093                0.913508605     -80.6928152
9.094                0.913270314     -80.8330951
9.095                0.913031204     -80.9737736
9.096                0.912791276      -81.114852
9.097                0.912550525     -81.2563316
9.098                0.912308952     -81.3982138
9.099                0.912066553     -81.5404999
9.1                  0.911823328     -81.6831913
9.101                0.911579275     -81.8262892
9.102                0.911334391     -81.9697951
9.103                0.911088675     -82.1137103
9.104                0.910842126     -82.2580361
9.105                0.910594742     -82.4027739
9.106                0.910346521     -82.5479251
9.107                0.910097461      -82.693491
9.108                0.909847561      -82.839473
9.109                 0.90959682     -82.9858724
9.11                 0.909345235     -83.1326907
9.111                0.909092805     -83.2799292
9.112                0.908839529     -83.4275892
9.113                0.908585405     -83.5756722
9.114                0.908330432     -83.7241795
9.115                0.908074608     -83.8731126
9.116                0.907817932     -84.0224728
9.117                0.907560402     -84.1722615
9.118                0.907302017       -84.32248
9.119                0.907042775     -84.4731299
9.12                 0.906782675     -84.6242125
9.121                0.906521716     -84.7757291
9.122                0.906259897     -84.9276813
9.123                0.905997215     -85.0800703
9.124                0.905733671     -85.2328977
9.125                0.905469262     -85.3861648
9.126                0.905203988      -85.539873
9.127                0.904937846     -85.6940237
9.128                0.904670837     -85.8486185
9.129                0.904402959     -86.0036586
9.13                  0.90413421     -86.1591455
9.131                 0.90386459     -86.3150807
9.132                0.903594098     -86.4714655
9.133                0.903322732     -86.6283014
9.134                0.903050492     -86.7855899
9.135                0.902777376     -86.9433323
9.136                0.902503385     -87.1015301
9.137                0.902228515     -87.2601847
9.138                0.901952768     -87.4192977
9.139                0.901676142     -87.5788703
9.14                 0.901398636      -87.738904
9.141                0.901120249     -87.8994004
9.142                0.900840981     -88.0603608
9.143                0.900560831     -88.2217867
9.144                0.900279798     -88.3836796
9.145                0.899997882     -88.5460408
9.146                0.899715082     -88.7088719
9.147                0.899431397     -88.8721743
9.148                0.899146827     -89.0359495
9.149                0.898861371     -89.2001989
9.15                 0.898575029      -89.364924
9.151                  0.8982878     -89.5301261
9.152                0.897999685     -89.6958069
9.153                0.897710682     -89.8619678
9.154                0.897420791     -90.0286102
9.155                0.897130013     -90.1957355
9.156                0.896838346     -90.3633453
9.157                0.896545791     -90.5314411
9.158                0.896252347     -90.7000242
9.159                0.895958015     -90.8690962
9.16                 0.895662794     -91.0386585
9.161                0.895366684     -91.2087125
9.162                0.895069685     -91.3792599
9.163                0.894771798      -91.550302
9.164                0.894473022     -91.7218403
9.165                0.894173357     -91.8938763
9.166                0.893872804     -92.0664114
9.167                0.893571364     -92.2394471
9.168                0.893269035     -92.4129849
9.169                0.892965819     -92.5870263
9.17                 0.892661716     -92.7615728
9.171                0.892356727     -92.9366257
9.172                0.892050851     -93.1121867
9.173                 0.89174409      -93.288257
9.174                0.891436444     -93.4648384
9.175                0.891127913     -93.6419321
9.176                0.890818499     -93.8195396
9.177                0.890508202     -93.9976626
9.178                0.890197023     -94.1763023
9.179                0.889884963     -94.3554603
9.18                 0.889572023      -94.535138
9.181                0.889258203      -94.715337
9.182                0.888943505     -94.8960586
9.183                0.888627929     -95.0773044
9.184                0.888311478     -95.2590758
9.185                0.887994151     -95.4413743
9.186                0.887675951     -95.6242013
9.187                0.887356879     -95.8075583
9.188                0.887036935     -95.9914468
9.189                0.886716123     -96.1758681
9.19                 0.886394442     -96.3608239
9.191                0.886071895     -96.5463154
9.192                0.885748483     -96.7323442
9.193                0.885424208     -96.9189118
9.194                0.885099071     -97.1060195
9.195                0.884773075     -97.2936688
9.196                0.884446222     -97.4818612
9.197                0.884118513     -97.6705981
9.198                 0.88378995     -97.8598809
9.199                0.883460536     -98.0497111
9.2                  0.883130272     -98.2400901
9.201                0.882799161     -98.4310193
9.202                0.882467206     -98.6225002
9.203                0.882134408     -98.8145341
9.204                 0.88180077     -99.0071226
9.205                0.881466295      -99.200267
9.206                0.881130985     -99.3939687
9.207                0.880794843     -99.5882292
9.208                0.880457872     -99.7830498
9.209                0.880120074     -99.9784319
9.21                 0.879781453     -100.174377
9.211                0.879442011     -100.370886
9.212                0.879101751     -100.567962
9.213                0.878760677     -100.765604
9.214                0.878418792     -100.963815
9.215                0.878076099     -101.162595
9.216                0.877732602     -101.361947
9.217                0.877388304     -101.561872
9.218                0.877043208      -101.76237
9.219                0.876697319     -101.963444
9.22                  0.87635064     -102.165094
9.221                0.876003174     -102.367323
9.222                0.875654926     -102.570131
9.223                  0.8753059     -102.773519
9.224                  0.8749561      -102.97749
9.225                 0.87460553     -103.182043
9.226                0.874254194     -103.387182
9.227                0.873902097     -103.592906
9.228                0.873549243     -103.799218
9.229                0.873195636     -104.006118
9.23                 0.872841282     -104.213608
9.231                0.872486184      -104.42169
9.232                0.872130349     -104.630363
9.233                 0.87177378      -104.83963
9.234                0.871416483     -105.049493
9.235                0.871058463     -105.259951
9.236                0.870699725     -105.471007
9.237                0.870340274     -105.682661
9.238                0.869980116     -105.894915
9.239                0.869619257     -106.107771
9.24                 0.869257701     -106.321228
9.241                0.868895455      -106.53529
9.242                0.868532525     -106.749955
9.243                0.868168916     -106.965227
9.244                0.867804635     -107.181106
9.245                0.867439687     -107.397593
9.246                0.867074079     -107.614689
9.247                0.866707817     -107.832396
9.248                0.866340908     -108.050714
9.249                0.865973358     -108.269645
9.25                 0.865605174     -108.489191
9.251                0.865236363     -108.709351
9.252                0.864866931     -108.930127
9.253                0.864496886      -109.15152
9.254                0.864126234     -109.373531
9.255                0.863754984     -109.596162
9.256                0.863383142     -109.819413
9.257                0.863010715     -110.043285
9.258                0.862637712      -110.26778
9.259                 0.86226414     -110.492898
9.26                 0.861890007      -110.71864
9.261                0.861515321     -110.945008
9.262                0.861140089     -111.172002
9.263                 0.86076432     -111.399623
9.264                0.860388023     -111.627872
9.265                0.860011205     -111.856751
9.266                0.859633876     -112.086259
9.267                0.859256043     -112.316399
9.268                0.858877716      -112.54717
9.269                0.858498903     -112.778574
9.27                 0.858119614     -113.010612
9.271                0.857739857     -113.243284
9.272                0.857359643     -113.476591
9.273                0.856978979     -113.710534
9.274                0.856597876     -113.945115
9.275                0.856216344     -114.180332
9.276                0.855834392     -114.416188
9.277                 0.85545203     -114.652683
9.278                0.855069268     -114.889818
9.279                0.854686116     -115.127594
9.28                 0.854302584     -115.366011
9.281                0.853918684     -115.605069
9.282                0.853534425     -115.844771
9.283                0.853149817     -116.085115
9.284                0.852764873     -116.326104
9.285                0.852379602     -116.567736
9.286                0.851994016     -116.810014
9.287                0.851608126     -117.052938
9.288                0.851221943     -117.296507
9.289                0.850835479     -117.540724
9.29                 0.850448746     -117.785587
9.291                0.850061754     -118.031098
9.292                0.849674515     -118.277257
9.293                0.849287043     -118.524065
9.294                0.848899348     -118.771522
9.295                0.848511444     -119.019628
9.296                0.848123342     -119.268384
9.297                0.847735055      -119.51779
9.298                0.847346595     -119.767847
9.299                0.846957976     -120.018554
9.3                   0.84656921     -120.269912
9.301                 0.84618031     -120.521922
9.302                 0.84579129     -120.774584
9.303                0.845402162     -121.027897
9.304                 0.84501294     -121.281862
9.305                0.844623639      -121.53648
9.306                 0.84423427      -121.79175
9.307                0.843844849     -122.047672
9.308                0.843455389     -122.304247
9.309                0.843065904     -122.561475
9.31                 0.842676409     -122.819356
9.311                0.842286918     -123.077889
9.312                0.841897445     -123.337075
9.313                0.841508006     -123.596914
9.314                0.841118614     -123.857405
9.315                0.840729285     -124.118549
9.316                0.840340033     -124.380345
9.317                0.839950874     -124.642794
9.318                0.839561824     -124.905895
9.319                0.839172897     -125.169649
9.32                  0.83878411     -125.434054
9.321                0.838395477      -125.69911
9.322                0.838007015     -125.964818
9.323                0.837618739     -126.231177
9.324                0.837230666     -126.498186
9.325                0.836842812     -126.765846
9.326                0.836455194     -127.034156
9.327                0.836067826     -127.303115
9.328                0.835680727     -127.572723
9.329                0.835293913      -127.84298
9.33                 0.834907401     -128.113885
9.331                0.834521208     -128.385437
9.332                 0.83413535     -128.657636
9.333                0.833749845     -128.930482
9.334                 0.83336471     -129.203973
9.335                0.832979963     -129.478109
9.336                0.832595622      -129.75289
9.337                0.832211703     -130.028314
9.338                0.831828225     -130.304381
9.339                0.831445206      -130.58109
9.34                 0.831062663      -130.85844
9.341                0.830680616     -131.136431
9.342                0.830299081     -131.415061
9.343                0.829918077     -131.694329
9.344                0.829537624     -131.974235
9.345                0.829157739     -132.254777
9.346                0.828778441     -132.535955
9.347                0.828399749     -132.817767
9.348                0.828021682     -133.100212
9.349                0.827644259     -133.383289
9.35                 0.827267499     -133.666997
9.351                 0.82689142     -133.951335
9.352                0.826516044     -134.236302
9.353                0.826141388     -134.521895
9.354                0.825767473     -134.808114
9.355                0.825394317     -135.094958
9.356                0.825021941     -135.382424
9.357                0.824650365     -135.670513
9.358                0.824279608     -135.959221
9.359                 0.82390969     -136.248548
9.36                 0.823540631     -136.538491
9.361                0.823172452      -136.82905
9.362                0.822805172     -137.120223
9.363                0.822438812     -137.412008
9.364                0.822073392     -137.704403
9.365                0.821708933     -137.997407
9.366                0.821345456     -138.291017
9.367                 0.82098298     -138.585233
9.368                0.820621526     -138.880051
9.369                0.820261115     -139.175471
9.37                 0.819901769      -139.47149
9.371                0.819543507     -139.768106
9.372                0.819186351     -140.065317
9.373                0.818830321     -140.363121
9.374                0.818475439     -140.661516
9.375                0.818121726       -140.9605
9.376                0.817769202     -141.260071
9.377                0.817417889     -141.560225
9.378                0.817067809     -141.860962
9.379                0.816718982     -142.162279
9.38                  0.81637143     -142.464172
9.381                0.816025173     -142.766641
9.382                0.815680234     -143.069682
9.383                0.815336635     -143.373293
9.384                0.814994395     -143.677471
9.385                0.814653537     -143.982214
9.386                0.814314082      -144.28752
9.387                0.813976052     -144.593385
9.388                0.813639468     -144.899806
9.389                0.813304351     -145.206782
9.39                 0.812970724     -145.514309
9.391                0.812638608     -145.822384
9.392                0.812308024     -146.131005
9.393                0.811978995     -146.440168
9.394                 0.81165154     -146.749871
9.395                0.811325683      -147.06011
9.396                0.811001444     -147.370883
