! TOUCHSTONE file generated by CST DESIGN STUDIO
! Date and time: Tue Feb  4 13:42:06 2025
! Project name: C:\Work\MatlabApps\UnitCellOptimizationMatlab\CST\unitcell.cst
! Tree item: Tasks\Sweep1\SPara1\S-Parameters
! Header version: 2024
! Port assignment regex: !\s*Touchstone port\s*([0-9]+)\s*=\s*(CST MWS port|CST DES external port|CST DES block port)\s*(.+)\s* \(\"(.*)\"\)(\s*mode\s*([0-9]+))?.*
! Touchstone port assignment:
! Touchstone port 1 = CST DES external port 1 ("")
# GHz S MA R 50
9                     0.94123513     -63.2030785
9.001                0.941094166     -63.2963117
9.002                0.940952684     -63.3897802
9.003                0.940810682      -63.483485
9.004                0.940668158     -63.5774267
9.005                0.940525109     -63.6716062
9.006                0.940381535     -63.7660243
9.007                0.940237433     -63.8606818
9.008                0.940092801     -63.9555795
9.009                0.939947638     -64.0507181
9.01                 0.939801941     -64.1460987
9.011                0.939655709     -64.2417219
9.012                 0.93950894     -64.3375885
9.013                0.939361631     -64.4336995
9.014                0.939213782     -64.5300556
9.015                 0.93906539     -64.6266577
9.016                0.938916453     -64.7235065
9.017                0.938766969      -64.820603
9.018                0.938616937      -64.917948
9.019                0.938466354     -65.0155423
9.02                 0.938315219     -65.1133868
9.021                0.938163529     -65.2114823
9.022                0.938011283     -65.3098297
9.023                0.937858478     -65.4084299
9.024                0.937705113     -65.5072836
9.025                0.937551186     -65.6063918
9.026                0.937396695     -65.7057553
9.027                0.937241638     -65.8053751
9.028                0.937086013     -65.9052519
9.029                0.936929818     -66.0053866
9.03                 0.936773051     -66.1057802
9.031                 0.93661571     -66.2064335
9.032                0.936457792     -66.3073473
9.033                0.936299297     -66.4085227
9.034                0.936140223     -66.5099604
9.035                0.935980566     -66.6116614
9.036                0.935820325     -66.7136266
9.037                0.935659499     -66.8158569
9.038                0.935498084     -66.9183531
9.039                 0.93533608     -67.0211163
9.04                 0.935173484     -67.1241472
9.041                0.935010294     -67.2274468
9.042                0.934846508     -67.3310161
9.043                0.934682124     -67.4348559
9.044                0.934517141     -67.5389672
9.045                0.934351555      -67.643351
9.046                0.934185366      -67.748008
9.047                 0.93401857     -67.8529393
9.048                0.933851167     -67.9581459
9.049                0.933683153     -68.0636286
9.05                 0.933514527     -68.1693884
9.051                0.933345288     -68.2754262
9.052                0.933175432     -68.3817431
9.053                0.933004958     -68.4883399
9.054                0.932833864     -68.5952176
9.055                0.932662147     -68.7023772
9.056                0.932489807     -68.8098196
9.057                 0.93231684     -68.9175459
9.058                0.932143244     -69.0255569
9.059                0.931969018     -69.1338537
9.06                  0.93179416     -69.2424372
9.061                0.931618667     -69.3513084
9.062                0.931442537     -69.4604684
9.063                0.931265768      -69.569918
9.064                0.931088359     -69.6796583
9.065                0.930910307     -69.7896903
9.066                 0.93073161     -69.9000149
9.067                0.930552267     -70.0106333
9.068                0.930372274     -70.1215463
9.069                 0.93019163     -70.2327551
9.07                 0.930010333     -70.3442605
9.071                 0.92982838     -70.4560637
9.072                0.929645771     -70.5681656
9.073                0.929462501     -70.6805673
9.074                0.929278571     -70.7932698
9.075                0.929093977     -70.9062741
9.076                0.928908717     -71.0195813
9.077                 0.92872279     -71.1331924
9.078                0.928536193     -71.2471084
9.079                0.928348924     -71.3613304
9.08                 0.928160981     -71.4758595
9.081                0.927972362     -71.5906966
9.082                0.927783065     -71.7058429
9.083                0.927593088     -71.8212993
9.084                0.927402429     -71.9370671
9.085                0.927211085     -72.0531471
9.086                0.927019056     -72.1695406
9.087                0.926826337     -72.2862485
9.088                0.926632928      -72.403272
9.089                0.926438827     -72.5206121
9.09                 0.926244031     -72.6382699
9.091                0.926048538     -72.7562465
9.092                0.925852346     -72.8745429
9.093                0.925655454     -72.9931604
9.094                0.925457858     -73.1120999
9.095                0.925259558     -73.2313626
9.096                0.925060551     -73.3509496
9.097                0.924860834      -73.470862
9.098                0.924660406     -73.5911009
9.099                0.924459266     -73.7116674
9.1                  0.924257409     -73.8325626
9.101                0.924054836     -73.9537877
9.102                0.923851543     -74.0753438
9.103                0.923647529      -74.197232
9.104                0.923442791     -74.3194534
9.105                0.923237328     -74.4420092
9.106                0.923031137     -74.5649005
9.107                0.922824217     -74.6881285
9.108                0.922616565     -74.8116943
9.109                 0.92240818     -74.9355991
9.11                 0.922199059      -75.059844
9.111                  0.9219892     -75.1844301
9.112                0.921778602     -75.3093587
9.113                0.921567262     -75.4346309
9.114                0.921355179     -75.5602479
9.115                0.921142349     -75.6862108
9.116                0.920928773     -75.8125208
9.117                0.920714446     -75.9391791
9.118                0.920499368     -76.0661869
9.119                0.920283537     -76.1935454
9.12                  0.92006695     -76.3212557
9.121                0.919849605      -76.449319
9.122                0.919631501     -76.5777366
9.123                0.919412636     -76.7065096
9.124                0.919193008     -76.8356393
9.125                0.918972614     -76.9651268
9.126                0.918751453     -77.0949734
9.127                0.918529522     -77.2251802
9.128                0.918306821     -77.3557486
9.129                0.918083347     -77.4866796
9.13                 0.917859098     -77.6179746
9.131                0.917634073     -77.7496348
9.132                0.917408269     -77.8816613
9.133                0.917181684     -78.0140555
9.134                0.916954318     -78.1468185
9.135                0.916726167     -78.2799517
9.136                 0.91649723     -78.4134562
9.137                0.916267505     -78.5473333
9.138                0.916036991     -78.6815842
9.139                0.915805685     -78.8162103
9.14                 0.915573586     -78.9512127
9.141                0.915340692     -79.0865927
9.142                0.915107001     -79.2223517
9.143                0.914872511     -79.3584908
9.144                0.914637222     -79.4950113
9.145                 0.91440113     -79.6319145
9.146                0.914164234     -79.7692017
9.147                0.913926533     -79.9068742
9.148                0.913688024     -80.0449332
9.149                0.913448707       -80.18338
9.15                 0.913208579      -80.322216
9.151                0.912967639     -80.4614424
9.152                0.912725885     -80.6010605
9.153                0.912483315     -80.7410716
9.154                0.912239928     -80.8814771
9.155                0.911995723     -81.0222781
9.156                0.911750697     -81.1634761
9.157                0.911504849     -81.3050724
9.158                0.911258178     -81.4470682
9.159                0.911010681     -81.5894649
9.16                 0.910762358     -81.7322638
9.161                0.910513207     -81.8754662
9.162                0.910263226     -82.0190735
9.163                0.910012414      -82.163087
9.164                 0.90976077      -82.307508
9.165                0.909508291     -82.4523378
9.166                0.909254978     -82.5975779
9.167                0.909000827     -82.7432295
9.168                0.908745838      -82.889294
9.169                 0.90849001     -83.0357727
9.17                 0.908233341      -83.182667
9.171                 0.90797583     -83.3299783
9.172                0.907717475     -83.4777079
9.173                0.907458275     -83.6258571
9.174                0.907198229     -83.7744273
9.175                0.906937336     -83.9234199
9.176                0.906675594     -84.0728363
9.177                0.906413003     -84.2226778
9.178                0.906149561     -84.3729457
9.179                0.905885266     -84.5236416
9.18                 0.905620119     -84.6747667
9.181                0.905354117     -84.8263224
9.182                 0.90508726     -84.9783102
9.183                0.904819546     -85.1307313
9.184                0.904550975     -85.2835872
9.185                0.904281546     -85.4368793
9.186                0.904011257      -85.590609
9.187                0.903740108     -85.7447776
9.188                0.903468098     -85.8993866
9.189                0.903195225     -86.0544373
9.19                 0.902921489     -86.2099312
9.191                 0.90264689     -86.3658697
9.192                0.902371425     -86.5222541
9.193                0.902095096     -86.6790859
9.194                  0.9018179     -86.8363664
9.195                0.901539837     -86.9940972
9.196                0.901260906     -87.1522796
9.197                0.900981108      -87.310915
9.198                 0.90070044     -87.4700048
9.199                0.900418903     -87.6295505
9.2                  0.900136496     -87.7895535
9.201                0.899853218     -87.9500152
9.202                0.899569069      -88.110937
9.203                0.899284049     -88.2723204
9.204                0.898998157     -88.4341667
9.205                0.898711392     -88.5964775
9.206                0.898423755     -88.7592541
9.207                0.898135245     -88.9224979
9.208                0.897845861     -89.0862105
9.209                0.897555604     -89.2503932
9.21                 0.897264473     -89.4150475
9.211                0.896972469     -89.5801748
9.212                 0.89667959     -89.7457766
9.213                0.896385837     -89.9118542
9.214                 0.89609121     -90.0784091
9.215                0.895795709     -90.2454429
9.216                0.895499334     -90.4129568
9.217                0.895202084     -90.5809524
9.218                0.894903961     -90.7494311
9.219                0.894604964     -90.9183944
9.22                 0.894305094     -91.0878436
9.221                 0.89400435     -91.2577802
9.222                0.893702733     -91.4282058
9.223                0.893400244     -91.5991216
9.224                0.893096882     -91.7705293
9.225                0.892792648     -91.9424301
9.226                0.892487543     -92.1148257
9.227                0.892181567     -92.2877173
9.228                0.891874721     -92.4611065
9.229                0.891567005     -92.6349947
9.23                 0.891258421     -92.8093834
9.231                0.890948968      -92.984274
9.232                0.890638647     -93.1596679
9.233                 0.89032746     -93.3355666
9.234                0.890015407     -93.5119716
9.235                 0.88970249     -93.6888843
9.236                0.889388708     -93.8663061
9.237                0.889074064     -94.0442385
9.238                0.888758558      -94.222683
9.239                0.888442191     -94.4016409
9.24                 0.888124965     -94.5811137
9.241                0.887806881     -94.7611029
9.242                 0.88748794     -94.9416099
9.243                0.887168144     -95.1226361
9.244                0.886847494     -95.3041831
9.245                0.886525991     -95.4862521
9.246                0.886203637     -95.6688447
9.247                0.885880435     -95.8519623
9.248                0.885556384     -96.0356063
9.249                0.885231488     -96.2197781
9.25                 0.884905747     -96.4044793
9.251                0.884579165     -96.5897111
9.252                0.884251742     -96.7754751
9.253                 0.88392348     -96.9617727
9.254                0.883594383     -97.1486052
9.255                0.883264452     -97.3359741
9.256                0.882933688     -97.5238809
9.257                0.882602095     -97.7123268
9.258                0.882269675     -97.9013135
9.259                 0.88193643     -98.0908421
9.26                 0.881602362     -98.2809143
9.261                0.881267475     -98.4715313
9.262                 0.88093177     -98.6626945
9.263                0.880595251     -98.8544054
9.264                0.880257919     -99.0466654
9.265                0.879919779     -99.2394758
9.266                0.879580833     -99.4328381
9.267                0.879241084     -99.6267535
9.268                0.878900535     -99.8212236
9.269                0.878559189      -100.01625
9.27                 0.878217049     -100.211833
9.271                0.877874119     -100.407975
9.272                0.877530401     -100.604677
9.273                0.877185901     -100.801941
9.274                 0.87684062     -100.999767
9.275                0.876494563     -101.198157
9.276                0.876147733     -101.397113
9.277                0.875800134     -101.596636
9.278                 0.87545177     -101.796727
9.279                0.875102645     -101.997387
9.28                 0.874752763     -102.198619
9.281                0.874402128     -102.400422
9.282                0.874050744     -102.602798
9.283                0.873698616      -102.80575
9.284                0.873345748     -103.009277
9.285                0.872992144     -103.213382
9.286                0.872637809     -103.418066
9.287                0.872282747     -103.623329
9.288                0.871926964     -103.829173
9.289                0.871570464       -104.0356
9.29                 0.871213252     -104.242611
9.291                0.870855334     -104.450206
9.292                0.870496713     -104.658388
9.293                0.870137396     -104.867157
9.294                0.869777388     -105.076515
9.295                0.869416694     -105.286463
9.296                 0.86905532     -105.497002
9.297                0.868693271     -105.708133
9.298                0.868330553     -105.919858
9.299                0.867967171     -106.132177
9.3                  0.867603133     -106.345092
9.301                0.867238443     -106.558605
9.302                0.866873107     -106.772715
9.303                0.866507133     -106.987425
9.304                0.866140526     -107.202735
9.305                0.865773293     -107.418648
9.306                 0.86540544     -107.635163
9.307                0.865036973     -107.852281
9.308                0.864667901     -108.070005
9.309                0.864298228     -108.288335
9.31                 0.863927964     -108.507272
9.311                0.863557113     -108.726818
9.312                0.863185684     -108.946972
9.313                0.862813684     -109.167738
9.314                 0.86244112     -109.389114
9.315                   0.862068     -109.611103
9.316                0.861694331     -109.833706
9.317                0.861320121     -110.056923
9.318                0.860945378     -110.280755
9.319                 0.86057011     -110.505204
9.32                 0.860194325      -110.73027
9.321                 0.85981803     -110.955955
9.322                0.859441235     -111.182259
9.323                0.859063948     -111.409184
9.324                0.858686177     -111.636729
9.325                0.858307931     -111.864897
9.326                0.857929219     -112.093687
9.327                0.857550049     -112.323102
9.328                0.857170431     -112.553141
9.329                0.856790373     -112.783806
9.33                 0.856409885     -113.015097
9.331                0.856028976     -113.247015
9.332                0.855647657     -113.479561
9.333                0.855265935     -113.712736
9.334                0.854883821     -113.946541
9.335                0.854501326     -114.180976
9.336                0.854118458     -114.416042
9.337                0.853735228      -114.65174
9.338                0.853351647      -114.88807
9.339                0.852967723     -115.125034
9.34                 0.852583469     -115.362631
9.341                0.852198894     -115.600863
9.342                 0.85181401      -115.83973
9.343                0.851428827     -116.079233
9.344                0.851043355     -116.319372
9.345                0.850657607     -116.560149
9.346                0.850271594     -116.801562
9.347                0.849885326     -117.043614
9.348                0.849498815     -117.286304
9.349                0.849112073     -117.529634
9.35                 0.848725112     -117.773603
9.351                0.848337943     -118.018212
9.352                0.847950579     -118.263461
9.353                0.847563031     -118.509352
9.354                0.847175312     -118.755883
9.355                0.846787434     -119.003057
9.356                0.846399409     -119.250873
9.357                0.846011251     -119.499331
9.358                0.845622972     -119.748431
9.359                0.845234585     -119.998175
9.36                 0.844846104     -120.248562
9.361                 0.84445754     -120.499593
9.362                0.844068907     -120.751267
9.363                 0.84368022     -121.003586
9.364                0.843291491     -121.256549
9.365                0.842902734     -121.510156
9.366                0.842513962     -121.764407
9.367                0.842125191     -122.019304
9.368                0.841736434     -122.274845
9.369                0.841347704      -122.53103
9.37                 0.840959017     -122.787861
9.371                0.840570387     -123.045336
9.372                0.840181828     -123.303456
9.373                0.839793355     -123.562221
9.374                0.839404983     -123.821631
9.375                0.839016727     -124.081685
9.376                0.838628602     -124.342384
9.377                0.838240623     -124.603727
9.378                0.837852806     -124.865715
9.379                0.837465166     -125.128346
9.38                 0.837077718     -125.391621
9.381                0.836690479      -125.65554
9.382                0.836303464     -125.920102
9.383                0.835916688     -126.185307
9.384                 0.83553017     -126.451154
9.385                0.835143923     -126.717644
9.386                0.834757965     -126.984776
9.387                0.834372313     -127.252549
9.388                0.833986982     -127.520963
9.389                0.833601989     -127.790017
9.39                 0.833217352     -128.059711
9.391                0.832833087     -128.330045
9.392                0.832449212     -128.601018
9.393                0.832065743     -128.872629
9.394                0.831682697     -129.144877
9.395                0.831300093     -129.417763
9.396                0.830917947     -129.691284
