! TOUCHSTONE file generated by CST DESIGN STUDIO
! Date and time: Tue Feb  4 13:42:03 2025
! Project name: C:\Work\MatlabApps\UnitCellOptimizationMatlab\CST\unitcell.cst
! Tree item: Tasks\Sweep1\SPara1\S-Parameters
! Header version: 2024
! Port assignment regex: !\s*Touchstone port\s*([0-9]+)\s*=\s*(CST MWS port|CST DES external port|CST DES block port)\s*(.+)\s* \(\"(.*)\"\)(\s*mode\s*([0-9]+))?.*
! Touchstone port assignment:
! Touchstone port 1 = CST DES external port 1 ("")
# GHz S MA R 50
9                    0.922295765     -75.8554087
9.001                0.922087692     -75.9826682
9.002                0.921878868     -76.1102824
9.003                0.921669293     -76.2382525
9.004                0.921458963     -76.3665798
9.005                0.921247878     -76.4952655
9.006                0.921036034     -76.6243109
9.007                 0.92082343     -76.7537171
9.008                0.920610064     -76.8834855
9.009                0.920395933     -77.0136172
9.01                 0.920181035     -77.1441135
9.011                 0.91996537     -77.2749757
9.012                0.919748933     -77.4062051
9.013                0.919531724     -77.5378028
9.014                 0.91931374     -77.6697701
9.015                 0.91909498     -77.8021084
9.016                0.918875441     -77.9348188
9.017                0.918655121     -78.0679027
9.018                0.918434018     -78.2013613
9.019                0.918212131      -78.335196
9.02                 0.917989457     -78.4694079
9.021                0.917765994     -78.6039984
9.022                 0.91754174     -78.7389688
9.023                0.917316694     -78.8743203
9.024                0.917090853     -79.0100543
9.025                0.916864216     -79.1461721
9.026                 0.91663678      -79.282675
9.027                0.916408544     -79.4195642
9.028                0.916179505     -79.5568412
9.029                0.915949663     -79.6945072
9.03                 0.915719014     -79.8325634
9.031                0.915487557     -79.9710114
9.032                 0.91525529     -80.1098523
9.033                0.915022212     -80.2490876
9.034                 0.91478832     -80.3887185
9.035                0.914553613     -80.5287464
9.036                0.914318088     -80.6691726
9.037                0.914081744     -80.8099984
9.038                 0.91384458     -80.9512253
9.039                0.913606593     -81.0928545
9.04                 0.913367782     -81.2348875
9.041                0.913128144     -81.3773255
9.042                0.912887679       -81.52017
9.043                0.912646384     -81.6634223
9.044                0.912404258     -81.8070837
9.045                0.912161299     -81.9511557
9.046                0.911917505     -82.0956396
9.047                0.911672875     -82.2405367
9.048                0.911427407     -82.3858485
9.049                0.911181099     -82.5315764
9.05                  0.91093395     -82.6777217
9.051                0.910685958     -82.8242858
9.052                0.910437122     -82.9712701
9.053                 0.91018744     -83.1186761
9.054                0.909936911      -83.266505
9.055                0.909685533     -83.4147583
9.056                0.909433304     -83.5634375
9.057                0.909180223     -83.7125438
9.058                0.908926289     -83.8620788
9.059                  0.9086715     -84.0120438
9.06                 0.908415855     -84.1624403
9.061                0.908159352     -84.3132696
9.062                 0.90790199     -84.4645332
9.063                0.907643767     -84.6162326
9.064                0.907384683      -84.768369
9.065                0.907124736     -84.9209441
9.066                0.906863924     -85.0739591
9.067                0.906602247     -85.2274156
9.068                0.906339704     -85.3813149
9.069                0.906076292     -85.5356586
9.07                 0.905812011      -85.690448
9.071                0.905546859     -85.8456846
9.072                0.905280836     -86.0013699
9.073                0.905013941     -86.1575052
9.074                0.904746172     -86.3140921
9.075                0.904477528     -86.4711319
9.076                0.904208008     -86.6286263
9.077                0.903937612     -86.7865765
9.078                0.903666337     -86.9449841
9.079                0.903394185     -87.1038506
9.08                 0.903121152     -87.2631773
9.081                0.902847239     -87.4229658
9.082                0.902572445     -87.5832176
9.083                0.902296769      -87.743934
9.084                0.902020209     -87.9051166
9.085                0.901742767     -88.0667669
9.086                0.901464439     -88.2288863
9.087                0.901185227     -88.3914763
9.088                0.900905129     -88.5545384
9.089                0.900624144     -88.7180741
9.09                 0.900342273     -88.8820848
9.091                0.900059514     -89.0465721
9.092                0.899775868     -89.2115373
9.093                0.899491332     -89.3769821
9.094                0.899205908     -89.5429079
9.095                0.898919595     -89.7093162
9.096                0.898632392     -89.8762084
9.097                0.898344298     -90.0435862
9.098                0.898055315     -90.2114509
9.099                0.897765441      -90.379804
9.1                  0.897474676     -90.5486472
9.101                0.897183021     -90.7179817
9.102                0.896890474     -90.8878093
9.103                0.896597036     -91.0581313
9.104                0.896302708     -91.2289492
9.105                0.896007488     -91.4002646
9.106                0.895711377      -91.572079
9.107                0.895414375     -91.7443938
9.108                0.895116482     -91.9172105
9.109                0.894817698     -92.0905308
9.11                 0.894518024      -92.264356
9.111                 0.89421746     -92.4386876
9.112                0.893916006     -92.6135273
9.113                0.893613662     -92.7888764
9.114                 0.89331043     -92.9647365
9.115                0.893006309      -93.141109
9.116                  0.8927013     -93.3179956
9.117                0.892395403     -93.4953976
9.118                 0.89208862     -93.6733167
9.119                 0.89178095     -93.8517542
9.12                 0.891472396     -94.0307118
9.121                0.891162956     -94.2101908
9.122                0.890852633     -94.3901928
9.123                0.890541426     -94.5707194
9.124                0.890229338     -94.7517719
9.125                0.889916369     -94.9333519
9.126                 0.88960252      -95.115461
9.127                0.889287792     -95.2981005
9.128                0.888972187      -95.481272
9.129                0.888655705      -95.664977
9.13                 0.888338349      -95.849217
9.131                0.888020118     -96.0339934
9.132                0.887701016     -96.2193078
9.133                0.887381042     -96.4051617
9.134                  0.8870602     -96.5915565
9.135                 0.88673849     -96.7784936
9.136                0.886415914     -96.9659747
9.137                0.886092473     -97.1540012
9.138                0.885768171     -97.3425746
9.139                0.885443008     -97.5316962
9.14                 0.885116986     -97.7213677
9.141                0.884790108     -97.9115904
9.142                0.884462375      -98.102366
9.143                 0.88413379     -98.2936957
9.144                0.883804355     -98.4855811
9.145                0.883474072     -98.6780236
9.146                0.883142944     -98.8710247
9.147                0.882810973     -99.0645859
9.148                0.882478161     -99.2587085
9.149                0.882144511     -99.4533941
9.15                 0.881810027     -99.6486441
9.151                0.881474709     -99.8444599
9.152                0.881138562     -100.040843
9.153                0.880801588     -100.237795
9.154                 0.88046379     -100.435317
9.155                0.880125172      -100.63341
9.156                0.879785736     -100.832076
9.157                0.879445485     -101.031317
9.158                0.879104423     -101.231134
9.159                0.878762553     -101.431527
9.16                  0.87841988       -101.6325
9.161                0.878076405     -101.834052
9.162                0.877732133     -102.036186
9.163                0.877387068     -102.238902
9.164                0.877041212     -102.442202
9.165                0.876694572     -102.646088
9.166                0.876347149     -102.850561
9.167                0.875998949     -103.055622
9.168                0.875649975     -103.261273
9.169                0.875300231     -103.467515
9.17                 0.874949723     -103.674349
9.171                0.874598454     -103.881776
9.172                0.874246429     -104.089798
9.173                0.873893653     -104.298417
9.174                 0.87354013     -104.507633
9.175                0.873185865     -104.717448
9.176                0.872830863     -104.927864
9.177                0.872475128      -105.13888
9.178                0.872118667       -105.3505
9.179                0.871761484     -105.562723
9.18                 0.871403585     -105.775552
9.181                0.871044975     -105.988987
9.182                0.870685659      -106.20303
9.183                0.870325643     -106.417682
9.184                0.869964933     -106.632945
9.185                0.869603534     -106.848818
9.186                0.869241453     -107.065305
9.187                0.868878695     -107.282405
9.188                0.868515267     -107.500121
9.189                0.868151174     -107.718452
9.19                 0.867786424     -107.937402
9.191                0.867421022     -108.156969
9.192                0.867054975     -108.377157
9.193                0.866688291     -108.597965
9.194                0.866320974     -108.819396
9.195                0.865953033      -109.04145
9.196                0.865584475     -109.264127
9.197                0.865215306     -109.487431
9.198                0.864845534      -109.71136
9.199                0.864475166     -109.935918
9.2                   0.86410421     -110.161103
9.201                0.863732672     -110.386919
9.202                0.863360562     -110.613365
9.203                0.862987886     -110.840443
9.204                0.862614652     -111.068153
9.205                0.862240869     -111.296497
9.206                0.861866545     -111.525476
9.207                0.861491688      -111.75509
9.208                0.861116306     -111.985341
9.209                0.860740408      -112.21623
9.21                 0.860364003     -112.447757
9.211                0.859987099     -112.679923
9.212                0.859609705      -112.91273
9.213                 0.85923183     -113.146178
9.214                0.858853484     -113.380268
9.215                0.858474675        -113.615
9.216                0.858095413     -113.850377
9.217                0.857715708     -114.086398
9.218                0.857335568     -114.323064
9.219                0.856955005     -114.560376
9.22                 0.856574027     -114.798335
9.221                0.856192646     -115.036942
9.222                 0.85581087     -115.276197
9.223                 0.85542871     -115.516101
9.224                0.855046177     -115.756655
9.225                0.854663281      -115.99786
9.226                0.854280033     -116.239715
9.227                0.853896444     -116.482223
9.228                0.853512524     -116.725382
9.229                0.853128285     -116.969195
9.23                 0.852743737     -117.213661
9.231                0.852358893     -117.458781
9.232                0.851973764     -117.704556
9.233                 0.85158836     -117.950986
9.234                0.851202694     -118.198072
9.235                0.850816779     -118.445814
9.236                0.850430625     -118.694213
9.237                0.850044245     -118.943269
9.238                0.849657651     -119.192982
9.239                0.849270855     -119.443353
9.24                 0.848883871     -119.694382
9.241                 0.84849671     -119.946071
9.242                0.848109386     -120.198417
9.243                0.847721911     -120.451424
9.244                0.847334299     -120.705089
9.245                0.846946563     -120.959415
9.246                0.846558716     -121.214401
9.247                0.846170771     -121.470046
9.248                0.845782743     -121.726353
9.249                0.845394645      -121.98332
9.25                  0.84500649     -122.240947
9.251                0.844618293     -122.499236
9.252                0.844230068     -122.758185
9.253                 0.84384183     -123.017795
9.254                0.843453592     -123.278067
9.255                0.843065369     -123.538999
9.256                0.842677177     -123.800592
9.257                0.842289029     -124.062847
9.258                0.841900941     -124.325762
9.259                0.841512928     -124.589338
9.26                 0.841125005     -124.853574
9.261                0.840737187     -125.118471
9.262                 0.84034949     -125.384029
9.263                 0.83996193     -125.650246
9.264                0.839574522     -125.917123
9.265                0.839187282      -126.18466
9.266                0.838800227     -126.452856
9.267                0.838413372     -126.721711
9.268                0.838026733     -126.991225
9.269                0.837640328     -127.261396
9.27                 0.837254172     -127.532226
9.271                0.836868282     -127.803712
9.272                0.836482675     -128.075856
9.273                0.836097369     -128.348656
9.274                0.835712379     -128.622111
9.275                0.835327723     -128.896222
9.276                0.834943419     -129.170987
9.277                0.834559484     -129.446406
9.278                0.834175935     -129.722478
9.279                 0.83379279     -129.999202
9.28                 0.833410067     -130.276578
9.281                0.833027784     -130.554606
9.282                0.832645958     -130.833283
9.283                0.832264608     -131.112609
9.284                0.831883753     -131.392584
9.285                0.831503409     -131.673206
9.286                0.831123597     -131.954475
9.287                0.830744334     -132.236389
9.288                 0.83036564     -132.518948
9.289                0.829987532      -132.80215
9.29                  0.82961003     -133.085994
9.291                0.829233154     -133.370479
9.292                0.828856921     -133.655605
9.293                0.828481351     -133.941369
9.294                0.828106465      -134.22777
9.295                 0.82773228     -134.514808
9.296                0.827358817     -134.802481
9.297                0.826986094     -135.090787
9.298                0.826614133     -135.379725
9.299                0.826242953     -135.669294
9.3                  0.825872573     -135.959491
9.301                0.825503014     -136.250317
9.302                0.825134295     -136.541769
9.303                0.824766438     -136.833845
9.304                0.824399461     -137.126544
9.305                0.824033386     -137.419864
9.306                0.823668233     -137.713804
9.307                0.823304023     -138.008361
9.308                0.822940775     -138.303534
9.309                0.822578511     -138.599321
9.31                 0.822217251      -138.89572
9.311                0.821857016      -139.19273
9.312                0.821497827     -139.490348
9.313                0.821139705     -139.788572
9.314                0.820782671       -140.0874
9.315                0.820426746      -140.38683
9.316                0.820071951      -140.68686
9.317                0.819718307     -140.987488
9.318                0.819365836     -141.288712
9.319                0.819014558     -141.590529
9.32                 0.818664495     -141.892937
9.321                0.818315669     -142.195933
9.322                  0.8179681     -142.499516
9.323                 0.81762181     -142.803683
9.324                0.817276821     -143.108431
9.325                0.816933155     -143.413757
9.326                0.816590832     -143.719661
9.327                0.816249874     -144.026137
9.328                0.815910303     -144.333185
9.329                 0.81557214     -144.640801
9.33                 0.815235408     -144.948982
9.331                0.814900128     -145.257727
9.332                0.814566321     -145.567031
9.333                0.814234009     -145.876892
9.334                0.813903214     -146.187308
9.335                0.813573957     -146.498274
9.336                0.813246261     -146.809789
9.337                0.812920147     -147.121849
9.338                0.812595636     -147.434451
9.339                0.812272751     -147.747592
9.34                 0.811951513     -148.061268
9.341                0.811631944     -148.375478
9.342                0.811314064     -148.690216
9.343                0.810997897      -149.00548
9.344                0.810683464     -149.321267
9.345                0.810370785     -149.637572
9.346                0.810059884     -149.954394
9.347                 0.80975078     -150.271727
9.348                0.809443496      -150.58957
9.349                0.809138054     -150.907917
9.35                 0.808834474     -151.226766
9.351                0.808532777     -151.546112
9.352                0.808232986     -151.865953
9.353                0.807935121     -152.186283
9.354                0.807639204       -152.5071
9.355                0.807345255       -152.8284
9.356                0.807053296     -153.150179
9.357                0.806763348     -153.472432
9.358                0.806475431     -153.795156
9.359                0.806189567     -154.118347
9.36                 0.805905776        -154.442
9.361                0.805624079     -154.766112
9.362                0.805344496     -155.090678
9.363                0.805067048     -155.415695
9.364                0.804791755     -155.741158
9.365                0.804518638     -156.067062
9.366                0.804247716     -156.393404
9.367                 0.80397901     -156.720179
9.368                 0.80371254     -157.047382
9.369                0.803448326     -157.375009
9.37                 0.803186387     -157.703057
9.371                0.802926743     -158.031519
9.372                0.802669413     -158.360392
9.373                0.802414418      -158.68967
9.374                0.802161775     -159.019351
9.375                0.801911505     -159.349427
9.376                0.801663625     -159.679896
9.377                0.801418156     -160.010751
9.378                0.801175115     -160.341989
9.379                0.800934521     -160.673605
9.38                 0.800696393     -161.005592
9.381                0.800460749     -161.337948
9.382                0.800227606     -161.670666
9.383                0.799996983     -162.003742
9.384                0.799768897      -162.33717
9.385                0.799543366     -162.670946
9.386                0.799320407     -163.005064
9.387                0.799100037      -163.33952
9.388                0.798882274     -163.674307
9.389                0.798667134     -164.009422
9.39                 0.798454634     -164.344858
9.391                 0.79824479      -164.68061
9.392                0.798037618     -165.016673
9.393                0.797833135     -165.353042
9.394                0.797631357     -165.689711
9.395                0.797432298     -166.026675
9.396                0.797235975     -166.363929
