! TOUCHSTONE file generated by CST DESIGN STUDIO
! Date and time: Tue Feb  4 13:42:09 2025
! Project name: C:\Work\MatlabApps\UnitCellOptimizationMatlab\CST\unitcell.cst
! Tree item: Tasks\Sweep1\SPara1\S-Parameters
! Header version: 2024
! Port assignment regex: !\s*Touchstone port\s*([0-9]+)\s*=\s*(CST MWS port|CST DES external port|CST DES block port)\s*(.+)\s* \(\"(.*)\"\)(\s*mode\s*([0-9]+))?.*
! Touchstone port assignment:
! Touchstone port 1 = CST DES external port 1 ("")
# GHz S MA R 50
9                    0.955450545     -52.9369686
9.001                0.955354706     -53.0069248
9.002                0.955258537     -53.0770366
9.003                0.955162037     -53.1473043
9.004                0.955065205     -53.2177285
9.005                0.954968039     -53.2883097
9.006                0.954870538     -53.3590484
9.007                0.954772702     -53.4299451
9.008                0.954674528     -53.5010003
9.009                0.954576016     -53.5722145
9.01                 0.954477165     -53.6435883
9.011                0.954377974     -53.7151221
9.012                 0.95427844     -53.7868164
9.013                0.954178564     -53.8586717
9.014                0.954078343     -53.9306887
9.015                0.953977777     -54.0028678
9.016                0.953876865     -54.0752094
9.017                0.953775604     -54.1477142
9.018                0.953673995     -54.2203827
9.019                0.953572035     -54.2932154
9.02                 0.953469724     -54.3662128
9.021                 0.95336706     -54.4393755
9.022                0.953264042      -54.512704
9.023                0.953160669     -54.5861987
9.024                0.953056939     -54.6598604
9.025                0.952952852     -54.7336894
9.026                0.952848406     -54.8076864
9.027                0.952743599     -54.8818519
9.028                0.952638431     -54.9561865
9.029                  0.9525329     -55.0306906
9.03                 0.952427005     -55.1053648
9.031                0.952320745     -55.1802097
9.032                0.952214118     -55.2552259
9.033                0.952107124     -55.3304139
9.034                 0.95199976     -55.4057742
9.035                0.951892026     -55.4813074
9.036                0.951783919     -55.5570141
9.037                 0.95167544     -55.6328949
9.038                0.951566587     -55.7089503
9.039                0.951457357     -55.7851808
9.04                 0.951347751     -55.8615871
9.041                0.951237766     -55.9381697
9.042                0.951127401     -56.0149292
9.043                0.951016656     -56.0918662
9.044                0.950905528     -56.1689813
9.045                0.950794016      -56.246275
9.046                 0.95068212     -56.3237479
9.047                0.950569837     -56.4014006
9.048                0.950457166     -56.4792337
9.049                0.950344106     -56.5572478
9.05                 0.950230655     -56.6354435
9.051                0.950116813     -56.7138214
9.052                0.950002577     -56.7923821
9.053                0.949887947     -56.8711261
9.054                0.949772921     -56.9500541
9.055                0.949657497     -57.0291667
9.056                0.949541675     -57.1084645
9.057                0.949425452     -57.1879481
9.058                0.949308828     -57.2676181
9.059                0.949191801     -57.3474751
9.06                 0.949074369     -57.4275198
9.061                0.948956532     -57.5077528
9.062                0.948838287     -57.5881746
9.063                0.948719633     -57.6687859
9.064                 0.94860057     -57.7495874
9.065                0.948481095     -57.8305796
9.066                0.948361207     -57.9117633
9.067                0.948240904     -57.9931389
9.068                0.948120186     -58.0747072
9.069                 0.94799905     -58.1564688
9.07                 0.947877495     -58.2384244
9.071                 0.94775552     -58.3205745
9.072                0.947633124     -58.4029199
9.073                0.947510304     -58.4854611
9.074                 0.94738706     -58.5681988
9.075                0.947263389     -58.6511338
9.076                0.947139291     -58.7342665
9.077                0.947014763     -58.8175978
9.078                0.946889805     -58.9011282
9.079                0.946764415     -58.9848584
9.08                 0.946638591     -59.0687891
9.081                0.946512332     -59.1529209
9.082                0.946385636     -59.2372546
9.083                0.946258503     -59.3217907
9.084                0.946130929       -59.40653
9.085                0.946002914     -59.4914732
9.086                0.945874457     -59.5766208
9.087                0.945745555     -59.6619737
9.088                0.945616207     -59.7475324
9.089                0.945486412     -59.8332978
9.09                 0.945356168     -59.9192704
9.091                0.945225473     -60.0054509
9.092                0.945094326     -60.0918401
9.093                0.944962726     -60.1784387
9.094                 0.94483067     -60.2652473
9.095                0.944698158     -60.3522667
9.096                0.944565187     -60.4394975
9.097                0.944431757     -60.5269406
9.098                0.944297864     -60.6145965
9.099                0.944163509      -60.702466
9.1                  0.944028689     -60.7905498
9.101                0.943893403     -60.8788487
9.102                0.943757649     -60.9673633
9.103                0.943621425     -61.0560944
9.104                 0.94348473     -61.1450427
9.105                0.943347562      -61.234209
9.106                 0.94320992     -61.3235939
9.107                0.943071802     -61.4131983
9.108                0.942933206     -61.5030228
9.109                0.942794131     -61.5930682
9.11                 0.942654575     -61.6833352
9.111                0.942514537     -61.7738247
9.112                0.942374014     -61.8645372
9.113                0.942233006     -61.9554737
9.114                 0.94209151     -62.0466348
9.115                0.941949524     -62.1380213
9.116                0.941807048     -62.2296339
9.117                0.941664079     -62.3214735
9.118                0.941520617     -62.4135408
9.119                0.941376658     -62.5058366
9.12                 0.941232202     -62.5983616
9.121                0.941087246     -62.6911166
9.122                 0.94094179     -62.7841024
9.123                 0.94079583     -62.8773197
9.124                0.940649367     -62.9707695
9.125                0.940502398     -63.0644524
9.126                 0.94035492     -63.1583692
9.127                0.940206934     -63.2525207
9.128                0.940058436     -63.3469078
9.129                0.939909425     -63.4415312
9.13                   0.9397599     -63.5363917
9.131                0.939609858     -63.6314902
9.132                0.939459299     -63.7268273
9.133                0.939308219     -63.8224041
9.134                0.939156618     -63.9182212
9.135                0.939004494     -64.0142795
9.136                0.938851845     -64.1105798
9.137                0.938698669     -64.2071229
9.138                0.938544964     -64.3039096
9.139                0.938390729     -64.4009409
9.14                 0.938235963     -64.4982174
9.141                0.938080662     -64.5957401
9.142                0.937924826     -64.6935098
9.143                0.937768452     -64.7915273
9.144                 0.93761154     -64.8897935
9.145                0.937454086     -64.9883092
9.146                 0.93729609     -65.0870752
9.147                 0.93713755     -65.1860925
9.148                0.936978463     -65.2853618
9.149                0.936818828     -65.3848841
9.15                 0.936658644     -65.4846602
9.151                0.936497908      -65.584691
9.152                0.936336618     -65.6849773
9.153                0.936174773       -65.78552
9.154                0.936012372       -65.88632
9.155                0.935849411     -65.9873781
9.156                 0.93568589     -66.0886953
9.157                0.935521807     -66.1902724
9.158                0.935357159     -66.2921103
9.159                0.935191945       -66.39421
9.16                 0.935026163     -66.4965722
9.161                0.934859812      -66.599198
9.162                0.934692889     -66.7020881
9.163                0.934525392     -66.8052436
9.164                0.934357321     -66.9086652
9.165                0.934188672      -67.012354
9.166                0.934019445     -67.1163109
9.167                0.933849637     -67.2205366
9.168                0.933679247     -67.3250323
9.169                0.933508272     -67.4297987
9.17                  0.93333671     -67.5348369
9.171                0.933164561     -67.6401478
9.172                0.932991822     -67.7457322
9.173                0.932818491     -67.8515912
9.174                0.932644567     -67.9577256
9.175                0.932470047     -68.0641364
9.176                 0.93229493     -68.1708246
9.177                0.932119213     -68.2777911
9.178                0.931942896     -68.3850369
9.179                0.931765976     -68.4925629
9.18                 0.931588451       -68.60037
9.181                0.931410319     -68.7084593
9.182                0.931231579     -68.8168318
9.183                0.931052228     -68.9254883
9.184                0.930872266     -69.0344298
9.185                0.930691689     -69.1436574
9.186                0.930510497      -69.253172
9.187                0.930328686     -69.3629745
9.188                0.930146256     -69.4730661
9.189                0.929963205     -69.5834476
9.19                  0.92977953     -69.6941201
9.191                 0.92959523     -69.8050846
9.192                0.929410302      -69.916342
9.193                0.929224746     -70.0278934
9.194                0.929038559     -70.1397398
9.195                0.928851739     -70.2518821
9.196                0.928664285     -70.3643215
9.197                0.928476194     -70.4770588
9.198                0.928287464     -70.5900952
9.199                0.928098095     -70.7034317
9.2                  0.927908084     -70.8170693
9.201                0.927717428      -70.931009
9.202                0.927526127     -71.0452518
9.203                0.927334178     -71.1597989
9.204                0.927141579     -71.2746511
9.205                 0.92694833     -71.3898097
9.206                0.926754427     -71.5052756
9.207                0.926559868     -71.6210499
9.208                0.926364653     -71.7371336
9.209                0.926168779     -71.8535278
9.21                 0.925972245     -71.9702336
9.211                0.925775048     -72.0872521
9.212                0.925577186     -72.2045842
9.213                0.925378658     -72.3222311
9.214                0.925179462     -72.4401938
9.215                0.924979597     -72.5584735
9.216                0.924779059     -72.6770712
9.217                0.924577848      -72.795988
9.218                0.924375961     -72.9152249
9.219                0.924173398     -73.0347832
9.22                 0.923970155     -73.1546638
9.221                0.923766231     -73.2748679
9.222                0.923561624     -73.3953967
9.223                0.923356333     -73.5162511
9.224                0.923150355     -73.6374323
9.225                 0.92294369     -73.7589414
9.226                0.922736334     -73.8807796
9.227                0.922528286     -74.0029479
9.228                0.922319545     -74.1254476
9.229                0.922110108     -74.2482796
9.23                 0.921899975     -74.3714452
9.231                0.921689142     -74.4949455
9.232                0.921477608     -74.6187816
9.233                0.921265372     -74.7429547
9.234                0.921052432     -74.8674658
9.235                0.920838785     -74.9923163
9.236                0.920624431     -75.1175072
9.237                0.920409367     -75.2430396
9.238                0.920193592     -75.3689148
9.239                0.919977103     -75.4951339
9.24                   0.9197599      -75.621698
9.241                 0.91954198     -75.7486084
9.242                0.919323342     -75.8758661
9.243                0.919103985     -76.0034725
9.244                0.918883905     -76.1314287
9.245                0.918663102     -76.2597357
9.246                0.918441574      -76.388395
9.247                0.918219319     -76.5174075
9.248                0.917996336     -76.6467746
9.249                0.917772622     -76.7764974
9.25                 0.917548177     -76.9065772
9.251                0.917322999      -77.037015
9.252                0.917097085     -77.1678122
9.253                0.916870435       -77.29897
9.254                0.916643046     -77.4304895
9.255                0.916414917      -77.562372
9.256                0.916186047     -77.6946187
9.257                0.915956434     -77.8272309
9.258                0.915726076     -77.9602097
9.259                0.915494972     -78.0935564
9.26                  0.91526312     -78.2272722
9.261                0.915030518     -78.3613584
9.262                0.914797166     -78.4958161
9.263                0.914563061     -78.6306468
9.264                0.914328202     -78.7658515
9.265                0.914092588     -78.9014316
9.266                0.913856216     -79.0373883
9.267                0.913619087     -79.1737228
9.268                0.913381197     -79.3104365
9.269                0.913142546     -79.4475306
9.27                 0.912903132     -79.5850063
9.271                0.912662954     -79.7228649
9.272                 0.91242201     -79.8611078
9.273                0.912180299     -79.9997361
9.274                0.911937819     -80.1387511
9.275                 0.91169457     -80.2781543
9.276                 0.91145055     -80.4179467
9.277                0.911205757     -80.5581298
9.278                 0.91096019     -80.6987047
9.279                0.910713848     -80.8396729
9.28                  0.91046673     -80.9810356
9.281                0.910218834     -81.1227941
9.282                0.909970159     -81.2649497
9.283                0.909720704     -81.4075037
9.284                0.909470467     -81.5504574
9.285                0.909219448     -81.6938122
9.286                0.908967645     -81.8375693
9.287                0.908715057     -81.9817302
9.288                0.908461683      -82.126296
9.289                0.908207521     -82.2712681
9.29                 0.907952572     -82.4166479
9.291                0.907696832     -82.5624367
9.292                0.907440302     -82.7086358
9.293                0.907182981     -82.8552465
9.294                0.906924867     -83.0022703
9.295                0.906665959     -83.1497084
9.296                0.906406257     -83.2975621
9.297                0.906145759     -83.4458329
9.298                0.905884464     -83.5945221
9.299                0.905622373     -83.7436309
9.3                  0.905359482     -83.8931609
9.301                0.905095793     -84.0431133
9.302                0.904831303     -84.1934895
9.303                0.904566013     -84.3442909
9.304                0.904299921     -84.4955187
9.305                0.904033027     -84.6471745
9.306                0.903765329     -84.7992596
9.307                0.903496827     -84.9517752
9.308                0.903227521     -85.1047229
9.309                 0.90295741      -85.258104
9.31                 0.902686492     -85.4119198
9.311                0.902414768     -85.5661718
9.312                0.902142237     -85.7208613
9.313                0.901868898     -85.8759897
9.314                0.901594751     -86.0315584
9.315                0.901319796     -86.1875688
9.316                0.901044031     -86.3440223
9.317                0.900767456     -86.5009202
9.318                0.900490071      -86.658264
9.319                0.900211876     -86.8160551
9.32                 0.899932871     -86.9742948
9.321                0.899653054     -87.1329846
9.322                0.899372426     -87.2921259
9.323                0.899090986       -87.45172
9.324                0.898808734     -87.6117684
9.325                0.898525671     -87.7722725
9.326                0.898241795     -87.9332337
9.327                0.897957107     -88.0946534
9.328                0.897671607      -88.256533
9.329                0.897385294     -88.4188739
9.33                 0.897098169     -88.5816776
9.331                0.896810232     -88.7449454
9.332                0.896521482     -88.9086788
9.333                 0.89623192     -89.0728792
9.334                0.895941546      -89.237548
9.335                0.895650361     -89.4026867
9.336                0.895358363     -89.5682966
9.337                0.895065555     -89.7343791
9.338                0.894771935     -89.9009358
9.339                0.894477505      -90.067968
9.34                 0.894182264     -90.2354771
9.341                0.893886214     -90.4034646
9.342                0.893589354      -90.571932
9.343                0.893291685     -90.7408805
9.344                0.892993208     -90.9103117
9.345                0.892693923      -91.080227
9.346                0.892393832     -91.2506278
9.347                0.892092933     -91.4215156
9.348                 0.89179123     -91.5928917
9.349                0.891488721     -91.7647576
9.35                 0.891185408     -91.9371148
9.351                0.890881293     -92.1099646
9.352                0.890576375     -92.2833085
9.353                0.890270656     -92.4571479
9.354                0.889964137     -92.6314843
9.355                0.889656818      -92.806319
9.356                0.889348702     -92.9816536
9.357                0.889039789     -93.1574894
9.358                0.888730081     -93.3338279
9.359                0.888419578     -93.5106704
9.36                 0.888108282     -93.6880185
9.361                0.887796195     -93.8658735
9.362                0.887483318     -94.0442369
9.363                0.887169652     -94.2231101
9.364                0.886855199     -94.4024945
9.365                0.886539961     -94.5823916
9.366                 0.88622394     -94.7628027
9.367                0.885907136     -94.9437293
9.368                0.885589552     -95.1251728
9.369                 0.88527119     -95.3071346
9.37                 0.884952051     -95.4896161
9.371                0.884632138     -95.6726188
9.372                0.884311453     -95.8561441
9.373                0.883989997     -96.0401933
9.374                0.883667774     -96.2247679
9.375                0.883344784     -96.4098693
9.376                0.883021031     -96.5954989
9.377                0.882696516     -96.7816581
9.378                0.882371242     -96.9683483
9.379                0.882045213     -97.1555709
9.38                 0.881718429     -97.3433272
9.381                0.881390894     -97.5316188
9.382                 0.88106261     -97.7204469
9.383                0.880733581      -97.909813
9.384                0.880403808     -98.0997184
9.385                0.880073296     -98.2901645
9.386                0.879742046     -98.4811528
9.387                0.879410062     -98.6726845
9.388                0.879077347     -98.8647611
9.389                0.878743905     -99.0573839
9.39                 0.878409737     -99.2505542
9.391                0.878074849     -99.4442735
9.392                0.877739242     -99.6385431
9.393                0.877402921     -99.8333644
9.394                 0.87706589     -100.028739
9.395                0.876728151     -100.224667
9.396                0.876389708     -100.421151
