! TOUCHSTONE file generated by CST DESIGN STUDIO
! Date and time: Tue Feb  4 13:41:58 2025
! Project name: C:\Work\MatlabApps\UnitCellOptimizationMatlab\CST\unitcell.cst
! Tree item: Tasks\Sweep1\SPara1\S-Parameters
! Header version: 2024
! Port assignment regex: !\s*Touchstone port\s*([0-9]+)\s*=\s*(CST MWS port|CST DES external port|CST DES block port)\s*(.+)\s* \(\"(.*)\"\)(\s*mode\s*([0-9]+))?.*
! Touchstone port assignment:
! Touchstone port 1 = CST DES external port 1 ("")
# GHz S MA R 50
9                    0.886888337     -98.9033832
9.001                 0.88657403     -99.1001667
9.002                0.886258902     -99.2975407
9.003                0.885942957     -99.4955069
9.004                0.885626195     -99.6940667
9.005                 0.88530862     -99.8932219
9.006                0.884990234     -100.092974
9.007                0.884671041     -100.293324
9.008                0.884351041     -100.494275
9.009                0.884030239     -100.695827
9.01                 0.883708638     -100.897983
9.011                 0.88338624     -101.100743
9.012                0.883063048     -101.304109
9.013                0.882739065     -101.508084
9.014                0.882414295     -101.712667
9.015                0.882088741     -101.917862
9.016                0.881762407     -102.123669
9.017                0.881435295      -102.33009
9.018                 0.88110741     -102.537127
9.019                0.880778755     -102.744781
9.02                 0.880449334     -102.953053
9.021                 0.88011915     -103.161946
9.022                0.879788208      -103.37146
9.023                0.879456511     -103.581597
9.024                0.879124064     -103.792359
9.025                0.878790871     -104.003747
9.026                0.878456937     -104.215762
9.027                0.878122264     -104.428406
9.028                0.877786859     -104.641681
9.029                0.877450726     -104.855588
9.03                 0.877113869     -105.070128
9.031                0.876776293     -105.285303
9.032                0.876438003     -105.501114
9.033                0.876099003     -105.717562
9.034                  0.8757593      -105.93465
9.035                0.875418899     -106.152378
9.036                0.875077803     -106.370748
9.037                 0.87473602     -106.589761
9.038                0.874393554     -106.809419
9.039                0.874050411     -107.029722
9.04                 0.873706597     -107.250673
9.041                0.873362117     -107.472272
9.042                0.873016978     -107.694522
9.043                0.872671185     -107.917422
9.044                0.872324745     -108.140976
9.045                0.871977664     -108.365183
9.046                0.871629948     -108.590045
9.047                0.871281603     -108.815564
9.048                0.870932638      -109.04174
9.049                0.870583057     -109.268576
9.05                 0.870232868     -109.496071
9.051                0.869882077     -109.724228
9.052                0.869530693     -109.953047
9.053                0.869178722     -110.182531
9.054                0.868826171     -110.412679
9.055                0.868473048     -110.643494
9.056                 0.86811936     -110.874976
9.057                0.867765114     -111.107126
9.058                 0.86741032     -111.339946
9.059                0.867054984     -111.573436
9.06                 0.866699115     -111.807599
9.061                 0.86634272     -112.042434
9.062                0.865985809     -112.277944
9.063                0.865628389     -112.514128
9.064                0.865270468     -112.750988
9.065                0.864912057     -112.988526
9.066                0.864553162     -113.226742
9.067                0.864193794     -113.465636
9.068                0.863833961     -113.705211
9.069                0.863473673     -113.945467
9.07                 0.863112938     -114.186405
9.071                0.862751767     -114.428025
9.072                0.862390168     -114.670329
9.073                0.862028151     -114.913318
9.074                0.861665727     -115.156993
9.075                0.861302904     -115.401354
9.076                0.860939694     -115.646402
9.077                0.860576106     -115.892138
9.078                0.860212151     -116.138563
9.079                0.859847839     -116.385677
9.08                 0.859483182     -116.633482
9.081                0.859118188     -116.881977
9.082                 0.85875287     -117.131165
9.083                0.858387239     -117.381045
9.084                0.858021306     -117.631617
9.085                0.857655081     -117.882884
9.086                0.857288577     -118.134845
9.087                0.856921805       -118.3875
9.088                0.856554777     -118.640852
9.089                0.856187504     -118.894899
9.09                 0.855819999     -119.149643
9.091                0.855452274     -119.405084
9.092                0.855084341     -119.661222
9.093                0.854716212     -119.918058
9.094                  0.8543479     -120.175593
9.095                0.853979418     -120.433826
9.096                0.853610779     -120.692759
9.097                0.853241995     -120.952391
9.098                 0.85287308     -121.212723
9.099                0.852504047     -121.473756
9.1                  0.852134909     -121.735488
9.101                 0.85176568     -121.997922
9.102                0.851396374     -122.261056
9.103                0.851027005     -122.524891
9.104                0.850657585     -122.789427
9.105                0.850288131     -123.054665
9.106                0.849918655     -123.320605
9.107                0.849549172     -123.587245
9.108                0.849179697     -123.854588
9.109                0.848810245     -124.122632
9.11                  0.84844083     -124.391377
9.111                0.848071467     -124.660824
9.112                0.847702172     -124.930973
9.113                0.847332959     -125.201823
9.114                0.846963844     -125.473374
9.115                0.846594843     -125.745626
9.116                0.846225971     -126.018579
9.117                0.845857243     -126.292233
9.118                0.845488677     -126.566586
9.119                0.845120288      -126.84164
9.12                 0.844752092     -127.117394
9.121                0.844384106     -127.393847
9.122                0.844016345     -127.670999
9.123                0.843648827     -127.948849
9.124                0.843281569     -128.227398
9.125                0.842914587     -128.506644
9.126                0.842547899     -128.786586
9.127                0.842181521     -129.067226
9.128                0.841815471     -129.348561
9.129                0.841449766     -129.630591
9.13                 0.841084423     -129.913315
9.131                0.840719462     -130.196734
9.132                0.840354898     -130.480845
9.133                0.839990751     -130.765648
9.134                0.839627038     -131.051143
9.135                0.839263777     -131.337328
9.136                0.838900987     -131.624203
9.137                0.838538687     -131.911766
9.138                0.838176893     -132.200017
9.139                0.837815627     -132.488954
9.14                 0.837454905     -132.778577
9.141                0.837094748     -133.068884
9.142                0.836735173     -133.359874
9.143                0.836376201     -133.651547
9.144                 0.83601785       -133.9439
9.145                 0.83566014     -134.236932
9.146                 0.83530309     -134.530643
9.147                 0.83494672     -134.825031
9.148                 0.83459105     -135.120094
9.149                0.834236099     -135.415831
9.15                 0.833881887     -135.712241
9.151                0.833528434     -136.009321
9.152                 0.83317576     -136.307071
9.153                0.832823886     -136.605489
9.154                0.832472832     -136.904572
9.155                0.832122617      -137.20432
9.156                0.831773263     -137.504731
9.157                 0.83142479     -137.805803
9.158                0.831077219     -138.107533
9.159                 0.83073057     -138.409921
9.16                 0.830384864     -138.712964
9.161                0.830040123      -139.01666
9.162                0.829696366     -139.321008
9.163                0.829353616     -139.626004
9.164                0.829011893     -139.931648
9.165                0.828671218     -140.237936
9.166                0.828331613     -140.544867
9.167                0.827993098     -140.852438
9.168                0.827655696     -141.160648
9.169                0.827319428     -141.469493
9.17                 0.826984315     -141.778972
9.171                0.826650379     -142.089081
9.172                0.826317641     -142.399819
9.173                0.825986123     -142.711183
9.174                0.825655846      -143.02317
9.175                0.825326834     -143.335777
9.176                0.824999106     -143.649003
9.177                0.824672686     -143.962844
9.178                0.824347594     -144.277297
9.179                0.824023853      -144.59236
9.18                 0.823701485     -144.908029
9.181                0.823380511     -145.224303
9.182                0.823060954     -145.541177
9.183                0.822742836     -145.858649
9.184                0.822426178     -146.176715
9.185                0.822111003     -146.495374
9.186                0.821797332      -146.81462
9.187                0.821485188     -147.134452
9.188                0.821174593     -147.454866
9.189                0.820865568     -147.775858
9.19                 0.820558136     -148.097426
9.191                0.820252318     -148.419565
9.192                0.819948137     -148.742273
9.193                0.819645615     -149.065545
9.194                0.819344774     -149.389379
9.195                0.819045635      -149.71377
9.196                0.818748221     -150.038715
9.197                0.818452553      -150.36421
9.198                0.818158653     -150.690252
9.199                0.817866544     -151.016836
9.2                  0.817576246     -151.343959
9.201                0.817287782     -151.671617
9.202                0.817001173     -151.999805
9.203                0.816716441     -152.328521
9.204                0.816433608     -152.657759
9.205                0.816152695     -152.987515
9.206                0.815873723     -153.317787
9.207                0.815596714     -153.648568
9.208                0.815321689     -153.979855
9.209                0.815048669     -154.311644
9.21                 0.814777677      -154.64393
9.211                0.814508731      -154.97671
9.212                0.814241855     -155.309977
9.213                0.813977068     -155.643729
9.214                0.813714392     -155.977959
9.215                0.813453846     -156.312665
9.216                0.813195452      -156.64784
9.217                0.812939231     -156.983481
9.218                0.812685202     -157.319583
9.219                0.812433386      -157.65614
9.22                 0.812183803     -157.993149
9.221                0.811936472     -158.330603
9.222                0.811691415     -158.668499
9.223                0.811448651     -159.006831
9.224                0.811208198     -159.345594
9.225                0.810970078     -159.684784
9.226                0.810734309     -160.024394
9.227                 0.81050091      -160.36442
9.228                0.810269901     -160.704857
9.229                  0.8100413       -161.0457
9.23                 0.809815126     -161.386942
9.231                0.809591397      -161.72858
9.232                0.809370133     -162.070606
9.233                0.809151351     -162.413017
9.234                0.808935069     -162.755807
9.235                0.808721306     -163.098969
9.236                0.808510078     -163.442499
9.237                0.808301404     -163.786391
9.238                0.808095301      -164.13064
9.239                0.807891785     -164.475239
9.24                 0.807690875     -164.820183
9.241                0.807492586     -165.165466
9.242                0.807296935     -165.511083
9.243                0.807103938     -165.857028
9.244                0.806913612     -166.203295
9.245                0.806725972     -166.549877
9.246                0.806541034      -166.89677
9.247                0.806358814     -167.243966
9.248                0.806179327     -167.591461
9.249                0.806002587     -167.939248
9.25                 0.805828609     -168.287321
9.251                0.805657409     -168.635674
9.252                   0.805489     -168.984301
9.253                0.805323396     -169.333195
9.254                0.805160611     -169.682352
9.255                0.805000659     -170.031763
9.256                0.804843552     -170.381423
9.257                0.804689305     -170.731327
9.258                0.804537929     -171.081466
9.259                0.804389437     -171.431836
9.26                 0.804243842      -171.78243
9.261                0.804101155     -172.133241
9.262                0.803961388     -172.484264
9.263                0.803824553      -172.83549
9.264                0.803690661     -173.186915
9.265                0.803559722     -173.538532
9.266                0.803431747     -173.890334
9.267                0.803306746     -174.242314
9.268                 0.80318473     -174.594467
9.269                0.803065708     -174.946785
9.27                  0.80294969     -175.299262
9.271                0.802836685     -175.651892
9.272                0.802726701     -176.004667
9.273                0.802619748     -176.357581
9.274                0.802515833     -176.710628
9.275                0.802414965       -177.0638
9.276                0.802317151     -177.417092
9.277                0.802222398     -177.770495
9.278                0.802130714     -178.124005
9.279                0.802042105     -178.477613
9.28                 0.801956578     -178.831314
9.281                0.801874138       -179.1851
9.282                0.801794793     -179.538964
9.283                0.801718546     -179.892901
9.284                0.801645404      179.753098
9.285                0.801575371      179.399038
9.286                0.801508452      179.044927
9.287                0.801444651      178.690771
9.288                0.801383972      178.336577
9.289                0.801326418      177.982353
9.29                 0.801271994      177.628104
9.291                0.801220701      177.273837
9.292                0.801172542       176.91956
9.293                0.801127521      176.565279
9.294                0.801085638      176.211002
9.295                0.801046895      175.856734
9.296                0.801011295      175.502483
9.297                0.800978837      175.148256
9.298                0.800949523      174.794059
9.299                0.800923352      174.439899
9.3                  0.800900326      174.085784
9.301                0.800880443      173.731719
9.302                0.800863704      173.377712
9.303                0.800850106      173.023769
9.304                 0.80083965      172.669898
9.305                0.800832334      172.316104
9.306                0.800828155      171.962396
9.307                0.800827111      171.608779
9.308                  0.8008292       171.25526
9.309                 0.80083442      170.901847
9.31                 0.800842766      170.548545
9.311                0.800854237      170.195362
9.312                0.800868827      169.842304
9.313                0.800886532      169.489378
9.314                0.800907349      169.136591
9.315                0.800931273      168.783949
9.316                0.800958298      168.431459
9.317                 0.80098842      168.079127
9.318                0.801021633      167.726961
9.319                 0.80105793      167.374966
9.32                 0.801097306      167.023149
9.321                0.801139754      166.671518
9.322                0.801185267      166.320078
9.323                0.801233838      165.968835
9.324                 0.80128546      165.617797
9.325                0.801340125       165.26697
9.326                0.801397825       164.91636
9.327                0.801458552      164.565973
9.328                0.801522296      164.215817
9.329                 0.80158905      163.865897
9.33                 0.801658805      163.516219
9.331                0.801731549      163.166791
9.332                0.801807275      162.817618
9.333                0.801885972      162.468706
9.334                 0.80196763      162.120062
9.335                0.802052238      161.771692
9.336                0.802139785      161.423602
9.337                0.802230261      161.075798
9.338                0.802323654      160.728286
9.339                0.802419953      160.381072
9.34                 0.802519145      160.034163
9.341                0.802621219      159.687564
9.342                0.802726163      159.341281
9.343                0.802833963      158.995321
9.344                0.802944608      158.649688
9.345                0.803058083      158.304389
9.346                0.803174376       157.95943
9.347                0.803293474      157.614816
9.348                0.803415362      157.270554
9.349                0.803540026      156.926648
9.35                 0.803667453      156.583104
9.351                0.803797628      156.239929
9.352                0.803930537      155.897127
9.353                0.804066163      155.554705
9.354                0.804204494      155.212667
9.355                0.804345512      154.871019
9.356                0.804489204      154.529767
9.357                0.804635552      154.188916
9.358                0.804784542      153.848471
9.359                0.804936157      153.508437
9.36                 0.805090381       153.16882
9.361                0.805247198      152.829625
9.362                0.805406592      152.490857
9.363                0.805568544      152.152521
9.364                0.805733039      151.814622
9.365                 0.80590006      151.477166
9.366                0.806069589      151.140156
9.367                0.806241608      150.803599
9.368                0.806416101      150.467498
9.369                0.806593049       150.13186
9.37                 0.806772435      149.796688
9.371                 0.80695424      149.461987
9.372                0.807138447      149.127762
9.373                0.807325037      148.794018
9.374                0.807513992      148.460759
9.375                0.807705294       148.12799
9.376                0.807898922      147.795715
9.377                 0.80809486      147.463938
9.378                0.808293087      147.132665
9.379                0.808493585      146.801899
9.38                 0.808696335      146.471645
9.381                0.808901318      146.141907
9.382                0.809108514      145.812689
9.383                0.809317903      145.483995
9.384                0.809529466       145.15583
9.385                0.809743184      144.828197
9.386                0.809959037      144.501101
9.387                0.810177005      144.174545
9.388                0.810397068      143.848533
9.389                0.810619207      143.523069
9.39                   0.8108434      143.198158
9.391                0.811069629      142.873802
9.392                0.811297873      142.550006
9.393                0.811528111      142.226772
9.394                0.811760325      141.904106
9.395                0.811994492      141.582009
9.396                0.812230593      141.260486
