! TOUCHSTONE file generated by CST DESIGN STUDIO
! Date and time: Tue Feb  4 13:42:10 2025
! Project name: C:\Work\MatlabApps\UnitCellOptimizationMatlab\CST\unitcell.cst
! Tree item: Tasks\Sweep1\SPara1\S-Parameters
! Header version: 2024
! Port assignment regex: !\s*Touchstone port\s*([0-9]+)\s*=\s*(CST MWS port|CST DES external port|CST DES block port)\s*(.+)\s* \(\"(.*)\"\)(\s*mode\s*([0-9]+))?.*
! Touchstone port assignment:
! Touchstone port 1 = CST DES external port 1 ("")
# GHz S MA R 50
9                    0.961021962     -48.5870228
9.001                0.960942714     -48.6483362
9.002                0.960863206     -48.7097774
9.003                0.960783436     -48.7713467
9.004                0.960703403     -48.8330446
9.005                0.960623108     -48.8948714
9.006                0.960542548     -48.9568276
9.007                0.960461723     -49.0189135
9.008                0.960380632     -49.0811295
9.009                0.960299275     -49.1434761
9.01                 0.960217649     -49.2059536
9.011                0.960135755     -49.2685624
9.012                0.960053592      -49.331303
9.013                0.959971158     -49.3941758
9.014                0.959888453     -49.4571812
9.015                0.959805475     -49.5203195
9.016                0.959722225     -49.5835913
9.017                  0.9596387     -49.6469968
9.018                0.959554901     -49.7105366
9.019                0.959470825     -49.7742111
9.02                 0.959386473     -49.8380206
9.021                0.959301843     -49.9019656
9.022                0.959216935     -49.9660465
9.023                0.959131746     -50.0302638
9.024                0.959046278     -50.0946178
9.025                0.958960528      -50.159109
9.026                0.958874495     -50.2237379
9.027                0.958788179     -50.2885048
9.028                0.958701579     -50.3534102
9.029                0.958614693     -50.4184545
9.03                 0.958527521     -50.4836381
9.031                0.958440062     -50.5489616
9.032                0.958352315     -50.6144253
9.033                0.958264279     -50.6800296
9.034                0.958175952     -50.7457751
9.035                0.958087335     -50.8116621
9.036                0.957998425     -50.8776912
9.037                0.957909222     -50.9438626
9.038                0.957819726      -51.010177
9.039                0.957729934     -51.0766348
9.04                 0.957639846     -51.1432363
9.041                0.957549461     -51.2099821
9.042                0.957458778     -51.2768726
9.043                0.957367795     -51.3439083
9.044                0.957276513     -51.4110896
9.045                 0.95718493      -51.478417
9.046                0.957093044      -51.545891
9.047                0.957000855      -51.613512
9.048                0.956908362     -51.6812805
9.049                0.956815564     -51.7491969
9.05                  0.95672246     -51.8172617
9.051                0.956629048     -51.8854755
9.052                0.956535328     -51.9538386
9.053                0.956441298     -52.0223515
9.054                0.956346958     -52.0910148
9.055                0.956252307     -52.1598289
9.056                0.956157342     -52.2287943
9.057                0.956062065     -52.2979114
9.058                0.955966472     -52.3671808
9.059                0.955870564     -52.4366029
9.06                 0.955774338     -52.5061782
9.061                0.955677795     -52.5759072
9.062                0.955580933     -52.6457905
9.063                 0.95548375     -52.7158284
9.064                0.955386247     -52.7860215
9.065                0.955288421     -52.8563704
9.066                0.955190271     -52.9268754
9.067                0.955091797     -52.9975371
9.068                0.954992997      -53.068356
9.069                0.954893871     -53.1393326
9.07                 0.954794417     -53.2104674
9.071                0.954694633     -53.2817609
9.072                0.954594519     -53.3532136
9.073                0.954494075     -53.4248261
9.074                0.954393297     -53.4965988
9.075                0.954292186     -53.5685323
9.076                0.954190741     -53.6406271
9.077                0.954088959     -53.7128837
9.078                0.953986841     -53.7853026
9.079                0.953884384     -53.8578844
9.08                 0.953781588     -53.9306295
9.081                0.953678452     -54.0035386
9.082                0.953574973     -54.0766121
9.083                0.953471152     -54.1498506
9.084                0.953366987     -54.2232546
9.085                0.953262477     -54.2968246
9.086                 0.95315762     -54.3705612
9.087                0.953052416     -54.4444649
9.088                0.952946863     -54.5185363
9.089                 0.95284096      -54.592776
9.09                 0.952734705     -54.6671843
9.091                0.952628099      -54.741762
9.092                0.952521138     -54.8165095
9.093                0.952413823     -54.8914275
9.094                0.952306152     -54.9665164
9.095                0.952198123     -55.0417768
9.096                0.952089736     -55.1172094
9.097                 0.95198099     -55.1928145
9.098                0.951871882     -55.2685929
9.099                0.951762412     -55.3445451
9.1                  0.951652578     -55.4206716
9.101                 0.95154238      -55.496973
9.102                0.951431816     -55.5734499
9.103                0.951320884     -55.6501028
9.104                0.951209584     -55.7269324
9.105                0.951097914     -55.8039392
9.106                0.950985873     -55.8811238
9.107                 0.95087346     -55.9584868
9.108                0.950760673     -56.0360287
9.109                0.950647511     -56.1137502
9.11                 0.950533973     -56.1916519
9.111                0.950420057     -56.2697343
9.112                0.950305763      -56.347998
9.113                0.950191088     -56.4264437
9.114                0.950076032     -56.5050718
9.115                0.949960594     -56.5838831
9.116                0.949844771     -56.6628782
9.117                0.949728562     -56.7420576
9.118                0.949611968     -56.8214219
9.119                0.949494985     -56.9009718
9.12                 0.949377612     -56.9807078
9.121                0.949259849     -57.0606307
9.122                0.949141694     -57.1407409
9.123                0.949023145     -57.2210392
9.124                0.948904202     -57.3015261
9.125                0.948784862     -57.3822023
9.126                0.948665125     -57.4630684
9.127                0.948544989      -57.544125
9.128                0.948424453     -57.6253728
9.129                0.948303515     -57.7068124
9.13                 0.948182174     -57.7884444
9.131                0.948060429     -57.8702695
9.132                0.947938278     -57.9522883
9.133                 0.94781572     -58.0345014
9.134                0.947692753     -58.1169096
9.135                0.947569376     -58.1995134
9.136                0.947445588     -58.2823135
9.137                0.947321387     -58.3653106
9.138                0.947196772     -58.4485052
9.139                0.947071742     -58.5318982
9.14                 0.946946294     -58.6154901
9.141                0.946820427     -58.6992816
9.142                0.946694141     -58.7832733
9.143                0.946567433      -58.867466
9.144                0.946440303     -58.9518603
9.145                0.946312748     -59.0364569
9.146                0.946184768     -59.1212564
9.147                 0.94605636     -59.2062596
9.148                0.945927524     -59.2914671
9.149                0.945798258     -59.3768796
9.15                  0.94566856     -59.4624977
9.151                0.945538429     -59.5483223
9.152                0.945407864     -59.6343539
9.153                0.945276862     -59.7205933
9.154                0.945145424     -59.8070411
9.155                0.945013546     -59.8936982
9.156                0.944881227      -59.980565
9.157                0.944748467     -60.0676425
9.158                0.944615263     -60.1549312
9.159                0.944481615     -60.2424319
9.16                  0.94434752     -60.3301453
9.161                0.944212976     -60.4180722
9.162                0.944077984     -60.5062131
9.163                 0.94394254      -60.594569
9.164                0.943806643     -60.6831404
9.165                0.943670293     -60.7719281
9.166                0.943533487     -60.8609329
9.167                0.943396223     -60.9501554
9.168                0.943258501     -61.0395965
9.169                0.943120319     -61.1292567
9.17                 0.942981675      -61.219137
9.171                0.942842567      -61.309238
9.172                0.942702995     -61.3995605
9.173                0.942562955     -61.4901052
9.174                0.942422448     -61.5808729
9.175                0.942281471     -61.6718643
9.176                0.942140023     -61.7630802
9.177                0.941998102     -61.8545213
9.178                0.941855707     -61.9461885
9.179                0.941712835     -62.0380824
9.18                 0.941569486     -62.1302039
9.181                0.941425658     -62.2225537
9.182                0.941281349     -62.3151326
9.183                0.941136558     -62.4079414
9.184                0.940991282     -62.5009808
9.185                0.940845521     -62.5942517
9.186                0.940699273     -62.6877547
9.187                0.940552536     -62.7814908
9.188                0.940405308     -62.8754607
9.189                0.940257588     -62.9696652
9.19                 0.940109375     -63.0641051
9.191                0.939960666     -63.1587811
9.192                 0.93981146     -63.2536942
9.193                0.939661755     -63.3488451
9.194                 0.93951155     -63.4442346
9.195                0.939360843     -63.5398635
9.196                0.939209633     -63.6357327
9.197                0.939057917     -63.7318429
9.198                0.938905694      -63.828195
9.199                0.938752963     -63.9247899
9.2                  0.938599721     -64.0216283
9.201                0.938445968      -64.118711
9.202                0.938291701     -64.2160389
9.203                0.938136918     -64.3136129
9.204                0.937981619     -64.4114338
9.205                0.937825801     -64.5095024
9.206                0.937669462     -64.6078196
9.207                0.937512602     -64.7063862
9.208                0.937355218      -64.805203
9.209                0.937197308      -64.904271
9.21                 0.937038872      -65.003591
9.211                0.936879906     -65.1031638
9.212                 0.93672041     -65.2029904
9.213                0.936560382     -65.3030715
9.214                 0.93639982     -65.4034081
9.215                0.936238722      -65.504001
9.216                0.936077087     -65.6048511
9.217                0.935914913     -65.7059594
9.218                0.935752198     -65.8073265
9.219                0.935588941     -65.9089536
9.22                 0.935425139     -66.0108414
9.221                0.935260791     -66.1129908
9.222                0.935095896     -66.2154028
9.223                0.934930451     -66.3180782
9.224                0.934764455      -66.421018
9.225                0.934597907      -66.524223
9.226                0.934430803     -66.6276941
9.227                0.934263143     -66.7314324
9.228                0.934094925     -66.8354386
9.229                0.933926148     -66.9397138
9.23                 0.933756808     -67.0442587
9.231                0.933586906     -67.1490745
9.232                0.933416438     -67.2541619
9.233                0.933245403      -67.359522
9.234                  0.9330738     -67.4651556
9.235                0.932901626     -67.5710636
9.236                 0.93272888     -67.6772472
9.237                0.932555561     -67.7837071
9.238                0.932381665     -67.8904444
9.239                0.932207193     -67.9974599
9.24                 0.932032141     -68.1047547
9.241                0.931856508     -68.2123297
9.242                0.931680293     -68.3201858
9.243                0.931503493     -68.4283241
9.244                0.931326107     -68.5367455
9.245                0.931148133     -68.6454509
9.246                0.930969569     -68.7544415
9.247                0.930790414      -68.863718
9.248                0.930610665     -68.9732815
9.249                0.930430322     -69.0831331
9.25                 0.930249381     -69.1932736
9.251                0.930067842     -69.3037041
9.252                0.929885703     -69.4144256
9.253                0.929702961     -69.5254391
9.254                0.929519616     -69.6367455
9.255                0.929335665      -69.748346
9.256                0.929151106     -69.8602414
9.257                0.928965939     -69.9724329
9.258                 0.92878016     -70.0849213
9.259                0.928593769     -70.1977079
9.26                 0.928406763     -70.3107935
9.261                0.928219141     -70.4241792
9.262                0.928030901      -70.537866
9.263                0.927842041      -70.651855
9.264                0.927652559     -70.7661472
9.265                0.927462455     -70.8807437
9.266                0.927271725     -70.9956454
9.267                0.927080368     -71.1108535
9.268                0.926888383     -71.2263689
9.269                0.926695767     -71.3421929
9.27                 0.926502519     -71.4583263
9.271                0.926308637     -71.5747703
9.272                 0.92611412     -71.6915259
9.273                0.925918966     -71.8085942
9.274                0.925723172     -71.9259763
9.275                0.925526737     -72.0436732
9.276                 0.92532966     -72.1616861
9.277                0.925131938      -72.280016
9.278                0.924933571      -72.398664
9.279                0.924734555     -72.5176311
9.28                  0.92453489     -72.6369186
9.281                0.924334574     -72.7565274
9.282                0.924133605     -72.8764587
9.283                0.923931981     -72.9967136
9.284                  0.9237297     -73.1172932
9.285                0.923526762     -73.2381986
9.286                0.923323163      -73.359431
9.287                0.923118904     -73.4809913
9.288                 0.92291398     -73.6028808
9.289                0.922708392     -73.7251006
9.29                 0.922502137     -73.8476518
9.291                0.922295214     -73.9705356
9.292                0.922087621      -74.093753
9.293                0.921879356     -74.2173052
9.294                0.921670418     -74.3411934
9.295                0.921460804     -74.4654187
9.296                0.921250514     -74.5899823
9.297                0.921039546     -74.7148853
9.298                0.920827898     -74.8401288
9.299                0.920615568     -74.9657141
9.3                  0.920402554     -75.0916423
9.301                0.920188856     -75.2179145
9.302                0.919974471     -75.3445319
9.303                0.919759398     -75.4714958
9.304                0.919543635     -75.5988072
9.305                0.919327181     -75.7264674
9.306                0.919110034     -75.8544775
9.307                0.918892192     -75.9828388
9.308                0.918673654     -76.1115523
9.309                0.918454419     -76.2406194
9.31                 0.918234484     -76.3700412
9.311                0.918013848      -76.499819
9.312                 0.91779251     -76.6299538
9.313                0.917570468      -76.760447
9.314                 0.91734772     -76.8912997
9.315                0.917124265     -77.0225132
9.316                0.916900102     -77.1540886
9.317                0.916675229     -77.2860273
9.318                0.916449644     -77.4183304
9.319                0.916223347     -77.5509991
9.32                 0.915996335     -77.6840347
9.321                0.915768607     -77.8174384
9.322                0.915540161     -77.9512115
9.323                0.915310997     -78.0853551
9.324                0.915081113     -78.2198707
9.325                0.914850507     -78.3547593
9.326                0.914619178     -78.4900222
9.327                0.914387124     -78.6256607
9.328                0.914154344     -78.7616761
9.329                0.913920838     -78.8980697
9.33                 0.913686603     -79.0348426
9.331                0.913451638     -79.1719961
9.332                0.913215941     -79.3095316
9.333                0.912979512     -79.4474503
9.334                 0.91274235     -79.5857534
9.335                0.912504452     -79.7244423
9.336                0.912265818     -79.8635182
9.337                0.912026446     -80.0029825
9.338                0.911786335     -80.1428364
9.339                0.911545484     -80.2830811
9.34                 0.911303892     -80.4237181
9.341                0.911061557     -80.5647486
9.342                0.910818478     -80.7061739
9.343                0.910574655     -80.8479953
9.344                0.910330086     -80.9902141
9.345                0.910084769     -81.1328317
9.346                0.909838704     -81.2758493
9.347                 0.90959189     -81.4192683
9.348                0.909344325     -81.5630899
9.349                0.909096009     -81.7073156
9.35                 0.908846941     -81.8519465
9.351                0.908597118     -81.9969842
9.352                0.908346542     -82.1424298
9.353                0.908095209     -82.2882848
9.354                0.907843121     -82.4345504
9.355                0.907590274      -82.581228
9.356                 0.90733667      -82.728319
9.357                0.907082306     -82.8758247
9.358                0.906827182     -83.0237464
9.359                0.906571298     -83.1720855
9.36                 0.906314651     -83.3208433
9.361                0.906057242     -83.4700213
9.362                0.905799069     -83.6196207
9.363                0.905540133     -83.7696429
9.364                0.905280431     -83.9200893
9.365                0.905019964     -84.0709612
9.366                 0.90475873     -84.2222601
9.367                 0.90449673     -84.3739873
9.368                0.904233962     -84.5261441
9.369                0.903970426     -84.6787319
9.37                  0.90370612     -84.8317522
9.371                0.903441046     -84.9852063
9.372                0.903175202     -85.1390955
9.373                0.902908587     -85.2934213
9.374                0.902641202      -85.448185
9.375                0.902373045     -85.6033881
9.376                0.902104116     -85.7590319
9.377                0.901834415     -85.9151178
9.378                0.901563942     -86.0716473
9.379                0.901292696     -86.2286216
9.38                 0.901020677     -86.3860423
9.381                0.900747884     -86.5439107
9.382                0.900474318     -86.7022282
9.383                0.900199977     -86.8609962
9.384                0.899924863     -87.0202161
9.385                0.899648975     -87.1798894
9.386                0.899372312     -87.3400174
9.387                0.899094875     -87.5006015
9.388                0.898816663     -87.6616433
9.389                0.898537677      -87.823144
9.39                 0.898257917     -87.9851051
9.391                0.897977382      -88.147528
9.392                0.897696073     -88.3104141
9.393                 0.89741399     -88.4737649
9.394                0.897131133     -88.6375817
9.395                0.896847503      -88.801866
9.396                0.896563098     -88.9666193
