! TOUCHSTONE file generated by CST DESIGN STUDIO
! Date and time: Tue Feb  4 18:46:43 2025
! Project name: C:\Work\MatlabApps\UnitCellOptimizationMatlab\CST\unitcell.cst
! Tree item: Tasks\Sweep1\SPara1\S-Parameters
! Header version: 2024
! Port assignment regex: !\s*Touchstone port\s*([0-9]+)\s*=\s*(CST MWS port|CST DES external port|CST DES block port)\s*(.+)\s* \(\"(.*)\"\)(\s*mode\s*([0-9]+))?.*
! Touchstone port assignment:
! Touchstone port 1 = CST DES external port 1 ("")
# GHz S MA R 50
9                    0.966930251     -66.7802228
9.001                0.966854637     -66.8762473
9.002                0.966778788     -66.9725031
9.003                0.966702703     -67.0689909
9.004                0.966626381     -67.1657113
9.005                0.966549823     -67.2626652
9.006                0.966473026     -67.3598532
9.007                0.966395991     -67.4572762
9.008                0.966318717     -67.5549348
9.009                0.966241203     -67.6528298
9.01                 0.966163448     -67.7509619
9.011                0.966085452     -67.8493319
9.012                0.966007214     -67.9479405
9.013                0.965928733     -68.0467885
9.014                0.965850008     -68.1458767
9.015                 0.96577104     -68.2452057
9.016                0.965691826     -68.3447764
9.017                0.965612367     -68.4445894
9.018                0.965532661     -68.5446457
9.019                0.965452709     -68.6449458
9.02                 0.965372508     -68.7454907
9.021                 0.96529206      -68.846281
9.022                0.965211361     -68.9473176
9.023                0.965130414     -69.0486012
9.024                0.965049215     -69.1501326
9.025                0.964967765     -69.2519126
9.026                0.964886063     -69.3539419
9.027                0.964804109     -69.4562214
9.028                  0.9647219     -69.5587518
9.029                0.964639438     -69.6615339
9.03                 0.964556721     -69.7645685
9.031                0.964473748     -69.8678564
9.032                0.964390519     -69.9713984
9.033                0.964307033     -70.0751954
9.034                0.964223289      -70.179248
9.035                0.964139286     -70.2835571
9.036                0.964055024     -70.3881236
9.037                0.963970503     -70.4929481
9.038                0.963885721     -70.5980316
9.039                0.963800677     -70.7033748
9.04                 0.963715371     -70.8089786
9.041                0.963629803     -70.9148438
9.042                0.963543971     -71.0209712
9.043                0.963457875     -71.1273615
9.044                0.963371514     -71.2340158
9.045                0.963284887     -71.3409347
9.046                0.963197994     -71.4481191
9.047                0.963110834     -71.5555699
9.048                0.963023407     -71.6632878
9.049                 0.96293571     -71.7712737
9.05                 0.962847745     -71.8795285
9.051                 0.96275951      -71.988053
9.052                0.962671004     -72.0968481
9.053                0.962582226     -72.2059145
9.054                0.962493177     -72.3152531
9.055                0.962403855     -72.4248649
9.056                 0.96231426     -72.5347506
9.057                 0.96222439     -72.6449111
9.058                0.962134246     -72.7553472
9.059                0.962043826     -72.8660599
9.06                  0.96195313       -72.97705
9.061                0.961862156     -73.0883183
9.062                0.961770906     -73.1998657
9.063                0.961679377     -73.3116932
9.064                0.961587568     -73.4238015
9.065                 0.96149548     -73.5361916
9.066                0.961403112     -73.6488643
9.067                0.961310463     -73.7618205
9.068                0.961217531      -73.875061
9.069                0.961124318     -73.9885869
9.07                 0.961030821     -74.1023989
9.071                 0.96093704      -74.216498
9.072                0.960842974     -74.3308851
9.073                0.960748624      -74.445561
9.074                0.960653987     -74.5605266
9.075                0.960559064     -74.6757829
9.076                0.960463853     -74.7913307
9.077                0.960368355      -74.907171
9.078                0.960272568     -75.0233047
9.079                0.960176491     -75.1397326
9.08                 0.960080125     -75.2564557
9.081                0.959983468     -75.3734749
9.082                 0.95988652     -75.4907911
9.083                0.959789279     -75.6084053
9.084                0.959691747     -75.7263183
9.085                 0.95959392     -75.8445311
9.086                  0.9594958     -75.9630446
9.087                0.959397385     -76.0818598
9.088                0.959298675     -76.2009775
9.089                0.959199669     -76.3203988
9.09                 0.959100367     -76.4401244
9.091                0.959000767     -76.5601555
9.092                 0.95890087     -76.6804929
9.093                0.958800674     -76.8011375
9.094                0.958700179     -76.9220903
9.095                0.958599384     -77.0433523
9.096                0.958498289     -77.1649244
9.097                0.958396893     -77.2868076
9.098                0.958295196     -77.4090028
9.099                0.958193196     -77.5315109
9.1                  0.958090893      -77.654333
9.101                0.957988287     -77.7774699
9.102                0.957885377     -77.9009227
9.103                0.957782163     -78.0246924
9.104                0.957678643     -78.1487798
9.105                0.957574817     -78.2731859
9.106                0.957470685     -78.3979118
9.107                0.957366246     -78.5229584
9.108                  0.9572615     -78.6483267
9.109                0.957156445     -78.7740176
9.11                 0.957051081     -78.9000321
9.111                0.956945409     -79.0263713
9.112                0.956839426     -79.1530361
9.113                0.956733133     -79.2800275
9.114                0.956626529     -79.4073464
9.115                0.956519614     -79.5349939
9.116                0.956412387      -79.662971
9.117                0.956304847     -79.7912786
9.118                0.956196994     -79.9199178
9.119                0.956088827     -80.0488896
9.12                 0.955980346     -80.1781949
9.121                 0.95587155     -80.3078348
9.122                 0.95576244     -80.4378102
9.123                0.955653013     -80.5681222
9.124                0.955543271     -80.6987718
9.125                0.955433211       -80.82976
9.126                0.955322835     -80.9610878
9.127                0.955212141     -81.0927562
9.128                0.955101128     -81.2247663
9.129                0.954989797      -81.357119
9.13                 0.954878148     -81.4898154
9.131                0.954766178     -81.6228565
9.132                0.954653889     -81.7562433
9.133                0.954541279     -81.8899769
9.134                0.954428348     -82.0240582
9.135                0.954315096     -82.1584884
9.136                0.954201523     -82.2932684
9.137                0.954087627     -82.4283993
9.138                0.953973409     -82.5638821
9.139                0.953858868     -82.6997178
9.14                 0.953744003     -82.8359075
9.141                0.953628815     -82.9724523
9.142                0.953513303     -83.1093531
9.143                0.953397466      -83.246611
9.144                0.953281305     -83.3842271
9.145                0.953164818     -83.5222023
9.146                0.953048006     -83.6605379
9.147                0.952930868     -83.7992347
9.148                0.952813404     -83.9382938
9.149                0.952695614     -84.0777164
9.15                 0.952577496     -84.2175034
9.151                0.952459052      -84.357656
9.152                 0.95234028     -84.4981751
9.153                0.952221181     -84.6390618
9.154                0.952101754     -84.7803172
9.155                0.951981998     -84.9219423
9.156                0.951861914     -85.0639383
9.157                0.951741501     -85.2063061
9.158                 0.95162076     -85.3490468
9.159                0.951499689     -85.4921616
9.16                 0.951378289     -85.6356514
9.161                0.951256559     -85.7795174
9.162                  0.9511345     -85.9237605
9.163                0.951012111     -86.0683819
9.164                0.950889391     -86.2133827
9.165                0.950766341     -86.3587639
9.166                0.950642961     -86.5045266
9.167                0.950519251     -86.6506718
9.168                0.950395209     -86.7972007
9.169                0.950270837     -86.9441142
9.17                 0.950146134     -87.0914136
9.171                  0.9500211     -87.2390998
9.172                0.949895735      -87.387174
9.173                0.949770039     -87.5356372
9.174                0.949644012     -87.6844905
9.175                0.949517653      -87.833735
9.176                0.949390963     -87.9833718
9.177                0.949263942     -88.1334019
9.178                 0.94913659     -88.2838264
9.179                0.949008906     -88.4346465
9.18                 0.948880891     -88.5858631
9.181                0.948752545     -88.7374774
9.182                0.948623868     -88.8894905
9.183                 0.94849486     -89.0419035
9.184                0.948365521     -89.1947173
9.185                0.948235851     -89.3479332
9.186                 0.94810585     -89.5015522
9.187                0.947975518     -89.6555753
9.188                0.947844856     -89.8100038
9.189                0.947713864     -89.9648386
9.19                 0.947582541     -90.1200808
9.191                0.947450889     -90.2757316
9.192                0.947318906      -90.431792
9.193                0.947186594     -90.5882631
9.194                0.947053953     -90.7451459
9.195                0.946920982     -90.9024417
9.196                0.946787683     -91.0601514
9.197                0.946654055     -91.2182761
9.198                0.946520099      -91.376817
9.199                0.946385815     -91.5357751
9.2                  0.946251203     -91.6951515
9.201                0.946116264     -91.8549472
9.202                0.945980998     -92.0151634
9.203                0.945845406     -92.1758012
9.204                0.945709487     -92.3368615
9.205                0.945573243     -92.4983456
9.206                0.945436674     -92.6602545
9.207                 0.94529978     -92.8225892
9.208                0.945162561     -92.9853509
9.209                0.945025019     -93.1485405
9.21                 0.944887153     -93.3121593
9.211                0.944748965     -93.4762083
9.212                0.944610454     -93.6406885
9.213                0.944471622      -93.805601
9.214                0.944332469     -93.9709469
9.215                0.944192996     -94.1367272
9.216                0.944053202     -94.3029431
9.217                 0.94391309     -94.4695956
9.218                0.943772659     -94.6366857
9.219                 0.94363191     -94.8042146
9.22                 0.943490844     -94.9721832
9.221                0.943349463     -95.1405927
9.222                0.943207765     -95.3094441
9.223                0.943065753     -95.4787385
9.224                0.942923427     -95.6484769
9.225                0.942780788     -95.8186604
9.226                0.942637836     -95.9892901
9.227                0.942494574     -96.1603669
9.228                   0.942351     -96.3318919
9.229                0.942207118     -96.5038662
9.23                 0.942062927     -96.6762908
9.231                0.941918428     -96.8491668
9.232                0.941773622     -97.0224952
9.233                0.941628511      -97.196277
9.234                0.941483096     -97.3705133
9.235                0.941337377      -97.545205
9.236                0.941191355     -97.7203533
9.237                0.941045033     -97.8959592
9.238                 0.94089841     -98.0720236
9.239                0.940751489     -98.2485476
9.24                 0.940604269     -98.4255322
9.241                0.940456753     -98.6029784
9.242                0.940308942     -98.7808873
9.243                0.940160837     -98.9592598
9.244                 0.94001244     -99.1380969
9.245                0.939863751     -99.3173996
9.246                0.939714772      -99.497169
9.247                0.939565504      -99.677406
9.248                 0.93941595     -99.8581117
9.249                0.939266109     -100.039287
9.25                 0.939115985     -100.220933
9.251                0.938965577      -100.40305
9.252                0.938814889      -100.58564
9.253                0.938663921     -100.768703
9.254                0.938512675     -100.952241
9.255                0.938361152     -101.136254
9.256                0.938209355     -101.320744
9.257                0.938057284     -101.505711
9.258                0.937904942     -101.691156
9.259                0.937752331      -101.87708
9.26                 0.937599452     -102.063485
9.261                0.937446306     -102.250371
9.262                0.937292897     -102.437738
9.263                0.937139225     -102.625589
9.264                0.936985292     -102.813923
9.265                0.936831102     -103.002742
9.266                0.936676654     -103.192047
9.267                0.936521952     -103.381838
9.268                0.936366998     -103.572117
9.269                0.936211793     -103.762884
9.27                  0.93605634      -103.95414
9.271                 0.93590064     -104.145886
9.272                0.935744697     -104.338124
9.273                0.935588511     -104.530853
9.274                0.935432086     -104.724074
9.275                0.935275424      -104.91779
9.276                0.935118527     -105.111999
9.277                0.934961397     -105.306704
9.278                0.934804036     -105.501905
9.279                0.934646448     -105.697603
9.28                 0.934488634     -105.893798
9.281                0.934330597     -106.090492
9.282                 0.93417234     -106.287685
9.283                0.934013865     -106.485378
9.284                0.933855175     -106.683572
9.285                0.933696271     -106.882267
9.286                0.933537158     -107.081465
9.287                0.933377838     -107.281166
9.288                0.933218313     -107.481371
9.289                0.933058586     -107.682081
9.29                 0.932898661     -107.883296
9.291                0.932738539     -108.085017
9.292                0.932578224     -108.287246
9.293                0.932417718     -108.489981
9.294                0.932257026     -108.693225
9.295                0.932096149     -108.896978
9.296                0.931935091      -109.10124
9.297                0.931773854     -109.306013
9.298                0.931612443     -109.511297
9.299                 0.93145086     -109.717092
9.3                  0.931289108       -109.9234
9.301                0.931127191     -110.130221
9.302                0.930965112     -110.337555
9.303                0.930802874     -110.545403
9.304                0.930640481     -110.753766
9.305                0.930477936     -110.962645
9.306                0.930315242     -111.172039
9.307                0.930152404      -111.38195
9.308                0.929989423     -111.592378
9.309                0.929826306     -111.803324
9.31                 0.929663053     -112.014788
9.311                0.929499671     -112.226771
9.312                0.929336161     -112.439272
9.313                0.929172529     -112.652294
9.314                0.929008777     -112.865836
9.315                0.928844909     -113.079899
9.316                 0.92868093     -113.294483
9.317                0.928516844     -113.509588
9.318                0.928352654     -113.725216
9.319                0.928188364     -113.941367
9.32                 0.928023978      -114.15804
9.321                0.927859501     -114.375237
9.322                0.927694937     -114.592957
9.323                0.927530289     -114.811202
9.324                0.927365563     -115.029972
9.325                0.927200762     -115.249266
9.326                 0.92703589     -115.469086
9.327                0.926870953     -115.689431
9.328                0.926705954     -115.910302
9.329                0.926540898     -116.131699
9.33                 0.926375789     -116.353623
9.331                0.926210633     -116.576074
9.332                0.926045433     -116.799052
9.333                0.925880194     -117.022557
9.334                 0.92571492      -117.24659
9.335                0.925549618     -117.471151
9.336                0.925384291      -117.69624
9.337                0.925218943     -117.921856
9.338                0.925053581     -118.148002
9.339                0.924888209     -118.374675
9.34                 0.924722832     -118.601878
9.341                0.924557454     -118.829609
9.342                0.924392082     -119.057869
9.343                0.924226719     -119.286658
9.344                0.924061372     -119.515977
9.345                0.923896045     -119.745824
9.346                0.923730743     -119.976201
9.347                0.923565472     -120.207106
9.348                0.923400237     -120.438542
9.349                0.923235044     -120.670506
9.35                 0.923069898        -120.903
9.351                0.922904803     -121.136022
9.352                0.922739767     -121.369574
9.353                0.922574794     -121.603656
9.354                 0.92240989     -121.838266
9.355                 0.92224506     -122.073405
9.356                0.922080311     -122.309072
9.357                0.921915647     -122.545269
9.358                0.921751075     -122.781993
9.359                0.921586601     -123.019246
9.36                 0.921422229     -123.257027
9.361                0.921257968     -123.495336
9.362                0.921093821     -123.734173
9.363                0.920929795     -123.973537
9.364                0.920765896     -124.213428
9.365                0.920602131     -124.453846
9.366                0.920438505      -124.69479
9.367                0.920275024     -124.936261
9.368                0.920111695     -125.178257
9.369                0.919948524     -125.420779
9.37                 0.919785517     -125.663825
9.371                0.919622681     -125.907397
9.372                0.919460021     -126.151492
9.373                0.919297545     -126.396111
9.374                0.919135258     -126.641254
9.375                0.918973167     -126.886919
9.376                0.918811279     -127.133107
9.377                0.918649601     -127.379816
9.378                0.918488138     -127.627046
9.379                0.918326897     -127.874797
9.38                 0.918165886     -128.123067
9.381                0.918005111     -128.371857
9.382                0.917844579     -128.621166
9.383                0.917684296     -128.870993
9.384                0.917524269     -129.121337
9.385                0.917364505     -129.372197
9.386                0.917205012     -129.623574
9.387                0.917045795     -129.875465
9.388                0.916886863     -130.127871
9.389                0.916728222      -130.38079
9.39                 0.916569879     -130.634222
9.391                0.916411841     -130.888166
9.392                0.916254115      -131.14262
9.393                0.916096709     -131.397585
9.394                 0.91593963     -131.653059
9.395                0.915782884     -131.909041
9.396                 0.91562648      -132.16553
