! TOUCHSTONE file generated by CST DESIGN STUDIO
! Date and time: Tue Feb  4 18:46:44 2025
! Project name: C:\Work\MatlabApps\UnitCellOptimizationMatlab\CST\unitcell.cst
! Tree item: Tasks\Sweep1\SPara1\S-Parameters
! Header version: 2024
! Port assignment regex: !\s*Touchstone port\s*([0-9]+)\s*=\s*(CST MWS port|CST DES external port|CST DES block port)\s*(.+)\s* \(\"(.*)\"\)(\s*mode\s*([0-9]+))?.*
! Touchstone port assignment:
! Touchstone port 1 = CST DES external port 1 ("")
# GHz S MA R 50
9                    0.967770871     -63.6456598
9.001                0.967700244     -63.7349075
9.002                0.967629398     -63.8243655
9.003                0.967558333     -63.9140345
9.004                0.967487047     -64.0039152
9.005                0.967415541     -64.0940083
9.006                0.967343812     -64.1843144
9.007                0.967271862     -64.2748341
9.008                0.967199689     -64.3655683
9.009                0.967127292     -64.4565175
9.01                  0.96705467     -64.5476824
9.011                0.966981824     -64.6390637
9.012                0.966908752     -64.7306621
9.013                0.966835453     -64.8224783
9.014                0.966761927     -64.9145129
9.015                0.966688174     -65.0067666
9.016                0.966614191     -65.0992402
9.017                 0.96653998     -65.1919343
9.018                0.966465539     -65.2848497
9.019                0.966390867     -65.3779869
9.02                 0.966315964     -65.4713468
9.021                0.966240828       -65.56493
9.022                 0.96616546     -65.6587372
9.023                0.966089859     -65.7527692
9.024                0.966014024     -65.8470266
9.025                0.965937953     -65.9415102
9.026                0.965861647     -66.0362207
9.027                0.965785105     -66.1311587
9.028                0.965708326      -66.226325
9.029                0.965631309     -66.3217204
9.03                 0.965554054     -66.4173456
9.031                 0.96547656     -66.5132012
9.032                0.965398825      -66.609288
9.033                0.965320851     -66.7056067
9.034                0.965242635     -66.8021582
9.035                0.965164177      -66.898943
9.036                0.965085477      -66.995962
9.037                0.965006533     -67.0932159
9.038                0.964927345     -67.1907053
9.039                0.964847912     -67.2884312
9.04                 0.964768234     -67.3863942
9.041                0.964688309     -67.4845951
9.042                0.964608138     -67.5830345
9.043                0.964527718     -67.6817134
9.044                0.964447051     -67.7806324
9.045                0.964366134     -67.8797923
9.046                0.964284967     -67.9791938
9.047                 0.96420355     -68.0788378
9.048                0.964121881     -68.1787249
9.049                0.964039961      -68.278856
9.05                 0.963957788     -68.3792319
9.051                0.963875361     -68.4798532
9.052                 0.96379268     -68.5807208
9.053                0.963709744     -68.6818355
9.054                0.963626552      -68.783198
9.055                0.963543104     -68.8848091
9.056                0.963459399     -68.9866696
9.057                0.963375437     -69.0887803
9.058                0.963291215     -69.1911421
9.059                0.963206735     -69.2937555
9.06                 0.963121994     -69.3966216
9.061                0.963036993      -69.499741
9.062                 0.96295173     -69.6031146
9.063                0.962866205     -69.7067432
9.064                0.962780417     -69.8106276
9.065                0.962694365     -69.9147686
9.066                0.962608049     -70.0191669
9.067                0.962521468     -70.1238235
9.068                0.962434622     -70.2287391
9.069                0.962347508     -70.3339146
9.07                 0.962260128     -70.4393507
9.071                0.962172479     -70.5450483
9.072                0.962084562     -70.6510082
9.073                0.961996375     -70.7572313
9.074                0.961907918     -70.8637184
9.075                0.961819191     -70.9704702
9.076                0.961730191     -71.0774877
9.077                 0.96164092     -71.1847717
9.078                0.961551375      -71.292323
9.079                0.961461557     -71.4001425
9.08                 0.961371464     -71.5082309
9.081                0.961281096     -71.6165893
9.082                0.961190452     -71.7252183
9.083                0.961099531     -71.8341189
9.084                0.961008333     -71.9432919
9.085                0.960916857     -72.0527382
9.086                0.960825102     -72.1624586
9.087                0.960733068      -72.272454
9.088                0.960640753     -72.3827253
9.089                0.960548157     -72.4932733
9.09                  0.96045528     -72.6040989
9.091                0.960362121     -72.7152029
9.092                0.960268678     -72.8265863
9.093                0.960174952       -72.93825
9.094                0.960080941     -73.0501947
9.095                0.959986645     -73.1624214
9.096                0.959892063      -73.274931
9.097                0.959797194     -73.3877243
9.098                0.959702039     -73.5008023
9.099                0.959606595     -73.6141658
9.1                  0.959510862     -73.7278157
9.101                0.959414841      -73.841753
9.102                0.959318529     -73.9559785
9.103                0.959221926     -74.0704931
9.104                0.959125032     -74.1852978
9.105                0.959027846     -74.3003934
9.106                0.958930367     -74.4157808
9.107                0.958832594      -74.531461
9.108                0.958734527     -74.6474349
9.109                0.958636165     -74.7637034
9.11                 0.958537508     -74.8802674
9.111                0.958438555     -74.9971278
9.112                0.958339304     -75.1142856
9.113                0.958239756     -75.2317417
9.114                 0.95813991     -75.3494969
9.115                0.958039765     -75.4675524
9.116                0.957939321     -75.5859088
9.117                0.957838576     -75.7045673
9.118                 0.95773753     -75.8235288
9.119                0.957636183     -75.9427941
9.12                 0.957534533     -76.0623643
9.121                0.957432581     -76.1822403
9.122                0.957330325     -76.3024229
9.123                0.957227765     -76.4229133
9.124                  0.9571249     -76.5437123
9.125                 0.95702173     -76.6648209
9.126                0.956918254       -76.78624
9.127                0.956814471     -76.9079706
9.128                0.956710381     -77.0300136
9.129                0.956605983     -77.1523701
9.13                 0.956501276      -77.275041
9.131                0.956396261     -77.3980272
9.132                0.956290935     -77.5213298
9.133                0.956185299     -77.6449497
9.134                0.956079352     -77.7688878
9.135                0.955973094     -77.8931453
9.136                0.955866524     -78.0177229
9.137                 0.95575964     -78.1426218
9.138                0.955652444     -78.2678428
9.139                0.955544933     -78.3933871
9.14                 0.955437108     -78.5192555
9.141                0.955328968     -78.6454492
9.142                0.955220512     -78.7719689
9.143                 0.95511174     -78.8988158
9.144                0.955002652     -79.0259909
9.145                0.954893246     -79.1534952
9.146                0.954783522     -79.2813296
9.147                 0.95467348     -79.4094951
9.148                0.954563119     -79.5379928
9.149                0.954452438     -79.6668237
9.15                 0.954341438     -79.7959888
9.151                0.954230117     -79.9254891
9.152                0.954118474     -80.0553256
9.153                0.954006511     -80.1854993
9.154                0.953894225     -80.3160113
9.155                0.953781617     -80.4468625
9.156                0.953668686      -80.578054
9.157                0.953555431     -80.7095869
9.158                0.953441852      -80.841462
9.159                0.953327949     -80.9736806
9.16                 0.953213721     -81.1062435
9.161                0.953099168     -81.2391519
9.162                0.952984289     -81.3724067
9.163                0.952869083     -81.5060091
9.164                0.952753551     -81.6399599
9.165                0.952637692     -81.7742604
9.166                0.952521505     -81.9089115
9.167                 0.95240499     -82.0439142
9.168                0.952288147     -82.1792696
9.169                0.952170975     -82.3149788
9.17                 0.952053473     -82.4510428
9.171                0.951935643     -82.5874627
9.172                0.951817482     -82.7242394
9.173                0.951698991     -82.8613741
9.174                0.951580169     -82.9988678
9.175                0.951461017     -83.1367216
9.176                0.951341533     -83.2749366
9.177                0.951221717     -83.4135137
9.178                0.951101569      -83.552454
9.179                0.950981089     -83.6917587
9.18                 0.950860277     -83.8314288
9.181                0.950739131     -83.9714653
9.182                0.950617652     -84.1118693
9.183                 0.95049584     -84.2526419
9.184                0.950373694     -84.3937841
9.185                0.950251214     -84.5352971
9.186                0.950128399     -84.6771819
9.187                 0.95000525     -84.8194395
9.188                0.949881767     -84.9620711
9.189                0.949757948     -85.1050777
9.19                 0.949633794     -85.2484604
9.191                0.949509305     -85.3922203
9.192                0.949384481     -85.5363585
9.193                 0.94925932      -85.680876
9.194                0.949133824     -85.8257739
9.195                0.949007991     -85.9710534
9.196                0.948881823     -86.1167154
9.197                0.948755318     -86.2627612
9.198                0.948628476     -86.4091917
9.199                0.948501299     -86.5560081
9.2                  0.948373784     -86.7032114
9.201                0.948245933     -86.8508028
9.202                0.948117745     -86.9987833
9.203                 0.94798922      -87.147154
9.204                0.947860358      -87.295916
9.205                0.947731159     -87.4450705
9.206                0.947601624     -87.5946184
9.207                0.947471751      -87.744561
9.208                0.947341542     -87.8948992
9.209                0.947210995     -88.0456343
9.21                 0.947080112     -88.1967672
9.211                0.946948892     -88.3482991
9.212                0.946817335     -88.5002311
9.213                0.946685441     -88.6525643
9.214                0.946553211     -88.8052998
9.215                0.946420645     -88.9584386
9.216                0.946287742     -89.1119819
9.217                0.946154503     -89.2659308
9.218                0.946020927     -89.4202864
9.219                0.945887016     -89.5750497
9.22                 0.945752769     -89.7302219
9.221                0.945618187     -89.8858041
9.222                 0.94548327     -90.0417974
9.223                0.945348017     -90.1982028
9.224                0.945212429     -90.3550216
9.225                0.945076508     -90.5122547
9.226                0.944940251     -90.6699033
9.227                0.944803661     -90.8279684
9.228                0.944666737     -90.9864513
9.229                 0.94452948     -91.1453529
9.23                  0.94439189     -91.3046744
9.231                0.944253968     -91.4644169
9.232                0.944115713     -91.6245814
9.233                0.943977126     -91.7851691
9.234                0.943838208     -91.9461811
9.235                 0.94369896     -92.1076185
9.236                 0.94355938     -92.2694823
9.237                0.943419471     -92.4317736
9.238                0.943279233     -92.5944936
9.239                0.943138665     -92.7576434
9.24                 0.942997769      -92.921224
9.241                0.942856545     -93.0852365
9.242                0.942714994      -93.249682
9.243                0.942573117     -93.4145616
9.244                0.942430913     -93.5798765
9.245                0.942288384     -93.7456276
9.246                0.942145531     -93.9118161
9.247                0.942002353      -94.078443
9.248                0.941858852     -94.2455095
9.249                0.941715028     -94.4130166
9.25                 0.941570883     -94.5809654
9.251                0.941426416     -94.7493569
9.252                 0.94128163     -94.9181924
9.253                0.941136524     -95.0874727
9.254                0.940991099     -95.2571991
9.255                0.940845356     -95.4273725
9.256                0.940699297     -95.5979941
9.257                0.940552922     -95.7690649
9.258                0.940406232      -95.940586
9.259                0.940259228     -96.1125584
9.26                 0.940111911     -96.2849832
9.261                0.939964281     -96.4578615
9.262                0.939816341     -96.6311943
9.263                0.939668091     -96.8049826
9.264                0.939519532     -96.9792276
9.265                0.939370666     -97.1539303
9.266                0.939221492     -97.3290917
9.267                0.939072014     -97.5047128
9.268                0.938922231     -97.6807948
9.269                0.938772145     -97.8573386
9.27                 0.938621757     -98.0343453
9.271                0.938471069     -98.2118159
9.272                0.938320082     -98.3897514
9.273                0.938168797     -98.5681529
9.274                0.938017215     -98.7470214
9.275                0.937865338     -98.9263579
9.276                0.937713168     -99.1061634
9.277                0.937560705     -99.2864389
9.278                0.937407952     -99.4671855
9.279                0.937254909     -99.6484041
9.28                 0.937101578     -99.8300958
9.281                0.936947961     -100.012261
9.282                 0.93679406     -100.194902
9.283                0.936639875     -100.378019
9.284                0.936485409     -100.561613
9.285                0.936330664     -100.745684
9.286                 0.93617564     -100.930235
9.287                 0.93602034     -101.115266
9.288                0.935864766     -101.300777
9.289                0.935708919     -101.486771
9.29                 0.935552801     -101.673247
9.291                0.935396414     -101.860207
9.292                0.935239761     -102.047651
9.293                0.935082842     -102.235582
9.294                 0.93492566     -102.423999
9.295                0.934768216     -102.612903
9.296                0.934610514     -102.802296
9.297                0.934452555     -102.992178
9.298                 0.93429434     -103.182551
9.299                0.934135873     -103.373414
9.3                  0.933977155      -103.56477
9.301                0.933818189     -103.756619
9.302                0.933658976     -103.948961
9.303                 0.93349952     -104.141799
9.304                0.933339822     -104.335132
9.305                0.933179884     -104.528961
9.306                 0.93301971     -104.723288
9.307                0.932859301     -104.918113
9.308                 0.93269866     -105.113438
9.309                 0.93253779     -105.309262
9.31                 0.932376693     -105.505587
9.311                0.932215371     -105.702413
9.312                0.932053827     -105.899742
9.313                0.931892065     -106.097574
9.314                0.931730085      -106.29591
9.315                0.931567892     -106.494751
9.316                0.931405488     -106.694098
9.317                0.931242876     -106.893951
9.318                0.931080058     -107.094311
9.319                0.930917037     -107.295179
9.32                 0.930753817     -107.496556
9.321                0.930590401     -107.698442
9.322                 0.93042679     -107.900839
9.323                0.930262989     -108.103746
9.324                0.930099001     -108.307165
9.325                0.929934827     -108.511097
9.326                0.929770473     -108.715542
9.327                0.929605941       -108.9205
9.328                0.929441233     -109.125973
9.329                0.929276354     -109.331961
9.33                 0.929111307     -109.538465
9.331                0.928946094     -109.745486
9.332                 0.92878072     -109.953023
9.333                0.928615189     -110.161079
9.334                0.928449502     -110.369653
9.335                0.928283664     -110.578745
9.336                0.928117679     -110.788358
9.337                 0.92795155     -110.998491
9.338                0.927785281     -111.209144
9.339                0.927618875     -111.420319
9.34                 0.927452336     -111.632016
9.341                0.927285669     -111.844236
9.342                0.927118876     -112.056979
9.343                0.926951962     -112.270245
9.344                 0.92678493     -112.484035
9.345                0.926617785      -112.69835
9.346                0.926450531      -112.91319
9.347                0.926283171     -113.128556
9.348                 0.92611571     -113.344448
9.349                0.925948152     -113.560867
9.35                 0.925780501     -113.777812
9.351                0.925612761     -113.995285
9.352                0.925444937     -114.213286
9.353                0.925277033     -114.431815
9.354                0.925109053     -114.650873
9.355                0.924941001      -114.87046
9.356                0.924772883     -115.090576
9.357                0.924604702     -115.311222
9.358                0.924436464     -115.532398
9.359                0.924268172     -115.754105
9.36                 0.924099832     -115.976343
9.361                0.923931448     -116.199111
9.362                0.923763025     -116.422411
9.363                0.923594567     -116.646243
9.364                 0.92342608     -116.870607
9.365                0.923257568     -117.095502
9.366                0.923089037      -117.32093
9.367                 0.92292049     -117.546891
9.368                0.922751934     -117.773384
9.369                0.922583373     -118.000411
9.37                 0.922414813      -118.22797
9.371                0.922246258     -118.456063
9.372                0.922077714      -118.68469
9.373                0.921909186     -118.913849
9.374                0.921740679     -119.143543
9.375                0.921572199      -119.37377
9.376                0.921403751     -119.604531
9.377                 0.92123534     -119.835826
9.378                0.921066972     -120.067655
9.379                0.920898653     -120.300018
9.38                 0.920730387     -120.532914
9.381                0.920562182     -120.766345
9.382                0.920394041     -121.000309
9.383                0.920225972     -121.234807
9.384                0.920057979     -121.469839
9.385                0.919890069     -121.705405
9.386                0.919722247     -121.941504
9.387                 0.91955452     -122.178137
9.388                0.919386893     -122.415303
9.389                0.919219372     -122.653002
9.39                 0.919051964     -122.891234
9.391                0.918884673     -123.129999
9.392                0.918717508     -123.369296
9.393                0.918550472     -123.609126
9.394                0.918383574     -123.849487
9.395                0.918216819     -124.090381
9.396                0.918050213     -124.331806
