! TOUCHSTONE file generated by CST DESIGN STUDIO
! Date and time: Tue Feb  4 18:46:34 2025
! Project name: C:\Work\MatlabApps\UnitCellOptimizationMatlab\CST\unitcell.cst
! Tree item: Tasks\Sweep1\SPara1\S-Parameters
! Header version: 2024
! Port assignment regex: !\s*Touchstone port\s*([0-9]+)\s*=\s*(CST MWS port|CST DES external port|CST DES block port)\s*(.+)\s* \(\"(.*)\"\)(\s*mode\s*([0-9]+))?.*
! Touchstone port assignment:
! Touchstone port 1 = CST DES external port 1 ("")
# GHz S MA R 50
9                    0.963389052     -81.5379534
9.001                0.963292209     -81.6696283
9.002                0.963195074     -81.8016431
9.003                0.963097647      -81.933999
9.004                0.962999928     -82.0666968
9.005                0.962901917     -82.1997377
9.006                0.962803612     -82.3331226
9.007                0.962705013     -82.4668526
9.008                0.962606121     -82.6009286
9.009                0.962506933     -82.7353517
9.01                 0.962407451     -82.8701228
9.011                0.962307673     -83.0052431
9.012                0.962207599     -83.1407134
9.013                0.962107228     -83.2765349
9.014                0.962006561     -83.4127086
9.015                0.961905596     -83.5492354
9.016                0.961804333     -83.6861165
9.017                0.961702772     -83.8233528
9.018                0.961600913     -83.9609453
9.019                0.961498754     -84.0988952
9.02                 0.961396297     -84.2372033
9.021                0.961293539     -84.3758708
9.022                0.961190481     -84.5148987
9.023                0.961087122      -84.654288
9.024                0.960983463     -84.7940398
9.025                0.960879502     -84.9341551
9.026                0.960775239     -85.0746349
9.027                0.960670674     -85.2154803
9.028                0.960565807     -85.3566923
9.029                0.960460637     -85.4982719
9.03                 0.960355164     -85.6402203
9.031                0.960249388     -85.7825384
9.032                0.960143308     -85.9252273
9.033                0.960036924      -86.068288
9.034                0.959930235     -86.2117216
9.035                0.959823242     -86.3555292
9.036                0.959715945     -86.4997117
9.037                0.959608342     -86.6442703
9.038                0.959500433      -86.789206
9.039                0.959392219     -86.9345198
9.04                 0.959283699     -87.0802128
9.041                0.959174873      -87.226286
9.042                 0.95906574     -87.3727406
9.043                0.958956301     -87.5195775
9.044                0.958846555     -87.6667978
9.045                0.958736502     -87.8144027
9.046                0.958626142      -87.962393
9.047                0.958515475     -88.1107699
9.048                  0.9584045     -88.2595345
9.049                0.958293217     -88.4086878
9.05                 0.958181627     -88.5582309
9.051                0.958069729     -88.7081648
9.052                0.957957522     -88.8584906
9.053                0.957845008     -89.0092094
9.054                0.957732185     -89.1603222
9.055                0.957619054       -89.31183
9.056                0.957505614      -89.463734
9.057                0.957391866     -89.6160353
9.058                0.957277809     -89.7687347
9.059                0.957163444     -89.9218336
9.06                  0.95704877     -90.0753328
9.061                0.956933788     -90.2292335
9.062                0.956818497     -90.3835367
9.063                0.956702897     -90.5382435
9.064                0.956586989     -90.6933549
9.065                0.956470772     -90.8488721
9.066                0.956354246      -91.004796
9.067                0.956237413     -91.1611278
9.068                 0.95612027     -91.3178685
9.069                 0.95600282     -91.4750191
9.07                 0.955885061     -91.6325808
9.071                0.955766994     -91.7905546
9.072                0.955648619     -91.9489415
9.073                0.955529937     -92.1077426
9.074                0.955410947      -92.266959
9.075                0.955291649     -92.4265918
9.076                0.955172044     -92.5866419
9.077                0.955052132     -92.7471105
9.078                0.954931913     -92.9079986
9.079                0.954811387     -93.0693073
9.08                 0.954690556     -93.2310375
9.081                0.954569418     -93.3931905
9.082                0.954447974     -93.5557672
9.083                0.954326225     -93.7187687
9.084                 0.95420417      -93.882196
9.085                0.954081811     -94.0460501
9.086                0.953959147     -94.2103323
9.087                0.953836179     -94.3750434
9.088                0.953712907     -94.5401845
9.089                0.953589332     -94.7057567
9.09                 0.953465453     -94.8717611
9.091                0.953341273     -95.0381986
9.092                 0.95321679     -95.2050703
9.093                0.953092006     -95.3723772
9.094                 0.95296692     -95.5401204
9.095                0.952841534     -95.7083009
9.096                0.952715848     -95.8769198
9.097                0.952589862     -96.0459781
9.098                0.952463578     -96.2154768
9.099                0.952336995     -96.3854169
9.1                  0.952210114     -96.5557995
9.101                0.952082936     -96.7266255
9.102                0.951955461     -96.8978961
9.103                0.951827691     -97.0696122
9.104                0.951699626     -97.2417748
9.105                0.951571266     -97.4143851
9.106                0.951442612     -97.5874438
9.107                0.951313666     -97.7609522
9.108                0.951184427     -97.9349111
9.109                0.951054897     -98.1093217
9.11                 0.950925076     -98.2841848
9.111                0.950794965     -98.4595015
9.112                0.950664566     -98.6352728
9.113                0.950533878     -98.8114997
9.114                0.950402903     -98.9881831
9.115                0.950271642     -99.1653241
9.116                0.950140096     -99.3429236
9.117                0.950008265     -99.5209826
9.118                0.949876151      -99.699502
9.119                0.949743755      -99.878483
9.12                 0.949611078     -100.057926
9.121                 0.94947812     -100.237833
9.122                0.949344883     -100.418204
9.123                0.949211369     -100.599041
9.124                0.949077577     -100.780343
9.125                 0.94894351     -100.962113
9.126                0.948809168     -101.144351
9.127                0.948674552     -101.327058
9.128                0.948539665     -101.510235
9.129                0.948404507     -101.693883
9.13                  0.94826908     -101.878003
9.131                0.948133384     -102.062596
9.132                0.947997421     -102.247662
9.133                0.947861193     -102.433203
9.134                0.947724701      -102.61922
9.135                0.947587946     -102.805713
9.136                 0.94745093     -102.992683
9.137                0.947313654     -103.180131
9.138                 0.94717612     -103.368059
9.139                0.947038329     -103.556467
9.14                 0.946900284     -103.745355
9.141                0.946761984     -103.934725
9.142                0.946623433     -104.124578
9.143                0.946484631     -104.314914
9.144                0.946345581     -104.505735
9.145                0.946206284      -104.69704
9.146                0.946066742     -104.888832
9.147                0.945926956      -105.08111
9.148                0.945786929     -105.273876
9.149                0.945646662     -105.467131
9.15                 0.945506157     -105.660875
9.151                0.945365417     -105.855108
9.152                0.945224442     -106.049833
9.153                0.945083235     -106.245049
9.154                0.944941797     -106.440758
9.155                0.944800132      -106.63696
9.156                0.944658241     -106.833656
9.157                0.944516125     -107.030847
9.158                0.944373788     -107.228534
9.159                0.944231231     -107.426716
9.16                 0.944088456     -107.625396
9.161                0.943945466     -107.824573
9.162                0.943802263     -108.024249
9.163                0.943658849     -108.224424
9.164                0.943515227     -108.425099
9.165                0.943371398     -108.626274
9.166                0.943227365     -108.827951
9.167                0.943083131      -109.03013
9.168                0.942938698     -109.232811
9.169                0.942794069     -109.435996
9.17                 0.942649246     -109.639684
9.171                0.942504231     -109.843877
9.172                0.942359027     -110.048576
9.173                0.942213637      -110.25378
9.174                0.942068064     -110.459491
9.175                0.941922309     -110.665708
9.176                0.941776377     -110.872434
9.177                0.941630269     -111.079668
9.178                0.941483989      -111.28741
9.179                0.941337539     -111.495662
9.18                 0.941190922     -111.704424
9.181                0.941044141     -111.913697
9.182                0.940897199      -112.12348
9.183                0.940750099     -112.333775
9.184                0.940602844     -112.544583
9.185                0.940455437     -112.755902
9.186                0.940307881     -112.967735
9.187                 0.94016018     -113.180082
9.188                0.940012335     -113.392942
9.189                0.939864352     -113.606317
9.19                 0.939716233     -113.820208
9.191                 0.93956798     -114.034613
9.192                0.939419599     -114.249534
9.193                0.939271091     -114.464971
9.194                 0.93912246     -114.680925
9.195                0.938973711     -114.897396
9.196                0.938824845     -115.114385
9.197                0.938675867     -115.331891
9.198                0.938526781     -115.549915
9.199                0.938377589     -115.768458
9.2                  0.938228296     -115.987519
9.201                0.938078905     -116.207099
9.202                 0.93792942     -116.427199
9.203                0.937779845     -116.647818
9.204                0.937630183     -116.868958
9.205                0.937480439     -117.090617
9.206                0.937330616     -117.312797
9.207                0.937180718     -117.535497
9.208                0.937030749     -117.758718
9.209                0.936880713      -117.98246
9.21                 0.936730614     -118.206723
9.211                0.936580456     -118.431508
9.212                0.936430244     -118.656814
9.213                0.936279982     -118.882642
9.214                0.936129672     -119.108991
9.215                0.935979321     -119.335863
9.216                0.935828932     -119.563256
9.217                 0.93567851     -119.791171
9.218                0.935528059     -120.019609
9.219                0.935377583     -120.248568
9.22                 0.935227086      -120.47805
9.221                0.935076574     -120.708054
9.222                0.934926051      -120.93858
9.223                 0.93477552     -121.169628
9.224                0.934624988     -121.401198
9.225                0.934474459      -121.63329
9.226                0.934323937     -121.865904
9.227                0.934173426      -122.09904
9.228                0.934022933     -122.332698
9.229                0.933872461     -122.566878
9.23                 0.933722016     -122.801578
9.231                0.933571601     -123.036801
9.232                0.933421224     -123.272544
9.233                0.933270887     -123.508808
9.234                0.933120597     -123.745593
9.235                0.932970358     -123.982898
9.236                0.932820175     -124.220724
9.237                0.932670054     -124.459069
9.238                    0.93252     -124.697935
9.239                0.932370017     -124.937319
9.24                 0.932220112     -125.177223
9.241                0.932070289     -125.417645
9.242                0.931920554     -125.658585
9.243                0.931770912     -125.900044
9.244                0.931621369      -126.14202
9.245                 0.93147193     -126.384513
9.246                  0.9313226     -126.627522
9.247                0.931173385     -126.871048
9.248                0.931024291     -127.115089
9.249                0.930875323     -127.359646
9.25                 0.930726487     -127.604717
9.251                0.930577788     -127.850302
9.252                0.930429233     -128.096401
9.253                0.930280826     -128.343012
9.254                0.930132574     -128.590136
9.255                0.929984483     -128.837771
9.256                0.929836558     -129.085918
9.257                0.929688806     -129.334574
9.258                0.929541231     -129.583741
9.259                0.929393841     -129.833416
9.26                 0.929246641     -130.083599
9.261                0.929099638      -130.33429
9.262                0.928952836     -130.585487
9.263                0.928806244      -130.83719
9.264                0.928659865     -131.089398
9.265                0.928513708      -131.34211
9.266                0.928367777     -131.595325
9.267                0.928222079     -131.849042
9.268                0.928076621     -132.103261
9.269                0.927931409      -132.35798
9.27                 0.927786448     -132.613198
9.271                0.927641746     -132.868915
9.272                0.927497309      -133.12513
9.273                0.927353143      -133.38184
9.274                0.927209255     -133.639046
9.275                0.927065651     -133.896746
9.276                0.926922337      -134.15494
9.277                0.926779321     -134.413625
9.278                0.926636608     -134.672801
9.279                0.926494206     -134.932466
9.28                 0.926352121      -135.19262
9.281                 0.92621036     -135.453261
9.282                0.926068928     -135.714388
9.283                0.925927834     -135.975999
9.284                0.925787084     -136.238094
9.285                0.925646683      -136.50067
9.286                0.925506641     -136.763727
9.287                0.925366962     -137.027264
9.288                0.925227654     -137.291278
9.289                0.925088723     -137.555768
9.29                 0.924950177     -137.820733
9.291                0.924812023     -138.086172
9.292                0.924674267     -138.352082
9.293                0.924536916     -138.618463
9.294                0.924399977     -138.885312
9.295                0.924263457     -139.152629
9.296                0.924127364     -139.420411
9.297                0.923991703     -139.688657
9.298                0.923856483     -139.957365
9.299                0.923721709     -140.226534
9.3                   0.92358739     -140.496161
9.301                0.923453531     -140.766246
9.302                0.923320141     -141.036786
9.303                0.923187227     -141.307779
9.304                0.923054794     -141.579224
9.305                0.922922851     -141.851118
9.306                0.922791405     -142.123461
9.307                0.922660462      -142.39625
9.308                 0.92253003     -142.669482
9.309                0.922400116     -142.943157
9.31                 0.922270727     -143.217272
9.311                 0.92214187     -143.491825
9.312                0.922013553     -143.766814
9.313                0.921885782     -144.042238
9.314                0.921758564     -144.318093
9.315                0.921631908     -144.594377
9.316                0.921505819      -144.87109
9.317                0.921380306     -145.148228
9.318                0.921255374     -145.425789
9.319                0.921131032     -145.703772
9.32                 0.921007287     -145.982173
9.321                0.920884146     -146.260991
9.322                0.920761615     -146.540223
9.323                0.920639702     -146.819866
9.324                0.920518415      -147.09992
9.325                 0.92039776      -147.38038
9.326                0.920277744     -147.661246
9.327                0.920158375     -147.942513
9.328                0.920039659     -148.224181
9.329                0.919921605     -148.506246
9.33                 0.919804218     -148.788706
9.331                0.919687506     -149.071558
9.332                0.919571476     -149.354799
9.333                0.919456135     -149.638428
9.334                 0.91934149     -149.922442
9.335                0.919227548     -150.206837
9.336                0.919114317     -150.491612
9.337                0.919001802     -150.776763
9.338                0.918890012     -151.062287
9.339                0.918778952     -151.348183
9.34                 0.918668631     -151.634448
9.341                0.918559054     -151.921077
9.342                0.918450229     -152.208069
9.343                0.918342163     -152.495421
9.344                0.918234862      -152.78313
9.345                0.918128333     -153.071193
9.346                0.918022583     -153.359607
9.347                0.917917619     -153.648369
9.348                0.917813448     -153.937477
9.349                0.917710076     -154.226926
9.35                 0.917607509     -154.516715
9.351                0.917505755     -154.806839
9.352                 0.91740482     -155.097297
9.353                0.917304711     -155.388084
9.354                0.917205433     -155.679199
9.355                0.917106995     -155.970637
9.356                0.917009401     -156.262395
9.357                 0.91691266     -156.554471
9.358                0.916816776      -156.84686
9.359                0.916721756     -157.139561
9.36                 0.916627607     -157.432569
9.361                0.916534334     -157.725881
9.362                0.916441945     -158.019494
9.363                0.916350445     -158.313405
9.364                 0.91625984      -158.60761
9.365                0.916170136     -158.902106
9.366                 0.91608134     -159.196889
9.367                0.915993457     -159.491956
9.368                0.915906494     -159.787304
9.369                0.915820456     -160.082929
9.37                 0.915735349     -160.378828
9.371                0.915651178     -160.674997
9.372                0.915567951     -160.971432
9.373                0.915485671     -161.268131
9.374                0.915404345     -161.565089
9.375                0.915323979     -161.862303
9.376                0.915244577     -162.159769
9.377                0.915166146     -162.457484
9.378                0.915088691     -162.755444
9.379                0.915012216     -163.053645
9.38                 0.914936728     -163.352083
9.381                0.914862232     -163.650756
9.382                0.914788732     -163.949659
9.383                0.914716233     -164.248788
9.384                0.914644742     -164.548141
9.385                0.914574262     -164.847712
9.386                0.914504799     -165.147498
9.387                0.914436357     -165.447495
9.388                0.914368941       -165.7477
9.389                0.914302556     -166.048108
9.39                 0.914237206     -166.348717
9.391                0.914172897     -166.649521
9.392                0.914109631     -166.950517
9.393                0.914047415     -167.251701
9.394                0.913986251     -167.553069
9.395                0.913926145     -167.854618
9.396                0.913867101     -168.156343
