! TOUCHSTONE file generated by CST DESIGN STUDIO
! Date and time: Tue Feb  4 18:46:46 2025
! Project name: C:\Work\MatlabApps\UnitCellOptimizationMatlab\CST\unitcell.cst
! Tree item: Tasks\Sweep1\SPara1\S-Parameters
! Header version: 2024
! Port assignment regex: !\s*Touchstone port\s*([0-9]+)\s*=\s*(CST MWS port|CST DES external port|CST DES block port)\s*(.+)\s* \(\"(.*)\"\)(\s*mode\s*([0-9]+))?.*
! Touchstone port assignment:
! Touchstone port 1 = CST DES external port 1 ("")
# GHz S MA R 50
9                    0.968637577     -60.5097724
9.001                0.968572077     -60.5925259
9.002                0.968506376       -60.67547
9.003                0.968440473     -60.7586054
9.004                0.968374368     -60.8419328
9.005                0.968308059     -60.9254526
9.006                0.968241547     -61.0091655
9.007                 0.96817483     -61.0930722
9.008                0.968107908     -61.1771731
9.009                 0.96804078      -61.261469
9.01                 0.967973446     -61.3459604
9.011                0.967905904      -61.430648
9.012                0.967838155     -61.5155323
9.013                0.967770197     -61.6006141
9.014                0.967702029     -61.6858938
9.015                0.967633652     -61.7713721
9.016                0.967565065     -61.8570498
9.017                0.967496266     -61.9429273
9.018                0.967427256     -62.0290053
9.019                0.967358033     -62.1152844
9.02                 0.967288597     -62.2017654
9.021                0.967218946     -62.2884487
9.022                0.967149082     -62.3753351
9.023                0.967079002     -62.4624252
9.024                0.967008706     -62.5497196
9.025                0.966938194      -62.637219
9.026                0.966867464      -62.724924
9.027                0.966796516     -62.8128353
9.028                 0.96672535     -62.9009535
9.029                0.966653964     -62.9892793
9.03                 0.966582358     -63.0778133
9.031                0.966510531     -63.1665562
9.032                0.966438483     -63.2555086
9.033                0.966366213     -63.3446713
9.034                 0.96629372     -63.4340448
9.035                0.966221004     -63.5236299
9.036                0.966148063     -63.6134272
9.037                0.966074897     -63.7034374
9.038                0.966001506     -63.7936611
9.039                0.965927888     -63.8840991
9.04                 0.965854044      -63.974752
9.041                0.965779971     -64.0656204
9.042                 0.96570567     -64.1567052
9.043                 0.96563114     -64.2480069
9.044                 0.96555638     -64.3395262
9.045                 0.96548139     -64.4312639
9.046                0.965406168     -64.5232206
9.047                0.965330714      -64.615397
9.048                0.965255028     -64.7077938
9.049                0.965179108     -64.8004118
9.05                 0.965102954     -64.8932516
9.051                0.965026565     -64.9863139
9.052                 0.96494994     -65.0795994
9.053                0.964873079     -65.1731088
9.054                0.964795982     -65.2668429
9.055                0.964718646     -65.3608024
9.056                0.964641072     -65.4549879
9.057                0.964563259     -65.5494002
9.058                0.964485205       -65.64404
9.059                0.964406912     -65.7389081
9.06                 0.964328376     -65.8340051
9.061                0.964249599     -65.9293318
9.062                0.964170579     -66.0248889
9.063                0.964091315     -66.1206772
9.064                0.964011808     -66.2166973
9.065                0.963932055       -66.31295
9.066                0.963852056     -66.4094361
9.067                0.963771811     -66.5061563
9.068                0.963691318     -66.6031114
9.069                0.963610578      -66.700302
9.07                 0.963529589      -66.797729
9.071                0.963448351      -66.895393
9.072                0.963366862     -66.9932949
9.073                0.963285123     -67.0914354
9.074                0.963203132     -67.1898152
9.075                0.963120888     -67.2884352
9.076                0.963038392      -67.387296
9.077                0.962955642     -67.4863985
9.078                0.962872637     -67.5857433
9.079                0.962789377     -67.6853314
9.08                  0.96270586     -67.7851634
9.081                0.962622087     -67.8852402
9.082                0.962538057     -67.9855625
9.083                0.962453768      -68.086131
9.084                 0.96236922     -68.1869466
9.085                0.962284412     -68.2880101
9.086                0.962199344     -68.3893223
9.087                0.962114015     -68.4908838
9.088                0.962028424     -68.5926956
9.089                 0.96194257     -68.6947584
9.09                 0.961856452     -68.7970731
9.091                 0.96177007     -68.8996404
9.092                0.961683424     -69.0024611
9.093                0.961596511      -69.105536
9.094                0.961509332      -69.208866
9.095                0.961421886     -69.3124518
9.096                0.961334172     -69.4162943
9.097                 0.96124619     -69.5203942
9.098                0.961157938     -69.6247525
9.099                0.961069416     -69.7293699
9.1                  0.960980622     -69.8342472
9.101                0.960891558     -69.9393853
9.102                0.960802221      -70.044785
9.103                 0.96071261     -70.1504471
9.104                0.960622726     -70.2563724
9.105                0.960532568     -70.3625619
9.106                0.960442134     -70.4690162
9.107                0.960351423     -70.5757364
9.108                0.960260436     -70.6827232
9.109                0.960169172     -70.7899774
9.11                 0.960077629     -70.8974999
9.111                0.959985807     -71.0052916
9.112                0.959893705     -71.1133533
9.113                0.959801323     -71.2216859
9.114                 0.95970866     -71.3302902
9.115                0.959615714     -71.4391671
9.116                0.959522486     -71.5483175
9.117                0.959428975     -71.6577421
9.118                0.959335179      -71.767442
9.119                0.959241098     -71.8774179
9.12                 0.959146732     -71.9876707
9.121                0.959052079     -72.0982014
9.122                0.958957139     -72.2090107
9.123                0.958861911     -72.3200996
9.124                0.958766395      -72.431469
9.125                 0.95867059     -72.5431196
9.126                0.958574494     -72.6550525
9.127                0.958478108     -72.7672686
9.128                 0.95838143     -72.8797686
9.129                 0.95828446     -72.9925535
9.13                 0.958187198     -73.1056243
9.131                0.958089641     -73.2189817
9.132                0.957991791     -73.3326268
9.133                0.957893645     -73.4465604
9.134                0.957795204     -73.5607834
9.135                0.957696466     -73.6752967
9.136                0.957597431     -73.7901013
9.137                0.957498098     -73.9051981
9.138                0.957398467     -74.0205879
9.139                0.957298537     -74.1362718
9.14                 0.957198306     -74.2522506
9.141                0.957097775     -74.3685252
9.142                0.956996943     -74.4850967
9.143                0.956895808     -74.6019658
9.144                0.956794371     -74.7191336
9.145                 0.95669263      -74.836601
9.146                0.956590586      -74.954369
9.147                0.956488236     -75.0724384
9.148                0.956385582     -75.1908102
9.149                0.956282621     -75.3094853
9.15                 0.956179353     -75.4284648
9.151                0.956075778     -75.5477495
9.152                0.955971895     -75.6673405
9.153                0.955867702     -75.7872386
9.154                0.955763201     -75.9074448
9.155                0.955658389     -76.0279602
9.156                0.955553267     -76.1487855
9.157                0.955447834     -76.2699219
9.158                0.955342088     -76.3913703
9.159                0.955236029     -76.5131317
9.16                 0.955129658     -76.6352069
9.161                0.955022972     -76.7575971
9.162                0.954915972     -76.8803031
9.163                0.954808656     -77.0033261
9.164                0.954701025     -77.1266668
9.165                0.954593077     -77.2503264
9.166                0.954484813     -77.3743058
9.167                 0.95437623      -77.498606
9.168                0.954267329      -77.623228
9.169                 0.95415811     -77.7481728
9.17                 0.954048571     -77.8734413
9.171                0.953938712     -77.9990347
9.172                0.953828532     -78.1249539
9.173                0.953718031     -78.2511998
9.174                0.953607208     -78.3777735
9.175                0.953496062      -78.504676
9.176                0.953384594     -78.6319084
9.177                0.953272802     -78.7594716
9.178                0.953160687     -78.8873666
9.179                0.953048246     -79.0155944
9.18                  0.95293548     -79.1441562
9.181                0.952822389     -79.2730528
9.182                0.952708971     -79.4022853
9.183                0.952595227     -79.5318548
9.184                0.952481155     -79.6617623
9.185                0.952366756     -79.7920087
9.186                0.952252028     -79.9225952
9.187                0.952136971     -80.0535228
9.188                0.952021585     -80.1847924
9.189                0.951905869     -80.3164052
9.19                 0.951789823     -80.4483622
9.191                0.951673445     -80.5806644
9.192                0.951556737     -80.7133128
9.193                0.951439697     -80.8463086
9.194                0.951322325     -80.9796527
9.195                 0.95120462     -81.1133462
9.196                0.951086582     -81.2473902
9.197                 0.95096821     -81.3817857
9.198                0.950849505     -81.5165337
9.199                0.950730465     -81.6516354
9.2                  0.950611091     -81.7870918
9.201                0.950491381     -81.9229039
9.202                0.950371335     -82.0590728
9.203                0.950250954     -82.1955996
9.204                0.950130236     -82.3324853
9.205                0.950009182     -82.4697311
9.206                 0.94988779     -82.6073379
9.207                0.949766061     -82.7453068
9.208                0.949643994      -82.883639
9.209                 0.94952159     -83.0223355
9.21                 0.949398846     -83.1613974
9.211                0.949275764     -83.3008257
9.212                0.949152343     -83.4406215
9.213                0.949028582      -83.580786
9.214                0.948904482     -83.7213202
9.215                0.948780042     -83.8622251
9.216                0.948655261     -84.0035019
9.217                 0.94853014     -84.1451517
9.218                0.948404678     -84.2871755
9.219                0.948278876     -84.4295744
9.22                 0.948152732     -84.5723496
9.221                0.948026247     -84.7155021
9.222                 0.94789942      -84.859033
9.223                0.947772251     -85.0029435
9.224                 0.94764474     -85.1472345
9.225                0.947516887     -85.2919072
9.226                0.947388692     -85.4369628
9.227                0.947260154     -85.5824022
9.228                0.947131274     -85.7282267
9.229                0.947002051     -85.8744372
9.23                 0.946872485      -86.021035
9.231                0.946742576     -86.1680211
9.232                0.946612323     -86.3153967
9.233                0.946481728     -86.4631628
9.234                 0.94635079     -86.6113205
9.235                0.946219508     -86.7598709
9.236                0.946087883     -86.9088153
9.237                0.945955915     -87.0581546
9.238                0.945823604       -87.20789
9.239                0.945690949     -87.3580226
9.24                 0.945557951     -87.5085535
9.241                0.945424609     -87.6594838
9.242                0.945290925     -87.8108146
9.243                0.945156897     -87.9625472
9.244                0.945022526     -88.1146824
9.245                0.944887812     -88.2672216
9.246                0.944752755     -88.4201658
9.247                0.944617356     -88.5735161
9.248                0.944481614     -88.7272736
9.249                0.944345529     -88.8814395
9.25                 0.944209102     -89.0360148
9.251                0.944072333     -89.1910008
9.252                0.943935222     -89.3463984
9.253                 0.94379777     -89.5022089
9.254                0.943659975     -89.6584334
9.255                 0.94352184     -89.8150729
9.256                0.943383364     -89.9721286
9.257                0.943244547     -90.1296016
9.258                0.943105389      -90.287493
9.259                0.942965892     -90.4458039
9.26                 0.942826055     -90.6045356
9.261                0.942685878      -90.763689
9.262                0.942545363     -90.9232653
9.263                0.942404509     -91.0832656
9.264                0.942263317     -91.2436911
9.265                0.942121787     -91.4045428
9.266                0.941979919     -91.5658219
9.267                0.941837715     -91.7275294
9.268                0.941695175     -91.8896666
9.269                0.941552298     -92.0522345
9.27                 0.941409087     -92.2152342
9.271                 0.94126554     -92.3786669
9.272                 0.94112166     -92.5425336
9.273                0.940977446     -92.7068355
9.274                0.940832898     -92.8715737
9.275                0.940688019     -93.0367492
9.276                0.940542808     -93.2023633
9.277                0.940397266      -93.368417
9.278                0.940251393     -93.5349113
9.279                0.940105191     -93.7018475
9.28                  0.93995866     -93.8692267
9.281                0.939811801     -94.0370498
9.282                0.939664614     -94.2053181
9.283                0.939517101     -94.3740326
9.284                0.939369262     -94.5431944
9.285                0.939221099     -94.7128046
9.286                0.939072611     -94.8828644
9.287                0.938923801     -95.0533748
9.288                0.938774668     -95.2243368
9.289                0.938625215     -95.3957517
9.29                 0.938475441     -95.5676204
9.291                0.938325348     -95.7399441
9.292                0.938174937     -95.9127239
9.293                0.938024208     -96.0859607
9.294                0.937873164     -96.2596558
9.295                0.937721805     -96.4338101
9.296                0.937570132     -96.6084248
9.297                0.937418146      -96.783501
9.298                0.937265849     -96.9590396
9.299                0.937113242     -97.1350417
9.3                  0.936960326     -97.3115085
9.301                0.936807102      -97.488441
9.302                0.936653572     -97.6658402
9.303                0.936499736     -97.8437072
9.304                0.936345597      -98.022043
9.305                0.936191156     -98.2008487
9.306                0.936036414     -98.3801254
9.307                0.935881372      -98.559874
9.308                0.935726032     -98.7400957
9.309                0.935570395     -98.9207914
9.31                 0.935414464     -99.1019621
9.311                0.935258239      -99.283609
9.312                0.935101722      -99.465733
9.313                0.934944915     -99.6483351
9.314                 0.93478782     -99.8314164
9.315                0.934630437     -100.014978
9.316                 0.93447277     -100.199021
9.317                0.934314819     -100.383545
9.318                0.934156586     -100.568553
9.319                0.933998073     -100.754045
9.32                 0.933839283     -100.940023
9.321                0.933680216     -101.126486
9.322                0.933520875     -101.313437
9.323                0.933361262     -101.500876
9.324                0.933201378     -101.688803
9.325                0.933041226     -101.877221
9.326                0.932880808      -102.06613
9.327                0.932720125      -102.25553
9.328                0.932559181     -102.445424
9.329                0.932397976     -102.635811
9.33                 0.932236514     -102.826694
9.331                0.932074796     -103.018071
9.332                0.931912826     -103.209946
9.333                0.931750604     -103.402318
9.334                0.931588133     -103.595188
9.335                0.931425416     -103.788558
9.336                0.931262455     -103.982428
9.337                0.931099253       -104.1768
9.338                0.930935812     -104.371673
9.339                0.930772134     -104.567049
9.34                 0.930608222     -104.762929
9.341                0.930444079     -104.959314
9.342                0.930279707     -105.156204
9.343                0.930115109     -105.353601
9.344                0.929950288     -105.551505
9.345                0.929785246     -105.749916
9.346                0.929619987     -105.948837
9.347                0.929454512     -106.148268
9.348                0.929288825     -106.348209
9.349                0.929122929     -106.548661
9.35                 0.928956827     -106.749626
9.351                0.928790521     -106.951103
9.352                0.928624015     -107.153094
9.353                0.928457312       -107.3556
9.354                0.928290415     -107.558621
9.355                0.928123326     -107.762157
9.356                 0.92795605     -107.966211
9.357                 0.92778859     -108.170782
9.358                0.927620948     -108.375871
9.359                0.927453127      -108.58148
9.36                 0.927285133     -108.787608
9.361                0.927116967     -108.994256
9.362                0.926948633     -109.201425
9.363                0.926780135     -109.409116
9.364                0.926611477      -109.61733
9.365                0.926442661     -109.826066
9.366                0.926273691     -110.035327
9.367                0.926104572     -110.245111
9.368                0.925935306     -110.455421
9.369                0.925765898     -110.666256
9.37                 0.925596351     -110.877618
9.371                0.925426669     -111.089506
9.372                0.925256857     -111.301922
9.373                0.925086917     -111.514865
9.374                0.924916854     -111.728337
9.375                0.924746673     -111.942339
9.376                0.924576376      -112.15687
9.377                0.924405968     -112.371931
9.378                0.924235454     -112.587523
9.379                0.924064838     -112.803646
9.38                 0.923894123     -113.020301
9.381                0.923723314     -113.237488
9.382                0.923552415     -113.455207
9.383                0.923381431      -113.67346
9.384                0.923210367     -113.892246
9.385                0.923039226     -114.111566
9.386                0.922868014     -114.331421
9.387                0.922696734      -114.55181
9.388                0.922525392     -114.772735
9.389                0.922353991     -114.994195
9.39                 0.922182538     -115.216191
9.391                0.922011036     -115.438723
9.392                0.921839491     -115.661792
9.393                0.921667907     -115.885398
9.394                0.921496289     -116.109541
9.395                0.921324642     -116.334222
9.396                0.921152972      -116.55944
