! TOUCHSTONE file generated by CST DESIGN STUDIO
! Date and time: Tue Feb  4 18:20:24 2025
! Project name: C:\Work\MatlabApps\UnitCellOptimizationMatlab\CST\unitcell.cst
! Tree item: Tasks\Sweep1\SPara1\S-Parameters
! Header version: 2024
! Port assignment regex: !\s*Touchstone port\s*([0-9]+)\s*=\s*(CST MWS port|CST DES external port|CST DES block port)\s*(.+)\s* \(\"(.*)\"\)(\s*mode\s*([0-9]+))?.*
! Touchstone port assignment:
! Touchstone port 1 = CST DES external port 1 ("")
# GHz S MA R 50
9                     0.97053773     -58.5233945
9.001                0.970478871     -58.6022308
9.002                0.970419832     -58.6812454
9.003                0.970360613     -58.7604387
9.004                0.970301214     -58.8398114
9.005                0.970241633     -58.9193639
9.006                0.970181871      -58.999097
9.007                0.970121926      -59.079011
9.008                0.970061798     -59.1591066
9.009                0.970001487     -59.2393844
9.01                 0.969940991     -59.3198449
9.011                0.969880311     -59.4004887
9.012                0.969819445     -59.4813164
9.013                0.969758393     -59.5623285
9.014                0.969697155     -59.6435257
9.015                 0.96963573     -59.7249085
9.016                0.969574116     -59.8064774
9.017                0.969512315     -59.8882331
9.018                0.969450324     -59.9701762
9.019                0.969388144     -60.0523072
9.02                 0.969325774     -60.1346267
9.021                0.969263213     -60.2171354
9.022                 0.96920046     -60.2998338
9.023                0.969137516     -60.3827225
9.024                0.969074379     -60.4658021
9.025                0.969011049     -60.5490732
9.026                0.968947525     -60.6325364
9.027                0.968883806     -60.7161924
9.028                0.968819893     -60.8000416
9.029                0.968755784     -60.8840848
9.03                 0.968691478     -60.9683226
9.031                0.968626976     -61.0527555
9.032                0.968562276     -61.1373842
9.033                0.968497378     -61.2222092
9.034                0.968432281     -61.3072313
9.035                0.968366984      -61.392451
9.036                0.968301488     -61.4778689
9.037                0.968235791     -61.5634857
9.038                0.968169893      -61.649302
9.039                0.968103792     -61.7353185
9.04                 0.968037489     -61.8215357
9.041                0.967970983     -61.9079543
9.042                0.967904273      -61.994575
9.043                0.967837359     -62.0813983
9.044                0.967770239     -62.1684249
9.045                0.967702914     -62.2556555
9.046                0.967635382     -62.3430907
9.047                0.967567643     -62.4307312
9.048                0.967499697     -62.5185775
9.049                0.967431542     -62.6066304
9.05                 0.967363178     -62.6948905
9.051                0.967294605     -62.7833584
9.052                0.967225821     -62.8720349
9.053                0.967156826     -62.9609206
9.054                 0.96708762     -63.0500161
9.055                0.967018201     -63.1393221
9.056                 0.96694857     -63.2288392
9.057                0.966878725     -63.3185682
9.058                0.966808666     -63.4085098
9.059                0.966738392     -63.4986645
9.06                 0.966667902     -63.5890331
9.061                0.966597196     -63.6796162
9.062                0.966526273     -63.7704146
9.063                0.966455133     -63.8614288
9.064                0.966383775     -63.9526597
9.065                0.966312197     -64.0441078
9.066                0.966240401     -64.1357739
9.067                0.966168384     -64.2276587
9.068                0.966096146     -64.3197628
9.069                0.966023686      -64.412087
9.07                 0.965951005      -64.504632
9.071                  0.9658781     -64.5973984
9.072                0.965804972     -64.6903869
9.073                 0.96573162     -64.7835983
9.074                0.965658043     -64.8770333
9.075                 0.96558424     -64.9706926
9.076                0.965510211     -65.0645769
9.077                0.965435955      -65.158687
9.078                0.965361472     -65.2530234
9.079                 0.96528676      -65.347587
9.08                 0.965211819     -65.4423785
9.081                0.965136649     -65.5373986
9.082                0.965061248      -65.632648
9.083                0.964985617     -65.7281275
9.084                0.964909753     -65.8238378
9.085                0.964833657     -65.9197796
9.086                0.964757329     -66.0159537
9.087                0.964680766     -66.1123608
9.088                0.964603969     -66.2090016
9.089                0.964526937     -66.3058769
9.09                 0.964449669     -66.4029875
9.091                0.964372164     -66.5003341
9.092                0.964294423     -66.5979174
9.093                0.964216443     -66.6957382
9.094                0.964138225     -66.7937972
9.095                0.964059767     -66.8920953
9.096                 0.96398107     -66.9906332
9.097                0.963902132     -67.0894116
9.098                0.963822953     -67.1884313
9.099                0.963743531     -67.2876931
9.1                  0.963663867     -67.3871977
9.101                 0.96358396     -67.4869459
9.102                0.963503808     -67.5869386
9.103                0.963423412     -67.6871764
9.104                 0.96334277     -67.7876602
9.105                0.963261882     -67.8883907
9.106                0.963180747     -67.9893688
9.107                0.963099364     -68.0905951
9.108                0.963017733     -68.1920706
9.109                0.962935853      -68.293796
9.11                 0.962853724     -68.3957721
9.111                0.962771344     -68.4979997
9.112                0.962688713     -68.6004796
9.113                 0.96260583     -68.7032126
9.114                0.962522695     -68.8061995
9.115                0.962439307     -68.9094411
9.116                0.962355664     -69.0129383
9.117                0.962271768     -69.1166918
9.118                0.962187616     -69.2207024
9.119                0.962103208     -69.3249711
9.12                 0.962018543     -69.4294986
9.121                0.961933621     -69.5342856
9.122                0.961848441     -69.6393332
9.123                0.961763003      -69.744642
9.124                0.961677304     -69.8502129
9.125                0.961591346     -69.9560468
9.126                0.961505127     -70.0621445
9.127                0.961418647     -70.1685068
9.128                0.961331904     -70.2751346
9.129                0.961244899     -70.3820287
9.13                 0.961157629     -70.4891899
9.131                0.961070096     -70.5966191
9.132                0.960982298     -70.7043173
9.133                0.960894234     -70.8122851
9.134                0.960805903     -70.9205235
9.135                0.960717306     -71.0290333
9.136                0.960628441     -71.1378155
9.137                0.960539308     -71.2468707
9.138                0.960449905     -71.3562001
9.139                0.960360233     -71.4658043
9.14                  0.96027029     -71.5756843
9.141                0.960180076     -71.6858409
9.142                0.960089591      -71.796275
9.143                0.959998833     -71.9069876
9.144                0.959907801     -72.0179794
9.145                0.959816496     -72.1292515
9.146                0.959724916     -72.2408045
9.147                0.959633062     -72.3526395
9.148                0.959540931     -72.4647574
9.149                0.959448524      -72.577159
9.15                 0.959355839     -72.6898452
9.151                0.959262877      -72.802817
9.152                0.959169636     -72.9160752
9.153                0.959076116     -73.0296207
9.154                0.958982316     -73.1434545
9.155                0.958888235     -73.2575775
9.156                0.958793874     -73.3719905
9.157                 0.95869923     -73.4866946
9.158                0.958604304     -73.6016905
9.159                0.958509095     -73.7169793
9.16                 0.958413602     -73.8325618
9.161                0.958317824      -73.948439
9.162                0.958221762     -74.0646118
9.163                0.958125413     -74.1810812
9.164                0.958028778      -74.297848
9.165                0.957931856     -74.4149132
9.166                0.957834647     -74.5322778
9.167                0.957737149     -74.6499426
9.168                0.957639362     -74.7679087
9.169                0.957541286      -74.886177
9.17                 0.957442919     -75.0047484
9.171                0.957344262     -75.1236238
9.172                0.957245313     -75.2428043
9.173                0.957146072     -75.3622908
9.174                0.957046539     -75.4820842
9.175                0.956946712     -75.6021855
9.176                0.956846591     -75.7225956
9.177                0.956746175     -75.8433156
9.178                0.956645465     -75.9643464
9.179                0.956544459      -76.085689
9.18                 0.956443156     -76.2073443
9.181                0.956341557     -76.3293133
9.182                 0.95623966      -76.451597
9.183                0.956137465     -76.5741964
9.184                0.956034971     -76.6971124
9.185                0.955932179     -76.8203461
9.186                0.955829086     -76.9438984
9.187                0.955725693     -77.0677703
9.188                0.955621999     -77.1919628
9.189                0.955518003     -77.3164769
9.19                 0.955413706     -77.4413137
9.191                0.955309105      -77.566474
9.192                0.955204202     -77.6919589
9.193                0.955098995     -77.8177694
9.194                0.954993484     -77.9439065
9.195                0.954887667     -78.0703712
9.196                0.954781546     -78.1971646
9.197                0.954675119     -78.3242875
9.198                0.954568385     -78.4517412
9.199                0.954461345     -78.5795265
9.2                  0.954353997     -78.7076445
9.201                0.954246341     -78.8360962
9.202                0.954138377     -78.9648826
9.203                0.954030104     -79.0940048
9.204                0.953921522     -79.2234637
9.205                 0.95381263     -79.3532605
9.206                0.953703427     -79.4833961
9.207                0.953593914     -79.6138716
9.208                0.953484089      -79.744688
9.209                0.953373953     -79.8758464
9.21                 0.953263505     -80.0073478
9.211                0.953152744     -80.1391932
9.212                 0.95304167     -80.2713837
9.213                0.952930282     -80.4039203
9.214                0.952818581     -80.5368041
9.215                0.952706565     -80.6700361
9.216                0.952594235     -80.8036175
9.217                 0.95248159     -80.9375491
9.218                0.952368629     -81.0718322
9.219                0.952255352     -81.2064676
9.22                 0.952141758     -81.3414566
9.221                0.952027849     -81.4768002
9.222                0.951913622     -81.6124994
9.223                0.951799077     -81.7485554
9.224                0.951684215     -81.8849691
9.225                0.951569035     -82.0217416
9.226                0.951453537     -82.1588741
9.227                0.951337719     -82.2963675
9.228                0.951221583      -82.434223
9.229                0.951105127     -82.5724416
9.23                 0.950988352     -82.7110245
9.231                0.950871257     -82.8499726
9.232                0.950753841     -82.9892872
9.233                0.950636105     -83.1289692
9.234                0.950518048     -83.2690197
9.235                 0.95039967     -83.4094399
9.236                0.950280971     -83.5502308
9.237                 0.95016195     -83.6913935
9.238                0.950042607     -83.8329291
9.239                0.949922943     -83.9748387
9.24                 0.949802956     -84.1171235
9.241                0.949682647     -84.2597843
9.242                0.949562016     -84.4028225
9.243                0.949441061     -84.5462391
9.244                0.949319784     -84.6900351
9.245                0.949198184     -84.8342117
9.246                 0.94907626       -84.97877
9.247                0.948954013     -85.1237111
9.248                0.948831443     -85.2690361
9.249                0.948708549      -85.414746
9.25                 0.948585332     -85.5608421
9.251                 0.94846179     -85.7073254
9.252                0.948337925      -85.854197
9.253                0.948213736     -86.0014581
9.254                0.948089224     -86.1491096
9.255                0.947964387     -86.2971529
9.256                0.947839226     -86.4455889
9.257                0.947713741     -86.5944188
9.258                0.947587932     -86.7436437
9.259                0.947461799     -86.8932647
9.26                 0.947335343     -87.0432829
9.261                0.947208562     -87.1936995
9.262                0.947081457     -87.3445156
9.263                0.946954029     -87.4957322
9.264                0.946826277     -87.6473506
9.265                0.946698201     -87.7993717
9.266                0.946569802     -87.9517968
9.267                0.946441079      -88.104627
9.268                0.946312033     -88.2578634
9.269                0.946182664     -88.4115071
9.27                 0.946052972     -88.5655592
9.271                0.945922957     -88.7200208
9.272                 0.94579262     -88.8748932
9.273                0.945661961     -89.0301773
9.274                0.945530979     -89.1858744
9.275                0.945399676     -89.3419855
9.276                 0.94526805     -89.4985118
9.277                0.945136104     -89.6554544
9.278                0.945003837     -89.8128144
9.279                0.944871249      -89.970593
9.28                  0.94473834     -90.1287912
9.281                0.944605112     -90.2874102
9.282                0.944471563     -90.4464512
9.283                0.944337696     -90.6059152
9.284                 0.94420351     -90.7658033
9.285                0.944069005     -90.9261167
9.286                0.943934182     -91.0868566
9.287                0.943799042     -91.2480239
9.288                0.943663585       -91.40962
9.289                0.943527811     -91.5716458
9.29                  0.94339172     -91.7341025
9.291                0.943255315     -91.8969912
9.292                0.943118594      -92.060313
9.293                0.942981559     -92.2240691
9.294                 0.94284421     -92.3882606
9.295                0.942706548     -92.5528885
9.296                0.942568573      -92.717954
9.297                0.942430286     -92.8834583
9.298                0.942291688     -93.0494024
9.299                 0.94215278     -93.2157874
9.3                  0.942013561     -93.3826145
9.301                0.941874033     -93.5498847
9.302                0.941734197     -93.7175992
9.303                0.941594054     -93.8857591
9.304                0.941453603     -94.0543655
9.305                0.941312847     -94.2234195
9.306                0.941171785     -94.3929221
9.307                0.941030419     -94.5628745
9.308                 0.94088875     -94.7332779
9.309                0.940746778     -94.9041332
9.31                 0.940604505     -95.0754416
9.311                0.940461931     -95.2472041
9.312                0.940319058      -95.419422
9.313                0.940175886     -95.5920962
9.314                0.940032416     -95.7652278
9.315                 0.93988865     -95.9388179
9.316                0.939744589     -96.1128677
9.317                0.939600233     -96.2873781
9.318                0.939455584     -96.4623504
9.319                0.939310644     -96.6377854
9.32                 0.939165412     -96.8136844
9.321                0.939019891     -96.9900483
9.322                0.938874081     -97.1668783
9.323                0.938727985     -97.3441755
9.324                0.938581602     -97.5219407
9.325                0.938434936     -97.7001753
9.326                0.938287986     -97.8788801
9.327                0.938140754     -98.0580562
9.328                0.937993242     -98.2377047
9.329                0.937845451     -98.4178267
9.33                 0.937697383     -98.5984231
9.331                0.937549038      -98.779495
9.332                0.937400419     -98.9610435
9.333                0.937251528     -99.1430695
9.334                0.937102365     -99.3255741
9.335                0.936952932     -99.5085584
9.336                0.936803231     -99.6920233
9.337                0.936653264     -99.8759698
9.338                0.936503032     -100.060399
9.339                0.936352537     -100.245312
9.34                 0.936201781     -100.430709
9.341                0.936050766     -100.616593
9.342                0.935899493     -100.802962
9.343                0.935747964      -100.98982
9.344                0.935596181     -101.177166
9.345                0.935444146     -101.365002
9.346                0.935291862     -101.553328
9.347                0.935139329     -101.742146
9.348                 0.93498655     -101.931456
9.349                0.934833527      -102.12126
9.35                 0.934680263     -102.311558
9.351                0.934526758     -102.502351
9.352                0.934373017     -102.693641
9.353                0.934219039     -102.885428
9.354                0.934064828     -103.077713
9.355                0.933910387     -103.270497
9.356                0.933755717     -103.463781
9.357                 0.93360082     -103.657566
9.358                0.933445699     -103.851853
9.359                0.933290357     -104.046643
9.36                 0.933134796     -104.241936
9.361                0.932979018     -104.437733
9.362                0.932823026     -104.634036
9.363                0.932666822     -104.830845
9.364                0.932510409     -105.028162
9.365                0.932353789     -105.225986
9.366                0.932196966     -105.424318
9.367                0.932039942     -105.623161
9.368                0.931882719     -105.822514
9.369                  0.9317253     -106.022378
9.37                 0.931567689     -106.222754
9.371                0.931409888     -106.423643
9.372                  0.9312519     -106.625046
9.373                0.931093727     -106.826963
9.374                0.930935373     -107.029395
9.375                0.930776841     -107.232344
9.376                0.930618134     -107.435809
9.377                0.930459255     -107.639792
9.378                0.930300207     -107.844293
9.379                0.930140993     -108.049313
9.38                 0.929981616     -108.254853
9.381                 0.92982208     -108.460914
9.382                0.929662387     -108.667495
9.383                0.929502542     -108.874599
9.384                0.929342548     -109.082225
9.385                0.929182407     -109.290374
9.386                0.929022124     -109.499048
9.387                0.928861702     -109.708246
9.388                0.928701144     -109.917969
9.389                0.928540455     -110.128218
9.39                 0.928379637     -110.338994
9.391                0.928218694     -110.550296
9.392                 0.92805763     -110.762127
9.393                0.927896449     -110.974486
9.394                0.927735155     -111.187374
9.395                 0.92757375     -111.400791
9.396                 0.92741224     -111.614738
