! TOUCHSTONE file generated by CST DESIGN STUDIO
! Date and time: Tue Feb  4 18:20:28 2025
! Project name: C:\Work\MatlabApps\UnitCellOptimizationMatlab\CST\unitcell.cst
! Tree item: Tasks\Sweep1\SPara1\S-Parameters
! Header version: 2024
! Port assignment regex: !\s*Touchstone port\s*([0-9]+)\s*=\s*(CST MWS port|CST DES external port|CST DES block port)\s*(.+)\s* \(\"(.*)\"\)(\s*mode\s*([0-9]+))?.*
! Touchstone port assignment:
! Touchstone port 1 = CST DES external port 1 ("")
# GHz S MA R 50
9                    0.971909921     -52.5812818
9.001                0.971859983     -52.6494225
9.002                0.971809894      -52.717709
9.003                0.971759654     -52.7861419
9.004                0.971709262     -52.8547215
9.005                0.971658717     -52.9234484
9.006                0.971608019     -52.9923229
9.007                0.971557168     -53.0613456
9.008                0.971506163     -53.1305169
9.009                0.971455003     -53.1998373
9.01                 0.971403688     -53.2693071
9.011                0.971352218     -53.3389269
9.012                0.971300592     -53.4086972
9.013                 0.97124881     -53.4786183
9.014                 0.97119687     -53.5486908
9.015                0.971144773     -53.6189152
9.016                0.971092517     -53.6892918
9.017                0.971040104     -53.7598213
9.018                0.970987531     -53.8305039
9.019                0.970934798     -53.9013403
9.02                 0.970881905     -53.9723309
9.021                0.970828852     -54.0434761
9.022                0.970775637     -54.1147765
9.023                0.970722261     -54.1862325
9.024                0.970668723     -54.2578447
9.025                0.970615021     -54.3296134
9.026                0.970561157     -54.4015393
9.027                0.970507128     -54.4736227
9.028                0.970452935     -54.5458641
9.029                0.970398577     -54.6182642
9.03                 0.970344054     -54.6908232
9.031                0.970289365     -54.7635419
9.032                0.970234509     -54.8364205
9.033                0.970179486     -54.9094597
9.034                0.970124295       -54.98266
9.035                0.970068937     -55.0560217
9.036                0.970013409     -55.1295456
9.037                0.969957712      -55.203232
9.038                0.969901845     -55.2770814
9.039                0.969845808     -55.3510944
9.04                   0.9697896     -55.4252715
9.041                0.969733221     -55.4996132
9.042                0.969676669       -55.57412
9.043                0.969619944     -55.6487924
9.044                0.969563047      -55.723631
9.045                0.969505976     -55.7986362
9.046                 0.96944873     -55.8738087
9.047                0.969391309     -55.9491488
9.048                0.969333713     -56.0246572
9.049                0.969275941     -56.1003343
9.05                 0.969217992     -56.1761808
9.051                0.969159866      -56.252197
9.052                0.969101562     -56.3283837
9.053                 0.96904308     -56.4047412
9.054                0.968984419     -56.4812702
9.055                0.968925578     -56.5579711
9.056                0.968866557     -56.6348446
9.057                0.968807355     -56.7118911
9.058                0.968747972     -56.7891113
9.059                0.968688408     -56.8665056
9.06                  0.96862866     -56.9440745
9.061                 0.96856873     -57.0218188
9.062                0.968508616     -57.0997388
9.063                0.968448317     -57.1778353
9.064                0.968387834     -57.2561086
9.065                0.968327165     -57.3345594
9.066                0.968266311     -57.4131883
9.067                0.968205269     -57.4919957
9.068                0.968144041     -57.5709824
9.069                0.968082624     -57.6501487
9.07                 0.968021019     -57.7294954
9.071                0.967959224      -57.809023
9.072                 0.96789724      -57.888732
9.073                0.967835066      -57.968623
9.074                0.967772701     -58.0486966
9.075                0.967710144     -58.1289534
9.076                0.967647395      -58.209394
9.077                0.967584453     -58.2900189
9.078                0.967521317     -58.3708288
9.079                0.967457988     -58.4518242
9.08                 0.967394464     -58.5330057
9.081                0.967330744     -58.6143739
9.082                0.967266829     -58.6959294
9.083                0.967202717     -58.7776727
9.084                0.967138408     -58.8596046
9.085                0.967073901     -58.9417256
9.086                0.967009195     -59.0240363
9.087                 0.96694429     -59.1065372
9.088                0.966879186     -59.1892291
9.089                0.966813881     -59.2721125
9.09                 0.966748375      -59.355188
9.091                0.966682668     -59.4384563
9.092                0.966616758     -59.5219179
9.093                0.966550645     -59.6055735
9.094                0.966484328     -59.6894237
9.095                0.966417807     -59.7734691
9.096                0.966351082     -59.8577103
9.097                 0.96628415      -59.942148
9.098                0.966217013     -60.0267828
9.099                0.966149668     -60.1116154
9.1                  0.966082116     -60.1966463
9.101                0.966014356     -60.2818761
9.102                0.965946387     -60.3673057
9.103                0.965878208     -60.4529354
9.104                0.965809819     -60.5387661
9.105                0.965741219     -60.6247984
9.106                0.965672408     -60.7110329
9.107                0.965603384     -60.7974702
9.108                0.965534147      -60.884111
9.109                0.965464697      -60.970956
9.11                 0.965395033     -61.0580058
9.111                0.965325154     -61.1452611
9.112                0.965255059     -61.2327225
9.113                0.965184748     -61.3203907
9.114                 0.96511422     -61.4082664
9.115                0.965043474     -61.4963502
9.116                 0.96497251     -61.5846427
9.117                0.964901328     -61.6731448
9.118                0.964829925      -61.761857
9.119                0.964758302       -61.85078
9.12                 0.964686458     -61.9399146
9.121                0.964614392     -62.0292613
9.122                0.964542104     -62.1188208
9.123                0.964469593     -62.2085939
9.124                0.964396858     -62.2985813
9.125                0.964323898     -62.3887836
9.126                0.964250713     -62.4792015
9.127                0.964177303     -62.5698357
9.128                0.964103665      -62.660687
9.129                0.964029801      -62.751756
9.13                 0.963955708     -62.8430434
9.131                0.963881387     -62.9345499
9.132                0.963806836     -63.0262762
9.133                0.963732055     -63.1182231
9.134                0.963657044     -63.2103913
9.135                0.963581801     -63.3027814
9.136                0.963506325     -63.3953942
9.137                0.963430617     -63.4882304
9.138                0.963354675     -63.5812908
9.139                0.963278499      -63.674576
9.14                 0.963202087     -63.7680868
9.141                 0.96312544     -63.8618239
9.142                0.963048556      -63.955788
9.143                0.962971436       -64.04998
9.144                0.962894077     -64.1444004
9.145                0.962816479     -64.2390501
9.146                0.962738643     -64.3339299
9.147                0.962660566     -64.4290403
9.148                0.962582248     -64.5243823
9.149                0.962503689     -64.6199565
9.15                 0.962424887     -64.7157636
9.151                0.962345843     -64.8118046
9.152                0.962266555       -64.90808
9.153                0.962187022     -65.0045907
9.154                0.962107245     -65.1013375
9.155                0.962027221      -65.198321
9.156                0.961946951     -65.2955421
9.157                0.961866433     -65.3930016
9.158                0.961785668     -65.4907001
9.159                0.961704654     -65.5886386
9.16                  0.96162339     -65.6868176
9.161                0.961541876     -65.7852382
9.162                0.961460111     -65.8839009
9.163                0.961378094     -65.9828067
9.164                0.961295825     -66.0819563
9.165                0.961213303     -66.1813504
9.166                0.961130527     -66.2809899
9.167                0.961047496     -66.3808757
9.168                 0.96096421     -66.4810084
9.169                0.960880668     -66.5813888
9.17                 0.960796869     -66.6820179
9.171                0.960712812     -66.7828963
9.172                0.960628497      -66.884025
9.173                0.960543923     -66.9854047
9.174                0.960459089     -67.0870361
9.175                0.960373995     -67.1889203
9.176                 0.96028864     -67.2910579
9.177                0.960203022     -67.3934498
9.178                0.960117142     -67.4960968
9.179                0.960030999     -67.5989997
9.18                 0.959944591     -67.7021594
9.181                0.959857918     -67.8055767
9.182                 0.95977098     -67.9092525
9.183                0.959683775     -68.0131875
9.184                0.959596303     -68.1173827
9.185                0.959508564     -68.2218388
9.186                0.959420555     -68.3265567
9.187                0.959332278     -68.4315373
9.188                 0.95924373     -68.5367814
9.189                0.959154912     -68.6422899
9.19                 0.959065822     -68.7480636
9.191                0.958976459     -68.8541034
9.192                0.958886824     -68.9604101
9.193                0.958796915     -69.0669847
9.194                0.958706731     -69.1738279
9.195                0.958616273     -69.2809407
9.196                0.958525538     -69.3883239
9.197                0.958434526     -69.4959784
9.198                0.958343238     -69.6039051
9.199                0.958251671     -69.7121048
9.2                  0.958159825     -69.8205785
9.201                  0.9580677     -69.9293271
9.202                0.957975294     -70.0383514
9.203                0.957882607     -70.1476523
9.204                0.957789639     -70.2572307
9.205                0.957696388     -70.3670875
9.206                0.957602854     -70.4772236
9.207                0.957509036       -70.58764
9.208                0.957414933     -70.6983374
9.209                0.957320545      -70.809317
9.21                 0.957225871     -70.9205794
9.211                 0.95713091     -71.0321257
9.212                0.957035661     -71.1439568
9.213                0.956940124     -71.2560736
9.214                0.956844298      -71.368477
9.215                0.956748183      -71.481168
9.216                0.956651777     -71.5941474
9.217                 0.95655508     -71.7074162
9.218                0.956458091     -71.8209754
9.219                 0.95636081     -71.9348258
9.22                 0.956263236     -72.0489685
9.221                0.956165367     -72.1634043
9.222                0.956067204     -72.2781342
9.223                0.955968746     -72.3931592
9.224                0.955869992     -72.5084802
9.225                0.955770941     -72.6240981
9.226                0.955671592     -72.7400139
9.227                0.955571946     -72.8562286
9.228                0.955472001     -72.9727431
9.229                0.955371756     -73.0895584
9.23                 0.955271211     -73.2066754
9.231                0.955170365     -73.3240952
9.232                0.955069218     -73.4418186
9.233                0.954967769     -73.5598468
9.234                0.954866017     -73.6781806
9.235                0.954763961      -73.796821
9.236                0.954661601      -73.915769
9.237                0.954558937     -74.0350256
9.238                0.954455967     -74.1545918
9.239                 0.95435269     -74.2744686
9.24                 0.954249107     -74.3946569
9.241                0.954145217     -74.5151578
9.242                0.954041018     -74.6359722
9.243                0.953936511     -74.7571012
9.244                0.953831694     -74.8785458
9.245                0.953726567     -75.0003069
9.246                 0.95362113     -75.1223856
9.247                0.953515381     -75.2447829
9.248                0.953409321     -75.3674999
9.249                0.953302947     -75.4905374
9.25                 0.953196261     -75.6138966
9.251                0.953089261     -75.7375784
9.252                0.952981947     -75.8615839
9.253                0.952874317     -75.9859142
9.254                0.952766372     -76.1105701
9.255                0.952658111     -76.2355529
9.256                0.952549533     -76.3608635
9.257                0.952440638     -76.4865029
9.258                0.952331425     -76.6124722
9.259                0.952221893     -76.7387724
9.26                 0.952112042     -76.8654046
9.261                0.952001872     -76.9923699
9.262                0.951891381     -77.1196692
9.263                 0.95178057     -77.2473036
9.264                0.951669437     -77.3752742
9.265                0.951557983      -77.503582
9.266                0.951446206     -77.6322282
9.267                0.951334106     -77.7612137
9.268                0.951221682     -77.8905396
9.269                0.951108935      -78.020207
9.27                 0.950995863      -78.150217
9.271                0.950882466     -78.2805706
9.272                0.950768744     -78.4112689
9.273                0.950654695      -78.542313
9.274                 0.95054032      -78.673704
9.275                0.950425618     -78.8054429
9.276                0.950310588     -78.9375308
9.277                0.950195231     -79.0699688
9.278                0.950079545     -79.2027581
9.279                 0.94996353     -79.3358996
9.28                 0.949847186     -79.4693945
9.281                0.949730512     -79.6032439
9.282                0.949613508     -79.7374489
9.283                0.949496174     -79.8720105
9.284                0.949378508     -80.0069299
9.285                0.949260511     -80.1422082
9.286                0.949142181     -80.2778465
9.287                 0.94902352     -80.4138459
9.288                0.948904526     -80.5502074
9.289                0.948785199     -80.6869323
9.29                 0.948665538     -80.8240217
9.291                0.948545544     -80.9614765
9.292                0.948425215     -81.0992981
9.293                0.948304552     -81.2374874
9.294                0.948183554     -81.3760456
9.295                0.948062221     -81.5149739
9.296                0.947940553     -81.6542733
9.297                0.947818548      -81.793945
9.298                0.947696208     -81.9339901
9.299                0.947573531     -82.0744098
9.3                  0.947450518     -82.2152051
9.301                0.947327167     -82.3563773
9.302                 0.94720348     -82.4979274
9.303                0.947079455     -82.6398566
9.304                0.946955092      -82.782166
9.305                0.946830391     -82.9248569
9.306                0.946705353     -83.0679302
9.307                0.946579975     -83.2113872
9.308                 0.94645426      -83.355229
9.309                0.946328205     -83.4994568
9.31                 0.946201812     -83.6440717
9.311                 0.94607508     -83.7890749
9.312                0.945948008     -83.9344674
9.313                0.945820597     -84.0802506
9.314                0.945692847     -84.2264255
9.315                0.945564756     -84.3729933
9.316                0.945436327     -84.5199551
9.317                0.945307557     -84.6673121
9.318                0.945178448     -84.8150656
9.319                0.945048998     -84.9632165
9.32                 0.944919209     -85.1117662
9.321                 0.94478908     -85.2607157
9.322                 0.94465861     -85.4100662
9.323                0.944527801      -85.559819
9.324                0.944396651     -85.7099751
9.325                0.944265161     -85.8605358
9.326                0.944133332     -86.0115022
9.327                0.944001162     -86.1628754
9.328                0.943868653     -86.3146568
9.329                0.943735803     -86.4668473
9.33                 0.943602614     -86.6194483
9.331                0.943469086     -86.7724608
9.332                0.943335217     -86.9258862
9.333                 0.94320101     -87.0797254
9.334                0.943066463     -87.2339798
9.335                0.942931577     -87.3886505
9.336                0.942796353     -87.5437387
9.337                0.942660789     -87.6992455
9.338                0.942524887     -87.8551721
9.339                0.942388647     -88.0115198
9.34                 0.942252069     -88.1682897
9.341                0.942115153     -88.3254829
9.342                  0.9419779     -88.4831008
9.343                 0.94184031     -88.6411443
9.344                0.941702383     -88.7996149
9.345                0.941564119     -88.9585135
9.346                 0.94142552     -89.1178414
9.347                0.941286584     -89.2775998
9.348                0.941147314     -89.4377899
9.349                0.941007708     -89.5984128
9.35                 0.940867768     -89.7594698
9.351                0.940727494     -89.9209619
9.352                0.940586886     -90.0828905
9.353                0.940445946     -90.2452566
9.354                0.940304672     -90.4080616
9.355                0.940163067     -90.5713064
9.356                 0.94002113     -90.7349924
9.357                0.939878863     -90.8991207
9.358                0.939736265     -91.0636925
9.359                0.939593337      -91.228709
9.36                  0.93945008     -91.3941713
9.361                0.939306495     -91.5600806
9.362                0.939162582     -91.7264382
9.363                0.939018343     -91.8932451
9.364                0.938873777     -92.0605026
9.365                0.938728885     -92.2282118
9.366                0.938583669      -92.396374
9.367                0.938438128     -92.5649902
9.368                0.938292265     -92.7340617
9.369                0.938146079     -92.9035896
9.37                 0.937999572     -93.0735751
9.371                0.937852744     -93.2440193
9.372                0.937705597     -93.4149235
9.373                0.937558131     -93.5862888
9.374                0.937410347     -93.7581164
9.375                0.937262246     -93.9304074
9.376                 0.93711383     -94.1031629
9.377                0.936965099     -94.2763842
9.378                0.936816054     -94.4500724
9.379                0.936666697     -94.6242287
9.38                 0.936517029     -94.7988541
9.381                 0.93636705     -94.9739499
9.382                0.936216762     -95.1495172
9.383                0.936066166     -95.3255571
9.384                0.935915264     -95.5020709
9.385                0.935764056     -95.6790595
9.386                0.935612544     -95.8565243
9.387                0.935460729     -96.0344662
9.388                0.935308613     -96.2128865
9.389                0.935156197     -96.3917862
9.39                 0.935003482     -96.5711666
9.391                0.934850469     -96.7510286
9.392                0.934697161     -96.9313735
9.393                0.934543559     -97.1122024
9.394                0.934389663     -97.2935163
9.395                0.934235477     -97.4753164
9.396                0.934081001     -97.6576038
