! TOUCHSTONE file generated by CST DESIGN STUDIO
! Date and time: Tue Feb  4 18:20:18 2025
! Project name: C:\Work\MatlabApps\UnitCellOptimizationMatlab\CST\unitcell.cst
! Tree item: Tasks\Sweep1\SPara1\S-Parameters
! Header version: 2024
! Port assignment regex: !\s*Touchstone port\s*([0-9]+)\s*=\s*(CST MWS port|CST DES external port|CST DES block port)\s*(.+)\s* \(\"(.*)\"\)(\s*mode\s*([0-9]+))?.*
! Touchstone port assignment:
! Touchstone port 1 = CST DES external port 1 ("")
# GHz S MA R 50
9                    0.968063353     -70.3782943
9.001                0.967987605     -70.4821574
9.002                0.967911625      -70.586275
9.003                0.967835411     -70.6906481
9.004                0.967758962     -70.7952773
9.005                0.967682279     -70.9001635
9.006                 0.96760536     -71.0053075
9.007                0.967528204     -71.1107101
9.008                0.967450812      -71.216372
9.009                0.967373183     -71.3222941
9.01                 0.967295315     -71.4284773
9.011                0.967217208     -71.5349222
9.012                0.967138862     -71.6416298
9.013                0.967060276     -71.7486008
9.014                0.966981448      -71.855836
9.015                 0.96690238     -71.9633364
9.016                 0.96682307     -72.0711027
9.017                0.966743516     -72.1791357
9.018                 0.96666372     -72.2874362
9.019                0.966583679     -72.3960052
9.02                 0.966503394     -72.5048434
9.021                0.966422864     -72.6139516
9.022                0.966342088     -72.7233308
9.023                0.966261065     -72.8329817
9.024                0.966179795     -72.9429052
9.025                0.966098278     -73.0531021
9.026                0.966016512     -73.1635733
9.027                0.965934497     -73.2743196
9.028                0.965852232     -73.3853419
9.029                0.965769717      -73.496641
9.03                 0.965686951     -73.6082178
9.031                0.965603933     -73.7200732
9.032                0.965520663     -73.8322079
9.033                0.965437141      -73.944623
9.034                0.965353365     -74.0573192
9.035                0.965269335     -74.1702974
9.036                 0.96518505     -74.2835585
9.037                0.965100509     -74.3971033
9.038                0.965015713     -74.5109328
9.039                0.964930661     -74.6250477
9.04                 0.964845351     -74.7394491
9.041                0.964759783     -74.8541377
9.042                0.964673957     -74.9691145
9.043                0.964587872     -75.0843803
9.044                0.964501527      -75.199936
9.045                0.964414922     -75.3157826
9.046                0.964328056     -75.4319208
9.047                0.964240929     -75.5483517
9.048                0.964153539     -75.6650761
9.049                0.964065887     -75.7820949
9.05                 0.963977972      -75.899409
9.051                0.963889793     -76.0170194
9.052                0.963801349     -76.1349268
9.053                 0.96371264     -76.2531323
9.054                0.963623666     -76.3716368
9.055                0.963534425      -76.490441
9.056                0.963444918     -76.6095461
9.057                0.963355143     -76.7289529
9.058                  0.9632651     -76.8486623
9.059                0.963174789     -76.9686752
9.06                 0.963084209     -77.0889926
9.061                0.962993359     -77.2096154
9.062                0.962902238     -77.3305445
9.063                0.962810847     -77.4517808
9.064                0.962719185     -77.5733254
9.065                 0.96262725      -77.695179
9.066                0.962535043     -77.8173427
9.067                0.962442563     -77.9398175
9.068                0.962349809     -78.0626041
9.069                0.962256781     -78.1857037
9.07                 0.962163479     -78.3091171
9.071                0.962069901     -78.4328453
9.072                0.961976047     -78.5568892
9.073                0.961881917     -78.6812498
9.074                 0.96178751      -78.805928
9.075                0.961692826     -78.9309249
9.076                0.961597864     -79.0562413
9.077                0.961502623     -79.1818782
9.078                0.961407104     -79.3078366
9.079                0.961311305     -79.4341175
9.08                 0.961215226     -79.5607218
9.081                0.961118867     -79.6876504
9.082                0.961022227     -79.8149045
9.083                0.960925305     -79.9424848
9.084                0.960828101     -80.0703925
9.085                0.960730615     -80.1986284
9.086                0.960632846     -80.3271936
9.087                0.960534794     -80.4560891
9.088                0.960436458     -80.5853158
9.089                0.960337838     -80.7148747
9.09                 0.960238932     -80.8447668
9.091                0.960139742      -80.974993
9.092                0.960040266     -81.1055545
9.093                0.959940504     -81.2364521
9.094                0.959840455     -81.3676869
9.095                0.959740119     -81.4992599
9.096                0.959639496      -81.631172
9.097                0.959538585     -81.7634243
9.098                0.959437386     -81.8960177
9.099                0.959335898     -82.0289533
9.1                  0.959234121      -82.162232
9.101                0.959132055     -82.2958549
9.102                0.959029699      -82.429823
9.103                0.958927052     -82.5641373
9.104                0.958824115     -82.6987988
9.105                0.958720887     -82.8338085
9.106                0.958617368     -82.9691675
9.107                0.958513557     -83.1048766
9.108                0.958409453     -83.2409371
9.109                0.958305058     -83.3773498
9.11                 0.958200369     -83.5141158
9.111                0.958095388     -83.6512362
9.112                0.957990113     -83.7887118
9.113                0.957884544     -83.9265439
9.114                0.957778682     -84.0647334
9.115                0.957672525     -84.2032812
9.116                0.957566073     -84.3421886
9.117                0.957459327     -84.4814564
9.118                0.957352285     -84.6210857
9.119                0.957244948     -84.7610776
9.12                 0.957137315     -84.9014331
9.121                0.957029386     -85.0421532
9.122                0.956921161     -85.1832389
9.123                0.956812639     -85.3246914
9.124                0.956703821     -85.4665115
9.125                0.956594706     -85.6087005
9.126                0.956485293     -85.7512592
9.127                0.956375584     -85.8941888
9.128                0.956265577     -86.0374904
9.129                0.956155272     -86.1811648
9.13                 0.956044669     -86.3252133
9.131                0.955933768     -86.4696368
9.132                0.955822569     -86.6144363
9.133                0.955711072      -86.759613
9.134                0.955599276     -86.9051679
9.135                0.955487182      -87.051102
9.136                0.955374789     -87.1974164
9.137                0.955262097     -87.3441121
9.138                0.955149106     -87.4911903
9.139                0.955035817     -87.6386518
9.14                 0.954922228     -87.7864978
9.141                 0.95480834     -87.9347294
9.142                0.954694153     -88.0833476
9.143                0.954579667     -88.2323535
9.144                0.954464881      -88.381748
9.145                0.954349797     -88.5315323
9.146                0.954234413     -88.6817075
9.147                 0.95411873     -88.8322745
9.148                0.954002747     -88.9832345
9.149                0.953886466     -89.1345884
9.15                 0.953769885     -89.2863374
9.151                0.953653006     -89.4384825
9.152                0.953535827     -89.5910248
9.153                 0.95341835     -89.7439654
9.154                0.953300573     -89.8973052
9.155                0.953182498     -90.0510453
9.156                0.953064125     -90.2051869
9.157                0.952945453     -90.3597309
9.158                0.952826482     -90.5146785
9.159                0.952707214     -90.6700306
9.16                 0.952587648     -90.8257883
9.161                0.952467784     -90.9819528
9.162                0.952347622      -91.138525
9.163                0.952227163     -91.2955061
9.164                0.952106407     -91.4528969
9.165                0.951985354     -91.6106988
9.166                0.951864005     -91.7689126
9.167                0.951742359     -91.9275394
9.168                0.951620418     -92.0865804
9.169                0.951498181     -92.2460365
9.17                 0.951375648     -92.4059088
9.171                0.951252821     -92.5661983
9.172                0.951129699     -92.7269062
9.173                0.951006282     -92.8880334
9.174                0.950882572      -93.049581
9.175                0.950758568     -93.2115501
9.176                0.950634272     -93.3739417
9.177                0.950509683     -93.5367569
9.178                0.950384801     -93.6999966
9.179                0.950259629      -93.863662
9.18                 0.950134165     -94.0277541
9.181                 0.95000841      -94.192274
9.182                0.949882365     -94.3572226
9.183                0.949756031     -94.5226011
9.184                0.949629408     -94.6884104
9.185                0.949502497     -94.8546516
9.186                0.949375298     -95.0213257
9.187                0.949247811     -95.1884338
9.188                0.949120039     -95.3559769
9.189                 0.94899198     -95.5239561
9.19                 0.948863636     -95.6923723
9.191                0.948735008     -95.8612265
9.192                0.948606096     -96.0305199
9.193                0.948476902     -96.2002534
9.194                0.948347425     -96.3704281
9.195                0.948217667      -96.541045
9.196                0.948087628      -96.712105
9.197                0.947957309     -96.8836092
9.198                0.947826712     -97.0555587
9.199                0.947695836     -97.2279544
9.2                  0.947564683     -97.4007973
9.201                0.947433255     -97.5740884
9.202                 0.94730155     -97.7478288
9.203                0.947169572     -97.9220194
9.204                 0.94703732     -98.0966612
9.205                0.946904796     -98.2717553
9.206                   0.946772     -98.4473026
9.207                0.946638935      -98.623304
9.208                  0.9465056     -98.7997607
9.209                0.946371997     -98.9766735
9.21                 0.946238127     -99.1540434
9.211                0.946103991     -99.3318715
9.212                 0.94596959     -99.5101586
9.213                0.945834926     -99.6889058
9.214                     0.9457      -99.868114
9.215                0.945564813     -100.047784
9.216                0.945429366     -100.227917
9.217                0.945293661     -100.408514
9.218                0.945157698     -100.589576
9.219                 0.94502148     -100.771104
9.22                 0.944885007     -100.953098
9.221                0.944748282      -101.13556
9.222                0.944611305      -101.31849
9.223                0.944474077      -101.50189
9.224                0.944336601      -101.68576
9.225                0.944198878     -101.870102
9.226                 0.94406091     -102.054916
9.227                0.943922697     -102.240203
9.228                0.943784242     -102.425964
9.229                0.943645546       -102.6122
9.23                 0.943506611     -102.798912
9.231                0.943367438     -102.986101
9.232                0.943228029     -103.173767
9.233                0.943088387     -103.361912
9.234                0.942948512     -103.550536
9.235                0.942808406      -103.73964
9.236                0.942668072     -103.929225
9.237                0.942527511     -104.119292
9.238                0.942386724     -104.309842
9.239                0.942245715     -104.500876
9.24                 0.942104485     -104.692394
9.241                0.941963035     -104.884397
9.242                0.941821368     -105.076887
9.243                0.941679486     -105.269863
9.244                0.941537391     -105.463327
9.245                0.941395085      -105.65728
9.246                 0.94125257     -105.851722
9.247                0.941109848     -106.046654
9.248                0.940966922     -106.242077
9.249                0.940823793     -106.437991
9.25                 0.940680465     -106.634398
9.251                0.940536938     -106.831298
9.252                0.940393216     -107.028692
9.253                0.940249301     -107.226581
9.254                0.940105196     -107.424965
9.255                0.939960902     -107.623846
9.256                0.939816422     -107.823223
9.257                0.939671758     -108.023098
9.258                0.939526914     -108.223471
9.259                0.939381892     -108.424343
9.26                 0.939236694     -108.625714
9.261                0.939091322     -108.827586
9.262                0.938945781     -109.029959
9.263                0.938800071     -109.232834
9.264                0.938654197     -109.436211
9.265                 0.93850816     -109.640091
9.266                0.938361964     -109.844474
9.267                0.938215612     -110.049362
9.268                0.938069105     -110.254755
9.269                0.937922448     -110.460653
9.27                 0.937775643     -110.667057
9.271                0.937628693     -110.873967
9.272                0.937481601     -111.081385
9.273                 0.93733437     -111.289311
9.274                0.937187004     -111.497745
9.275                0.937039505     -111.706687
9.276                0.936891876     -111.916139
9.277                0.936744122     -112.126102
9.278                0.936596244     -112.336574
9.279                0.936448246     -112.547557
9.28                 0.936300133     -112.759052
9.281                0.936151906     -112.971059
9.282                0.936003569     -113.183578
9.283                0.935855126      -113.39661
9.284                0.935706581     -113.610155
9.285                0.935557936     -113.824214
9.286                0.935409195     -114.038787
9.287                0.935260362     -114.253874
9.288                0.935111441     -114.469476
9.289                0.934962435     -114.685594
9.29                 0.934813348     -114.902227
9.291                0.934664183     -115.119377
9.292                0.934514945     -115.337042
9.293                0.934365637     -115.555225
9.294                0.934216263     -115.773924
9.295                0.934066827     -115.993141
9.296                0.933917333     -116.212875
9.297                0.933767785     -116.433127
9.298                0.933618186     -116.653898
9.299                0.933468542     -116.875187
9.3                  0.933318855     -117.096994
9.301                0.933169131      -117.31932
9.302                0.933019373     -117.542166
9.303                0.932869586      -117.76553
9.304                0.932719774     -117.989414
9.305                 0.93256994     -118.213818
9.306                 0.93242009     -118.438742
9.307                0.932270228     -118.664185
9.308                0.932120359     -118.890148
9.309                0.931970485     -119.116632
9.31                 0.931820614     -119.343636
9.311                0.931670747      -119.57116
9.312                0.931520892     -119.799204
9.313                0.931371051     -120.027769
9.314                 0.93122123     -120.256854
9.315                0.931071433     -120.486459
9.316                0.930921665     -120.716585
9.317                0.930771931     -120.947232
9.318                0.930622235     -121.178398
9.319                0.930472583     -121.410085
9.32                  0.93032298     -121.642293
9.321                 0.93017343      -121.87502
9.322                0.930023938     -122.108267
9.323                0.929874509     -122.342034
9.324                0.929725149     -122.576321
9.325                0.929575862     -122.811128
9.326                0.929426654     -123.046454
9.327                 0.92927753     -123.282299
9.328                0.929128495     -123.518663
9.329                0.928979554     -123.755546
9.33                 0.928830713     -123.992947
9.331                0.928681976     -124.230867
9.332                 0.92853335     -124.469304
9.333                 0.92838484     -124.708259
9.334                 0.92823645     -124.947731
9.335                0.928088188     -125.187721
9.336                0.927940057     -125.428227
9.337                0.927792064     -125.669249
9.338                0.927644215     -125.910786
9.339                0.927496514      -126.15284
9.34                 0.927348968     -126.395408
9.341                0.927201582      -126.63849
9.342                0.927054363     -126.882087
9.343                0.926907315     -127.126197
9.344                0.926760445     -127.370819
9.345                0.926613758     -127.615955
9.346                0.926467261     -127.861601
9.347                0.926320959      -128.10776
9.348                0.926174859     -128.354428
9.349                0.926028966     -128.601607
9.35                 0.925883286     -128.849295
9.351                0.925737826     -129.097492
9.352                0.925592591     -129.346196
9.353                0.925447587     -129.595408
9.354                0.925302822     -129.845126
9.355                0.925158301      -130.09535
9.356                 0.92501403     -130.346079
9.357                0.924870015     -130.597312
9.358                0.924726263     -130.849048
9.359                 0.92458278     -131.101286
9.36                 0.924439573     -131.354026
9.361                0.924296648     -131.607267
9.362                0.924154011     -131.861007
9.363                0.924011669     -132.115247
9.364                0.923869628     -132.369984
9.365                0.923727894     -132.625217
9.366                0.923586475     -132.880947
9.367                0.923445377     -133.137171
9.368                0.923304606     -133.393889
9.369                 0.92316417       -133.6511
9.37                 0.923024074     -133.908802
9.371                0.922884325     -134.166995
9.372                0.922744931     -134.425676
9.373                0.922605897     -134.684846
9.374                0.922467231     -134.944503
9.375                0.922328939     -135.204645
9.376                0.922191028     -135.465271
9.377                0.922053505     -135.726381
9.378                0.921916376     -135.987972
9.379                 0.92177965     -136.250043
9.38                 0.921643332     -136.512594
9.381                0.921507429     -136.775622
9.382                0.921371948     -137.039127
9.383                0.921236897     -137.303106
9.384                0.921102282     -137.567559
9.385                 0.92096811     -137.832483
9.386                0.920834388     -138.097878
9.387                0.920701124     -138.363742
9.388                0.920568323     -138.630073
9.389                0.920435994      -138.89687
9.39                 0.920304143     -139.164131
9.391                0.920172777     -139.431855
9.392                0.920041904     -139.700039
9.393                0.919911531     -139.968682
9.394                0.919781663     -140.237783
9.395                 0.91965231      -140.50734
9.396                0.919523478      -140.77735
