! TOUCHSTONE file generated by CST DESIGN STUDIO
! Date and time: Tue Feb  4 18:20:14 2025
! Project name: C:\Work\MatlabApps\UnitCellOptimizationMatlab\CST\unitcell.cst
! Tree item: Tasks\Sweep1\SPara1\S-Parameters
! Header version: 2024
! Port assignment regex: !\s*Touchstone port\s*([0-9]+)\s*=\s*(CST MWS port|CST DES external port|CST DES block port)\s*(.+)\s* \(\"(.*)\"\)(\s*mode\s*([0-9]+))?.*
! Touchstone port assignment:
! Touchstone port 1 = CST DES external port 1 ("")
# GHz S MA R 50
9                      0.9670312     -76.0292876
9.001                0.966948313     -76.1465753
9.002                0.966865173     -76.2641584
9.003                0.966781779     -76.3820377
9.004                0.966698129     -76.5002142
9.005                0.966614225     -76.6186888
9.006                0.966530064     -76.7374623
9.007                0.966445647     -76.8565357
9.008                0.966360973     -76.9759099
9.009                0.966276041     -77.0955859
9.01                 0.966190851     -77.2155644
9.011                0.966105402     -77.3358465
9.012                0.966019694     -77.4564331
9.013                0.965933726      -77.577325
9.014                0.965847497     -77.6985233
9.015                0.965761008     -77.8200288
9.016                0.965674257     -77.9418424
9.017                0.965587243     -78.0639652
9.018                0.965499967      -78.186398
9.019                0.965412428     -78.3091417
9.02                 0.965324625     -78.4321974
9.021                0.965236557     -78.5555659
9.022                0.965148225     -78.6792482
9.023                0.965059627     -78.8032452
9.024                0.964970764     -78.9275579
9.025                0.964881634     -79.0521872
9.026                0.964792236      -79.177134
9.027                0.964702572     -79.3023994
9.028                0.964612639     -79.4279843
9.029                0.964522438     -79.5538896
9.03                 0.964431968     -79.6801163
9.031                0.964341228     -79.8066653
9.032                0.964250218     -79.9335377
9.033                0.964158938     -80.0607343
9.034                0.964067386     -80.1882561
9.035                0.963975563     -80.3161042
9.036                0.963883468     -80.4442794
9.037                0.963791101     -80.5727828
9.038                 0.96369846     -80.7016153
9.039                0.963605546     -80.8307779
9.04                 0.963512358     -80.9602716
9.041                0.963418896     -81.0900973
9.042                0.963325158      -81.220256
9.043                0.963231146     -81.3507488
9.044                0.963136857     -81.4815765
9.045                0.963042293     -81.6127402
9.046                0.962947451     -81.7442409
9.047                0.962852333     -81.8760795
9.048                0.962756937     -82.0082571
9.049                0.962661263     -82.1407747
9.05                 0.962565311     -82.2736331
9.051                 0.96246908     -82.4068335
9.052                 0.96237257     -82.5403768
9.053                 0.96227578     -82.6742641
9.054                 0.96217871     -82.8084962
9.055                 0.96208136     -82.9430743
9.056                0.961983729     -83.0779993
9.057                0.961885817     -83.2132723
9.058                0.961787623     -83.3488942
9.059                0.961689148      -83.484866
9.06                  0.96159039     -83.6211889
9.061                0.961491349     -83.7578636
9.062                0.961392026     -83.8948914
9.063                0.961292419     -84.0322732
9.064                0.961192529       -84.17001
9.065                0.961092354     -84.3081028
9.066                0.960991896     -84.4465527
9.067                0.960891152     -84.5853606
9.068                0.960790124     -84.7245276
9.069                0.960688811     -84.8640548
9.07                 0.960587212     -85.0039431
9.071                0.960485327     -85.1441935
9.072                0.960383157     -85.2848071
9.073                0.960280699     -85.4257849
9.074                0.960177956      -85.567128
9.075                0.960074925     -85.7088374
9.076                0.959971608      -85.850914
9.077                0.959868003      -85.993359
9.078                 0.95976411     -86.1361733
9.079                 0.95965993     -86.2793581
9.08                 0.959555462     -86.4229142
9.081                0.959450705     -86.5668429
9.082                 0.95934566      -86.711145
9.083                0.959240327     -86.8558217
9.084                0.959134705     -87.0008739
9.085                0.959028794     -87.1463028
9.086                0.958922593     -87.2921093
9.087                0.958816104     -87.4382945
9.088                0.958709325     -87.5848595
9.089                0.958602257     -87.7318052
9.09                 0.958494899     -87.8791327
9.091                0.958387252     -88.0268431
9.092                0.958279314     -88.1749374
9.093                0.958171087     -88.3234167
9.094                 0.95806257     -88.4722819
9.095                0.957953763     -88.6215342
9.096                0.957844665     -88.7711746
9.097                0.957735278     -88.9212041
9.098                  0.9576256     -89.0716237
9.099                0.957515632     -89.2224346
9.1                  0.957405374     -89.3736378
9.101                0.957294826     -89.5252343
9.102                0.957183988     -89.6772251
9.103                0.957072859     -89.8296113
9.104                 0.95696144      -89.982394
9.105                0.956849731     -90.1355742
9.106                0.956737733     -90.2891529
9.107                0.956625444     -90.4431313
9.108                0.956512865     -90.5975103
9.109                0.956399997     -90.7522909
9.11                 0.956286839     -90.9074743
9.111                0.956173391     -91.0630615
9.112                0.956059654     -91.2190535
9.113                0.955945628     -91.3754514
9.114                0.955831312     -91.5322562
9.115                0.955716708      -91.689469
9.116                0.955601815     -91.8470908
9.117                0.955486634     -92.0051226
9.118                0.955371164     -92.1635656
9.119                0.955255406     -92.3224207
9.12                 0.955139361     -92.4816889
9.121                0.955023028     -92.6413714
9.122                0.954906407     -92.8014692
9.123                  0.9547895     -92.9619833
9.124                0.954672306     -93.1229147
9.125                0.954554826     -93.2842645
9.126                0.954437059     -93.4460337
9.127                0.954319007     -93.6082234
9.128                 0.95420067     -93.7708346
9.129                0.954082048     -93.9338683
9.13                 0.953963141     -94.0973256
9.131                0.953843951     -94.2612074
9.132                0.953724476     -94.4255149
9.133                0.953604719     -94.5902491
9.134                0.953484679     -94.7554109
9.135                0.953364356     -94.9210015
9.136                0.953243752     -95.0870217
9.137                0.953122867     -95.2534728
9.138                0.953001701     -95.4203556
9.139                0.952880255     -95.5876712
9.14                  0.95275853     -95.7554206
9.141                0.952636525     -95.9236048
9.142                0.952514243     -96.0922249
9.143                0.952391682     -96.2612818
9.144                0.952268845     -96.4307766
9.145                0.952145731     -96.6007103
9.146                0.952022342     -96.7710839
9.147                0.951898678     -96.9418983
9.148                0.951774739     -97.1131546
9.149                0.951650527     -97.2848538
9.15                 0.951526042     -97.4569969
9.151                0.951401286     -97.6295849
9.152                0.951276258     -97.8026187
9.153                 0.95115096     -97.9760993
9.154                0.951025393     -98.1500278
9.155                0.950899557     -98.3244051
9.156                0.950773453     -98.4992322
9.157                0.950647083       -98.67451
9.158                0.950520447     -98.8502396
9.159                0.950393546     -99.0264219
9.16                 0.950266381     -99.2030579
9.161                0.950138953     -99.3801486
9.162                0.950011263     -99.5576948
9.163                0.949883313     -99.7356976
9.164                0.949755103     -99.9141579
9.165                0.949626634     -100.093077
9.166                0.949497908     -100.272455
9.167                0.949368926     -100.452293
9.168                0.949239688     -100.632593
9.169                0.949110196     -100.813355
9.17                 0.948980451      -100.99458
9.171                0.948850455     -101.176269
9.172                0.948720209     -101.358424
9.173                0.948589713     -101.541044
9.174                 0.94845897     -101.724131
9.175                0.948327981     -101.907685
9.176                0.948196746     -102.091709
9.177                0.948065268     -102.276201
9.178                0.947933548     -102.461165
9.179                0.947801587     -102.646599
9.18                 0.947669386     -102.832506
9.181                0.947536948     -103.018886
9.182                0.947404274     -103.205739
9.183                0.947271364     -103.393068
9.184                0.947138222     -103.580872
9.185                0.947004848     -103.769153
9.186                0.946871244     -103.957911
9.187                0.946737412     -104.147147
9.188                0.946603353     -104.336862
9.189                 0.94646907     -104.527058
9.19                 0.946334563     -104.717734
9.191                0.946199835     -104.908891
9.192                0.946064887     -105.100531
9.193                0.945929722     -105.292654
9.194                 0.94579434     -105.485261
9.195                0.945658745     -105.678353
9.196                0.945522937      -105.87193
9.197                 0.94538692     -106.065993
9.198                0.945250694     -106.260544
9.199                0.945114262     -106.455582
9.2                  0.944977626      -106.65111
9.201                0.944840788     -106.847126
9.202                 0.94470375     -107.043633
9.203                0.944566514      -107.24063
9.204                0.944429083     -107.438119
9.205                0.944291458     -107.636101
9.206                0.944153641     -107.834575
9.207                0.944015636     -108.033543
9.208                0.943877444     -108.233006
9.209                0.943739067     -108.432964
9.21                 0.943600509     -108.633417
9.211                0.943461771     -108.834367
9.212                0.943322855     -109.035814
9.213                0.943183765     -109.237759
9.214                0.943044502     -109.440203
9.215                 0.94290507     -109.643145
9.216                 0.94276547     -109.846587
9.217                0.942625706      -110.05053
9.218                0.942485779     -110.254973
9.219                0.942345693     -110.459918
9.22                 0.942205451     -110.665365
9.221                0.942065054     -110.871315
9.222                0.941924506     -111.077768
9.223                 0.94178381     -111.284725
9.224                0.941642968     -111.492187
9.225                0.941501983     -111.700153
9.226                0.941360859     -111.908625
9.227                0.941219597     -112.117603
9.228                0.941078201     -112.327087
9.229                0.940936675     -112.537079
9.23                  0.94079502     -112.747577
9.231                 0.94065324     -112.958584
9.232                0.940511339     -113.170099
9.233                0.940369319     -113.382124
9.234                0.940227183     -113.594657
9.235                0.940084936       -113.8077
9.236                0.939942579     -114.021254
9.237                0.939800116     -114.235318
9.238                0.939657551     -114.449893
9.239                0.939514887      -114.66498
9.24                 0.939372128     -114.880578
9.241                0.939229276     -115.096688
9.242                0.939086335     -115.313311
9.243                0.938943309     -115.530447
9.244                0.938800202     -115.748095
9.245                0.938657016     -115.966257
9.246                0.938513756     -116.184933
9.247                0.938370425     -116.404123
9.248                0.938227027     -116.623827
9.249                0.938083566     -116.844046
9.25                 0.937940045     -117.064779
9.251                0.937796468     -117.286028
9.252                 0.93765284     -117.507791
9.253                0.937509163      -117.73007
9.254                0.937365442     -117.952865
9.255                0.937221681     -118.176175
9.256                0.937077884     -118.400002
9.257                0.936934054     -118.624344
9.258                0.936790197     -118.849202
9.259                0.936646315     -119.074577
9.26                 0.936502414     -119.300468
9.261                0.936358498     -119.526876
9.262                 0.93621457       -119.7538
9.263                0.936070635     -119.981241
9.264                0.935926697     -120.209199
9.265                 0.93578276     -120.437673
9.266                 0.93563883     -120.666663
9.267                 0.93549491     -120.896171
9.268                0.935351005     -121.126194
9.269                0.935207119     -121.356735
9.27                 0.935063257     -121.587792
9.271                0.934919424     -121.819365
9.272                0.934775623     -122.051455
9.273                0.934631861      -122.28406
9.274                 0.93448814     -122.517182
9.275                0.934344467      -122.75082
9.276                0.934200846     -122.984973
9.277                0.934057282     -123.219642
9.278                0.933913779     -123.454827
9.279                0.933770342     -123.690526
9.28                 0.933626977      -123.92674
9.281                0.933483688     -124.163469
9.282                0.933340481     -124.400713
9.283                 0.93319736      -124.63847
9.284                 0.93305433     -124.876741
9.285                0.932911396     -125.115526
9.286                0.932768565     -125.354823
9.287                 0.93262584     -125.594633
9.288                0.932483227     -125.834956
9.289                0.932340731      -126.07579
9.29                 0.932198358     -126.317136
9.291                0.932056113     -126.558993
9.292                0.931914001      -126.80136
9.293                0.931772028     -127.044237
9.294                0.931630198     -127.287624
9.295                0.931488519      -127.53152
9.296                0.931346994     -127.775925
9.297                0.931205629     -128.020837
9.298                0.931064431     -128.266257
9.299                0.930923405     -128.512183
9.3                  0.930782555     -128.758615
9.301                0.930641889     -129.005553
9.302                0.930501412     -129.252995
9.303                0.930361129     -129.500941
9.304                0.930221046     -129.749391
9.305                0.930081169     -129.998343
9.306                0.929941503     -130.247797
9.307                0.929802056     -130.497752
9.308                0.929662832     -130.748208
9.309                0.929523838     -130.999162
9.31                 0.929385078     -131.250615
9.311                0.929246561     -131.502566
9.312                0.929108291     -131.755014
9.313                0.928970274     -132.007957
9.314                0.928832517     -132.261396
9.315                0.928695025     -132.515328
9.316                0.928557805     -132.769753
9.317                0.928420863      -133.02467
9.318                0.928284205     -133.280078
9.319                0.928147838     -133.535976
9.32                 0.928011767     -133.792363
9.321                0.927875999     -134.049237
9.322                 0.92774054     -134.306598
9.323                0.927605396     -134.564444
9.324                0.927470574     -134.822774
9.325                0.927336081     -135.081588
9.326                0.927201921     -135.340883
9.327                0.927068103     -135.600659
9.328                0.926934632     -135.860914
9.329                0.926801515     -136.121647
9.33                 0.926668758     -136.382856
9.331                0.926536368     -136.644541
9.332                0.926404351       -136.9067
9.333                0.926272714     -137.169332
9.334                0.926141463     -137.432434
9.335                0.926010605     -137.696006
9.336                0.925880147     -137.960047
9.337                0.925750095     -138.224554
9.338                0.925620455     -138.489526
9.339                0.925491236     -138.754962
9.34                 0.925362442      -139.02086
9.341                0.925234081     -139.287219
9.342                0.925106159     -139.554036
9.343                0.924978684     -139.821311
9.344                0.924851661     -140.089041
9.345                0.924725098     -140.357225
9.346                0.924599001     -140.625862
9.347                0.924473377     -140.894948
9.348                0.924348234     -141.164483
9.349                0.924223576     -141.434465
9.35                 0.924099412     -141.704892
9.351                0.923975749     -141.975763
9.352                0.923852592     -142.247074
9.353                0.923729949     -142.518825
9.354                0.923607826     -142.791013
9.355                0.923486231     -143.063637
9.356                 0.92336517     -143.336694
9.357                 0.92324465     -143.610182
9.358                0.923124678     -143.884101
9.359                 0.92300526     -144.158446
9.36                 0.922886404     -144.433217
9.361                0.922768116     -144.708411
9.362                0.922650403     -144.984026
9.363                0.922533272      -145.26006
9.364                 0.92241673     -145.536511
9.365                0.922300783     -145.813376
9.366                0.922185439     -146.090654
9.367                0.922070703     -146.368341
9.368                0.921956584     -146.646437
9.369                0.921843088     -146.924937
9.37                  0.92173022     -147.203841
9.371                 0.92161799     -147.483146
9.372                0.921506402     -147.762848
9.373                0.921395464     -148.042947
9.374                0.921285183     -148.323439
9.375                0.921175565     -148.604322
9.376                0.921066616     -148.885593
9.377                0.920958345      -149.16725
9.378                0.920850757     -149.449291
9.379                0.920743859     -149.731712
9.38                 0.920637658     -150.014512
9.381                 0.92053216     -150.297687
9.382                0.920427372     -150.581235
9.383                0.920323301     -150.865154
9.384                0.920219953      -151.14944
9.385                0.920117335     -151.434091
9.386                0.920015453     -151.719103
9.387                0.919914313     -152.004475
9.388                0.919813923     -152.290204
9.389                0.919714289     -152.576286
9.39                 0.919615417     -152.862719
9.391                0.919517314       -153.1495
9.392                0.919419985     -153.436626
9.393                0.919323438     -153.724094
9.394                0.919227679     -154.011902
9.395                0.919132713     -154.300045
9.396                0.919038548     -154.588522
