! TOUCHSTONE file generated by CST DESIGN STUDIO
! Date and time: Tue Feb  4 18:20:16 2025
! Project name: C:\Work\MatlabApps\UnitCellOptimizationMatlab\CST\unitcell.cst
! Tree item: Tasks\Sweep1\SPara1\S-Parameters
! Header version: 2024
! Port assignment regex: !\s*Touchstone port\s*([0-9]+)\s*=\s*(CST MWS port|CST DES external port|CST DES block port)\s*(.+)\s* \(\"(.*)\"\)(\s*mode\s*([0-9]+))?.*
! Touchstone port assignment:
! Touchstone port 1 = CST DES external port 1 ("")
# GHz S MA R 50
9                    0.967526568     -73.2459445
9.001                0.967446982     -73.3564843
9.002                0.967367154     -73.4672992
9.003                0.967287082     -73.5783901
9.004                0.967206766     -73.6897578
9.005                0.967126205     -73.8014032
9.006                0.967045399     -73.9133271
9.007                0.966964347     -74.0255303
9.008                0.966883049     -74.1380139
9.009                0.966801503     -74.2507785
9.01                 0.966719709     -74.3638251
9.011                0.966637667     -74.4771546
9.012                0.966555376     -74.5907678
9.013                0.966472835     -74.7046655
9.014                0.966390044     -74.8188487
9.015                0.966307002     -74.9333183
9.016                0.966223708      -75.048075
9.017                0.966140163     -75.1631199
9.018                0.966056364     -75.2784538
9.019                0.965972312     -75.3940775
9.02                 0.965888007      -75.509992
9.021                0.965803446     -75.6261981
9.022                0.965718631     -75.7426968
9.023                0.965633559     -75.8594889
9.024                0.965548232     -75.9765753
9.025                0.965462647      -76.093957
9.026                0.965376805     -76.2116348
9.027                0.965290705     -76.3296097
9.028                0.965204346     -76.4478825
9.029                0.965117727     -76.5664541
9.03                 0.965030849     -76.6853256
9.031                 0.96494371     -76.8044977
9.032                 0.96485631     -76.9239714
9.033                0.964768649     -77.0437476
9.034                0.964680725     -77.1638272
9.035                0.964592538     -77.2842112
9.036                0.964504088     -77.4049005
9.037                0.964415374      -77.525896
9.038                0.964326396     -77.6471986
9.039                0.964237152     -77.7688093
9.04                 0.964147643      -77.890729
9.041                0.964057868     -78.0129586
9.042                0.963967825      -78.135499
9.043                0.963877516     -78.2583513
9.044                0.963786939     -78.3815164
9.045                0.963696093     -78.5049951
9.046                0.963604978     -78.6287884
9.047                0.963513594     -78.7528974
9.048                 0.96342194     -78.8773228
9.049                0.963330016     -79.0020658
9.05                  0.96323782     -79.1271272
9.051                0.963145353      -79.252508
9.052                0.963052613     -79.3782091
9.053                0.962959601     -79.5042315
9.054                0.962866316     -79.6305762
9.055                0.962772757     -79.7572442
9.056                0.962678924     -79.8842363
9.057                0.962584817     -80.0115536
9.058                0.962490434     -80.1391971
9.059                0.962395775     -80.2671676
9.06                 0.962300841     -80.3954663
9.061                 0.96220563      -80.524094
9.062                0.962110141     -80.6530517
9.063                0.962014375     -80.7823404
9.064                0.961918332     -80.9119612
9.065                0.961822009     -81.0419149
9.066                0.961725408     -81.1722025
9.067                0.961628527     -81.3028251
9.068                0.961531367     -81.4337837
9.069                0.961433926     -81.5650791
9.07                 0.961336204     -81.6967125
9.071                0.961238201     -81.8286848
9.072                0.961139917     -81.9609969
9.073                0.961041351       -82.09365
9.074                0.960942502      -82.226645
9.075                 0.96084337     -82.3599829
9.076                0.960743955     -82.4936646
9.077                0.960644256     -82.6276913
9.078                0.960544274     -82.7620639
9.079                0.960444007     -82.8967833
9.08                 0.960343455     -83.0318507
9.081                0.960242618     -83.1672671
9.082                0.960141495     -83.3030333
9.083                0.960040086     -83.4391506
9.084                0.959938391     -83.5756198
9.085                 0.95983641     -83.7124419
9.086                0.959734141     -83.8496181
9.087                0.959631586     -83.9871493
9.088                0.959528742     -84.1250365
9.089                0.959425611     -84.2632808
9.09                 0.959322191     -84.4018832
9.091                0.959218483     -84.5408446
9.092                0.959114486     -84.6801663
9.093                  0.9590102      -84.819849
9.094                0.958905625      -84.959894
9.095                0.958800759     -85.1003021
9.096                0.958695604     -85.2410745
9.097                0.958590158     -85.3822122
9.098                0.958484422     -85.5237162
9.099                0.958378396     -85.6655875
9.1                  0.958272078     -85.8078272
9.101                0.958165469     -85.9504363
9.102                0.958058569     -86.0934158
9.103                0.957951377     -86.2367669
9.104                0.957843894     -86.3804904
9.105                0.957736118     -86.5245875
9.106                 0.95762805     -86.6690593
9.107                 0.95751969     -86.8139066
9.108                0.957411038     -86.9591307
9.109                0.957302093     -87.1047325
9.11                 0.957192855      -87.250713
9.111                0.957083324     -87.3970734
9.112                  0.9569735     -87.5438147
9.113                0.956863383     -87.6909378
9.114                0.956752973     -87.8384439
9.115                0.956642269      -87.986334
9.116                0.956531272     -88.1346092
9.117                0.956419981     -88.2832705
9.118                0.956308397     -88.4323189
9.119                 0.95619652     -88.5817555
9.12                 0.956084349     -88.7315813
9.121                0.955971884     -88.8817975
9.122                0.955859125      -89.032405
9.123                0.955746073     -89.1834049
9.124                0.955632727     -89.3347982
9.125                0.955519088     -89.4865861
9.126                0.955405155     -89.6387695
9.127                0.955290929     -89.7913495
9.128                0.955176409     -89.9443271
9.129                0.955061595     -90.0977035
9.13                 0.954946489     -90.2514796
9.131                0.954831089     -90.4056565
9.132                0.954715396     -90.5602353
9.133                 0.95459941      -90.715217
9.134                0.954483131     -90.8706027
9.135                 0.95436656     -91.0263934
9.136                0.954249696     -91.1825902
9.137                 0.95413254      -91.339194
9.138                0.954015092     -91.4962061
9.139                0.953897351     -91.6536273
9.14                 0.953779319     -91.8114589
9.141                0.953660996     -91.9697017
9.142                0.953542381     -92.1283569
9.143                0.953423476     -92.2874255
9.144                 0.95330428     -92.4469086
9.145                0.953184793     -92.6068072
9.146                0.953065016     -92.7671223
9.147                 0.95294495     -92.9278551
9.148                0.952824594     -93.0890065
9.149                 0.95270395     -93.2505775
9.15                 0.952583016     -93.4125693
9.151                0.952461795     -93.5749828
9.152                0.952340285     -93.7378192
9.153                0.952218488     -93.9010794
9.154                0.952096404     -94.0647645
9.155                0.951974034     -94.2288755
9.156                0.951851378     -94.3934134
9.157                0.951728436     -94.5583794
9.158                0.951605209     -94.7237743
9.159                0.951481698     -94.8895994
9.16                 0.951357902     -95.0558555
9.161                0.951233824     -95.2225437
9.162                0.951109462      -95.389665
9.163                0.950984819     -95.5572205
9.164                0.950859894     -95.7252111
9.165                0.950734688      -95.893638
9.166                0.950609201     -96.0625021
9.167                0.950483435     -96.2318044
9.168                0.950357391      -96.401546
9.169                0.950231068     -96.5717278
9.17                 0.950104467     -96.7423509
9.171                0.949977591     -96.9134162
9.172                0.949850438     -97.0849249
9.173                 0.94972301     -97.2568778
9.174                0.949595308      -97.429276
9.175                0.949467332     -97.6021205
9.176                0.949339084     -97.7754123
9.177                0.949210565     -97.9491523
9.178                0.949081774     -98.1233416
9.179                0.948952714     -98.2979812
9.18                 0.948823385      -98.473072
9.181                0.948693788     -98.6486149
9.182                0.948563924     -98.8246111
9.183                0.948433794     -99.0010614
9.184                  0.9483034     -99.1779668
9.185                0.948172741     -99.3553284
9.186                 0.94804182      -99.533147
9.187                0.947910638     -99.7114236
9.188                0.947779195     -99.8901592
9.189                0.947647493     -100.069355
9.19                 0.947515532     -100.249011
9.191                0.947383315     -100.429129
9.192                0.947250842      -100.60971
9.193                0.947118115     -100.790755
9.194                0.946985135     -100.972264
9.195                0.946851903     -101.154239
9.196                 0.94671842     -101.336681
9.197                0.946584689     -101.519589
9.198                0.946450709     -101.702966
9.199                0.946316484     -101.886813
9.2                  0.946182013     -102.071129
9.201                0.946047299     -102.255917
9.202                0.945912343     -102.441176
9.203                0.945777147     -102.626908
9.204                0.945641712     -102.813114
9.205                 0.94550604     -102.999795
9.206                0.945370132     -103.186951
9.207                 0.94523399     -103.374583
9.208                0.945097615     -103.562693
9.209                 0.94496101     -103.751281
9.21                 0.944824176     -103.940347
9.211                0.944687114     -104.129893
9.212                0.944549827      -104.31992
9.213                0.944412317     -104.510429
9.214                0.944274584     -104.701419
9.215                0.944136632     -104.892893
9.216                0.943998461     -105.084851
9.217                0.943860074     -105.277293
9.218                0.943721473     -105.470221
9.219                 0.94358266     -105.663635
9.22                 0.943443636     -105.857537
9.221                0.943304405     -106.051926
9.222                0.943164967     -106.246804
9.223                0.943025325     -106.442171
9.224                0.942885481     -106.638029
9.225                0.942745437     -106.834377
9.226                0.942605196     -107.031218
9.227                0.942464759      -107.22855
9.228                0.942324129     -107.426376
9.229                0.942183309     -107.624696
9.23                   0.9420423     -107.823511
9.231                0.941901105      -108.02282
9.232                0.941759726     -108.222626
9.233                0.941618166     -108.422929
9.234                0.941476427     -108.623729
9.235                0.941334512     -108.825027
9.236                0.941192423     -109.026823
9.237                0.941050162      -109.22912
9.238                0.940907733     -109.431916
9.239                0.940765138     -109.635213
9.24                  0.94062238     -109.839011
9.241                0.940479461     -110.043311
9.242                0.940336384     -110.248114
9.243                0.940193152      -110.45342
9.244                0.940049767      -110.65923
9.245                0.939906233     -110.865544
9.246                0.939762552     -111.072363
9.247                0.939618727     -111.279687
9.248                0.939474762     -111.487518
9.249                0.939330658     -111.695855
9.25                  0.93918642     -111.904699
9.251                 0.93904205     -112.114051
9.252                0.938897552     -112.323911
9.253                0.938752927      -112.53428
9.254                0.938608181     -112.745157
9.255                0.938463315     -112.956545
9.256                0.938318333     -113.168442
9.257                0.938173238      -113.38085
9.258                0.938028034     -113.593769
9.259                0.937882724     -113.807199
9.26                 0.937737312     -114.021141
9.261                  0.9375918     -114.235596
9.262                0.937446192     -114.450563
9.263                0.937300492     -114.666043
9.264                0.937154703     -114.882036
9.265                0.937008829     -115.098543
9.266                0.936862873     -115.315565
9.267                0.936716839       -115.5331
9.268                0.936570732     -115.751151
9.269                0.936424553     -115.969716
9.27                 0.936278308     -116.188797
9.271                   0.936132     -116.408393
9.272                0.935985633     -116.628506
9.273                0.935839211     -116.849134
9.274                0.935692737     -117.070279
9.275                0.935546216      -117.29194
9.276                0.935399651     -117.514119
9.277                0.935253048     -117.736814
9.278                0.935106409     -117.960027
9.279                0.934959738     -118.183756
9.28                 0.934813041     -118.408004
9.281                0.934666321     -118.632769
9.282                0.934519583     -118.858052
9.283                 0.93437283     -119.083852
9.284                0.934226068     -119.310171
9.285                0.934079299     -119.537008
9.286                 0.93393253     -119.764363
9.287                0.933785763     -119.992236
9.288                0.933639005     -120.220627
9.289                0.933492258     -120.449537
9.29                 0.933345528     -120.678964
9.291                 0.93319882      -120.90891
9.292                0.933052137     -121.139374
9.293                0.932905485     -121.370356
9.294                0.932758868     -121.601857
9.295                0.932612291     -121.833875
9.296                0.932465759     -122.066411
9.297                0.932319277     -122.299464
9.298                0.932172849     -122.533036
9.299                0.932026481     -122.767124
9.3                  0.931880176      -123.00173
9.301                0.931733941     -123.236854
9.302                0.931587781     -123.472493
9.303                  0.9314417      -123.70865
9.304                0.931295703     -123.945323
9.305                0.931149795     -124.182512
9.306                0.931003983     -124.420217
9.307                 0.93085827     -124.658437
9.308                0.930712662     -124.897173
9.309                0.930567165     -125.136424
9.31                 0.930421784     -125.376189
9.311                0.930276524     -125.616468
9.312                 0.93013139     -125.857261
9.313                0.929986388     -126.098567
9.314                0.929841523     -126.340387
9.315                0.929696802     -126.582718
9.316                0.929552229     -126.825562
9.317                0.929407809     -127.068917
9.318                 0.92926355     -127.312783
9.319                0.929119455      -127.55716
9.32                 0.928975531     -127.802046
9.321                0.928831784     -128.047442
9.322                 0.92868822     -128.293346
9.323                0.928544843     -128.539758
9.324                 0.92840166     -128.786678
9.325                0.928258678     -129.034104
9.326                  0.9281159     -129.282037
9.327                0.927973335     -129.530475
9.328                0.927830987     -129.779418
9.329                0.927688862     -130.028864
9.33                 0.927546967     -130.278813
9.331                0.927405308     -130.529265
9.332                 0.92726389     -130.780219
9.333                 0.92712272     -131.031673
9.334                0.926981804     -131.283627
9.335                0.926841148     -131.536079
9.336                0.926700758      -131.78903
9.337                 0.92656064     -132.042478
9.338                0.926420802     -132.296422
9.339                0.926281248     -132.550861
9.34                 0.926141986     -132.805794
9.341                0.926003021      -133.06122
9.342                0.925864361     -133.317139
9.343                0.925726011     -133.573548
9.344                0.925587977     -133.830448
9.345                0.925450267     -134.087836
9.346                0.925312887     -134.345712
9.347                0.925175843     -134.604074
9.348                0.925039142     -134.862922
9.349                0.924902791     -135.122254
9.35                 0.924766795     -135.382068
9.351                0.924631162     -135.642365
9.352                0.924495898     -135.903141
9.353                 0.92436101     -136.164397
9.354                0.924226504      -136.42613
9.355                0.924092387      -136.68834
9.356                0.923958666     -136.951024
9.357                0.923825348     -137.214182
9.358                0.923692439     -137.477812
9.359                0.923559946     -137.741913
9.36                 0.923427876     -138.006483
9.361                0.923296235      -138.27152
9.362                0.923165031     -138.537024
9.363                0.923034271     -138.802992
9.364                 0.92290396     -139.069423
9.365                0.922774106     -139.336316
9.366                0.922644716     -139.603668
9.367                0.922515797     -139.871478
9.368                0.922387355     -140.139745
9.369                0.922259398     -140.408466
9.37                 0.922131932      -140.67764
9.371                0.922004965     -140.947266
9.372                0.921878502      -141.21734
9.373                0.921752552     -141.487863
9.374                0.921627122     -141.758831
9.375                0.921502217     -142.030242
9.376                0.921377845     -142.302096
9.377                0.921254014      -142.57439
9.378                0.921130729     -142.847122
9.379                0.921007999     -143.120289
9.38                 0.920885829     -143.393891
9.381                0.920764227     -143.667925
9.382                0.920643201     -143.942389
9.383                0.920522756     -144.217281
9.384                  0.9204029     -144.492599
9.385                 0.92028364     -144.768341
9.386                0.920164983     -145.044504
9.387                0.920046936     -145.321086
9.388                0.919929506     -145.598086
9.389                  0.9198127       -145.8755
9.39                 0.919696524     -146.153328
9.391                0.919580986     -146.431565
9.392                0.919466093     -146.710211
9.393                0.919351852     -146.989262
9.394                0.919238269     -147.268717
9.395                0.919125352     -147.548573
9.396                0.919013107     -147.828827
