! TOUCHSTONE file generated by CST DESIGN STUDIO
! Date and time: Tue Feb  4 18:20:19 2025
! Project name: C:\Work\MatlabApps\UnitCellOptimizationMatlab\CST\unitcell.cst
! Tree item: Tasks\Sweep1\SPara1\S-Parameters
! Header version: 2024
! Port assignment regex: !\s*Touchstone port\s*([0-9]+)\s*=\s*(CST MWS port|CST DES external port|CST DES block port)\s*(.+)\s* \(\"(.*)\"\)(\s*mode\s*([0-9]+))?.*
! Touchstone port assignment:
! Touchstone port 1 = CST DES external port 1 ("")
# GHz S MA R 50
9                    0.968637177     -67.4531707
9.001                0.968565464     -67.5504478
9.002                 0.96849353     -67.6479594
9.003                0.968421374      -67.745706
9.004                0.968348996     -67.8436886
9.005                0.968276393     -67.9419077
9.006                0.968203567     -68.0403642
9.007                0.968130516     -68.1390589
9.008                 0.96805724     -68.2379923
9.009                0.967983737     -68.3371654
9.01                 0.967910008     -68.4365788
9.011                0.967836052     -68.5362333
9.012                0.967761868     -68.6361296
9.013                0.967687455     -68.7362686
9.014                0.967612812     -68.8366509
9.015                 0.96753794     -68.9372773
9.016                0.967462838     -69.0381487
9.017                0.967387504     -69.1392657
9.018                0.967311938     -69.2406291
9.019                 0.96723614     -69.3422398
9.02                 0.967160108     -69.4440984
9.021                0.967083843     -69.5462058
9.022                0.967007343     -69.6485627
9.023                0.966930608       -69.75117
9.024                0.966853637     -69.8540283
9.025                 0.96677643     -69.9571385
9.026                0.966698985     -70.0605014
9.027                0.966621303     -70.1641177
9.028                0.966543383     -70.2679884
9.029                0.966465223      -70.372114
9.03                 0.966386824     -70.4764955
9.031                0.966308185     -70.5811337
9.032                0.966229304     -70.6860293
9.033                0.966150182     -70.7911831
9.034                0.966070817     -70.8965961
9.035                0.965991209     -71.0022689
9.036                0.965911358     -71.1082024
9.037                0.965831263     -71.2143973
9.038                0.965750922     -71.3208546
9.039                0.965670336     -71.4275751
9.04                 0.965589504     -71.5345595
9.041                0.965508425     -71.6418086
9.042                0.965427098     -71.7493234
9.043                0.965345523     -71.8571046
9.044                  0.9652637     -71.9651531
9.045                0.965181627     -72.0734697
9.046                0.965099303     -72.1820552
9.047                0.965016729     -72.2909105
9.048                0.964933904     -72.4000365
9.049                0.964850827     -72.5094338
9.05                 0.964767496     -72.6191035
9.051                0.964683913     -72.7290463
9.052                0.964600076     -72.8392632
9.053                0.964515983     -72.9497549
9.054                0.964431636     -73.0605222
9.055                0.964347033     -73.1715662
9.056                0.964262173     -73.2828876
9.057                0.964177056     -73.3944873
9.058                0.964091682     -73.5063661
9.059                0.964006048     -73.6185249
9.06                 0.963920156     -73.7309647
9.061                0.963834004     -73.8436862
9.062                0.963747592     -73.9566903
9.063                0.963660919     -74.0699779
9.064                0.963573984       -74.18355
9.065                0.963486787     -74.2974073
9.066                0.963399327     -74.4115507
9.067                0.963311603     -74.5259812
9.068                0.963223616     -74.6406996
9.069                0.963135364     -74.7557068
9.07                 0.963046847     -74.8710038
9.071                0.962958063     -74.9865913
9.072                0.962869013     -75.1024704
9.073                0.962779696     -75.2186418
9.074                0.962690111     -75.3351065
9.075                0.962600258     -75.4518655
9.076                0.962510136     -75.5689196
9.077                0.962419744     -75.6862696
9.078                0.962329082     -75.8039167
9.079                 0.96223815     -75.9218615
9.08                 0.962146946     -76.0401052
9.081                 0.96205547     -76.1586485
9.082                0.961963721     -76.2774924
9.083                0.961871699     -76.3966378
9.084                0.961779404     -76.5160857
9.085                0.961686834      -76.635837
9.086                0.961593989     -76.7558925
9.087                0.961500869     -76.8762533
9.088                0.961407473     -76.9969203
9.089                  0.9613138     -77.1178944
9.09                 0.961219851     -77.2391765
9.091                0.961125623     -77.3607676
9.092                0.961031117     -77.4826686
9.093                0.960936332     -77.6048805
9.094                0.960841268     -77.7274042
9.095                0.960745924     -77.8502407
9.096                0.960650299     -77.9733909
9.097                0.960554393     -78.0968558
9.098                0.960458206     -78.2206363
9.099                0.960361736     -78.3447334
9.1                  0.960264984      -78.469148
9.101                0.960167948     -78.5938812
9.102                0.960070629     -78.7189338
9.103                0.959973026     -78.8443068
9.104                0.959875138     -78.9700013
9.105                0.959776964     -79.0960181
9.106                0.959678505     -79.2223583
9.107                0.959579759     -79.3490228
9.108                0.959480727     -79.4760126
9.109                0.959381408     -79.6033287
9.11                   0.9592818     -79.7309721
9.111                0.959181904     -79.8589437
9.112                 0.95908172     -79.9872445
9.113                0.958981246     -80.1158755
9.114                0.958880483     -80.2448377
9.115                 0.95877943     -80.3741322
9.116                0.958678085     -80.5037598
9.117                 0.95857645     -80.6337216
9.118                0.958474524     -80.7640185
9.119                0.958372305     -80.8946516
9.12                 0.958269794     -81.0256219
9.121                 0.95816699     -81.1569304
9.122                0.958063892     -81.2885781
9.123                0.957960501     -81.4205659
9.124                0.957856816      -81.552895
9.125                0.957752837     -81.6855662
9.126                0.957648562     -81.8185806
9.127                0.957543992     -81.9519393
9.128                0.957439127     -82.0856432
9.129                0.957333965     -82.2196934
9.13                 0.957228507     -82.3540908
9.131                0.957122752     -82.4888365
9.132                  0.9570167     -82.6239315
9.133                 0.95691035     -82.7593769
9.134                0.956803702     -82.8951736
9.135                0.956696756     -83.0313227
9.136                0.956589511     -83.1678252
9.137                0.956481968     -83.3046822
9.138                0.956374125     -83.4418946
9.139                0.956265982     -83.5794635
9.14                  0.95615754       -83.71739
9.141                0.956048797      -83.855675
9.142                0.955939754     -83.9943197
9.143                 0.95583041      -84.133325
9.144                0.955720766      -84.272692
9.145                0.955610819     -84.4124217
9.146                0.955500572     -84.5525151
9.147                0.955390022     -84.6929734
9.148                0.955279171     -84.8337975
9.149                0.955168017     -84.9749885
9.15                 0.955056561     -85.1165475
9.151                0.954944801     -85.2584755
9.152                0.954832739     -85.4007735
9.153                0.954720374     -85.5434426
9.154                0.954607706     -85.6864839
9.155                0.954494734     -85.8298983
9.156                0.954381458      -85.973687
9.157                0.954267879      -86.117851
9.158                0.954153996     -86.2623914
9.159                0.954039808     -86.4073092
9.16                 0.953925317     -86.5526055
9.161                0.953810521     -86.6982813
9.162                 0.95369542     -86.8443377
9.163                0.953580015     -86.9907758
9.164                0.953464306     -87.1375965
9.165                0.953348291     -87.2848011
9.166                0.953231972     -87.4323905
9.167                0.953115349     -87.5803658
9.168                 0.95299842     -87.7287281
9.169                0.952881186     -87.8774784
9.17                 0.952763648     -88.0266178
9.171                0.952645805     -88.1761473
9.172                0.952527657     -88.3260681
9.173                0.952409204     -88.4763812
9.174                0.952290446     -88.6270876
9.175                0.952171383     -88.7781885
9.176                0.952052016     -88.9296849
9.177                0.951932344     -89.0815778
9.178                0.951812367     -89.2338684
9.179                0.951692086     -89.3865577
9.18                 0.951571501     -89.5396468
9.181                0.951450611     -89.6931367
9.182                0.951329418     -89.8470285
9.183                 0.95120792     -90.0013232
9.184                0.951086119     -90.1560221
9.185                0.950964014      -90.311126
9.186                0.950841605     -90.4666362
9.187                0.950718894     -90.6225536
9.188                0.950595879     -90.7788793
9.189                0.950472562     -90.9356144
9.19                 0.950348942       -91.09276
9.191                 0.95022502     -91.2503171
9.192                0.950100797     -91.4082868
9.193                0.949976271     -91.5666702
9.194                0.949851445     -91.7254683
9.195                0.949726317     -91.8846822
9.196                0.949600889     -92.0443129
9.197                 0.94947516     -92.2043616
9.198                0.949349132     -92.3648293
9.199                0.949222804     -92.5257171
9.2                  0.949096177     -92.6870259
9.201                0.948969252      -92.848757
9.202                0.948842028     -93.0109112
9.203                0.948714506     -93.1734898
9.204                0.948586688     -93.3364938
9.205                0.948458573     -93.4999242
9.206                0.948330161      -93.663782
9.207                0.948201454     -93.8280684
9.208                0.948072452     -93.9927844
9.209                0.947943155      -94.157931
9.21                 0.947813565     -94.3235093
9.211                0.947683681     -94.4895203
9.212                0.947553504     -94.6559652
9.213                0.947423036     -94.8228449
9.214                0.947292276     -94.9901604
9.215                0.947161225     -95.1579129
9.216                0.947029885     -95.3261034
9.217                0.946898255     -95.4947329
9.218                0.946766337     -95.6638024
9.219                0.946634131     -95.8333131
9.22                 0.946501638     -96.0032658
9.221                 0.94636886     -96.1736617
9.222                0.946235796     -96.3445018
9.223                0.946102447     -96.5157871
9.224                0.945968816     -96.6875187
9.225                0.945834902     -96.8596975
9.226                0.945700706     -97.0323246
9.227                0.945566229      -97.205401
9.228                0.945431473     -97.3789277
9.229                0.945296438     -97.5529058
9.23                 0.945161125     -97.7273362
9.231                0.945025536     -97.9022199
9.232                0.944889671      -98.077558
9.233                0.944753531     -98.2533515
9.234                0.944617118     -98.4296013
9.235                0.944480433     -98.6063085
9.236                0.944343477      -98.783474
9.237                0.944206251     -98.9610988
9.238                0.944068756      -99.139184
9.239                0.943930994     -99.3177305
9.24                 0.943792965     -99.4967392
9.241                0.943654672     -99.6762112
9.242                0.943516115     -99.8561475
9.243                0.943377295     -100.036549
9.244                0.943238215     -100.217416
9.245                0.943098875     -100.398751
9.246                0.942959278     -100.580554
9.247                0.942819423     -100.762826
9.248                0.942679314     -100.945567
9.249                0.942538951      -101.12878
9.25                 0.942398335     -101.312465
9.251                0.942257469     -101.496622
9.252                0.942116354     -101.681253
9.253                0.941974992     -101.866359
9.254                0.941833384      -102.05194
9.255                0.941691531     -102.237998
9.256                0.941549437     -102.424533
9.257                0.941407102     -102.611546
9.258                0.941264527     -102.799038
9.259                0.941121716     -102.987011
9.26                  0.94097867     -103.175465
9.261                 0.94083539       -103.3644
9.262                0.940691878     -103.553818
9.263                0.940548137      -103.74372
9.264                0.940404168     -103.934106
9.265                0.940259973     -104.124977
9.266                0.940115554     -104.316335
9.267                0.939970914      -104.50818
9.268                0.939826054     -104.700512
9.269                0.939680976     -104.893333
9.27                 0.939535683     -105.086644
9.271                0.939390177     -105.280445
9.272                0.939244459     -105.474737
9.273                0.939098533     -105.669521
9.274                  0.9389524     -105.864798
9.275                0.938806062     -106.060569
9.276                0.938659523     -106.256834
9.277                0.938512784     -106.453594
9.278                0.938365848     -106.650849
9.279                0.938218717     -106.848602
9.28                 0.938071393     -107.046852
9.281                 0.93792388       -107.2456
9.282                0.937776179     -107.444847
9.283                0.937628293     -107.644593
9.284                0.937480225      -107.84484
9.285                0.937331978     -108.045588
9.286                0.937183554     -108.246838
9.287                0.937034955      -108.44859
9.288                0.936886185     -108.650846
9.289                0.936737246     -108.853605
9.29                 0.936588142     -109.056869
9.291                0.936438874     -109.260638
9.292                0.936289446     -109.464912
9.293                0.936139861     -109.669694
9.294                0.935990122     -109.874982
9.295                0.935840232     -110.080778
9.296                0.935690193     -110.287083
9.297                0.935540009     -110.493896
9.298                0.935389683     -110.701219
9.299                0.935239218     -110.909052
9.3                  0.935088618     -111.117396
9.301                0.934937884     -111.326251
9.302                0.934787022     -111.535619
9.303                0.934636034     -111.745498
9.304                0.934484923      -111.95589
9.305                0.934333693     -112.166796
9.306                0.934182347     -112.378216
9.307                0.934030888      -112.59015
9.308                0.933879321     -112.802599
9.309                0.933727648     -113.015564
9.31                 0.933575874     -113.229044
9.311                0.933424001     -113.443041
9.312                0.933272034     -113.657555
9.313                0.933119976     -113.872585
9.314                0.932967831     -114.088134
9.315                0.932815603       -114.3042
9.316                0.932663295     -114.520785
9.317                0.932510912     -114.737889
9.318                0.932358456     -114.955512
9.319                0.932205933     -115.173654
9.32                 0.932053346     -115.392317
9.321                  0.9319007     -115.611499
9.322                0.931747997     -115.831202
9.323                0.931595243     -116.051426
9.324                0.931442441     -116.272171
9.325                0.931289596     -116.493438
9.326                0.931136711     -116.715226
9.327                0.930983792     -116.937536
9.328                0.930830842     -117.160368
9.329                0.930677866     -117.383722
9.33                 0.930524868     -117.607599
9.331                0.930371852     -117.831999
9.332                0.930218824     -118.056921
9.333                0.930065787     -118.282367
9.334                0.929912746     -118.508336
9.335                0.929759705     -118.734828
9.336                 0.92960667     -118.961844
9.337                0.929453645     -119.189383
9.338                0.929300635     -119.417446
9.339                0.929147644     -119.646032
9.34                 0.928994677     -119.875142
9.341                0.928841739     -120.104776
9.342                0.928688835     -120.334934
9.343                 0.92853597     -120.565616
9.344                0.928383149     -120.796821
9.345                0.928230377      -121.02855
9.346                0.928077659     -121.260803
9.347                0.927924999     -121.493579
9.348                0.927772404     -121.726879
9.349                0.927619877     -121.960702
9.35                 0.927467426     -122.195049
9.351                0.927315053     -122.429919
9.352                0.927162766     -122.665311
9.353                 0.92701057     -122.901227
9.354                0.926858468     -123.137665
9.355                0.926706468     -123.374626
9.356                0.926554575     -123.612109
9.357                0.926402793     -123.850113
9.358                 0.92625113      -124.08864
9.359                0.926099589     -124.327688
9.36                 0.925948177     -124.567256
9.361                0.925796899     -124.807346
9.362                0.925645761     -125.047956
9.363                 0.92549477     -125.289086
9.364                0.925343929     -125.530736
9.365                0.925193246     -125.772905
9.366                0.925042727     -126.015593
9.367                0.924892376     -126.258799
9.368                  0.9247422     -126.502523
9.369                0.924592206     -126.746765
9.37                 0.924442398     -126.991523
9.371                0.924292783     -127.236798
9.372                0.924143368     -127.482589
9.373                0.923994157     -127.728895
9.374                0.923845158     -127.975715
9.375                0.923696376      -128.22305
9.376                0.923547818     -128.470898
9.377                0.923399489     -128.719259
9.378                0.923251397     -128.968132
9.379                0.923103548     -129.217517
9.38                 0.922955947     -129.467412
9.381                0.922808602     -129.717817
9.382                0.922661518     -129.968732
9.383                0.922514702     -130.220154
9.384                0.922368161     -130.472085
9.385                0.922221901     -130.724522
9.386                0.922075929     -130.977465
9.387                0.921930251     -131.230913
9.388                0.921784874     -131.484865
9.389                0.921639804      -131.73932
9.39                 0.921495049     -131.994278
9.391                0.921350614     -132.249736
9.392                0.921206507     -132.505695
9.393                0.921062734     -132.762154
9.394                0.920919302      -133.01911
9.395                0.920776219     -133.276564
9.396                 0.92063349     -133.534513
