! TOUCHSTONE file generated by CST DESIGN STUDIO
! Date and time: Tue Feb  4 18:20:11 2025
! Project name: C:\Work\MatlabApps\UnitCellOptimizationMatlab\CST\unitcell.cst
! Tree item: Tasks\Sweep1\SPara1\S-Parameters
! Header version: 2024
! Port assignment regex: !\s*Touchstone port\s*([0-9]+)\s*=\s*(CST MWS port|CST DES external port|CST DES block port)\s*(.+)\s* \(\"(.*)\"\)(\s*mode\s*([0-9]+))?.*
! Touchstone port assignment:
! Touchstone port 1 = CST DES external port 1 ("")
# GHz S MA R 50
9                    0.966186344     -81.1707804
9.001                0.966097499     -81.3009584
9.002                0.966008389     -81.4314704
9.003                0.965919014     -81.5623174
9.004                0.965829372     -81.6935002
9.005                0.965739463     -81.8250201
9.006                0.965649287     -81.9568778
9.007                0.965558843     -82.0890745
9.008                0.965468132      -82.221611
9.009                0.965377151     -82.3544884
9.01                 0.965285902     -82.4877078
9.011                0.965194383       -82.62127
9.012                0.965102595     -82.7551761
9.013                0.965010536      -82.889427
9.014                0.964918206     -83.0240239
9.015                0.964825606     -83.1589676
9.016                0.964732734     -83.2942592
9.017                 0.96463959     -83.4298997
9.018                0.964546174     -83.5658901
9.019                0.964452485     -83.7022315
9.02                 0.964358524     -83.8389247
9.021                0.964264289     -83.9759709
9.022                 0.96416978      -84.113371
9.023                0.964074997      -84.251126
9.024                0.963979939     -84.3892371
9.025                0.963884607     -84.5277051
9.026                   0.963789     -84.6665311
9.027                0.963693117     -84.8057162
9.028                0.963596959     -84.9452613
9.029                0.963500524     -85.0851674
9.03                 0.963403813     -85.2254357
9.031                0.963306825     -85.3660671
9.032                0.963209561     -85.5070626
9.033                0.963112019     -85.6484233
9.034                0.963014199     -85.7901502
9.035                0.962916101     -85.9322443
9.036                0.962817726     -86.0747066
9.037                0.962719072     -86.2175383
9.038                0.962620139     -86.3607402
9.039                0.962520927     -86.5043135
9.04                 0.962421437     -86.6482592
9.041                0.962321667     -86.7925783
9.042                0.962221617     -86.9372719
9.043                0.962121288     -87.0823409
9.044                0.962020678     -87.2277865
9.045                0.961919789     -87.3736096
9.046                0.961818619     -87.5198114
9.047                0.961717169     -87.6663928
9.048                0.961615438     -87.8133548
9.049                0.961513426     -87.9606986
9.05                 0.961411133     -88.1084251
9.051                0.961308559     -88.2565355
9.052                0.961205703     -88.4050307
9.053                0.961102567     -88.5539117
9.054                0.960999148     -88.7031797
9.055                0.960895449     -88.8528357
9.056                0.960791467     -89.0028807
9.057                0.960687204     -89.1533158
9.058                0.960582659     -89.3041419
9.059                0.960477832     -89.4553602
9.06                 0.960372723     -89.6069718
9.061                0.960267332     -89.7589775
9.062                0.960161659     -89.9113785
9.063                0.960055704     -90.0641759
9.064                0.959949467     -90.2173707
9.065                0.959842948     -90.3709638
9.066                0.959736148     -90.5249564
9.067                0.959629065     -90.6793496
9.068                  0.9595217     -90.8341443
9.069                0.959414054     -90.9893416
9.07                 0.959306125     -91.1449425
9.071                0.959197915     -91.3009482
9.072                0.959089423     -91.4573595
9.073                 0.95898065     -91.6141777
9.074                0.958871596     -91.7714037
9.075                 0.95876226     -91.9290385
9.076                0.958652643     -92.0870832
9.077                0.958542745     -92.2455389
9.078                0.958432567     -92.4044066
9.079                0.958322108     -92.5636873
9.08                 0.958211368     -92.7233821
9.081                0.958100348      -92.883492
9.082                0.957989049      -93.044018
9.083                0.957877469     -93.2049612
9.084                 0.95776561     -93.3663227
9.085                0.957653472     -93.5281034
9.086                0.957541055     -93.6903043
9.087                 0.95742836     -93.8529266
9.088                0.957315386     -94.0159713
9.089                0.957202134     -94.1794393
9.09                 0.957088605     -94.3433318
9.091                0.956974798     -94.5076497
9.092                0.956860715      -94.672394
9.093                0.956746355     -94.8375659
9.094                0.956631719     -95.0031663
9.095                0.956516807     -95.1691962
9.096                 0.95640162     -95.3356567
9.097                0.956286159     -95.5025487
9.098                0.956170423     -95.6698734
9.099                0.956054413     -95.8376317
9.1                  0.955938131     -96.0058246
9.101                0.955821575     -96.1744531
9.102                0.955704747     -96.3435183
9.103                0.955587648     -96.5130211
9.104                0.955470277     -96.6829626
9.105                0.955352637     -96.8533437
9.106                0.955234726     -97.0241656
9.107                0.955116546      -97.195429
9.108                0.954998098     -97.3671352
9.109                0.954879381     -97.5392849
9.11                 0.954760398     -97.7118793
9.111                0.954641148     -97.8849194
9.112                0.954521633      -98.058406
9.113                0.954401852     -98.2323403
9.114                0.954281807     -98.4067231
9.115                0.954161499     -98.5815555
9.116                0.954040929     -98.7568384
9.117                0.953920096     -98.9325728
9.118                0.953799003     -99.1087596
9.119                0.953677649     -99.2853999
9.12                 0.953556037     -99.4624945
9.121                0.953434166     -99.6400445
9.122                0.953312038     -99.8180508
9.123                0.953189654     -99.9965144
9.124                0.953067014     -100.175436
9.125                 0.95294412     -100.354817
9.126                0.952820972     -100.534658
9.127                0.952697573      -100.71496
9.128                0.952573922     -100.895724
9.129                0.952450021      -101.07695
9.13                 0.952325871     -101.258641
9.131                0.952201474     -101.440796
9.132                0.952076829     -101.623417
9.133                0.951951939     -101.806504
9.134                0.951826805     -101.990059
9.135                0.951701428     -102.174082
9.136                0.951575809     -102.358574
9.137                 0.95144995     -102.543537
9.138                0.951323851      -102.72897
9.139                0.951197514     -102.914876
9.14                 0.951070941     -103.101254
9.141                0.950944133     -103.288105
9.142                0.950817092     -103.475431
9.143                0.950689818     -103.663233
9.144                0.950562313     -103.851511
9.145                0.950434578     -104.040265
9.146                0.950306617     -104.229498
9.147                0.950178428     -104.419209
9.148                0.950050015       -104.6094
9.149                0.949921379     -104.800071
9.15                 0.949792522     -104.991224
9.151                0.949663445     -105.182858
9.152                0.949534149     -105.374975
9.153                0.949404637     -105.567576
9.154                0.949274911     -105.760661
9.155                0.949144971     -105.954232
9.156                 0.94901482     -106.148288
9.157                 0.94888446     -106.342831
9.158                0.948753893     -106.537862
9.159                 0.94862312      -106.73338
9.16                 0.948492143     -106.929388
9.161                0.948360964     -107.125886
9.162                0.948229585     -107.322874
9.163                0.948098009     -107.520353
9.164                0.947966237     -107.718324
9.165                0.947834271     -107.916788
9.166                0.947702113     -108.115745
9.167                0.947569766     -108.315196
9.168                0.947437232     -108.515142
9.169                0.947304512     -108.715583
9.17                 0.947171609      -108.91652
9.171                0.947038526     -109.117954
9.172                0.946905264     -109.319885
9.173                0.946771825     -109.522315
9.174                0.946638213     -109.725243
9.175                0.946504429      -109.92867
9.176                0.946370476     -110.132597
9.177                0.946236357     -110.337025
9.178                0.946102073     -110.541954
9.179                0.945967627     -110.747384
9.18                 0.945833022     -110.953317
9.181                0.945698261     -111.159752
9.182                0.945563346     -111.366691
9.183                0.945428279     -111.574134
9.184                0.945293063     -111.782082
9.185                0.945157701     -111.990534
9.186                0.945022196     -112.199492
9.187                 0.94488655     -112.408956
9.188                0.944750766     -112.618927
9.189                0.944614848     -112.829404
9.19                 0.944478797     -113.040389
9.191                0.944342617     -113.251882
9.192                0.944206311     -113.463883
9.193                0.944069881     -113.676394
9.194                0.943933331     -113.889413
9.195                0.943796664     -114.102942
9.196                0.943659883     -114.316982
9.197                 0.94352299     -114.531531
9.198                 0.94338599     -114.746592
9.199                0.943248885     -114.962164
9.2                  0.943111678     -115.178247
9.201                0.942974373     -115.394843
9.202                0.942836973      -115.61195
9.203                0.942699481      -115.82957
9.204                0.942561901     -116.047704
9.205                0.942424235      -116.26635
9.206                0.942286489      -116.48551
9.207                0.942148664     -116.705183
9.208                0.942010765      -116.92537
9.209                0.941872794     -117.146072
9.21                 0.941734756     -117.367288
9.211                0.941596655     -117.589019
9.212                0.941458493     -117.811264
9.213                0.941320274     -118.034025
9.214                0.941182003     -118.257301
9.215                0.941043683     -118.481092
9.216                0.940905317     -118.705398
9.217                 0.94076691     -118.930221
9.218                0.940628466     -119.155559
9.219                0.940489988     -119.381412
9.22                  0.94035148     -119.607782
9.221                0.940212947     -119.834667
9.222                0.940074392     -120.062069
9.223                0.939935819     -120.289986
9.224                0.939797232      -120.51842
9.225                0.939658637     -120.747369
9.226                0.939520036     -120.976835
9.227                0.939381433     -121.206816
9.228                0.939242834     -121.437314
9.229                0.939104243     -121.668327
9.23                 0.938965663     -121.899856
9.231                  0.9388271     -122.131901
9.232                0.938688557     -122.364461
9.233                0.938550038     -122.597536
9.234                 0.93841155     -122.831127
9.235                0.938273095     -123.065233
9.236                0.938134678     -123.299854
9.237                0.937996305      -123.53499
9.238                0.937857979      -123.77064
9.239                0.937719705     -124.006804
9.24                 0.937581488     -124.243482
9.241                0.937443333     -124.480674
9.242                0.937305244     -124.718379
9.243                0.937167226     -124.956598
9.244                0.937029285     -125.195329
9.245                0.936891424     -125.434572
9.246                0.936753649     -125.674328
9.247                0.936615964     -125.914595
9.248                0.936478375     -126.155373
9.249                0.936340887     -126.396662
9.25                 0.936203504     -126.638461
9.251                0.936066233     -126.880771
9.252                0.935929076     -127.123589
9.253                0.935792041     -127.366916
9.254                0.935655132     -127.610752
9.255                0.935518355     -127.855095
9.256                0.935381714     -128.099946
9.257                0.935245214     -128.345303
9.258                0.935108862     -128.591166
9.259                0.934972662     -128.837535
9.26                 0.934836621     -129.084408
9.261                0.934700742     -129.331785
9.262                0.934565032     -129.579665
9.263                0.934429497     -129.828048
9.264                0.934294141     -130.076933
9.265                 0.93415897     -130.326319
9.266                 0.93402399     -130.576205
9.267                0.933889206     -130.826591
9.268                0.933754624     -131.077475
9.269                 0.93362025     -131.328857
9.27                 0.933486089     -131.580736
9.271                0.933352147     -131.833111
9.272                 0.93321843     -132.085981
9.273                0.933084943     -132.339345
9.274                0.932951693     -132.593203
9.275                0.932818685     -132.847553
9.276                0.932685925     -133.102393
9.277                0.932553419     -133.357724
9.278                0.932421172     -133.613544
9.279                0.932289191     -133.869853
9.28                 0.932157482     -134.126648
9.281                0.932026051     -134.383928
9.282                0.931894903     -134.641694
9.283                0.931764045     -134.899943
9.284                0.931633482     -135.158674
9.285                0.931503222     -135.417886
9.286                 0.93137327     -135.677578
9.287                0.931243631     -135.937748
9.288                0.931114313     -136.198396
9.289                0.930985321     -136.459519
9.29                 0.930856662     -136.721117
9.291                0.930728341     -136.983189
9.292                0.930600366     -137.245732
9.293                0.930472742     -137.508745
9.294                0.930345475     -137.772227
9.295                0.930218573     -138.036177
9.296                 0.93009204     -138.300593
9.297                0.929965884     -138.565473
9.298                0.929840111     -138.830816
9.299                0.929714727      -139.09662
9.3                  0.929589738     -139.362884
9.301                0.929465152     -139.629606
9.302                0.929340974     -139.896785
9.303                 0.92921721     -140.164418
9.304                0.929093868     -140.432504
9.305                0.928970953     -140.701042
9.306                0.928848473      -140.97003
9.307                0.928726433     -141.239465
9.308                 0.92860484     -141.509346
9.309                  0.9284837     -141.779672
9.31                 0.928363021      -142.05044
9.311                0.928242808     -142.321648
9.312                0.928123068     -142.593295
9.313                0.928003808     -142.865379
9.314                0.927885033     -143.137897
9.315                0.927766751     -143.410848
9.316                0.927648969      -143.68423
9.317                0.927531691     -143.958041
9.318                0.927414927     -144.232278
9.319                 0.92729868      -144.50694
9.32                 0.927182959     -144.782024
9.321                 0.92706777     -145.057529
9.322                0.926953119     -145.333451
9.323                0.926839013      -145.60979
9.324                0.926725459     -145.886543
9.325                0.926612462     -146.163707
9.326                 0.92650003      -146.44128
9.327                0.926388168      -146.71926
9.328                0.926276885     -146.997645
9.329                0.926166185     -147.276432
9.33                 0.926056076      -147.55562
9.331                0.925946564     -147.835204
9.332                0.925837655     -148.115184
9.333                0.925729357     -148.395557
9.334                0.925621675     -148.676319
9.335                0.925514616      -148.95747
9.336                0.925408187     -149.239006
9.337                0.925302393     -149.520924
9.338                0.925197241     -149.803223
9.339                0.925092739     -150.085899
9.34                 0.924988891     -150.368949
9.341                0.924885705     -150.652372
9.342                0.924783187     -150.936165
9.343                0.924681343     -151.220324
9.344                0.924580179     -151.504848
9.345                0.924479702     -151.789733
9.346                0.924379918     -152.074977
9.347                0.924280834     -152.360576
9.348                0.924182455     -152.646528
9.349                0.924084789     -152.932831
9.35                  0.92398784      -153.21948
9.351                0.923891615     -153.506475
9.352                0.923796121      -153.79381
9.353                0.923701363     -154.081484
9.354                0.923607347     -154.369494
9.355                 0.92351408     -154.657836
9.356                0.923421568     -154.946508
9.357                0.923329816     -155.235506
9.358                0.923238831     -155.524827
9.359                0.923148619     -155.814469
9.36                 0.923059184     -156.104428
9.361                0.922970534     -156.394702
9.362                0.922882674     -156.685286
9.363                 0.92279561     -156.976178
9.364                0.922709348     -157.267374
9.365                0.922623893     -157.558872
9.366                 0.92253925     -157.850668
9.367                0.922455427     -158.142759
9.368                0.922372428     -158.435141
9.369                0.922290258     -158.727811
9.37                 0.922208924     -159.020767
9.371                 0.92212843     -159.314003
9.372                0.922048783     -159.607518
9.373                0.921969987     -159.901308
9.374                0.921892048     -160.195369
9.375                0.921814971     -160.489698
9.376                0.921738762     -160.784292
9.377                0.921663425     -161.079146
9.378                0.921588965     -161.374258
9.379                0.921515389     -161.669624
9.38                   0.9214427      -161.96524
9.381                0.921370904     -162.261103
9.382                0.921300006     -162.557209
9.383                 0.92123001     -162.853555
9.384                0.921160921     -163.150137
9.385                0.921092745     -163.446951
9.386                0.921025485     -163.743994
9.387                0.920959147     -164.041262
9.388                0.920893735     -164.338752
9.389                0.920829253     -164.636459
9.39                 0.920765707      -164.93438
9.391                  0.9207031     -165.232512
9.392                0.920641436      -165.53085
9.393                 0.92058072      -165.82939
9.394                0.920520957      -166.12813
9.395                 0.92046215     -166.427065
9.396                0.920404304     -166.726191
