! TOUCHSTONE file generated by CST DESIGN STUDIO
! Date and time: Tue Feb  4 12:55:05 2025
! Project name: C:\Work\MatlabApps\UnitCellOptimizationMatlab\CST\unitcell.cst
! Tree item: Tasks\Sweep1\SPara1\S-Parameters
! Header version: 2024
! Port assignment regex: !\s*Touchstone port\s*([0-9]+)\s*=\s*(CST MWS port|CST DES external port|CST DES block port)\s*(.+)\s* \(\"(.*)\"\)(\s*mode\s*([0-9]+))?.*
! Touchstone port assignment:
! Touchstone port 1 = CST DES external port 1 ("")
# GHz S MA R 50
9                    0.977378365     -66.1358701
9.001                 0.97732928     -66.2296043
9.002                0.977280046     -66.3235604
9.003                0.977230662      -66.417739
9.004                0.977181128     -66.5121408
9.005                0.977131443     -66.6067665
9.006                0.977081606     -66.7016167
9.007                0.977031618     -66.7966923
9.008                0.976981478     -66.8919939
9.009                0.976931186     -66.9875221
9.01                  0.97688074     -67.0832778
9.011                0.976830141     -67.1792615
9.012                0.976779388      -67.275474
9.013                 0.97672848     -67.3719161
9.014                0.976677418     -67.4685884
9.015                0.976626201     -67.5654916
9.016                0.976574828     -67.6626264
9.017                0.976523299     -67.7599937
9.018                0.976471613      -67.857594
9.019                0.976419771     -67.9554281
9.02                 0.976367771     -68.0534968
9.021                0.976315613     -68.1518007
9.022                0.976263297     -68.2503407
9.023                0.976210822     -68.3491173
9.024                0.976158188     -68.4481314
9.025                0.976105394     -68.5473838
9.026                 0.97605244      -68.646875
9.027                0.975999326     -68.7466059
9.028                 0.97594605     -68.8465773
9.029                0.975892613     -68.9467898
9.03                 0.975839015     -69.0472442
9.031                0.975785254     -69.1479412
9.032                 0.97573133     -69.2488817
9.033                0.975677243     -69.3500663
9.034                0.975622992     -69.4514959
9.035                0.975568577     -69.5531711
9.036                0.975513998     -69.6550928
9.037                0.975459254     -69.7572617
9.038                0.975404344     -69.8596785
9.039                0.975349268     -69.9623441
9.04                 0.975294026     -70.0652591
9.041                0.975238617     -70.1684245
9.042                0.975183041     -70.2718409
9.043                0.975127298     -70.3755091
9.044                0.975071386       -70.47943
9.045                0.975015306     -70.5836042
9.046                0.974959056     -70.6880326
9.047                0.974902637     -70.7927159
9.048                0.974846049      -70.897655
9.049                 0.97478929     -71.0028507
9.05                  0.97473236     -71.1083036
9.051                0.974675259     -71.2140147
9.052                0.974617986     -71.3199847
9.053                0.974560541     -71.4262144
9.054                0.974502924     -71.5327046
9.055                0.974445133     -71.6394562
9.056                0.974387169     -71.7464699
9.057                0.974329032     -71.8537465
9.058                 0.97427072     -71.9612869
9.059                0.974212233     -72.0690919
9.06                 0.974153571     -72.1771622
9.061                0.974094733     -72.2854987
9.062                0.974035719     -72.3941022
9.063                0.973976529     -72.5029736
9.064                0.973917162     -72.6121136
9.065                0.973857617     -72.7215232
9.066                0.973797895      -72.831203
9.067                0.973737994      -72.941154
9.068                0.973677915      -73.051377
9.069                0.973617657     -73.1618728
9.07                 0.973557219     -73.2726422
9.071                0.973496601     -73.3836862
9.072                0.973435802     -73.4950055
9.073                0.973374823     -73.6066009
9.074                0.973313663     -73.7184734
9.075                0.973252321     -73.8306238
9.076                0.973190796     -73.9430529
9.077                0.973129089     -74.0557616
9.078                  0.9730672     -74.1687508
9.079                0.973005127     -74.2820213
9.08                  0.97294287     -74.3955739
9.081                0.972880428     -74.5094095
9.082                0.972817803      -74.623529
9.083                0.972754992     -74.7379333
9.084                0.972691995     -74.8526232
9.085                0.972628813     -74.9675997
9.086                0.972565444     -75.0828634
9.087                0.972501889     -75.1984155
9.088                0.972438147     -75.3142566
9.089                0.972374217     -75.4303878
9.09                 0.972310099     -75.5468099
9.091                0.972245793     -75.6635237
9.092                0.972181298     -75.7805302
9.093                0.972116614     -75.8978302
9.094                 0.97205174     -76.0154247
9.095                0.971986676     -76.1333145
9.096                0.971921422     -76.2515006
9.097                0.971855978     -76.3699838
9.098                0.971790342      -76.488765
9.099                0.971724515     -76.6078452
9.1                  0.971658495     -76.7272252
9.101                0.971592284     -76.8469059
9.102                 0.97152588     -76.9668883
9.103                0.971459283     -77.0871732
9.104                0.971392492     -77.2077616
9.105                0.971325507     -77.3286544
9.106                0.971258329     -77.4498526
9.107                0.971190956     -77.5713569
9.108                0.971123388     -77.6931684
9.109                0.971055624      -77.815288
9.11                 0.970987665     -77.9377165
9.111                 0.97091951      -78.060455
9.112                0.970851159     -78.1835043
9.113                0.970782611     -78.3068655
9.114                0.970713865     -78.4305393
9.115                0.970644923     -78.5545268
9.116                0.970575782     -78.6788289
9.117                0.970506444     -78.8034465
9.118                0.970436907     -78.9283805
9.119                0.970367171      -79.053632
9.12                 0.970297236     -79.1792019
9.121                0.970227102      -79.305091
9.122                0.970156767     -79.4313004
9.123                0.970086233     -79.5578311
9.124                0.970015498     -79.6846838
9.125                0.969944563     -79.8118597
9.126                0.969873426     -79.9393597
9.127                0.969802088     -80.0671846
9.128                0.969730548     -80.1953356
9.129                0.969658807     -80.3238135
9.13                 0.969586863     -80.4526194
9.131                0.969514716     -80.5817541
9.132                0.969442366     -80.7112186
9.133                0.969369814      -80.841014
9.134                0.969297058     -80.9711412
9.135                0.969224098     -81.1016011
9.136                0.969150934     -81.2323947
9.137                0.969077565     -81.3635231
9.138                0.969003993     -81.4949872
9.139                0.968930215     -81.6267879
9.14                 0.968856232     -81.7589262
9.141                0.968782044     -81.8914032
9.142                 0.96870765     -82.0242199
9.143                0.968633051     -82.1573771
9.144                0.968558245     -82.2908759
9.145                0.968483233     -82.4247173
9.146                0.968408015     -82.5589022
9.147                0.968332589     -82.6934317
9.148                0.968256957     -82.8283068
9.149                0.968181118     -82.9635284
9.15                 0.968105071     -83.0990976
9.151                0.968028816     -83.2350153
9.152                0.967952354     -83.3712826
9.153                0.967875683     -83.5079004
9.154                0.967798804     -83.6448697
9.155                0.967721717     -83.7821916
9.156                0.967644422     -83.9198671
9.157                0.967566917     -84.0578971
9.158                0.967489204     -84.1962826
9.159                0.967411282     -84.3350248
9.16                  0.96733315     -84.4741245
9.161                0.967254809     -84.6135829
9.162                0.967176258     -84.7534008
9.163                0.967097498     -84.8935794
9.164                0.967018528     -85.0341196
9.165                0.966939348     -85.1750225
9.166                0.966859958      -85.316289
9.167                0.966780358     -85.4579203
9.168                0.966700548     -85.5999172
9.169                0.966620527     -85.7422809
9.17                 0.966540296     -85.8850123
9.171                0.966459854     -86.0281125
9.172                0.966379202     -86.1715824
9.173                0.966298339     -86.3154232
9.174                0.966217265     -86.4596358
9.175                0.966135981     -86.6042213
9.176                0.966054485     -86.7491807
9.177                0.965972779      -86.894515
9.178                0.965890862     -87.0402252
9.179                0.965808734     -87.1863124
9.18                 0.965726395     -87.3327776
9.181                0.965643846     -87.4796219
9.182                0.965561085     -87.6268462
9.183                0.965478113     -87.7744516
9.184                0.965394931     -87.9224391
9.185                0.965311537     -88.0708097
9.186                0.965227933     -88.2195646
9.187                0.965144118     -88.3687046
9.188                0.965060092     -88.5182309
9.189                0.964975855     -88.6681445
9.19                 0.964891408     -88.8184464
9.191                0.964806751     -88.9691376
9.192                0.964721882     -89.1202192
9.193                0.964636804     -89.2716923
9.194                0.964551515     -89.4235577
9.195                0.964466016     -89.5758167
9.196                0.964380308     -89.7284701
9.197                0.964294389     -89.8815192
9.198                 0.96420826     -90.0349647
9.199                0.964121922      -90.188808
9.2                  0.964035375     -90.3430498
9.201                0.963948618     -90.4976913
9.202                0.963861653     -90.6527336
9.203                0.963774478     -90.8081776
9.204                0.963687095     -90.9640244
9.205                0.963599503     -91.1202749
9.206                0.963511704     -91.2769304
9.207                0.963423696     -91.4339917
9.208                0.963335481     -91.5914599
9.209                0.963247058      -91.749336
9.21                 0.963158428     -91.9076211
9.211                0.963069592     -92.0663162
9.212                0.962980548     -92.2254223
9.213                0.962891299     -92.3849405
9.214                0.962801843     -92.5448717
9.215                0.962712182     -92.7052171
9.216                0.962622316     -92.8659775
9.217                0.962532245     -93.0271541
9.218                0.962441969     -93.1887479
9.219                0.962351489     -93.3507599
9.22                 0.962260806     -93.5131911
9.221                0.962169919     -93.6760425
9.222                0.962078829     -93.8393152
9.223                0.961987537     -94.0030101
9.224                0.961896042     -94.1671283
9.225                0.961804347     -94.3316708
9.226                 0.96171245     -94.4966386
9.227                0.961620352     -94.6620328
9.228                0.961528055     -94.8278542
9.229                0.961435557      -94.994104
9.23                 0.961342861     -95.1607831
9.231                0.961249966     -95.3278926
9.232                0.961156874     -95.4954334
9.233                0.961063584     -95.6634066
9.234                0.960970097     -95.8318131
9.235                0.960876414     -96.0006539
9.236                0.960782536     -96.1699301
9.237                0.960688462     -96.3396426
9.238                0.960594194     -96.5097924
9.239                0.960499733     -96.6803805
9.24                 0.960405079     -96.8514079
9.241                0.960310233     -97.0228755
9.242                0.960215195     -97.1947844
9.243                0.960119966     -97.3671355
9.244                0.960024547     -97.5399299
9.245                0.959928939     -97.7131683
9.246                0.959833143     -97.8868519
9.247                0.959737158     -98.0609817
9.248                0.959640987     -98.2355584
9.249                 0.95954463     -98.4105832
9.25                 0.959448088      -98.586057
9.251                0.959351361     -98.7619807
9.252                0.959254451     -98.9383552
9.253                0.959157358     -99.1151816
9.254                0.959060083     -99.2924608
9.255                0.958962628     -99.4701937
9.256                0.958864993     -99.6483812
9.257                0.958767179     -99.8270243
9.258                0.958669187     -100.006124
9.259                0.958571019     -100.185681
9.26                 0.958472674     -100.365696
9.261                0.958374155     -100.546171
9.262                0.958275462     -100.727106
9.263                0.958176597     -100.908501
9.264                 0.95807756     -101.090359
9.265                0.957978353      -101.27268
9.266                0.957878976     -101.455464
9.267                0.957779431     -101.638714
9.268                 0.95767972     -101.822428
9.269                0.957579842     -102.006609
9.27                 0.957479801     -102.191258
9.271                0.957379595     -102.376374
9.272                0.957279228      -102.56196
9.273                  0.9571787     -102.748016
9.274                0.957078013     -102.934542
9.275                0.956977168      -103.12154
9.276                0.956876165      -103.30901
9.277                0.956775008     -103.496953
9.278                0.956673696     -103.685371
9.279                0.956572232     -103.874264
9.28                 0.956470617     -104.063632
9.281                0.956368851     -104.253477
9.282                0.956266938     -104.443799
9.283                0.956164878       -104.6346
9.284                0.956062673     -104.825879
9.285                0.955960323     -105.017639
9.286                0.955857832     -105.209878
9.287                  0.9557552       -105.4026
9.288                 0.95565243     -105.595803
9.289                0.955549522     -105.789489
9.29                 0.955446478     -105.983659
9.291                  0.9553433     -106.178313
9.292                 0.95523999     -106.373452
9.293                 0.95513655     -106.569077
9.294                 0.95503298     -106.765188
9.295                0.954929284     -106.961787
9.296                0.954825462     -107.158874
9.297                0.954721517     -107.356449
9.298                0.954617451     -107.554514
9.299                0.954513264     -107.753069
9.3                   0.95440896     -107.952115
9.301                 0.95430454     -108.151652
9.302                0.954200006     -108.351682
9.303                 0.95409536     -108.552204
9.304                0.953990604     -108.753219
9.305                 0.95388574     -108.954729
9.306                0.953780771     -109.156733
9.307                0.953675697     -109.359232
9.308                0.953570521     -109.562228
9.309                0.953465246     -109.765719
9.31                 0.953359874     -109.969708
9.311                0.953254406     -110.174195
9.312                0.953148845      -110.37918
9.313                0.953043193     -110.584663
9.314                0.952937452     -110.790646
9.315                0.952831626     -110.997129
9.316                0.952725715     -111.204113
9.317                0.952619722     -111.411597
9.318                 0.95251365     -111.619583
9.319                0.952407501     -111.828071
9.32                 0.952301277     -112.037061
9.321                0.952194982     -112.246554
9.322                0.952088616     -112.456551
9.323                0.951982184     -112.667051
9.324                0.951875687     -112.878056
9.325                0.951769127     -113.089566
9.326                0.951662509     -113.301581
9.327                0.951555833     -113.514101
9.328                0.951449103     -113.727128
9.329                0.951342322     -113.940661
9.33                 0.951235491       -114.1547
9.331                0.951128614     -114.369247
9.332                0.951021694     -114.584301
9.333                0.950914733     -114.799863
9.334                0.950807735     -115.015934
9.335                0.950700701     -115.232513
9.336                0.950593635       -115.4496
9.337                0.950486539     -115.667197
9.338                0.950379417     -115.885303
9.339                0.950272272     -116.103919
9.34                 0.950165106     -116.323044
9.341                0.950057923      -116.54268
9.342                0.949950725     -116.762826
9.343                0.949843516     -116.983483
9.344                0.949736299      -117.20465
9.345                0.949629076     -117.426329
9.346                0.949521851     -117.648518
9.347                0.949414627     -117.871219
9.348                0.949307408     -118.094431
9.349                0.949200196     -118.318155
9.35                 0.949092995      -118.54239
9.351                0.948985808     -118.767137
9.352                0.948878638     -118.992396
9.353                0.948771489     -119.218166
9.354                0.948664364     -119.444449
9.355                0.948557266     -119.671244
9.356                  0.9484502      -119.89855
9.357                0.948343168     -120.126369
9.358                0.948236173     -120.354699
9.359                 0.94812922     -120.583542
9.36                 0.948022312     -120.812896
9.361                0.947915452     -121.042763
9.362                0.947808645     -121.273141
9.363                0.947701893      -121.50403
9.364                0.947595201     -121.735432
9.365                0.947488571     -121.967344
9.366                0.947382009     -122.199768
9.367                0.947275517     -122.432703
9.368                0.947169099     -122.666149
9.369                0.947062759     -122.900106
9.37                 0.946956501     -123.134573
9.371                0.946850329     -123.369551
9.372                0.946744246     -123.605038
9.373                0.946638257     -123.841036
9.374                0.946532366     -124.077542
9.375                0.946426575     -124.314559
9.376                0.946320891     -124.552083
9.377                0.946215315     -124.790117
9.378                0.946109854     -125.028658
9.379                0.946004509     -125.267708
9.38                 0.945899287     -125.507264
9.381                 0.94579419     -125.747328
9.382                0.945689223     -125.987898
9.383                 0.94558439     -126.228974
9.384                0.945479695     -126.470556
9.385                0.945375143     -126.712643
9.386                0.945270738     -126.955234
9.387                0.945166484      -127.19833
9.388                0.945062385     -127.441929
9.389                0.944958445     -127.686031
9.39                  0.94485467     -127.930635
9.391                0.944751063     -128.175741
9.392                0.944647629     -128.421347
9.393                0.944544373     -128.667455
9.394                0.944441297     -128.914061
9.395                0.944338408     -129.161167
9.396                 0.94423571     -129.408771
