! TOUCHSTONE file generated by CST DESIGN STUDIO
! Date and time: Tue Feb  4 12:54:56 2025
! Project name: C:\Work\MatlabApps\UnitCellOptimizationMatlab\CST\unitcell.cst
! Tree item: Tasks\Sweep1\SPara1\S-Parameters
! Header version: 2024
! Port assignment regex: !\s*Touchstone port\s*([0-9]+)\s*=\s*(CST MWS port|CST DES external port|CST DES block port)\s*(.+)\s* \(\"(.*)\"\)(\s*mode\s*([0-9]+))?.*
! Touchstone port assignment:
! Touchstone port 1 = CST DES external port 1 ("")
# GHz S MA R 50
9                    0.976179655     -78.4450617
9.001                0.976119735     -78.5667667
9.002                0.976059635     -78.6887764
9.003                0.975999354     -78.8110915
9.004                0.975938891      -78.933713
9.005                0.975878246     -79.0566419
9.006                0.975817419      -79.179879
9.007                 0.97575641     -79.3034252
9.008                0.975695217     -79.4272815
9.009                0.975633841     -79.5514487
9.01                 0.975572281     -79.6759277
9.011                0.975510538     -79.8007195
9.012                0.975448609      -79.925825
9.013                0.975386497     -80.0512451
9.014                0.975324199     -80.1769807
9.015                0.975261716     -80.3030328
9.016                0.975199047     -80.4294022
9.017                0.975136192     -80.5560899
9.018                 0.97507315     -80.6830968
9.019                0.975009922     -80.8104239
9.02                 0.974946507      -80.938072
9.021                0.974882905     -81.0660421
9.022                0.974819115     -81.1943351
9.023                0.974755137      -81.322952
9.024                 0.97469097     -81.4518937
9.025                0.974626615     -81.5811612
9.026                0.974562072     -81.7107553
9.027                0.974497339      -81.840677
9.028                0.974432416     -81.9709273
9.029                0.974367304     -82.1015071
9.03                 0.974302002     -82.2324173
9.031                 0.97423651     -82.3636589
9.032                0.974170826     -82.4952329
9.033                0.974104952     -82.6271401
9.034                0.974038887     -82.7593816
9.035                0.973972631     -82.8919582
9.036                0.973906182      -83.024871
9.037                0.973839542     -83.1581209
9.038                0.973772709     -83.2917089
9.039                0.973705684     -83.4256359
9.04                 0.973638466     -83.5599028
9.041                0.973571056     -83.6945107
9.042                0.973503452     -83.8294605
9.043                0.973435654     -83.9647531
9.044                0.973367663     -84.1003896
9.045                0.973299478     -84.2363708
9.046                0.973231099     -84.3726978
9.047                0.973162525     -84.5093716
9.048                0.973093757      -84.646393
9.049                0.973024794     -84.7837631
9.05                 0.972955636     -84.9214828
9.051                0.972886283     -85.0595531
9.052                0.972816734      -85.197975
9.053                 0.97274699     -85.3367494
9.054                 0.97267705     -85.4758774
9.055                0.972606914     -85.6153599
9.056                0.972536582     -85.7551979
9.057                0.972466053     -85.8953923
9.058                0.972395329     -86.0359442
9.059                0.972324407     -86.1768545
9.06                 0.972253289     -86.3181242
9.061                0.972181973     -86.4597543
9.062                0.972110461     -86.6017458
9.063                0.972038751     -86.7440996
9.064                0.971966845     -86.8868167
9.065                 0.97189474     -87.0298982
9.066                0.971822438      -87.173345
9.067                0.971749938     -87.3171581
9.068                0.971677241     -87.4613384
9.069                0.971604345     -87.6058871
9.07                 0.971531252      -87.750805
9.071                 0.97145796     -87.8960931
9.072                0.971384471     -88.0417525
9.073                0.971310783     -88.1877841
9.074                0.971236896     -88.3341889
9.075                0.971162811     -88.4809679
9.076                0.971088528     -88.6281221
9.077                0.971014047     -88.7756525
9.078                0.970939366     -88.9235601
9.079                0.970864488     -89.0718459
9.08                  0.97078941     -89.2205108
9.081                0.970714134     -89.3695559
9.082                 0.97063866     -89.5189821
9.083                0.970562987     -89.6687904
9.084                0.970487115     -89.8189819
9.085                0.970411045     -89.9695576
9.086                0.970334776     -90.1205183
9.087                0.970258308     -90.2718652
9.088                0.970181642     -90.4235991
9.089                0.970104778     -90.5757212
9.09                 0.970027715     -90.7282323
9.091                0.969950453     -90.8811336
9.092                0.969872994     -91.0344259
9.093                0.969795336     -91.1881102
9.094                 0.96971748     -91.3421876
9.095                0.969639426     -91.4966591
9.096                0.969561174     -91.6515256
9.097                0.969482725     -91.8067881
9.098                0.969404077     -91.9624476
9.099                0.969325233     -92.1185051
9.1                   0.96924619     -92.2749616
9.101                0.969166951     -92.4318181
9.102                0.969087514     -92.5890756
9.103                0.969007881      -92.746735
9.104                 0.96892805     -92.9047973
9.105                0.968848024     -93.0632635
9.106                  0.9687678     -93.2221347
9.107                0.968687381     -93.3814117
9.108                0.968606766     -93.5410956
9.109                0.968525955     -93.7011873
9.11                 0.968444948     -93.8616879
9.111                0.968363747     -94.0225982
9.112                 0.96828235     -94.1839194
9.113                0.968200759     -94.3456522
9.114                0.968118974     -94.5077978
9.115                0.968036994     -94.6703571
9.116                0.967954821     -94.8333311
9.117                0.967872454     -94.9967207
9.118                0.967789894     -95.1605269
9.119                0.967707141     -95.3247507
9.12                 0.967624196      -95.489393
9.121                0.967541058     -95.6544548
9.122                 0.96745773      -95.819937
9.123                0.967374209     -95.9858407
9.124                0.967290498     -96.1521668
9.125                0.967206597     -96.3189161
9.126                0.967122505     -96.4860898
9.127                0.967038224     -96.6536887
9.128                0.966953753     -96.8217138
9.129                0.966869094      -96.990166
9.13                 0.966784247     -97.1590462
9.131                0.966699212     -97.3283555
9.132                0.966613989     -97.4980948
9.133                 0.96652858     -97.6682649
9.134                0.966442985     -97.8388668
9.135                0.966357204     -98.0099015
9.136                0.966271238     -98.1813699
9.137                0.966185088     -98.3532729
9.138                0.966098754     -98.5256114
9.139                0.966012236     -98.6983863
9.14                 0.965925536     -98.8715987
9.141                0.965838653     -99.0452493
9.142                0.965751589      -99.219339
9.143                0.965664345     -99.3938689
9.144                 0.96557692     -99.5688398
9.145                0.965489316     -99.7442526
9.146                0.965401533     -99.9201082
9.147                0.965313572     -100.096407
9.148                0.965225434     -100.273151
9.149                0.965137119     -100.450341
9.15                 0.965048629     -100.627976
9.151                0.964959963     -100.806059
9.152                0.964871124      -100.98459
9.153                0.964782111      -101.16357
9.154                0.964692926        -101.343
9.155                0.964603569     -101.522881
9.156                0.964514041     -101.703213
9.157                0.964424343     -101.883997
9.158                0.964334476     -102.065235
9.159                0.964244441     -102.246927
9.16                 0.964154239     -102.429073
9.161                 0.96406387     -102.611676
9.162                0.963973336     -102.794735
9.163                0.963882638     -102.978252
9.164                0.963791777     -103.162227
9.165                0.963700753     -103.346661
9.166                0.963609568     -103.531554
9.167                0.963518223     -103.716909
9.168                0.963426719     -103.902725
9.169                0.963335056     -104.089003
9.17                 0.963243237     -104.275744
9.171                0.963151262     -104.462949
9.172                0.963059132     -104.650619
9.173                0.962966848     -104.838754
9.174                0.962874413     -105.027356
9.175                0.962781826     -105.216424
9.176                0.962689089      -105.40596
9.177                0.962596204     -105.595964
9.178                0.962503171     -105.786438
9.179                0.962409992     -105.977381
9.18                 0.962316668     -106.168795
9.181                0.962223201      -106.36068
9.182                0.962129591     -106.553037
9.183                0.962035841     -106.745867
9.184                0.961941951     -106.939171
9.185                0.961847923     -107.132949
9.186                0.961753759     -107.327201
9.187                0.961659459     -107.521929
9.188                0.961565026     -107.717133
9.189                 0.96147046     -107.912814
9.19                 0.961375764     -108.108973
9.191                0.961280938      -108.30561
9.192                0.961185985     -108.502725
9.193                0.961090906      -108.70032
9.194                0.960995702     -108.898395
9.195                0.960900375      -109.09695
9.196                0.960804927     -109.295987
9.197                0.960709359     -109.495506
9.198                0.960613674     -109.695507
9.199                0.960517872     -109.895991
9.2                  0.960421956     -110.096959
9.201                0.960325927     -110.298411
9.202                0.960229787     -110.500348
9.203                0.960133537      -110.70277
9.204                0.960037181     -110.905677
9.205                0.959940718     -111.109071
9.206                0.959844152     -111.312952
9.207                0.959747484     -111.517321
9.208                0.959650717     -111.722177
9.209                0.959553851     -111.927521
9.21                 0.959456889     -112.133355
9.211                0.959359833     -112.339677
9.212                0.959262685      -112.54649
9.213                0.959165447     -112.753792
9.214                0.959068121     -112.961586
9.215                0.958970709      -113.16987
9.216                0.958873213     -113.378646
9.217                0.958775636     -113.587913
9.218                0.958677979     -113.797673
9.219                0.958580244     -114.007926
9.22                 0.958482434     -114.218671
9.221                0.958384551     -114.429911
9.222                0.958286598     -114.641643
9.223                0.958188576      -114.85387
9.224                0.958090487     -115.066592
9.225                0.957992335     -115.279808
9.226                0.957894121     -115.493519
9.227                0.957795848     -115.707725
9.228                0.957697518     -115.922427
9.229                0.957599133     -116.137625
9.23                 0.957500697     -116.353319
9.231                0.957402211     -116.569509
9.232                0.957303678     -116.786196
9.233                  0.9572051      -117.00338
9.234                0.957106481      -117.22106
9.235                0.957007822     -117.439238
9.236                0.956909126     -117.657913
9.237                0.956810396     -117.877086
9.238                0.956711634     -118.096757
9.239                0.956612844     -118.316925
9.24                 0.956514027     -118.537591
9.241                0.956415187     -118.758755
9.242                0.956316326     -118.980418
9.243                0.956217447     -119.202578
9.244                0.956118552     -119.425237
9.245                0.956019645     -119.648394
9.246                0.955920729      -119.87205
9.247                0.955821806     -120.096203
9.248                0.955722879     -120.320856
9.249                0.955623952     -120.546006
9.25                 0.955525026     -120.771655
9.251                0.955426105     -120.997802
9.252                0.955327193     -121.224448
9.253                0.955228291     -121.451592
9.254                0.955129404     -121.679233
9.255                0.955030533     -121.907373
9.256                0.954931683     -122.136011
9.257                0.954832857     -122.365146
9.258                0.954734056     -122.594779
9.259                0.954635286     -122.824909
9.26                 0.954536548     -123.055537
9.261                0.954437847     -123.286661
9.262                0.954339185     -123.518283
9.263                0.954240566     -123.750401
9.264                0.954141992     -123.983015
9.265                0.954043468     -124.216125
9.266                0.953944996     -124.449731
9.267                0.953846581     -124.683833
9.268                0.953748224     -124.918429
9.269                0.953649931     -125.153521
9.27                 0.953551704     -125.389107
9.271                0.953453547     -125.625186
9.272                0.953355462      -125.86176
9.273                0.953257455     -126.098827
9.274                0.953159528     -126.336387
9.275                0.953061684     -126.574439
9.276                0.952963929     -126.812983
9.277                0.952866264     -127.052018
9.278                0.952768694     -127.291544
9.279                0.952671222     -127.531561
9.28                 0.952573852     -127.772067
9.281                0.952476588     -128.013063
9.282                0.952379434     -128.254548
9.283                0.952282393      -128.49652
9.284                0.952185468      -128.73898
9.285                0.952088665     -128.981927
9.286                0.951991986     -129.225361
9.287                0.951895436     -129.469279
9.288                0.951799018     -129.713683
9.289                0.951702736      -129.95857
9.29                 0.951606595     -130.203941
9.291                0.951510597     -130.449794
9.292                0.951414748     -130.696129
9.293                 0.95131905     -130.942946
9.294                0.951223509     -131.190242
9.295                0.951128127     -131.438018
9.296                 0.95103291     -131.686272
9.297                 0.95093786     -131.935003
9.298                0.950842983     -132.184212
9.299                0.950748282     -132.433896
9.3                  0.950653761     -132.684055
9.301                0.950559425     -132.934687
9.302                0.950465277     -133.185793
9.303                0.950371322      -133.43737
9.304                0.950277564     -133.689418
9.305                0.950184008     -133.941936
9.306                0.950090656     -134.194922
9.307                0.949997514     -134.448376
9.308                0.949904587     -134.702296
9.309                0.949811877     -134.956682
9.31                  0.94971939     -135.211531
9.311                0.949627129     -135.466843
9.312                0.949535099     -135.722618
9.313                0.949443305     -135.978852
9.314                0.949351751     -136.235546
9.315                 0.94926044     -136.492697
9.316                0.949169378     -136.750305
9.317                0.949078569     -137.008368
9.318                0.948988017     -137.266886
9.319                0.948897727     -137.525855
9.32                 0.948807703     -137.785276
9.321                0.948717949     -138.045147
9.322                0.948628471     -138.305465
9.323                0.948539271     -138.566231
9.324                0.948450356     -138.827442
9.325                0.948361729     -139.089096
9.326                0.948273395     -139.351193
9.327                0.948185358      -139.61373
9.328                0.948097623     -139.876707
9.329                0.948010194     -140.140121
9.33                 0.947923076     -140.403971
9.331                0.947836274     -140.668255
9.332                0.947749792     -140.932971
9.333                0.947663634     -141.198119
9.334                0.947577806     -141.463695
9.335                0.947492311     -141.729699
9.336                0.947407154     -141.996128
9.337                 0.94732234     -142.262981
9.338                0.947237873     -142.530256
9.339                0.947153758      -142.79795
9.34                     0.94707     -143.066064
9.341                0.946986603     -143.334593
9.342                0.946903572     -143.603537
9.343                0.946820911     -143.872893
9.344                0.946738625     -144.142659
9.345                0.946656718     -144.412834
9.346                0.946575195     -144.683416
9.347                0.946494061     -144.954402
9.348                 0.94641332      -145.22579
9.349                0.946332977     -145.497579
9.35                 0.946253037     -145.769765
9.351                0.946173503     -146.042348
9.352                0.946094381     -146.315324
9.353                0.946015675     -146.588692
9.354                 0.94593739      -146.86245
9.355                0.945859531     -147.136595
9.356                0.945782101     -147.411124
9.357                0.945705105     -147.686037
9.358                0.945628549     -147.961329
9.359                0.945552436        -148.237
9.36                 0.945476771     -148.513047
9.361                0.945401559     -148.789466
9.362                0.945326804     -149.066257
9.363                 0.94525251     -149.343416
9.364                0.945178682     -149.620941
9.365                0.945105326      -149.89883
9.366                0.945032444      -150.17708
9.367                0.944960042     -150.455688
9.368                0.944888123     -150.734652
9.369                0.944816693      -151.01397
9.37                 0.944745757     -151.293639
9.371                0.944675317     -151.573655
9.372                0.944605379     -151.854018
9.373                0.944535947     -152.134723
9.374                0.944467025     -152.415769
9.375                0.944398619     -152.697152
9.376                0.944330731      -152.97887
9.377                0.944263367      -153.26092
9.378                 0.94419653       -153.5433
9.379                0.944130225     -153.826006
9.38                 0.944064457     -154.109035
9.381                0.943999229     -154.392386
9.382                0.943934546     -154.676054
9.383                0.943870411     -154.960038
9.384                 0.94380683     -155.244334
9.385                0.943743805     -155.528939
9.386                0.943681342     -155.813851
9.387                0.943619444     -156.099066
9.388                0.943558116     -156.384581
9.389                0.943497361     -156.670394
9.39                 0.943437184     -156.956501
9.391                0.943377588     -157.242899
9.392                0.943318578     -157.529585
9.393                0.943260157     -157.816557
9.394                0.943202329     -158.103811
9.395                0.943145098     -158.391343
9.396                0.943088468     -158.679152
