! TOUCHSTONE file generated by CST DESIGN STUDIO
! Date and time: Tue Feb  4 12:54:55 2025
! Project name: C:\Work\MatlabApps\UnitCellOptimizationMatlab\CST\unitcell.cst
! Tree item: Tasks\Sweep1\SPara1\S-Parameters
! Header version: 2024
! Port assignment regex: !\s*Touchstone port\s*([0-9]+)\s*=\s*(CST MWS port|CST DES external port|CST DES block port)\s*(.+)\s* \(\"(.*)\"\)(\s*mode\s*([0-9]+))?.*
! Touchstone port assignment:
! Touchstone port 1 = CST DES external port 1 ("")
# GHz S MA R 50
9                    0.976034543     -80.1771596
9.001                0.975973313     -80.3031353
9.002                0.975911899     -80.4294281
9.003                0.975850301     -80.5560388
9.004                0.975788518     -80.6829684
9.005                0.975726551     -80.8102178
9.006                0.975664399      -80.937788
9.007                0.975602062     -81.0656799
9.008                0.975539538     -81.1938944
9.009                0.975476829     -81.3224324
9.01                 0.975413934     -81.4512949
9.011                0.975350852     -81.5804829
9.012                0.975287583     -81.7099972
9.013                0.975224127     -81.8398388
9.014                0.975160483     -81.9700086
9.015                0.975096651     -82.1005076
9.016                0.975032632     -82.2313367
9.017                0.974968424     -82.3624969
9.018                0.974904027     -82.4939891
9.019                0.974839441     -82.6258142
9.02                 0.974774666     -82.7579733
9.021                0.974709702     -82.8904672
9.022                0.974644547     -83.0232969
9.023                0.974579203     -83.1564634
9.024                0.974513668     -83.2899677
9.025                0.974447942     -83.4238105
9.026                0.974382026     -83.5579931
9.027                0.974315919     -83.6925162
9.028                 0.97424962     -83.8273809
9.029                0.974183129     -83.9625881
9.03                 0.974116447     -84.0981387
9.031                0.974049572     -84.2340339
9.032                0.973982505     -84.3702744
9.033                0.973915246     -84.5068613
9.034                0.973847794     -84.6437955
9.035                0.973780148     -84.7810781
9.036                 0.97371231     -84.9187099
9.037                0.973644278      -85.056692
9.038                0.973576052     -85.1950253
9.039                0.973507633     -85.3337108
9.04                  0.97343902     -85.4727495
9.041                0.973370212     -85.6121424
9.042                 0.97330121     -85.7518903
9.043                0.973232013     -85.8919944
9.044                0.973162621     -86.0324555
9.045                0.973093035     -86.1732747
9.046                0.973023253      -86.314453
9.047                0.972953276     -86.4559912
9.048                0.972883104     -86.5978905
9.049                0.972812736     -86.7401517
9.05                 0.972742172     -86.8827759
9.051                0.972671413     -87.0257641
9.052                0.972600457     -87.1691172
9.053                0.972529305     -87.3128362
9.054                0.972457957     -87.4569221
9.055                0.972386413      -87.601376
9.056                0.972314672     -87.7461987
9.057                0.972242735     -87.8913912
9.058                0.972170601     -88.0369546
9.059                 0.97209827     -88.1828899
9.06                 0.972025743      -88.329198
9.061                0.971953018     -88.4758799
9.062                0.971880097     -88.6229366
9.063                0.971806978     -88.7703691
9.064                0.971733663     -88.9181784
9.065                 0.97166015     -89.0663655
9.066                 0.97158644     -89.2149314
9.067                0.971512533      -89.363877
9.068                0.971438429     -89.5132034
9.069                0.971364127     -89.6629115
9.07                 0.971289629     -89.8130024
9.071                0.971214932      -89.963477
9.072                0.971140039     -90.1143363
9.073                0.971064949     -90.2655813
9.074                0.970989661      -90.417213
9.075                0.970914176     -90.5692324
9.076                0.970838494     -90.7216405
9.077                0.970762614     -90.8744383
9.078                0.970686538     -91.0276267
9.079                0.970610265     -91.1812068
9.08                 0.970533794     -91.3351795
9.081                0.970457127     -91.4895459
9.082                0.970380263     -91.6443069
9.083                0.970303203     -91.7994634
9.084                0.970225945     -91.9550166
9.085                0.970148492     -92.1109674
9.086                0.970070842     -92.2673167
9.087                0.969992996     -92.4240656
9.088                0.969914954      -92.581215
9.089                0.969836715      -92.738766
9.09                 0.969758282     -92.8967195
9.091                0.969679652     -93.0550764
9.092                0.969600827     -93.2138379
9.093                0.969521807     -93.3730048
9.094                0.969442592     -93.5325781
9.095                0.969363182     -93.6925588
9.096                0.969283578      -93.852948
9.097                0.969203779     -94.0137465
9.098                0.969123786     -94.1749553
9.099                  0.9690436     -94.3365755
9.1                  0.968963219     -94.4986079
9.101                0.968882646     -94.6610536
9.102                0.968801879     -94.8239136
9.103                0.968720919     -94.9871887
9.104                0.968639768       -95.15088
9.105                0.968558424     -95.3149884
9.106                0.968476888     -95.4795149
9.107                0.968395161     -95.6444605
9.108                0.968313242     -95.8098261
9.109                0.968231133     -95.9756127
9.11                 0.968148834     -96.1418212
9.111                0.968066345     -96.3084525
9.112                0.967983666     -96.4755078
9.113                0.967900798     -96.6429877
9.114                0.967817741     -96.8108935
9.115                0.967734496     -96.9792259
9.116                0.967651063     -97.1479859
9.117                0.967567443     -97.3171745
9.118                0.967483636     -97.4867925
9.119                0.967399642      -97.656841
9.12                 0.967315463     -97.8273209
9.121                0.967231098     -97.9982331
9.122                0.967146548     -98.1695785
9.123                0.967061814      -98.341358
9.124                0.966976896     -98.5135726
9.125                0.966891795     -98.6862232
9.126                0.966806511     -98.8593107
9.127                0.966721046      -99.032836
9.128                0.966635399     -99.2068001
9.129                0.966549571     -99.3812037
9.13                 0.966463563      -99.556048
9.131                0.966377376     -99.7313336
9.132                0.966291009     -99.9070616
9.133                0.966204465     -100.083233
9.134                0.966117743     -100.259848
9.135                0.966030845     -100.436908
9.136                0.965943771     -100.614415
9.137                0.965856521     -100.792368
9.138                0.965769097     -100.970768
9.139                0.965681499     -101.149617
9.14                 0.965593728     -101.328916
9.141                0.965505786     -101.508664
9.142                0.965417672     -101.688864
9.143                0.965329387     -101.869516
9.144                0.965240933      -102.05062
9.145                0.965152311     -102.232179
9.146                 0.96506352     -102.414191
9.147                0.964974563     -102.596659
9.148                 0.96488544     -102.779583
9.149                0.964796152     -102.962964
9.15                 0.964706699     -103.146803
9.151                0.964617084       -103.3311
9.152                0.964527307     -103.515857
9.153                0.964437368     -103.701074
9.154                 0.96434727     -103.886752
9.155                0.964257012     -104.072892
9.156                0.964166597     -104.259494
9.157                0.964076025      -104.44656
9.158                0.963985297     -104.634089
9.159                0.963894414     -104.822084
9.16                 0.963803378     -105.010545
9.161                 0.96371219     -105.199471
9.162                0.963620851     -105.388866
9.163                0.963529361     -105.578728
9.164                0.963437723     -105.769058
9.165                0.963345938     -105.959858
9.166                0.963254006     -106.151128
9.167                0.963161929     -106.342869
9.168                0.963069709     -106.535082
9.169                0.962977346     -106.727767
9.17                 0.962884843     -106.920925
9.171                0.962792199     -107.114556
9.172                0.962699418     -107.308662
9.173                0.962606499     -107.503243
9.174                0.962513445       -107.6983
9.175                0.962420257     -107.893833
9.176                0.962326937     -108.089843
9.177                0.962233485      -108.28633
9.178                0.962139903     -108.483296
9.179                0.962046194     -108.680741
9.18                 0.961952358     -108.878665
9.181                0.961858397      -109.07707
9.182                0.961764313     -109.275955
9.183                0.961670107     -109.475322
9.184                 0.96157578     -109.675171
9.185                0.961481336     -109.875502
9.186                0.961386774     -110.076317
9.187                0.961292097     -110.277615
9.188                0.961197307     -110.479397
9.189                0.961102405     -110.681664
9.19                 0.961007393     -110.884417
9.191                0.960912272     -111.087655
9.192                0.960817046      -111.29138
9.193                0.960721715     -111.495592
9.194                0.960626281     -111.700291
9.195                0.960530746     -111.905478
9.196                0.960435113     -112.111153
9.197                0.960339382     -112.317317
9.198                0.960243557      -112.52397
9.199                0.960147638     -112.731114
9.2                  0.960051628     -112.938747
9.201                0.959955529     -113.146871
9.202                0.959859343     -113.355486
9.203                0.959763072     -113.564592
9.204                0.959666718      -113.77419
9.205                0.959570284     -113.984281
9.206                 0.95947377     -114.194863
9.207                 0.95937718     -114.405939
9.208                0.959280516     -114.617509
9.209                0.959183779     -114.829571
9.21                 0.959086973     -115.042128
9.211                0.958990099     -115.255179
9.212                0.958893159     -115.468725
9.213                0.958796157     -115.682765
9.214                0.958699093     -115.897301
9.215                0.958601972     -116.112332
9.216                0.958504794     -116.327859
9.217                0.958407562     -116.543881
9.218                 0.95831028       -116.7604
9.219                0.958212948     -116.977415
9.22                  0.95811557     -117.194927
9.221                0.958018149     -117.412936
9.222                0.957920686     -117.631441
9.223                0.957823184     -117.850443
9.224                0.957725646     -118.069943
9.225                0.957628075      -118.28994
9.226                0.957530473     -118.510435
9.227                0.957432842     -118.731427
9.228                0.957335186     -118.952917
9.229                0.957237507     -119.174905
9.23                 0.957139808      -119.39739
9.231                0.957042091     -119.620374
9.232                0.956944359     -119.843855
9.233                0.956846616     -120.067835
9.234                0.956748864     -120.292312
9.235                0.956651105     -120.517287
9.236                0.956553343      -120.74276
9.237                0.956455581     -120.968732
9.238                0.956357821     -121.195201
9.239                0.956260067     -121.422167
9.24                 0.956162321     -121.649632
9.241                0.956064587     -121.877594
9.242                0.955966867     -122.106053
9.243                0.955869164      -122.33501
9.244                0.955771482     -122.564464
9.245                0.955673824     -122.794416
9.246                0.955576193     -123.024864
9.247                0.955478592     -123.255808
9.248                0.955381023     -123.487249
9.249                0.955283491     -123.719186
9.25                 0.955185999      -123.95162
9.251                 0.95508855     -124.184549
9.252                0.954991146     -124.417973
9.253                0.954893792     -124.651892
9.254                0.954796491     -124.886306
9.255                0.954699246     -125.121215
9.256                 0.95460206     -125.356618
9.257                0.954504937     -125.592514
9.258                0.954407881     -125.828904
9.259                0.954310894     -126.065787
9.26                  0.95421398     -126.303162
9.261                0.954117143     -126.541029
9.262                0.954020386     -126.779388
9.263                0.953923713     -127.018238
9.264                0.953827127     -127.257579
9.265                0.953730632     -127.497409
9.266                0.953634232      -127.73773
9.267                 0.95353793     -127.978539
9.268                0.953441729     -128.219836
9.269                0.953345634     -128.461622
9.27                 0.953249648     -128.703894
9.271                0.953153775     -128.946654
9.272                0.953058019     -129.189899
9.273                0.952962383     -129.433629
9.274                0.952866871     -129.677844
9.275                0.952771487     -129.922542
9.276                0.952676235     -130.167724
9.277                0.952581119     -130.413388
9.278                0.952486142     -130.659534
9.279                0.952391308      -130.90616
9.28                 0.952296622     -131.153267
9.281                0.952202088     -131.400852
9.282                0.952107708     -131.648915
9.283                0.952013488     -131.897456
9.284                0.951919431     -132.146474
9.285                0.951825541     -132.395967
9.286                0.951731823     -132.645934
9.287                 0.95163828     -132.896375
9.288                0.951544916     -133.147289
9.289                0.951451735     -133.398674
9.29                 0.951358743      -133.65053
9.291                0.951265942     -133.902855
9.292                0.951173337     -134.155649
9.293                0.951080931      -134.40891
9.294                 0.95098873     -134.662638
9.295                0.950896738      -134.91683
9.296                0.950804958     -135.171487
9.297                0.950713395     -135.426606
9.298                0.950622052     -135.682186
9.299                0.950530936     -135.938227
9.3                  0.950440048     -136.194727
9.301                0.950349395     -136.451685
9.302                 0.95025898     -136.709099
9.303                0.950168807     -136.966968
9.304                0.950078881     -137.225292
9.305                0.949989206     -137.484067
9.306                0.949899787     -137.743294
9.307                0.949810627      -138.00297
9.308                0.949721732     -138.263094
9.309                0.949633105     -138.523665
9.31                 0.949544752     -138.784681
9.311                0.949456675     -139.046141
9.312                0.949368881     -139.308043
9.313                0.949281373     -139.570386
9.314                0.949194155     -139.833168
9.315                0.949107233     -140.096387
9.316                 0.94902061     -140.360042
9.317                0.948934292     -140.624131
9.318                0.948848282     -140.888653
9.319                0.948762585     -141.153605
9.32                 0.948677205     -141.418987
9.321                0.948592148     -141.684796
9.322                0.948507417      -141.95103
9.323                0.948423017     -142.217688
9.324                0.948338952     -142.484769
9.325                0.948255228     -142.752269
9.326                0.948171848     -143.020187
9.327                0.948088817     -143.288522
9.328                0.948006139     -143.557271
9.329                 0.94792382     -143.826433
9.33                 0.947841863     -144.096005
9.331                0.947760274     -144.365986
9.332                0.947679056     -144.636374
9.333                0.947598214     -144.907166
9.334                0.947517754      -145.17836
9.335                0.947437678     -145.449955
9.336                0.947357992     -145.721948
9.337                0.947278701     -145.994337
9.338                0.947199808      -146.26712
9.339                0.947121319     -146.540295
9.34                 0.947043237     -146.813859
9.341                0.946965568     -147.087811
9.342                0.946888316     -147.362148
9.343                0.946811485     -147.636868
9.344                 0.94673508     -147.911968
9.345                0.946659106     -148.187447
9.346                0.946583566     -148.463302
9.347                0.946508466      -148.73953
9.348                0.946433809     -149.016129
9.349                0.946359601     -149.293097
9.35                 0.946285845     -149.570431
9.351                0.946212546     -149.848129
9.352                0.946139709     -150.126188
9.353                0.946067338     -150.404606
9.354                0.945995438     -150.683381
9.355                0.945924012     -150.962509
9.356                0.945853065     -151.241988
9.357                0.945782602     -151.521816
9.358                0.945712626      -151.80199
9.359                0.945643143     -152.082507
9.36                 0.945574156     -152.363364
9.361                 0.94550567      -152.64456
9.362                 0.94543769     -152.926091
9.363                0.945370218     -153.207954
9.364                 0.94530326     -153.490147
9.365                 0.94523682     -153.772666
9.366                0.945170902      -154.05551
9.367                0.945105511     -154.338675
9.368                0.945040649     -154.622159
9.369                0.944976323     -154.905958
9.37                 0.944912535     -155.190069
9.371                0.944849289     -155.474491
9.372                0.944786591     -155.759219
9.373                0.944724444     -156.044251
9.374                0.944662852     -156.329584
9.375                0.944601818     -156.615214
9.376                0.944541348      -156.90114
9.377                0.944481444     -157.187357
9.378                0.944422112     -157.473863
9.379                0.944363354     -157.760655
9.38                 0.944305175     -158.047729
9.381                0.944247579     -158.335083
9.382                0.944190568     -158.622712
9.383                0.944134148     -158.910615
9.384                0.944078322     -159.198788
9.385                0.944023093     -159.487228
9.386                0.943968466     -159.775931
9.387                0.943914444     -160.064894
9.388                 0.94386103     -160.354114
9.389                0.943808228     -160.643588
9.39                 0.943756042     -160.933312
9.391                0.943704476     -161.223283
9.392                0.943653532     -161.513498
9.393                0.943603214     -161.803953
9.394                0.943553526     -162.094646
9.395                0.943504472     -162.385572
9.396                0.943456053     -162.676728
