! TOUCHSTONE file generated by CST DESIGN STUDIO
! Date and time: Tue Feb  4 12:55:01 2025
! Project name: C:\Work\MatlabApps\UnitCellOptimizationMatlab\CST\unitcell.cst
! Tree item: Tasks\Sweep1\SPara1\S-Parameters
! Header version: 2024
! Port assignment regex: !\s*Touchstone port\s*([0-9]+)\s*=\s*(CST MWS port|CST DES external port|CST DES block port)\s*(.+)\s* \(\"(.*)\"\)(\s*mode\s*([0-9]+))?.*
! Touchstone port assignment:
! Touchstone port 1 = CST DES external port 1 ("")
# GHz S MA R 50
9                    0.976716983     -72.5650337
9.001                0.976661822     -72.6728199
9.002                0.976606494     -72.7808698
9.003                   0.976551     -72.8891842
9.004                0.976495338     -72.9977638
9.005                0.976439508     -73.1066096
9.006                 0.97638351     -73.2157223
9.007                0.976327343     -73.3251027
9.008                0.976271007     -73.4347516
9.009                0.976214502     -73.5446699
9.01                 0.976157826     -73.6548583
9.011                 0.97610098     -73.7653178
9.012                0.976043963      -73.876049
9.013                0.975986774     -73.9870529
9.014                0.975929414     -74.0983303
9.015                0.975871882     -74.2098819
9.016                0.975814177     -74.3217087
9.017                  0.9757563     -74.4338114
9.018                0.975698249      -74.546191
9.019                0.975640024     -74.6588482
9.02                 0.975581624     -74.7717838
9.021                0.975523051     -74.8849988
9.022                0.975464302     -74.9984939
9.023                0.975405377     -75.1122701
9.024                0.975346277     -75.2263281
9.025                0.975287001     -75.3406688
9.026                0.975227548     -75.4552931
9.027                0.975167917     -75.5702018
9.028                0.975108109     -75.6853958
9.029                0.975048124     -75.8008759
9.03                  0.97498796      -75.916643
9.031                0.974927617      -76.032698
9.032                0.974867095     -76.1490417
9.033                0.974806394      -76.265675
9.034                0.974745512     -76.3825987
9.035                0.974684451     -76.4998138
9.036                0.974623208     -76.6173212
9.037                0.974561785     -76.7351216
9.038                 0.97450018     -76.8532159
9.039                0.974438393     -76.9716052
9.04                 0.974376424     -77.0902901
9.041                0.974314272     -77.2092717
9.042                0.974251937     -77.3285507
9.043                0.974189419     -77.4481282
9.044                0.974126717     -77.5680049
9.045                 0.97406383     -77.6881818
9.046                 0.97400076     -77.8086598
9.047                0.973937504     -77.9294397
9.048                0.973874063     -78.0505225
9.049                0.973810436      -78.171909
9.05                 0.973746623     -78.2936002
9.051                0.973682624      -78.415597
9.052                0.973618438     -78.5379003
9.053                0.973554065     -78.6605109
9.054                0.973489504     -78.7834298
9.055                0.973424756     -78.9066579
9.056                0.973359819     -79.0301962
9.057                0.973294694     -79.1540455
9.058                 0.97322938     -79.2782067
9.059                0.973163876     -79.4026808
9.06                 0.973098183     -79.5274687
9.061                  0.9730323     -79.6525713
9.062                0.972966227     -79.7779895
9.063                0.972899963     -79.9037244
9.064                0.972833508     -80.0297767
9.065                0.972766862     -80.1561474
9.066                0.972700025     -80.2828375
9.067                0.972632995     -80.4098479
9.068                0.972565773     -80.5371795
9.069                0.972498359     -80.6648332
9.07                 0.972430752     -80.7928101
9.071                0.972362951      -80.921111
9.072                0.972294957      -81.049737
9.073                 0.97222677     -81.1786888
9.074                0.972158388     -81.3079675
9.075                0.972089812     -81.4375741
9.076                0.972021041     -81.5675094
9.077                0.971952075     -81.6977744
9.078                0.971882914     -81.8283701
9.079                0.971813557     -81.9592975
9.08                 0.971744005     -82.0905574
9.081                0.971674257     -82.2221509
9.082                0.971604312     -82.3540789
9.083                 0.97153417     -82.4863423
9.084                0.971463832     -82.6189422
9.085                0.971393296     -82.7518795
9.086                0.971322563     -82.8851551
9.087                0.971251633       -83.01877
9.088                0.971180505     -83.1527252
9.089                0.971109178     -83.2870217
9.09                 0.971037653     -83.4216604
9.091                 0.97096593     -83.5566423
9.092                0.970894007     -83.6919683
9.093                0.970821886     -83.8276395
9.094                0.970749565     -83.9636568
9.095                0.970677045     -84.1000213
9.096                0.970604326     -84.2367337
9.097                0.970531406     -84.3737953
9.098                0.970458287     -84.5112069
9.099                0.970384967     -84.6489694
9.1                  0.970311446      -84.787084
9.101                0.970237725     -84.9255516
9.102                0.970163804     -85.0643731
9.103                0.970089681     -85.2035496
9.104                0.970015357      -85.343082
9.105                0.969940832     -85.4829714
9.106                0.969866106     -85.6232186
9.107                0.969791178     -85.7638248
9.108                0.969716048     -85.9047909
9.109                0.969640716     -86.0461178
9.11                 0.969565182     -86.1878066
9.111                0.969489447     -86.3298584
9.112                0.969413509     -86.4722739
9.113                0.969337369     -86.6150544
9.114                0.969261026     -86.7582007
9.115                0.969184481     -86.9017139
9.116                0.969107733     -87.0455949
9.117                0.969030782     -87.1898448
9.118                0.968953629     -87.3344645
9.119                0.968876273     -87.4794551
9.12                 0.968798714     -87.6248175
9.121                0.968720952     -87.7705528
9.122                0.968642987     -87.9166619
9.123                0.968564819     -88.0631459
9.124                0.968486448     -88.2100058
9.125                0.968407874     -88.3572425
9.126                0.968329097     -88.5048571
9.127                0.968250116     -88.6528505
9.128                0.968170933     -88.8012239
9.129                0.968091546     -88.9499781
9.13                 0.968011957     -89.0991141
9.131                0.967932164     -89.2486331
9.132                0.967852168     -89.3985359
9.133                0.967771969     -89.5488236
9.134                0.967691568     -89.6994973
9.135                0.967610963     -89.8505578
9.136                0.967530156     -90.0020062
9.137                0.967449146     -90.1538435
9.138                0.967367933     -90.3060708
9.139                0.967286517      -90.458689
9.14                 0.967204899     -90.6116991
9.141                0.967123079     -90.7651021
9.142                0.967041057      -90.918899
9.143                0.966958832     -91.0730909
9.144                0.966876405     -91.2276787
9.145                0.966793777     -91.3826635
9.146                0.966710947     -91.5380462
9.147                0.966627915     -91.6938278
9.148                0.966544682     -91.8500094
9.149                0.966461248     -92.0065919
9.15                 0.966377613     -92.1635764
9.151                0.966293778     -92.3209638
9.152                0.966209742     -92.4787552
9.153                0.966125505     -92.6369514
9.154                0.966041069     -92.7955537
9.155                0.965956432     -92.9545628
9.156                0.965871596     -93.1139799
9.157                0.965786561      -93.273806
9.158                0.965701327     -93.4340419
9.159                0.965615895     -93.5946887
9.16                 0.965530263     -93.7557475
9.161                0.965444434     -93.9172191
9.162                0.965358408     -94.0791046
9.163                0.965272183      -94.241405
9.164                0.965185762     -94.4041212
9.165                0.965099144     -94.5672543
9.166                 0.96501233     -94.7308051
9.167                 0.96492532     -94.8947748
9.168                0.964838115     -95.0591642
9.169                0.964750714     -95.2239745
9.17                 0.964663119     -95.3892064
9.171                 0.96457533      -95.554861
9.172                0.964487347     -95.7209394
9.173                 0.96439917     -95.8874423
9.174                0.964310801     -96.0543709
9.175                 0.96422224     -96.2217261
9.176                0.964133487     -96.3895089
9.177                0.964044542     -96.5577201
9.178                0.963955407     -96.7263608
9.179                0.963866082      -96.895432
9.18                 0.963776567     -97.0649345
9.181                0.963686863     -97.2348694
9.182                0.963596971     -97.4052376
9.183                0.963506891       -97.57604
9.184                0.963416623     -97.7472776
9.185                0.963326169     -97.9189513
9.186                0.963235529     -98.0910621
9.187                0.963144704     -98.2636109
9.188                0.963053695     -98.4365987
9.189                0.962962501     -98.6100263
9.19                 0.962871124     -98.7838947
9.191                0.962779565     -98.9582049
9.192                0.962687824     -99.1329577
9.193                0.962595902      -99.308154
9.194                  0.9625038     -99.4837949
9.195                0.962411519     -99.6598811
9.196                0.962319059     -99.8364136
9.197                0.962226422     -100.013393
9.198                0.962133607     -100.190821
9.199                0.962040617     -100.368698
9.2                  0.961947451     -100.547025
9.201                0.961854111     -100.725802
9.202                0.961760598     -100.905031
9.203                0.961666912     -101.084713
9.204                0.961573055     -101.264848
9.205                0.961479027     -101.445438
9.206                 0.96138483     -101.626482
9.207                0.961290464     -101.807983
9.208                 0.96119593     -101.989941
9.209                0.961101231     -102.172356
9.21                 0.961006365      -102.35523
9.211                0.960911336     -102.538563
9.212                0.960816142     -102.722357
9.213                0.960720787     -102.906611
9.214                0.960625271     -103.091328
9.215                0.960529595     -103.276508
9.216                 0.96043376     -103.462151
9.217                0.960337768     -103.648258
9.218                0.960241619     -103.834831
9.219                0.960145315     -104.021869
9.22                 0.960048857     -104.209375
9.221                0.959952246     -104.397348
9.222                0.959855485     -104.585789
9.223                0.959758573       -104.7747
9.224                0.959661512     -104.964081
9.225                0.959564304     -105.153932
9.226                 0.95946695     -105.344255
9.227                0.959369451      -105.53505
9.228                 0.95927181     -105.726318
9.229                0.959174026     -105.918059
9.23                 0.959076102     -106.110275
9.231                0.958978039     -106.302967
9.232                0.958879839     -106.496134
9.233                0.958781503     -106.689778
9.234                0.958683032     -106.883899
9.235                0.958584429     -107.078498
9.236                0.958485695     -107.273576
9.237                0.958386831     -107.469133
9.238                0.958287839     -107.665171
9.239                 0.95818872     -107.861689
9.24                 0.958089477     -108.058688
9.241                0.957990111      -108.25617
9.242                0.957890624     -108.454134
9.243                0.957791017     -108.652582
9.244                0.957691293     -108.851514
9.245                0.957591452      -109.05093
9.246                0.957491498     -109.250831
9.247                0.957391431     -109.451219
9.248                0.957291253     -109.652092
9.249                0.957190967     -109.853453
9.25                 0.957090574     -110.055301
9.251                0.956990077     -110.257638
9.252                0.956889476     -110.460463
9.253                0.956788775     -110.663778
9.254                0.956687975     -110.867582
9.255                0.956587078     -111.071877
9.256                0.956486086     -111.276662
9.257                0.956385001     -111.481939
9.258                0.956283826     -111.687708
9.259                0.956182562     -111.893969
9.26                 0.956081212     -112.100723
9.261                0.955979778      -112.30797
9.262                0.955878261     -112.515711
9.263                0.955776665     -112.723946
9.264                0.955674991     -112.932677
9.265                0.955573242     -113.141902
9.266                 0.95547142     -113.351622
9.267                0.955369528     -113.561839
9.268                0.955267567     -113.772552
9.269                 0.95516554     -113.983762
9.27                 0.955063449     -114.195468
9.271                0.954961298     -114.407672
9.272                0.954859088     -114.620374
9.273                0.954756821     -114.833575
9.274                0.954654501     -115.047273
9.275                 0.95455213     -115.261471
9.276                 0.95444971     -115.476167
9.277                0.954347244     -115.691363
9.278                0.954244734     -115.907059
9.279                0.954142184     -116.123254
9.28                 0.954039596      -116.33995
9.281                0.953936972     -116.557146
9.282                0.953834316     -116.774843
9.283                0.953731629      -116.99304
9.284                0.953628915     -117.211739
9.285                0.953526177     -117.430939
9.286                0.953423418      -117.65064
9.287                0.953320639     -117.870843
9.288                0.953217845     -118.091548
9.289                0.953115037     -118.312754
9.29                  0.95301222     -118.534463
9.291                0.952909395     -118.756674
9.292                0.952806566     -118.979386
9.293                0.952703737     -119.202601
9.294                0.952600909     -119.426318
9.295                0.952498086     -119.650538
9.296                0.952395271      -119.87526
9.297                0.952292467     -120.100484
9.298                0.952189677     -120.326211
9.299                0.952086905      -120.55244
9.3                  0.951984154     -120.779172
9.301                0.951881426     -121.006406
9.302                0.951778726     -121.234142
9.303                0.951676056      -121.46238
9.304                 0.95157342      -121.69112
9.305                0.951470821     -121.920362
9.306                0.951368262     -122.150106
9.307                0.951265747     -122.380352
9.308                0.951163279     -122.611099
9.309                0.951060862     -122.842348
9.31                 0.950958498     -123.074098
9.311                0.950856193     -123.306348
9.312                0.950753948       -123.5391
9.313                0.950651768     -123.772352
9.314                0.950549656     -124.006104
9.315                0.950447616     -124.240356
9.316                0.950345652     -124.475107
9.317                0.950243766     -124.710358
9.318                0.950141963     -124.946108
9.319                0.950040246     -125.182357
9.32                  0.94993862     -125.419104
9.321                0.949837087     -125.656348
9.322                0.949735652      -125.89409
9.323                0.949634318     -126.132329
9.324                 0.94953309     -126.371065
9.325                 0.94943197     -126.610297
9.326                0.949330964     -126.850025
9.327                0.949230074     -127.090247
9.328                0.949129305     -127.330965
9.329                 0.94902866     -127.572176
9.33                 0.948928145     -127.813881
9.331                0.948827761     -128.056079
9.332                0.948727515     -128.298769
9.333                0.948627409     -128.541951
9.334                0.948527448     -128.785624
9.335                0.948427635     -129.029787
9.336                0.948327976     -129.274441
9.337                0.948228474     -129.519583
9.338                0.948129132     -129.765213
9.339                0.948029956     -130.011332
9.34                  0.94793095     -130.257937
9.341                0.947832117     -130.505028
9.342                0.947733462     -130.752604
9.343                 0.94763499     -131.000665
9.344                0.947536704     -131.249209
9.345                0.947438609     -131.498236
9.346                0.947340709     -131.747745
9.347                0.947243008     -131.997735
9.348                0.947145511     -132.248205
9.349                0.947048223     -132.499154
9.35                 0.946951147      -132.75058
9.351                0.946854287     -133.002484
9.352                 0.94675765     -133.254864
9.353                0.946661238     -133.507719
9.354                0.946565057     -133.761048
9.355                 0.94646911      -134.01485
9.356                0.946373403     -134.269123
9.357                0.946277939     -134.523867
9.358                0.946182724     -134.779081
9.359                0.946087762     -135.034763
9.36                 0.945993057     -135.290912
9.361                0.945898615     -135.547526
9.362                0.945804439     -135.804606
9.363                0.945710534     -136.062148
9.364                0.945616906     -136.320153
9.365                0.945523558     -136.578619
9.366                0.945430495     -136.837544
9.367                0.945337722     -137.096927
9.368                0.945245243     -137.356766
9.369                0.945153064     -137.617061
9.37                 0.945061189      -137.87781
9.371                0.944969622     -138.139011
9.372                0.944878369     -138.400663
9.373                0.944787434     -138.662764
9.374                0.944696822     -138.925314
9.375                0.944606537     -139.188309
9.376                0.944516585     -139.451749
9.377                 0.94442697     -139.715633
9.378                0.944337697     -139.979958
9.379                 0.94424877     -140.244722
9.38                 0.944160195     -140.509925
9.381                0.944071977     -140.775565
9.382                 0.94398412     -141.041639
9.383                0.943896628     -141.308147
9.384                0.943809507     -141.575085
9.385                0.943722762     -141.842453
9.386                0.943636398     -142.110249
9.387                0.943550418     -142.378471
9.388                0.943464829     -142.647116
9.389                0.943379635     -142.916184
9.39                  0.94329484     -143.185671
9.391                 0.94321045     -143.455577
9.392                0.943126469       -143.7259
9.393                0.943042903     -143.996636
9.394                0.942959755     -144.267785
9.395                0.942877032     -144.539344
9.396                0.942794737     -144.811311
