! TOUCHSTONE file generated by CST DESIGN STUDIO
! Date and time: Tue Feb  4 17:56:26 2025
! Project name: C:\Work\MatlabApps\UnitCellOptimizationMatlab\CST\unitcell.cst
! Tree item: Tasks\Sweep1\SPara1\S-Parameters
! Header version: 2024
! Port assignment regex: !\s*Touchstone port\s*([0-9]+)\s*=\s*(CST MWS port|CST DES external port|CST DES block port)\s*(.+)\s* \(\"(.*)\"\)(\s*mode\s*([0-9]+))?.*
! Touchstone port assignment:
! Touchstone port 1 = CST DES external port 1 ("")
# GHz S MA R 50
9                     0.98080959      -76.914603
9.001                 0.98076247     -77.0319016
9.002                0.980715209     -77.1494902
9.003                0.980667807     -77.2673697
9.004                0.980620263      -77.385541
9.005                0.980572577     -77.5040049
9.006                0.980524748     -77.6227623
9.007                0.980476778      -77.741814
9.008                0.980428664     -77.8611609
9.009                0.980380407      -77.980804
9.01                 0.980332007      -78.100744
9.011                0.980283463     -78.2209818
9.012                0.980234775     -78.3415184
9.013                0.980185942     -78.4623545
9.014                0.980136965     -78.5834911
9.015                0.980087844      -78.704929
9.016                0.980038577     -78.8266692
9.017                0.979989164     -78.9487125
9.018                0.979939606     -79.0710597
9.019                0.979889902     -79.1937119
9.02                 0.979840051     -79.3166698
9.021                0.979790054     -79.4399344
9.022                 0.97973991     -79.5635065
9.023                0.979689619     -79.6873871
9.024                 0.97963918     -79.8115771
9.025                0.979588594     -79.9360772
9.026                 0.97953786     -80.0608886
9.027                0.979486977      -80.186012
9.028                0.979435947     -80.3114483
9.029                0.979384767     -80.4371985
9.03                 0.979333438     -80.5632635
9.031                0.979281961     -80.6896441
9.032                0.979230333     -80.8163413
9.033                0.979178556      -80.943356
9.034                0.979126629     -81.0706891
9.035                0.979074552     -81.1983416
9.036                0.979022324     -81.3263143
9.037                0.978969946     -81.4546081
9.038                0.978917416      -81.583224
9.039                0.978864735     -81.7121629
9.04                 0.978811903     -81.8414257
9.041                0.978758919     -81.9710134
9.042                0.978705784     -82.1009269
9.043                0.978652496      -82.231167
9.044                0.978599056     -82.3617348
9.045                0.978545463     -82.4926311
9.046                0.978491717     -82.6238569
9.047                0.978437819     -82.7554132
9.048                0.978383767     -82.8873008
9.049                0.978329562     -83.0195206
9.05                 0.978275203     -83.1520737
9.051                 0.97822069      -83.284961
9.052                0.978166023     -83.4181834
9.053                0.978111203     -83.5517418
9.054                0.978056227     -83.6856372
9.055                0.978001097     -83.8198706
9.056                0.977945812     -83.9544428
9.057                0.977890373     -84.0893549
9.058                0.977834778     -84.2246077
9.059                0.977779028     -84.3602022
9.06                 0.977723122     -84.4961394
9.061                0.977667061     -84.6324203
9.062                0.977610844     -84.7690457
9.063                0.977554471     -84.9060166
9.064                0.977497941      -85.043334
9.065                0.977441256     -85.1809988
9.066                0.977384414      -85.319012
9.067                0.977327415     -85.4573746
9.068                 0.97727026     -85.5960874
9.069                0.977212948     -85.7351515
9.07                 0.977155479     -85.8745679
9.071                0.977097853     -86.0143374
9.072                0.977040069     -86.1544611
9.073                0.976982128     -86.2949398
9.074                 0.97692403     -86.4357747
9.075                0.976865775     -86.5769665
9.076                0.976807361     -86.7185164
9.077                 0.97674879     -86.8604252
9.078                0.976690061     -87.0026939
9.079                0.976631174     -87.1453236
9.08                 0.976572129      -87.288315
9.081                0.976512926     -87.4316694
9.082                0.976453564     -87.5753875
9.083                0.976394045     -87.7194703
9.084                0.976334367      -87.863919
9.085                0.976274531     -88.0087343
9.086                0.976214536     -88.1539172
9.087                0.976154383     -88.2994689
9.088                0.976094072     -88.4453901
9.089                0.976033601     -88.5916819
9.09                 0.975972973     -88.7383453
9.091                0.975912185     -88.8853812
9.092                0.975851239     -89.0327906
9.093                0.975790135     -89.1805745
9.094                0.975728872     -89.3287338
9.095                 0.97566745     -89.4772696
9.096                0.975605869     -89.6261827
9.097                 0.97554413     -89.7754742
9.098                0.975482233      -89.925145
9.099                0.975420176     -90.0751962
9.1                  0.975357962     -90.2256286
9.101                0.975295588     -90.3764432
9.102                0.975233057     -90.5276411
9.103                0.975170366     -90.6792232
9.104                0.975107518     -90.8311905
9.105                0.975044511     -90.9835439
9.106                0.974981346     -91.1362844
9.107                0.974918023      -91.289413
9.108                0.974854542     -91.4429306
9.109                0.974790903     -91.5968383
9.11                 0.974727106      -91.751137
9.111                0.974663151     -91.9058276
9.112                0.974599038     -92.0609111
9.113                0.974534768     -92.2163886
9.114                0.974470341     -92.3722609
9.115                0.974405756      -92.528529
9.116                0.974341015     -92.6851939
9.117                0.974276116     -92.8422566
9.118                0.974211061      -92.999718
9.119                0.974145849     -93.1575792
9.12                  0.97408048     -93.3158409
9.121                0.974014956     -93.4745043
9.122                0.973949275     -93.6335702
9.123                0.973883438     -93.7930397
9.124                0.973817446     -93.9529136
9.125                0.973751298      -94.113193
9.126                0.973684995     -94.2738788
9.127                0.973618537     -94.4349719
9.128                0.973551925     -94.5964734
9.129                0.973485158     -94.7583841
9.13                 0.973418236     -94.9207049
9.131                0.973351161      -95.083437
9.132                0.973283932     -95.2465811
9.133                 0.97321655     -95.4101383
9.134                0.973149015     -95.5741095
9.135                0.973081327     -95.7384956
9.136                0.973013487     -95.9032976
9.137                0.972945494     -96.0685164
9.138                 0.97287735     -96.2341529
9.139                0.972809055      -96.400208
9.14                 0.972740608     -96.5666828
9.141                0.972672011     -96.7335781
9.142                0.972603263     -96.9008949
9.143                0.972534366     -97.0686341
9.144                0.972465319     -97.2367965
9.145                0.972396123     -97.4053832
9.146                0.972326778      -97.574395
9.147                0.972257286     -97.7438329
9.148                0.972187645     -97.9136977
9.149                0.972117857     -98.0839905
9.15                 0.972047922      -98.254712
9.151                0.971977841     -98.4258632
9.152                0.971907614      -98.597445
9.153                0.971837242     -98.7694582
9.154                0.971766725     -98.9419039
9.155                0.971696063     -99.1147828
9.156                0.971625258     -99.2880959
9.157                0.971554309     -99.4618441
9.158                0.971483218     -99.6360281
9.159                0.971411985      -99.810649
9.16                  0.97134061     -99.9857076
9.161                0.971269094     -100.161205
9.162                0.971197438     -100.337141
9.163                0.971125642     -100.513518
9.164                0.971053707     -100.690336
9.165                0.970981634     -100.867596
9.166                0.970909423     -101.045299
9.167                0.970837074     -101.223445
9.168                 0.97076459     -101.402037
9.169                 0.97069197     -101.581073
9.17                 0.970619214     -101.760556
9.171                0.970546325     -101.940485
9.172                0.970473302     -102.120863
9.173                0.970400146      -102.30169
9.174                0.970326858     -102.482965
9.175                0.970253439     -102.664692
9.176                 0.97017989     -102.846869
9.177                 0.97010621     -103.029498
9.178                0.970032403      -103.21258
9.179                0.969958467     -103.396116
9.18                 0.969884404     -103.580106
9.181                0.969810215     -103.764551
9.182                  0.9697359     -103.949452
9.183                0.969661461      -104.13481
9.184                0.969586899     -104.320625
9.185                0.969512214     -104.506898
9.186                0.969437407      -104.69363
9.187                0.969362479     -104.880822
9.188                0.969287432     -105.068475
9.189                0.969212266     -105.256588
9.19                 0.969136982     -105.445164
9.191                0.969061582     -105.634202
9.192                0.968986065     -105.823703
9.193                0.968910434     -106.013669
9.194                 0.96883469     -106.204099
9.195                0.968758833     -106.394995
9.196                0.968682864     -106.586357
9.197                0.968606785     -106.778186
9.198                0.968530597     -106.970482
9.199                0.968454301     -107.163247
9.2                  0.968377899      -107.35648
9.201                 0.96830139     -107.550183
9.202                0.968224777     -107.744357
9.203                0.968148061     -107.939001
9.204                0.968071242     -108.134116
9.205                0.967994323     -108.329704
9.206                0.967917304     -108.525764
9.207                0.967840187     -108.722298
9.208                0.967762973     -108.919306
9.209                0.967685664     -109.116788
9.21                  0.96760826     -109.314745
9.211                0.967530763     -109.513178
9.212                0.967453174     -109.712087
9.213                0.967375496     -109.911474
9.214                0.967297728     -110.111337
9.215                0.967219873     -110.311679
9.216                0.967141932     -110.512499
9.217                0.967063907     -110.713798
9.218                0.966985799     -110.915576
9.219                0.966907609     -111.117835
9.22                 0.966829339     -111.320574
9.221                0.966750991     -111.523794
9.222                0.966672566     -111.727496
9.223                0.966594066     -111.931679
9.224                0.966515491     -112.136346
9.225                0.966436845     -112.341495
9.226                0.966358128     -112.547127
9.227                0.966279342     -112.753243
9.228                0.966200489     -112.959844
9.229                0.966121571     -113.166929
9.23                 0.966042589     -113.374499
9.231                0.965963544     -113.582554
9.232                 0.96588444     -113.791095
9.233                0.965805276     -114.000123
9.234                0.965726056     -114.209637
9.235                0.965646781     -114.419638
9.236                0.965567453     -114.630126
9.237                0.965488073     -114.841101
9.238                0.965408644     -115.052565
9.239                0.965329167     -115.264516
9.24                 0.965249644     -115.476956
9.241                0.965170078     -115.689885
9.242                 0.96509047     -115.903303
9.243                0.965010822      -116.11721
9.244                0.964931136     -116.331606
9.245                0.964851414     -116.546492
9.246                0.964771658     -116.761868
9.247                 0.96469187     -116.977734
9.248                0.964612053     -117.194091
9.249                0.964532208     -117.410938
9.25                 0.964452337     -117.628276
9.251                0.964372442     -117.846104
9.252                0.964292527     -118.064424
9.253                0.964212592     -118.283234
9.254                 0.96413264     -118.502536
9.255                0.964052673     -118.722329
9.256                0.963972694     -118.942614
9.257                0.963892704      -119.16339
9.258                0.963812706     -119.384657
9.259                0.963732702     -119.606416
9.26                 0.963652695     -119.828667
9.261                0.963572686     -120.051409
9.262                0.963492679     -120.274643
9.263                0.963412675     -120.498368
9.264                0.963332678     -120.722585
9.265                0.963252688     -120.947294
9.266                0.963172709     -121.172493
9.267                0.963092744     -121.398185
9.268                0.963012794     -121.624367
9.269                0.962932862     -121.851041
9.27                  0.96285295     -122.078206
9.271                0.962773062     -122.305862
9.272                  0.9626932     -122.534008
9.273                0.962613366     -122.762645
9.274                0.962533563     -122.991773
9.275                0.962453793     -123.221391
9.276                0.962374059     -123.451499
9.277                0.962294364     -123.682096
9.278                0.962214711     -123.913183
9.279                0.962135101     -124.144759
9.28                 0.962055539     -124.376825
9.281                0.961976026     -124.609379
9.282                0.961896565     -124.842421
9.283                0.961817159     -125.075951
9.284                0.961737811     -125.309969
9.285                0.961658524     -125.544474
9.286                  0.9615793     -125.779466
9.287                0.961500143     -126.014945
9.288                0.961421054      -126.25091
9.289                0.961342038      -126.48736
9.29                 0.961263097     -126.724296
9.291                0.961184233     -126.961716
9.292                0.961105451      -127.19962
9.293                0.961026752     -127.438008
9.294                 0.96094814     -127.676879
9.295                0.960869617     -127.916233
9.296                0.960791188     -128.156069
9.297                0.960712854     -128.396386
9.298                0.960634619     -128.637184
9.299                0.960556486     -128.878462
9.3                  0.960478457     -129.120219
9.301                0.960400537     -129.362456
9.302                0.960322729     -129.605171
9.303                0.960245034     -129.848363
9.304                0.960167457     -130.092032
9.305                0.960090001     -130.336177
9.306                0.960012668     -130.580797
9.307                0.959935463     -130.825892
9.308                0.959858387      -131.07146
9.309                0.959781446     -131.317501
9.31                 0.959704641     -131.564014
9.311                0.959627976     -131.810998
9.312                0.959551454     -132.058452
9.313                0.959475079     -132.306376
9.314                0.959398854     -132.554768
9.315                0.959322782     -132.803627
9.316                0.959246867     -133.052953
9.317                0.959171112     -133.302745
9.318                 0.95909552        -133.553
9.319                0.959020095     -133.803719
9.32                 0.958944839     -134.054901
9.321                0.958869758     -134.306544
9.322                0.958794853     -134.558647
9.323                0.958720129     -134.811208
9.324                0.958645588     -135.064228
9.325                0.958571235     -135.317705
9.326                0.958497073     -135.571637
9.327                0.958423105     -135.826023
9.328                0.958349335     -136.080863
9.329                0.958275766     -136.336154
9.33                 0.958202401     -136.591896
9.331                0.958129246     -136.848087
9.332                0.958056302     -137.104726
9.333                0.957983573     -137.361812
9.334                0.957911064     -137.619343
9.335                0.957838777     -137.877318
9.336                0.957766716     -138.135735
9.337                0.957694885     -138.394594
9.338                0.957623287     -138.653892
9.339                0.957551926     -138.913627
9.34                 0.957480806       -139.1738
9.341                 0.95740993     -139.434407
9.342                0.957339302     -139.695449
9.343                0.957268926     -139.956921
9.344                0.957198804     -140.218825
9.345                0.957128941     -140.481157
9.346                0.957059341     -140.743916
9.347                0.956990007       -141.0071
9.348                0.956920942     -141.270709
9.349                0.956852151     -141.534739
9.35                 0.956783637     -141.799189
9.351                0.956715404     -142.064059
9.352                0.956647456     -142.329344
9.353                0.956579795     -142.595045
9.354                0.956512426     -142.861159
9.355                0.956445353     -143.127684
9.356                0.956378579     -143.394619
9.357                0.956312108     -143.661961
9.358                0.956245944     -143.929708
9.359                 0.95618009      -144.19786
9.36                  0.95611455     -144.466413
9.361                0.956049327     -144.735365
9.362                0.955984426     -145.004716
9.363                 0.95591985     -145.274462
9.364                0.955855603     -145.544601
9.365                0.955791688     -145.815132
9.366                 0.95572811     -146.086053
9.367                0.955664871      -146.35736
9.368                0.955601976     -146.629053
9.369                0.955539428     -146.901129
9.37                 0.955477231     -147.173585
9.371                0.955415388      -147.44642
9.372                0.955353904     -147.719631
9.373                0.955292781     -147.993216
9.374                0.955232024     -148.267173
9.375                0.955171636       -148.5415
9.376                0.955111621     -148.816193
9.377                0.955051982     -149.091251
9.378                0.954992724     -149.366671
9.379                0.954933848     -149.642451
9.38                 0.954875361     -149.918589
9.381                0.954817264     -150.195081
9.382                0.954759561     -150.471926
9.383                0.954702257     -150.749122
9.384                0.954645354     -151.026664
9.385                0.954588856     -151.304552
9.386                0.954532766     -151.582782
9.387                0.954477089     -151.861352
9.388                0.954421828     -152.140259
9.389                0.954366985       -152.4195
9.39                 0.954312566     -152.699074
9.391                0.954258572     -152.978976
9.392                0.954205008     -153.259205
9.393                0.954151877     -153.539758
9.394                0.954099183     -153.820633
9.395                0.954046928     -154.101825
9.396                0.953995117     -154.383333
