! TOUCHSTONE file generated by CST DESIGN STUDIO
! Date and time: Tue Feb  4 17:56:32 2025
! Project name: C:\Work\MatlabApps\UnitCellOptimizationMatlab\CST\unitcell.cst
! Tree item: Tasks\Sweep1\SPara1\S-Parameters
! Header version: 2024
! Port assignment regex: !\s*Touchstone port\s*([0-9]+)\s*=\s*(CST MWS port|CST DES external port|CST DES block port)\s*(.+)\s* \(\"(.*)\"\)(\s*mode\s*([0-9]+))?.*
! Touchstone port assignment:
! Touchstone port 1 = CST DES external port 1 ("")
# GHz S MA R 50
9                    0.981318246     -72.0227521
9.001                0.981274952     -72.1287644
9.002                0.981231527     -72.2350339
9.003                0.981187972     -72.3415613
9.004                0.981144287     -72.4483475
9.005                 0.98110047     -72.5553932
9.006                0.981056522     -72.6626992
9.007                0.981012442     -72.7702664
9.008                 0.98096823     -72.8780954
9.009                0.980923885     -72.9861871
9.01                 0.980879408     -73.0945423
9.011                0.980834798     -73.2031618
9.012                0.980790054     -73.3120464
9.013                0.980745176     -73.4211968
9.014                0.980700165     -73.5306139
9.015                0.980655018     -73.6402986
9.016                0.980609738     -73.7502515
9.017                0.980564322     -73.8604735
9.018                 0.98051877     -73.9709654
9.019                0.980473083     -74.0817281
9.02                  0.98042726     -74.1927623
9.021                0.980381301     -74.3040689
9.022                0.980335204     -74.4156487
9.023                0.980288971     -74.5275025
9.024                0.980242601     -74.6396311
9.025                0.980196092     -74.7520354
9.026                0.980149446     -74.8647161
9.027                0.980102661     -74.9776742
9.028                0.980055738     -75.0909105
9.029                0.980008676     -75.2044257
9.03                 0.979961474     -75.3182208
9.031                0.979914133     -75.4322965
9.032                0.979866652     -75.5466537
9.033                 0.97981903     -75.6612933
9.034                0.979771268     -75.7762161
9.035                0.979723366     -75.8914229
9.036                0.979675322     -76.0069146
9.037                0.979627136     -76.1226921
9.038                0.979578809     -76.2387562
9.039                0.979530339     -76.3551077
9.04                 0.979481727     -76.4717475
9.041                0.979432973     -76.5886765
9.042                0.979384075     -76.7058955
9.043                0.979335034     -76.8234054
9.044                 0.97928585     -76.9412071
9.045                0.979236521     -77.0593014
9.046                0.979187049     -77.1776892
9.047                0.979137431     -77.2963713
9.048                0.979087669     -77.4153487
9.049                0.979037762     -77.5346222
9.05                 0.978987709     -77.6541928
9.051                0.978937511     -77.7740612
9.052                0.978887166     -77.8942283
9.053                0.978836676     -78.0146951
9.054                0.978786038     -78.1354624
9.055                0.978735254     -78.2565311
9.056                0.978684323     -78.3779021
9.057                0.978633244     -78.4995763
9.058                0.978582017     -78.6215546
9.059                0.978530643     -78.7438378
9.06                  0.97847912      -78.866427
9.061                0.978427449     -78.9893229
9.062                0.978375629     -79.1125264
9.063                 0.97832366     -79.2360386
9.064                0.978271541     -79.3598602
9.065                0.978219273     -79.4839922
9.066                0.978166855     -79.6084355
9.067                0.978114287      -79.733191
9.068                0.978061568     -79.8582596
9.069                0.978008699     -79.9836422
9.07                 0.977955679     -80.1093398
9.071                0.977902507     -80.2353532
9.072                0.977849185     -80.3616833
9.073                 0.97779571     -80.4883312
9.074                0.977742084     -80.6152976
9.075                0.977688305     -80.7425836
9.076                0.977634375     -80.8701901
9.077                0.977580291     -80.9981179
9.078                0.977526055     -81.1263681
9.079                0.977471665     -81.2549415
9.08                 0.977417123      -81.383839
9.081                0.977362426     -81.5130617
9.082                0.977307576     -81.6426104
9.083                0.977252572      -81.772486
9.084                0.977197414     -81.9026896
9.085                0.977142102      -82.033222
9.086                0.977086634     -82.1640843
9.087                0.977031012     -82.2952772
9.088                0.976975235     -82.4268018
9.089                0.976919303      -82.558659
9.09                 0.976863215     -82.6908498
9.091                0.976806972     -82.8233751
9.092                0.976750572     -82.9562359
9.093                0.976694017     -83.0894331
9.094                0.976637306     -83.2229676
9.095                0.976580438     -83.3568405
9.096                0.976523414     -83.4910526
9.097                0.976466232     -83.6256049
9.098                0.976408895     -83.7604985
9.099                  0.9763514     -83.8957341
9.1                  0.976293747     -84.0313129
9.101                0.976235938     -84.1672357
9.102                0.976177971     -84.3035035
9.103                0.976119846     -84.4401173
9.104                0.976061563     -84.5770781
9.105                0.976003123     -84.7143868
9.106                0.975944524     -84.8520443
9.107                0.975885767     -84.9900517
9.108                0.975826852     -85.1284099
9.109                0.975767779     -85.2671199
9.11                 0.975708546     -85.4061827
9.111                0.975649155     -85.5455991
9.112                0.975589606     -85.6853703
9.113                0.975529897     -85.8254971
9.114                0.975470029     -85.9659806
9.115                0.975410002     -86.1068217
9.116                0.975349816     -86.2480214
9.117                0.975289471     -86.3895806
9.118                0.975228966     -86.5315005
9.119                0.975168302     -86.6737818
9.12                 0.975107478     -86.8164256
9.121                0.975046495     -86.9594329
9.122                0.974985352     -87.1028047
9.123                 0.97492405     -87.2465419
9.124                0.974862587     -87.3906456
9.125                0.974800965     -87.5351166
9.126                0.974739183      -87.679956
9.127                0.974677242     -87.8251649
9.128                 0.97461514      -87.970744
9.129                0.974552878     -88.1166945
9.13                 0.974490457     -88.2630174
9.131                0.974427876     -88.4097135
9.132                0.974365134     -88.5567839
9.133                0.974302233     -88.7042296
9.134                0.974239172     -88.8520516
9.135                0.974175951     -89.0002508
9.136                 0.97411257     -89.1488282
9.137                0.974049029     -89.2977849
9.138                0.973985329     -89.4471218
9.139                0.973921469     -89.5968398
9.14                 0.973857449     -89.7469401
9.141                0.973793269     -89.8974235
9.142                 0.97372893      -90.048291
9.143                0.973664431     -90.1995437
9.144                0.973599773     -90.3511826
9.145                0.973534955     -90.5032085
9.146                0.973469978     -90.6556225
9.147                0.973404843     -90.8084256
9.148                0.973339548     -90.9616187
9.149                0.973274094      -91.115203
9.15                 0.973208481     -91.2691792
9.151                0.973142709     -91.4235484
9.152                0.973076779     -91.5783117
9.153                0.973010691     -91.7334699
9.154                0.972944444     -91.8890241
9.155                 0.97287804     -92.0449753
9.156                0.972811477     -92.2013244
9.157                0.972744756     -92.3580723
9.158                0.972677878     -92.5152202
9.159                0.972610843     -92.6727689
9.16                  0.97254365     -92.8307195
9.161                0.972476301     -92.9890729
9.162                0.972408795     -93.1478301
9.163                0.972341132      -93.306992
9.164                0.972273313     -93.4665597
9.165                0.972205338     -93.6265342
9.166                0.972137207     -93.7869163
9.167                0.972068921      -93.947707
9.168                0.972000479     -94.1089074
9.169                0.971931883     -94.2705184
9.17                 0.971863132      -94.432541
9.171                0.971794226     -94.5949761
9.172                0.971725167     -94.7578247
9.173                0.971655954     -94.9210877
9.174                0.971586587     -95.0847661
9.175                0.971517067     -95.2488609
9.176                0.971447395     -95.4133731
9.177                 0.97137757     -95.5783035
9.178                0.971307594     -95.7436532
9.179                0.971237466      -95.909423
9.18                 0.971167186      -96.075614
9.181                0.971096756     -96.2422271
9.182                0.971026176     -96.4092632
9.183                0.970955445     -96.5767233
9.184                0.970884565     -96.7446083
9.185                0.970813536     -96.9129191
9.186                0.970742359     -97.0816568
9.187                0.970671033     -97.2508221
9.188                 0.97059956     -97.4204161
9.189                0.970527939     -97.5904397
9.19                 0.970456172     -97.7608938
9.191                0.970384259     -97.9317794
9.192                  0.9703122     -98.1030973
9.193                0.970239996     -98.2748484
9.194                0.970167648     -98.4470338
9.195                0.970095155     -98.6196542
9.196                 0.97002252     -98.7927106
9.197                0.969949741      -98.966204
9.198                0.969876821     -99.1401352
9.199                0.969803758     -99.3145051
9.2                  0.969730555     -99.4893146
9.201                0.969657211     -99.6645646
9.202                0.969583728     -99.8402559
9.203                0.969510106      -100.01639
9.204                0.969436346     -100.192966
9.205                0.969362448     -100.369987
9.206                0.969288413     -100.547453
9.207                0.969214241     -100.725365
9.208                0.969139935     -100.903723
9.209                0.969065493     -101.082528
9.21                 0.968990918     -101.261782
9.211                0.968916209     -101.441486
9.212                0.968841368     -101.621639
9.213                0.968766396     -101.802243
9.214                0.968691292     -101.983299
9.215                0.968616059     -102.164808
9.216                0.968540697      -102.34677
9.217                0.968465206     -102.529186
9.218                0.968389588     -102.712058
9.219                0.968313843     -102.895385
9.22                 0.968237973     -103.079169
9.221                0.968161978      -103.26341
9.222                 0.96808586      -103.44811
9.223                0.968009618     -103.633269
9.224                0.967933255     -103.818887
9.225                0.967856771     -104.004967
9.226                0.967780167     -104.191508
9.227                0.967703444     -104.378511
9.228                0.967626604     -104.565977
9.229                0.967549646     -104.753906
9.23                 0.967472573     -104.942301
9.231                0.967395386      -105.13116
9.232                0.967318084     -105.320486
9.233                0.967240671     -105.510278
9.234                0.967163146     -105.700538
9.235                 0.96708551     -105.891266
9.236                0.967007766     -106.082463
9.237                0.966929914      -106.27413
9.238                0.966851955     -106.466267
9.239                0.966773891     -106.658875
9.24                 0.966695723     -106.851954
9.241                0.966617451     -107.045507
9.242                0.966539078     -107.239532
9.243                0.966460604     -107.434031
9.244                0.966382032     -107.629004
9.245                0.966303361     -107.824453
9.246                0.966224594     -108.020377
9.247                0.966145731     -108.216777
9.248                0.966066775     -108.413655
9.249                0.965987727      -108.61101
9.25                 0.965908587     -108.808843
9.251                0.965829358     -109.007156
9.252                0.965750041     -109.205947
9.253                0.965670637     -109.405219
9.254                0.965591148     -109.604971
9.255                0.965511575     -109.805205
9.256                0.965431919      -110.00592
9.257                0.965352184     -110.207118
9.258                0.965272369     -110.408798
9.259                0.965192476     -110.610962
9.26                 0.965112507     -110.813609
9.261                0.965032464     -111.016742
9.262                0.964952349     -111.220359
9.263                0.964872162     -111.424461
9.264                0.964791906      -111.62905
9.265                0.964711582     -111.834125
9.266                0.964631192     -112.039686
9.267                0.964550738     -112.245735
9.268                0.964470221     -112.452272
9.269                0.964389643     -112.659297
9.27                 0.964309006     -112.866811
9.271                0.964228312     -113.074814
9.272                0.964147563     -113.283307
9.273                 0.96406676     -113.492289
9.274                0.963985905     -113.701762
9.275                0.963905001     -113.911725
9.276                0.963824049     -114.122179
9.277                 0.96374305     -114.333125
9.278                0.963662008     -114.544562
9.279                0.963580924     -114.756491
9.28                 0.963499799     -114.968913
9.281                0.963418637     -115.181828
9.282                0.963337438     -115.395235
9.283                0.963256205     -115.609136
9.284                0.963174941      -115.82353
9.285                0.963093646     -116.038418
9.286                0.963012324       -116.2538
9.287                0.962930976     -116.469676
9.288                0.962849605     -116.686047
9.289                0.962768213     -116.902912
9.29                 0.962686801     -117.120273
9.291                0.962605373     -117.338128
9.292                 0.96252393     -117.556478
9.293                0.962442474     -117.775324
9.294                0.962361009     -117.994666
9.295                0.962279536     -118.214503
9.296                0.962198057     -118.434836
9.297                0.962116575     -118.655665
9.298                0.962035092      -118.87699
9.299                0.961953611      -119.09881
9.3                  0.961872134     -119.321127
9.301                0.961790663      -119.54394
9.302                0.961709201     -119.767249
9.303                0.961627751     -119.991055
9.304                0.961546314     -120.215356
9.305                0.961464894     -120.440154
9.306                0.961383492     -120.665448
9.307                0.961302112     -120.891237
9.308                0.961220756     -121.117523
9.309                0.961139427     -121.344305
9.31                 0.961058127     -121.571583
9.311                0.960976858     -121.799356
9.312                0.960895624     -122.027625
9.313                0.960814428      -122.25639
9.314                0.960733271     -122.485649
9.315                0.960652157     -122.715404
9.316                0.960571088     -122.945654
9.317                0.960490067     -123.176399
9.318                0.960409097     -123.407638
9.319                 0.96032818     -123.639371
9.32                  0.96024732     -123.871599
9.321                 0.96016652      -124.10432
9.322                0.960085781     -124.337535
9.323                0.960005108     -124.571242
9.324                0.959924503     -124.805443
9.325                0.959843968     -125.040136
9.326                0.959763507     -125.275321
9.327                0.959683124     -125.510998
9.328                0.959602819     -125.747167
9.329                0.959522598     -125.983826
9.33                 0.959442463     -126.220976
9.331                0.959362416     -126.458616
9.332                0.959282461     -126.696745
9.333                0.959202601     -126.935363
9.334                0.959122839     -127.174471
9.335                0.959043179     -127.414066
9.336                0.958963622     -127.654148
9.337                0.958884173     -127.894718
9.338                0.958804835     -128.135774
9.339                0.958725611     -128.377315
9.34                 0.958646503     -128.619342
9.341                0.958567516     -128.861853
9.342                0.958488653     -129.104849
9.343                0.958409916     -129.348327
9.344                0.958331309     -129.592287
9.345                0.958252836      -129.83673
9.346                0.958174499     -130.081653
9.347                0.958096302     -130.327057
9.348                0.958018249      -130.57294
9.349                0.957940342     -130.819302
9.35                 0.957862585     -131.066141
9.351                0.957784982     -131.313458
9.352                0.957707536      -131.56125
9.353                 0.95763025     -131.809518
9.354                0.957553127      -132.05826
9.355                0.957476172     -132.307475
9.356                0.957399388     -132.557163
9.357                0.957322778     -132.807322
9.358                0.957246345     -133.057952
9.359                0.957170094     -133.309051
9.36                 0.957094027     -133.560619
9.361                0.957018149     -133.812654
9.362                0.956942462     -134.065155
9.363                0.956866971     -134.318122
9.364                0.956791679     -134.571552
9.365                 0.95671659     -134.825445
9.366                0.956641706       -135.0798
9.367                0.956567033     -135.334616
9.368                0.956492573     -135.589891
9.369                 0.95641833     -135.845624
9.37                 0.956344307     -136.101814
9.371                 0.95627051     -136.358459
9.372                 0.95619694     -136.615559
9.373                0.956123602     -136.873111
9.374                0.956050499     -137.131116
9.375                0.955977636      -137.38957
9.376                0.955905016     -137.648473
9.377                0.955832642     -137.907824
9.378                0.955760519      -138.16762
9.379                 0.95568865     -138.427861
9.38                 0.955617038     -138.688545
9.381                0.955545688     -138.949671
9.382                0.955474604     -139.211236
9.383                0.955403789      -139.47324
9.384                0.955333246     -139.735681
9.385                0.955262981     -139.998557
9.386                0.955192996     -140.261867
9.387                0.955123295     -140.525608
9.388                0.955053882      -140.78978
9.389                0.954984761      -141.05438
9.39                 0.954915936     -141.319408
9.391                0.954847411      -141.58486
9.392                0.954779188     -141.850736
9.393                0.954711273     -142.117033
9.394                0.954643669      -142.38375
9.395                 0.95457638     -142.650885
9.396                0.954509409     -142.918436
