! TOUCHSTONE file generated by CST DESIGN STUDIO
! Date and time: Tue Feb  4 17:56:35 2025
! Project name: C:\Work\MatlabApps\UnitCellOptimizationMatlab\CST\unitcell.cst
! Tree item: Tasks\Sweep1\SPara1\S-Parameters
! Header version: 2024
! Port assignment regex: !\s*Touchstone port\s*([0-9]+)\s*=\s*(CST MWS port|CST DES external port|CST DES block port)\s*(.+)\s* \(\"(.*)\"\)(\s*mode\s*([0-9]+))?.*
! Touchstone port assignment:
! Touchstone port 1 = CST DES external port 1 ("")
# GHz S MA R 50
9                    0.981690901     -68.5648632
9.001                0.981650522     -68.6633834
9.002                0.981610021     -68.7621386
9.003                0.981569397     -68.8611295
9.004                 0.98152865     -68.9603568
9.005                0.981487779     -69.0598214
9.006                0.981446785     -69.1595238
9.007                0.981405667     -69.2594649
9.008                0.981364424     -69.3596454
9.009                0.981323057      -69.460066
9.01                 0.981281564     -69.5607274
9.011                0.981239946     -69.6616304
9.012                0.981198202     -69.7627757
9.013                0.981156333      -69.864164
9.014                0.981114336     -69.9657962
9.015                0.981072213     -70.0676729
9.016                0.981029963     -70.1697949
9.017                0.980987585      -70.272163
9.018                0.980945079     -70.3747779
9.019                0.980902446     -70.4776403
9.02                 0.980859683     -70.5807511
9.021                0.980816792     -70.6841109
9.022                0.980773772     -70.7877206
9.023                0.980730623     -70.8915809
9.024                0.980687343     -70.9956926
9.025                0.980643933     -71.1000564
9.026                0.980600393     -71.2046731
9.027                0.980556722     -71.3095435
9.028                 0.98051292     -71.4146684
9.029                0.980468986     -71.5200485
9.03                 0.980424921     -71.6256847
9.031                0.980380723     -71.7315776
9.032                0.980336393     -71.8377282
9.033                 0.98029193     -71.9441371
9.034                0.980247333     -72.0508051
9.035                0.980202603     -72.1577332
9.036                 0.98015774     -72.2649219
9.037                0.980112742     -72.3723722
9.038                0.980067609     -72.4800849
9.039                0.980022342     -72.5880607
9.04                  0.97997694     -72.6963004
9.041                0.979931402     -72.8048049
9.042                0.979885728     -72.9135749
9.043                0.979839918     -73.0226113
9.044                0.979793972     -73.1319148
9.045                0.979747888     -73.2414863
9.046                0.979701668     -73.3513267
9.047                 0.97965531     -73.4614366
9.048                0.979608814      -73.571817
9.049                 0.97956218     -73.6824686
9.05                 0.979515408     -73.7933923
9.051                0.979468497     -73.9045889
9.052                0.979421447     -74.0160592
9.053                0.979374257     -74.1278041
9.054                0.979326927     -74.2398244
9.055                0.979279458     -74.3521209
9.056                0.979231848     -74.4646945
9.057                0.979184097      -74.577546
9.058                0.979136206     -74.6906762
9.059                0.979088173      -74.804086
9.06                 0.979039998     -74.9177762
9.061                0.978991681     -75.0317477
9.062                0.978943222     -75.1460013
9.063                 0.97889462     -75.2605379
9.064                0.978845876     -75.3753584
9.065                0.978796988     -75.4904635
9.066                0.978747957     -75.6058542
9.067                0.978698781     -75.7215312
9.068                0.978649462     -75.8374955
9.069                0.978599998      -75.953748
9.07                  0.97855039     -76.0702895
9.071                0.978500636     -76.1871208
9.072                0.978450737     -76.3042428
9.073                0.978400692     -76.4216565
9.074                0.978350501     -76.5393626
9.075                0.978300164     -76.6573621
9.076                0.978249681     -76.7756558
9.077                 0.97819905     -76.8942446
9.078                0.978148272     -77.0131294
9.079                0.978097347     -77.1323111
9.08                 0.978046274     -77.2517906
9.081                0.977995053     -77.3715687
9.082                0.977943684     -77.4916463
9.083                0.977892166     -77.6120244
9.084                  0.9778405     -77.7327039
9.085                0.977788684     -77.8536855
9.086                0.977736718     -77.9749703
9.087                0.977684603     -78.0965591
9.088                0.977632338     -78.2184528
9.089                0.977579923     -78.3406524
9.09                 0.977527357     -78.4631587
9.091                 0.97747464     -78.5859726
9.092                0.977421772     -78.7090951
9.093                0.977368753     -78.8325271
9.094                0.977315582     -78.9562694
9.095                0.977262259     -79.0803231
9.096                0.977208785     -79.2046889
9.097                0.977155157     -79.3293679
9.098                0.977101377     -79.4543609
9.099                0.977047445     -79.5796689
9.1                  0.976993359     -79.7052928
9.101                0.976939119     -79.8312335
9.102                0.976884726      -79.957492
9.103                 0.97683018     -80.0840692
9.104                0.976775479      -80.210966
9.105                0.976720623     -80.3381833
9.106                0.976665613     -80.4657221
9.107                0.976610449     -80.5935834
9.108                0.976555129     -80.7217679
9.109                0.976499654     -80.8502768
9.11                 0.976444023      -80.979111
9.111                0.976388237     -81.1082713
9.112                0.976332295     -81.2377587
9.113                0.976276197     -81.3675743
9.114                0.976219942     -81.4977188
9.115                0.976163531     -81.6281933
9.116                0.976106963     -81.7589988
9.117                0.976050238     -81.8901361
9.118                0.975993356     -82.0216063
9.119                0.975936316     -82.1534102
9.12                 0.975879119     -82.2855489
9.121                0.975821764     -82.4180233
9.122                0.975764252     -82.5508344
9.123                0.975706581     -82.6839831
9.124                0.975648752     -82.8174704
9.125                0.975590764     -82.9512973
9.126                0.975532618     -83.0854647
9.127                0.975474313     -83.2199736
9.128                 0.97541585     -83.3548249
9.129                0.975357227     -83.4900197
9.13                 0.975298445     -83.6255588
9.131                0.975239503     -83.7614434
9.132                0.975180402     -83.8976743
9.133                0.975121142     -84.0342525
9.134                0.975061721     -84.1711791
9.135                0.975002141     -84.3084549
9.136                  0.9749424      -84.446081
9.137                0.974882499     -84.5840583
9.138                0.974822438     -84.7223878
9.139                0.974762217     -84.8610706
9.14                 0.974701835     -85.0001075
9.141                0.974641292     -85.1394996
9.142                0.974580589     -85.2792479
9.143                0.974519725     -85.4193533
9.144                  0.9744587     -85.5598169
9.145                0.974397514     -85.7006395
9.146                0.974336167     -85.8418223
9.147                0.974274659     -85.9833662
9.148                0.974212989     -86.1252721
9.149                0.974151158     -86.2675412
9.15                 0.974089166     -86.4101743
9.151                0.974027013     -86.5531725
9.152                0.973964698     -86.6965368
9.153                0.973902221     -86.8402681
9.154                0.973839583     -86.9843675
9.155                0.973776784     -87.1288359
9.156                0.973713823     -87.2736744
9.157                  0.9736507     -87.4188839
9.158                0.973587416     -87.5644655
9.159                 0.97352397     -87.7104201
9.16                 0.973460363     -87.8567487
9.161                0.973396594     -88.0034524
9.162                0.973332663     -88.1505321
9.163                0.973268571     -88.2979889
9.164                0.973204317     -88.4458237
9.165                0.973139902     -88.5940376
9.166                0.973075325     -88.7426315
9.167                0.973010587     -88.8916064
9.168                0.972945687     -89.0409634
9.169                0.972880626     -89.1907035
9.17                 0.972815404     -89.3408275
9.171                0.972750021     -89.4913367
9.172                0.972684477     -89.6422319
9.173                0.972618771     -89.7935141
9.174                0.972552905     -89.9451845
9.175                0.972486878     -90.0972438
9.176                 0.97242069     -90.2496933
9.177                0.972354341     -90.4025338
9.178                0.972287832     -90.5557663
9.179                0.972221163     -90.7093919
9.18                 0.972154334     -90.8634116
9.181                0.972087344     -91.0178264
9.182                0.972020195     -91.1726372
9.183                0.971952886     -91.3278451
9.184                0.971885417     -91.4834511
9.185                0.971817789     -91.6394561
9.186                0.971750002     -91.7958612
9.187                0.971682055     -91.9526674
9.188                 0.97161395     -92.1098756
9.189                0.971545687     -92.2674868
9.19                 0.971477265     -92.4255021
9.191                0.971408685     -92.5839225
9.192                0.971339947     -92.7427489
9.193                0.971271051     -92.9019823
9.194                0.971201999     -93.0616237
9.195                0.971132789     -93.2216742
9.196                0.971063422     -93.3821346
9.197                0.970993899     -93.5430061
9.198                0.970924219     -93.7042895
9.199                0.970854383     -93.8659859
9.2                  0.970784392     -94.0280962
9.201                0.970714246     -94.1906214
9.202                0.970643945     -94.3535626
9.203                0.970573489     -94.5169207
9.204                0.970502879     -94.6806966
9.205                0.970432115     -94.8448914
9.206                0.970361197      -95.009506
9.207                0.970290127     -95.1745414
9.208                0.970218903     -95.3399985
9.209                0.970147528     -95.5058784
9.21                    0.970076     -95.6721821
9.211                0.970004321     -95.8389104
9.212                0.969932491     -96.0060643
9.213                0.969860511     -96.1736448
9.214                 0.96978838     -96.3416529
9.215                  0.9697161     -96.5100896
9.216                0.969643671     -96.6789557
9.217                0.969571093     -96.8482522
9.218                0.969498367     -97.0179801
9.219                0.969425493     -97.1881403
9.22                 0.969352472     -97.3587338
9.221                0.969279305     -97.5297616
9.222                0.969205992     -97.7012245
9.223                0.969132533     -97.8731235
9.224                 0.96905893     -98.0454595
9.225                0.968985183     -98.2182335
9.226                0.968911291     -98.3914463
9.227                0.968837257      -98.565099
9.228                0.968763081     -98.7391924
9.229                0.968688763     -98.9137275
9.23                 0.968614304     -99.0887052
9.231                0.968539704     -99.2641264
9.232                0.968464965     -99.4399919
9.233                0.968390087     -99.6163028
9.234                 0.96831507     -99.7930599
9.235                0.968239916      -99.970264
9.236                0.968164626     -100.147916
9.237                0.968089199     -100.326017
9.238                0.968013637     -100.504568
9.239                 0.96793794      -100.68357
9.24                  0.96786211     -100.863023
9.241                0.967786147     -101.042928
9.242                0.967710052     -101.223287
9.243                0.967633826       -101.4041
9.244                0.967557469     -101.585368
9.245                0.967480983     -101.767092
9.246                0.967404368     -101.949272
9.247                0.967327625      -102.13191
9.248                0.967250756     -102.315007
9.249                0.967173761     -102.498562
9.25                 0.967096641     -102.682578
9.251                0.967019397     -102.867055
9.252                 0.96694203     -103.051994
9.253                0.966864541     -103.237395
9.254                0.966786931     -103.423259
9.255                0.966709202     -103.609588
9.256                0.966631353     -103.796381
9.257                0.966553386     -103.983641
9.258                0.966475303     -104.171367
9.259                0.966397104      -104.35956
9.26                  0.96631879     -104.548221
9.261                0.966240363     -104.737352
9.262                0.966161824     -104.926952
9.263                0.966083173     -105.117022
9.264                0.966004413     -105.307564
9.265                0.965925544     -105.498577
9.266                0.965846567     -105.690063
9.267                0.965767483     -105.882023
9.268                0.965688295     -106.074456
9.269                0.965609003     -106.267365
9.27                 0.965529608     -106.460749
9.271                0.965450112     -106.654609
9.272                0.965370516     -106.848947
9.273                0.965290821     -107.043762
9.274                0.965211029     -107.239055
9.275                0.965131141     -107.434827
9.276                0.965051158      -107.63108
9.277                0.964971083     -107.827812
9.278                0.964890915     -108.025025
9.279                0.964810658      -108.22272
9.28                 0.964730311     -108.420898
9.281                0.964649878     -108.619558
9.282                0.964569358     -108.818702
9.283                0.964488754      -109.01833
9.284                0.964408067     -109.218442
9.285                0.964327299     -109.419041
9.286                0.964246452     -109.620125
9.287                0.964165526     -109.821695
9.288                0.964084524     -110.023753
9.289                0.964003447     -110.226298
9.29                 0.963922297     -110.429331
9.291                0.963841075     -110.632854
9.292                0.963759784     -110.836865
9.293                0.963678424     -111.041366
9.294                0.963596998     -111.246358
9.295                0.963515508      -111.45184
9.296                0.963433955     -111.657814
9.297                 0.96335234      -111.86428
9.298                0.963270667     -112.071237
9.299                0.963188936     -112.278688
9.3                  0.963107149     -112.486631
9.301                0.963025309     -112.695069
9.302                0.962943417        -112.904
9.303                0.962861475     -113.113426
9.304                0.962779485     -113.323346
9.305                 0.96269745     -113.533762
9.306                 0.96261537     -113.744674
9.307                0.962533248     -113.956082
9.308                0.962451087     -114.167986
9.309                0.962368887     -114.380386
9.31                 0.962286652     -114.593284
9.311                0.962204382     -114.806679
9.312                0.962122081     -115.020572
9.313                0.962039751     -115.234963
9.314                0.961957393     -115.449853
9.315                 0.96187501     -115.665241
9.316                0.961792604     -115.881128
9.317                0.961710177     -116.097513
9.318                0.961627731     -116.314399
9.319                0.961545269     -116.531784
9.32                 0.961462793     -116.749668
9.321                0.961380305     -116.968053
9.322                0.961297808     -117.186938
9.323                0.961215303     -117.406324
9.324                0.961132794     -117.626209
9.325                0.961050282     -117.846596
9.326                0.960967771     -118.067483
9.327                0.960885261     -118.288872
9.328                0.960802757     -118.510761
9.329                 0.96072026     -118.733152
9.33                 0.960637773     -118.956043
9.331                0.960555299     -119.179436
9.332                0.960472839     -119.403331
9.333                0.960390396     -119.627726
9.334                0.960307974     -119.852624
9.335                0.960225575     -120.078022
9.336                  0.9601432     -120.303922
9.337                0.960060854     -120.530323
9.338                0.959978538     -120.757226
9.339                0.959896255     -120.984629
9.34                 0.959814008     -121.212534
9.341                  0.9597318      -121.44094
9.342                0.959649634     -121.669847
9.343                0.959567511     -121.899255
9.344                0.959485436     -122.129163
9.345                 0.95940341     -122.359572
9.346                0.959321438     -122.590482
9.347                 0.95923952     -122.821891
9.348                0.959157661     -123.053801
9.349                0.959075863      -123.28621
9.35                  0.95899413     -123.519119
9.351                0.958912463     -123.752527
9.352                0.958830867     -123.986434
9.353                0.958749344      -124.22084
9.354                0.958667897     -124.455744
9.355                0.958586529     -124.691146
9.356                0.958505243     -124.927046
9.357                0.958424042     -125.163443
9.358                 0.95834293     -125.400337
9.359                0.958261909     -125.637728
9.36                 0.958180983     -125.875615
9.361                0.958100154     -126.113997
9.362                0.958019426     -126.352875
9.363                0.957938802     -126.592247
9.364                0.957858285     -126.832114
9.365                0.957777879     -127.072475
9.366                0.957697587     -127.313328
9.367                0.957617411     -127.554675
9.368                0.957537356     -127.796513
9.369                0.957457424     -128.038843
9.37                 0.957377619     -128.281664
9.371                0.957297944     -128.524975
9.372                0.957218402     -128.768776
9.373                0.957138998     -129.013066
9.374                0.957059734     -129.257844
9.375                0.956980613     -129.503109
9.376                 0.95690164     -129.748861
9.377                0.956822817       -129.9951
9.378                0.956744149     -130.241823
9.379                0.956665637     -130.489031
9.38                 0.956587287     -130.736723
9.381                0.956509101     -130.984898
9.382                0.956431083     -131.233554
9.383                0.956353237     -131.482692
9.384                0.956275566     -131.732309
9.385                0.956198073     -131.982406
9.386                0.956120763     -132.232982
9.387                0.956043639     -132.484034
9.388                0.955966704     -132.735563
9.389                0.955889962     -132.987567
9.39                 0.955813417     -133.240046
9.391                0.955737073     -133.492998
9.392                0.955660932     -133.746422
9.393                   0.955585     -134.000317
9.394                0.955509279     -134.254682
9.395                0.955433773     -134.509516
9.396                0.955358486     -134.764818
