! TOUCHSTONE file generated by CST DESIGN STUDIO
! Date and time: Tue Feb  4 17:56:28 2025
! Project name: C:\Work\MatlabApps\UnitCellOptimizationMatlab\CST\unitcell.cst
! Tree item: Tasks\Sweep1\SPara1\S-Parameters
! Header version: 2024
! Port assignment regex: !\s*Touchstone port\s*([0-9]+)\s*=\s*(CST MWS port|CST DES external port|CST DES block port)\s*(.+)\s* \(\"(.*)\"\)(\s*mode\s*([0-9]+))?.*
! Touchstone port assignment:
! Touchstone port 1 = CST DES external port 1 ("")
# GHz S MA R 50
9                    0.980971005     -75.3376298
9.001                0.980925015     -75.4512071
9.002                0.980878889     -75.5650638
9.003                0.980832624     -75.6792005
9.004                0.980786223     -75.7936183
9.005                0.980739683     -75.9083179
9.006                0.980693005     -76.0233002
9.007                0.980646189     -76.1385659
9.008                0.980599234     -76.2541161
9.009                0.980552139     -76.3699514
9.01                 0.980504905     -76.4860727
9.011                0.980457531      -76.602481
9.012                0.980410017      -76.719177
9.013                0.980362363     -76.8361616
9.014                0.980314568     -76.9534356
9.015                0.980266631         -77.071
9.016                0.980218554     -77.1888555
9.017                0.980170335     -77.3070031
9.018                0.980121973     -77.4254435
9.019                 0.98007347     -77.5441778
9.02                 0.980024824     -77.6632066
9.021                0.979976035      -77.782531
9.022                0.979927103     -77.9021517
9.023                0.979878027     -78.0220697
9.024                0.979828808     -78.1422858
9.025                0.979779444     -78.2628009
9.026                0.979729936     -78.3836159
9.027                0.979680284     -78.5047316
9.028                0.979630487      -78.626149
9.029                0.979580544     -78.7478689
9.03                 0.979530456     -78.8698922
9.031                0.979480222     -78.9922198
9.032                0.979429842     -79.1148526
9.033                0.979379316     -79.2377914
9.034                0.979328643     -79.3610373
9.035                0.979277823      -79.484591
9.036                0.979226856     -79.6084535
9.037                0.979175742     -79.7326256
9.038                 0.97912448     -79.8571083
9.039                 0.97907307     -79.9819025
9.04                 0.979021512      -80.107009
9.041                0.978969805     -80.2324288
9.042                0.978917949     -80.3581628
9.043                0.978865945     -80.4842119
9.044                0.978813791      -80.610577
9.045                0.978761487     -80.7372591
9.046                0.978709034     -80.8642589
9.047                0.978656431     -80.9915775
9.048                0.978603678     -81.1192158
9.049                0.978550774     -81.2471746
9.05                 0.978497719      -81.375455
9.051                0.978444513     -81.5040577
9.052                0.978391156     -81.6329839
9.053                0.978337648     -81.7622343
9.054                0.978283988     -81.8918099
9.055                0.978230176     -82.0217116
9.056                0.978176211     -82.1519404
9.057                0.978122095     -82.2824971
9.058                0.978067826     -82.4133828
9.059                0.978013404     -82.5445984
9.06                 0.977958829     -82.6761447
9.061                0.977904101     -82.8080228
9.062                0.977849219     -82.9402336
9.063                0.977794184     -83.0727779
9.064                0.977738995     -83.2056568
9.065                0.977683651     -83.3388712
9.066                0.977628154      -83.472422
9.067                0.977572502     -83.6063102
9.068                0.977516696     -83.7405367
9.069                0.977460735     -83.8751025
9.07                 0.977404619     -84.0100085
9.071                0.977348348     -84.1452557
9.072                0.977291921      -84.280845
9.073                0.977235339     -84.4167774
9.074                0.977178601     -84.5530538
9.075                0.977121708     -84.6896752
9.076                0.977064658     -84.8266425
9.077                0.977007453     -84.9639567
9.078                0.976950091     -85.1016188
9.079                0.976892573     -85.2396297
9.08                 0.976834898     -85.3779903
9.081                0.976777067     -85.5167017
9.082                0.976719079     -85.6557648
9.083                0.976660934     -85.7951805
9.084                0.976602632     -85.9349498
9.085                0.976544172     -86.0750738
9.086                0.976485556     -86.2155532
9.087                0.976426782     -86.3563892
9.088                 0.97636785     -86.4975827
9.089                0.976308761     -86.6391346
9.09                 0.976249514     -86.7810459
9.091                 0.97619011     -86.9233176
9.092                0.976130547     -87.0659507
9.093                0.976070827      -87.208946
9.094                0.976010949     -87.3523047
9.095                0.975950912     -87.4960276
9.096                0.975890718     -87.6401158
9.097                0.975830365     -87.7845702
9.098                0.975769854     -87.9293918
9.099                0.975709185     -88.0745815
9.1                  0.975648357     -88.2201403
9.101                0.975587371     -88.3660693
9.102                0.975526227     -88.5123693
9.103                0.975464924     -88.6590414
9.104                0.975403463     -88.8060865
9.105                0.975341843     -88.9535056
9.106                0.975280065     -89.1012997
9.107                0.975218128     -89.2494697
9.108                0.975156033     -89.3980167
9.109                0.975093779     -89.5469416
9.11                 0.975031367     -89.6962453
9.111                0.974968797     -89.8459289
9.112                0.974906068     -89.9959934
9.113                0.974843181     -90.1464396
9.114                0.974780135     -90.2972686
9.115                0.974716932     -90.4484814
9.116                 0.97465357      -90.600079
9.117                 0.97459005     -90.7520622
9.118                0.974526372     -90.9044321
9.119                0.974462536     -91.0571897
9.12                 0.974398542     -91.2103359
9.121                 0.97433439     -91.3638717
9.122                0.974270081     -91.5177981
9.123                0.974205614     -91.6721161
9.124                0.974140989     -91.8268266
9.125                0.974076208     -91.9819306
9.126                0.974011269      -92.137429
9.127                0.973946172     -92.2933229
9.128                 0.97388092     -92.4496132
9.129                 0.97381551     -92.6063009
9.13                 0.973749943     -92.7633869
9.131                0.973684221     -92.9208723
9.132                0.973618341     -93.0787579
9.133                0.973552306     -93.2370448
9.134                0.973486115     -93.3957339
9.135                0.973419769     -93.5548261
9.136                0.973353266     -93.7143225
9.137                0.973286609      -93.874224
9.138                0.973219797     -94.0345316
9.139                0.973152829     -94.1952462
9.14                 0.973085708     -94.3563687
9.141                0.973018432     -94.5179002
9.142                0.972951002     -94.6798416
9.143                0.972883418     -94.8421938
9.144                0.972815681     -95.0049578
9.145                 0.97274779     -95.1681346
9.146                0.972679747      -95.331725
9.147                0.972611551     -95.4957301
9.148                0.972543203     -95.6601507
9.149                0.972474704     -95.8249879
9.15                 0.972406052     -95.9902425
9.151                 0.97233725     -96.1559156
9.152                0.972268296      -96.322008
9.153                0.972199193     -96.4885206
9.154                0.972129939     -96.6554545
9.155                0.972060535     -96.8228105
9.156                0.971990982     -96.9905896
9.157                0.971921281     -97.1587927
9.158                0.971851431     -97.3274207
9.159                0.971781433     -97.4964745
9.16                 0.971711287     -97.6659551
9.161                0.971640994     -97.8358634
9.162                0.971570555     -98.0062002
9.163                 0.97149997     -98.1769666
9.164                0.971429239     -98.3481633
9.165                0.971358363     -98.5197914
9.166                0.971287342     -98.6918517
9.167                0.971216177     -98.8643451
9.168                0.971144868     -99.0372725
9.169                0.971073417     -99.2106348
9.17                 0.971001823     -99.3844329
9.171                0.970930087     -99.5586677
9.172                 0.97085821       -99.73334
9.173                0.970786193     -99.9084508
9.174                0.970714035     -100.084001
9.175                0.970641738     -100.259991
9.176                0.970569302     -100.436422
9.177                0.970496728     -100.613296
9.178                0.970424017     -100.790612
9.179                0.970351168     -100.968371
9.18                 0.970278184     -101.146576
9.181                0.970205064     -101.325225
9.182                0.970131809     -101.504321
9.183                0.970058421     -101.683863
9.184                0.969984899     -101.863854
9.185                0.969911245     -102.044293
9.186                0.969837459     -102.225182
9.187                0.969763542     -102.406521
9.188                0.969689496     -102.588311
9.189                0.969615319     -102.770554
9.19                 0.969541015     -102.953249
9.191                0.969466583     -103.136397
9.192                0.969392024         -103.32
9.193                0.969317339     -103.504058
9.194                0.969242529     -103.688572
9.195                0.969167595     -103.873543
9.196                0.969092538     -104.058972
9.197                0.969017359     -104.244858
9.198                0.968942058     -104.431204
9.199                0.968866637      -104.61801
9.2                  0.968791096     -104.805276
9.201                0.968715438     -104.993003
9.202                0.968639661     -105.181193
9.203                0.968563769     -105.369845
9.204                0.968487761     -105.558961
9.205                0.968411639     -105.748541
9.206                0.968335404     -105.938586
9.207                0.968259056     -106.129096
9.208                0.968182598     -106.320073
9.209                 0.96810603     -106.511518
9.21                 0.968029353      -106.70343
9.211                0.967952568      -106.89581
9.212                0.967875678      -107.08866
9.213                0.967798681     -107.281979
9.214                0.967721581     -107.475769
9.215                0.967644378      -107.67003
9.216                0.967567074     -107.864762
9.217                0.967489669     -108.059968
9.218                0.967412165     -108.255646
9.219                0.967334563     -108.451798
9.22                 0.967256865     -108.648424
9.221                0.967179072     -108.845525
9.222                0.967101185     -109.043101
9.223                0.967023205     -109.241154
9.224                0.966945135     -109.439683
9.225                0.966866975      -109.63869
9.226                0.966788726     -109.838174
9.227                0.966710391     -110.038137
9.228                0.966631971     -110.238579
9.229                0.966553466       -110.4395
9.23                  0.96647488     -110.640901
9.231                0.966396212     -110.842783
9.232                0.966317465     -111.045145
9.233                 0.96623864      -111.24799
9.234                0.966159739     -111.451316
9.235                0.966080763     -111.655125
9.236                0.966001714     -111.859417
9.237                0.965922593     -112.064192
9.238                0.965843403     -112.269452
9.239                0.965764145     -112.475195
9.24                  0.96568482     -112.681424
9.241                 0.96560543     -112.888138
9.242                0.965525977     -113.095337
9.243                0.965446463     -113.303023
9.244                0.965366889     -113.511195
9.245                0.965287257     -113.719854
9.246                0.965207569        -113.929
9.247                0.965127827     -114.138633
9.248                0.965048033     -114.348755
9.249                0.964968188     -114.559365
9.25                 0.964888294     -114.770463
9.251                0.964808354     -114.982051
9.252                0.964728368     -115.194127
9.253                 0.96464834     -115.406693
9.254                0.964568271     -115.619749
9.255                0.964488162     -115.833295
9.256                0.964408017     -116.047332
9.257                0.964327836     -116.261859
9.258                0.964247623     -116.476876
9.259                0.964167378     -116.692385
9.26                 0.964087105     -116.908385
9.261                0.964006805     -117.124877
9.262                 0.96392648      -117.34186
9.263                0.963846133     -117.559335
9.264                0.963765765     -117.777302
9.265                0.963685379      -117.99576
9.266                0.963604977     -118.214712
9.267                0.963524562     -118.434155
9.268                0.963444134     -118.654091
9.269                0.963363698     -118.874519
9.27                 0.963283254      -119.09544
9.271                0.963202806     -119.316854
9.272                0.963122355     -119.538761
9.273                0.963041904      -119.76116
9.274                0.962961455     -119.984052
9.275                0.962881011     -120.207436
9.276                0.962800575     -120.431314
9.277                0.962720147     -120.655684
9.278                0.962639732     -120.880547
9.279                0.962559331     -121.105902
9.28                 0.962478946      -121.33175
9.281                0.962398582     -121.558091
9.282                0.962318239     -121.784923
9.283                 0.96223792     -122.012248
9.284                0.962157629     -122.240066
9.285                0.962077367     -122.468375
9.286                0.961997137     -122.697176
9.287                0.961916942     -122.926468
9.288                0.961836785     -123.156252
9.289                0.961756668     -123.386527
9.29                 0.961676593     -123.617293
9.291                0.961596564      -123.84855
9.292                0.961516584     -124.080297
9.293                0.961436654     -124.312535
9.294                0.961356778     -124.545262
9.295                0.961276959     -124.778479
9.296                0.961197199     -125.012185
9.297                0.961117501      -125.24638
9.298                0.961037868     -125.481063
9.299                0.960958304     -125.716234
9.3                   0.96087881     -125.951894
9.301                0.960799389      -126.18804
9.302                0.960720045     -126.424673
9.303                0.960640781     -126.661793
9.304                0.960561599     -126.899399
9.305                0.960482503      -127.13749
9.306                0.960403495     -127.376066
9.307                0.960324579     -127.615126
9.308                0.960245757      -127.85467
9.309                0.960167033     -128.094697
9.31                  0.96008841     -128.335207
9.311                 0.96000989     -128.576199
9.312                0.959931477     -128.817673
9.313                0.959853174     -129.059627
9.314                0.959774985     -129.302061
9.315                0.959696911     -129.544975
9.316                0.959618957     -129.788367
9.317                0.959541126     -130.032237
9.318                0.959463421     -130.276585
9.319                0.959385844     -130.521409
9.32                   0.9593084     -130.766709
9.321                0.959231092     -131.012483
9.322                0.959153922     -131.258732
9.323                0.959076895     -131.505454
9.324                0.959000013     -131.752648
9.325                 0.95892328     -132.000314
9.326                0.958846699      -132.24845
9.327                0.958770274     -132.497056
9.328                0.958694007      -132.74613
9.329                0.958617903     -132.995672
9.33                 0.958541965     -133.245681
9.331                0.958466195     -133.496155
9.332                0.958390598     -133.747094
9.333                0.958315177     -133.998497
9.334                0.958239936     -134.250362
9.335                0.958164877     -134.502688
9.336                0.958090004     -134.755475
9.337                0.958015322     -135.008721
9.338                0.957940833     -135.262425
9.339                 0.95786654     -135.516585
9.34                 0.957792449     -135.771201
9.341                0.957718561     -136.026272
9.342                 0.95764488     -136.281795
9.343                0.957571411     -136.537771
9.344                0.957498156     -136.794196
9.345                 0.95742512     -137.051071
9.346                0.957352305     -137.308394
9.347                0.957279716     -137.566163
9.348                0.957207355     -137.824378
9.349                0.957135228     -138.083036
9.35                 0.957063337     -138.342136
9.351                0.956991685     -138.601676
9.352                0.956920278     -138.861657
9.353                0.956849117     -139.122075
9.354                0.956778207     -139.382929
9.355                0.956707552     -139.644217
9.356                0.956637156     -139.905939
9.357                0.956567021     -140.168093
9.358                0.956497152     -140.430676
9.359                0.956427552     -140.693688
9.36                 0.956358225     -140.957126
9.361                0.956289175     -141.220989
9.362                0.956220405     -141.485275
9.363                 0.95615192     -141.749983
9.364                0.956083722      -142.01511
9.365                0.956015816     -142.280656
9.366                0.955948206     -142.546617
9.367                0.955880894     -142.812993
9.368                0.955813885     -143.079781
9.369                0.955747183     -143.346979
9.37                 0.955680791     -143.614587
9.371                0.955614713     -143.882601
9.372                0.955548952     -144.151019
9.373                0.955483513     -144.419841
9.374                0.955418399     -144.689063
9.375                0.955353614     -144.958684
9.376                0.955289162     -145.228702
9.377                0.955225046     -145.499114
9.378                 0.95516127     -145.769919
9.379                0.955097838     -146.041115
9.38                 0.955034753     -146.312699
9.381                 0.95497202     -146.584669
9.382                0.954909641     -146.857023
9.383                0.954847622     -147.129759
9.384                0.954785964     -147.402874
9.385                0.954724673     -147.676367
9.386                0.954663751     -147.950235
9.387                0.954603203     -148.224475
9.388                0.954543031     -148.499086
9.389                0.954483241     -148.774065
9.39                 0.954423835      -149.04941
9.391                0.954364816     -149.325118
9.392                 0.95430619     -149.601186
9.393                0.954247959     -149.877614
9.394                0.954190127     -150.154397
9.395                0.954132697     -150.431534
9.396                0.954075674     -150.709022
