! TOUCHSTONE file generated by CST DESIGN STUDIO
! Date and time: Tue Feb  4 17:56:34 2025
! Project name: C:\Work\MatlabApps\UnitCellOptimizationMatlab\CST\unitcell.cst
! Tree item: Tasks\Sweep1\SPara1\S-Parameters
! Header version: 2024
! Port assignment regex: !\s*Touchstone port\s*([0-9]+)\s*=\s*(CST MWS port|CST DES external port|CST DES block port)\s*(.+)\s* \(\"(.*)\"\)(\s*mode\s*([0-9]+))?.*
! Touchstone port assignment:
! Touchstone port 1 = CST DES external port 1 ("")
# GHz S MA R 50
9                    0.981501839     -70.3075776
9.001                0.981459942     -70.4098149
9.002                0.981417919     -70.5122983
9.003                 0.98137577     -70.6150286
9.004                0.981333494     -70.7180064
9.005                0.981291091     -70.8212326
9.006                0.981248561     -70.9247079
9.007                0.981205903     -71.0284331
9.008                0.981163118     -71.1324089
9.009                0.981120204     -71.2366361
9.01                 0.981077161     -71.3411154
9.011                0.981033989     -71.4458477
9.012                0.980990689     -71.5508337
9.013                0.980947258     -71.6560741
9.014                0.980903697     -71.7615698
9.015                0.980860007     -71.8673215
9.016                0.980816185       -71.97333
9.017                0.980772233     -72.0795961
9.018                0.980728149     -72.1861205
9.019                0.980683933     -72.2929041
9.02                 0.980639586     -72.3999477
9.021                0.980595106     -72.5072519
9.022                0.980550493     -72.6148177
9.023                0.980505748     -72.7226458
9.024                0.980460869      -72.830737
9.025                0.980415856     -72.9390921
9.026                0.980370709      -73.047712
9.027                0.980325428     -73.1565973
9.028                0.980280013      -73.265749
9.029                0.980234462     -73.3751677
9.03                 0.980188776     -73.4848545
9.031                0.980142954     -73.5948099
9.032                0.980096997      -73.705035
9.033                0.980050903     -73.8155304
9.034                0.980004672     -73.9262969
9.035                0.979958304     -74.0373355
9.036                0.979911799      -74.148647
9.037                0.979865157     -74.2602321
9.038                0.979818376     -74.3720917
9.039                0.979771457     -74.4842266
9.04                   0.9797244     -74.5966376
9.041                0.979677203     -74.7093256
9.042                0.979629867     -74.8222915
9.043                0.979582392     -74.9355359
9.044                0.979534777     -75.0490599
9.045                0.979487022     -75.1628642
9.046                0.979439126     -75.2769497
9.047                0.979391089     -75.3913171
9.048                0.979342911     -75.5059675
9.049                0.979294592     -75.6209016
9.05                 0.979246131     -75.7361202
9.051                0.979197527     -75.8516242
9.052                0.979148781     -75.9674146
9.053                0.979099893      -76.083492
9.054                0.979050862     -76.1998575
9.055                0.979001687     -76.3165118
9.056                0.978952368     -76.4334558
9.057                0.978902906     -76.5506904
9.058                0.978853299     -76.6682164
9.059                0.978803548     -76.7860348
9.06                 0.978753652     -76.9041464
9.061                0.978703611      -77.022552
9.062                0.978653424     -77.1412526
9.063                0.978603091      -77.260249
9.064                0.978552613     -77.3795421
9.065                0.978501988     -77.4991328
9.066                0.978451217     -77.6190219
9.067                0.978400298     -77.7392104
9.068                0.978349233     -77.8596992
9.069                 0.97829802      -77.980489
9.07                 0.978246659     -78.1015809
9.071                 0.97819515     -78.2229757
9.072                0.978143493     -78.3446743
9.073                0.978091687     -78.4666777
9.074                0.978039732     -78.5889866
9.075                0.977987628      -78.711602
9.076                0.977935375     -78.8345249
9.077                0.977882972      -78.957756
9.078                0.977830418     -79.0812964
9.079                0.977777715     -79.2051469
9.08                 0.977724861     -79.3293085
9.081                0.977671857      -79.453782
9.082                0.977618701     -79.5785684
9.083                0.977565394     -79.7036685
9.084                0.977511936     -79.8290834
9.085                0.977458325     -79.9548139
9.086                0.977404563     -80.0808609
9.087                0.977350649     -80.2072254
9.088                0.977296581     -80.3339083
9.089                0.977242361     -80.4609105
9.09                 0.977187989     -80.5882329
9.091                0.977133462     -80.7158765
9.092                0.977078783     -80.8438422
9.093                0.977023949     -80.9721309
9.094                0.976968962     -81.1007437
9.095                 0.97691382     -81.2296813
9.096                0.976858524     -81.3589447
9.097                0.976803074      -81.488535
9.098                0.976747469      -81.618453
9.099                0.976691708     -81.7486996
9.1                  0.976635792     -81.8792759
9.101                0.976579721     -82.0101827
9.102                0.976523494      -82.141421
9.103                0.976467112     -82.2729918
9.104                0.976410573      -82.404896
9.105                0.976353878     -82.5371345
9.106                0.976297027     -82.6697083
9.107                0.976240018     -82.8026184
9.108                0.976182854     -82.9358658
9.109                0.976125532     -83.0694513
9.11                 0.976068053     -83.2033759
9.111                0.976010416     -83.3376407
9.112                0.975952622     -83.4722464
9.113                 0.97589467     -83.6071943
9.114                0.975836561     -83.7424851
9.115                0.975778293     -83.8781198
9.116                0.975719868     -84.0140995
9.117                0.975661284      -84.150425
9.118                0.975602541     -84.2870974
9.119                0.975543641     -84.4241176
9.12                 0.975484581     -84.5614866
9.121                0.975425362     -84.6992054
9.122                0.975365985     -84.8372749
9.123                0.975306448     -84.9756961
9.124                0.975246752       -85.11447
9.125                0.975186897     -85.2535976
9.126                0.975126882     -85.3930798
9.127                0.975066708     -85.5329177
9.128                0.975006374     -85.6731121
9.129                0.974945881     -85.8136641
9.13                 0.974885227     -85.9545747
9.131                0.974824414     -86.0958449
9.132                0.974763441     -86.2374755
9.133                0.974702307     -86.3794677
9.134                0.974641014     -86.5218223
9.135                 0.97457956     -86.6645405
9.136                0.974517946     -86.8076231
9.137                0.974456172     -86.9510711
9.138                0.974394237     -87.0948856
9.139                0.974332142     -87.2390676
9.14                 0.974269887     -87.3836179
9.141                0.974207471     -87.5285377
9.142                0.974144894     -87.6738278
9.143                0.974082157     -87.8194893
9.144                 0.97401926     -87.9655232
9.145                0.973956202     -88.1119305
9.146                0.973892984     -88.2587121
9.147                0.973829604     -88.4058691
9.148                0.973766065     -88.5534025
9.149                0.973702365     -88.7013131
9.15                 0.973638504     -88.8496021
9.151                0.973574483     -88.9982704
9.152                0.973510302      -89.147319
9.153                 0.97344596      -89.296749
9.154                0.973381458     -89.4465612
9.155                0.973316796     -89.5967567
9.156                0.973251974     -89.7473365
9.157                0.973186991     -89.8983016
9.158                0.973121849     -90.0496529
9.159                0.973056546     -90.2013916
9.16                 0.972991084     -90.3535184
9.161                0.972925462     -90.5060346
9.162                 0.97285968      -90.658941
9.163                0.972793739     -90.8122386
9.164                0.972727638     -90.9659284
9.165                0.972661378     -91.1200115
9.166                0.972594959     -91.2744888
9.167                0.972528381     -91.4293612
9.168                0.972461644     -91.5846299
9.169                0.972394749     -91.7402957
9.17                 0.972327695     -91.8963598
9.171                0.972260482      -92.052823
9.172                0.972193112     -92.2096863
9.173                0.972125584     -92.3669508
9.174                0.972057898     -92.5246173
9.175                0.971990054      -92.682687
9.176                0.971922053     -92.8411608
9.177                0.971853896     -93.0000397
9.178                0.971785581     -93.1593246
9.179                 0.97171711     -93.3190166
9.18                 0.971648482     -93.4791165
9.181                0.971579699     -93.6396255
9.182                0.971510759     -93.8005445
9.183                0.971441665     -93.9618744
9.184                0.971372415     -94.1236162
9.185                 0.97130301      -94.285771
9.186                0.971233451     -94.4483396
9.187                0.971163737     -94.6113231
9.188                 0.97109387     -94.7747224
9.189                0.971023849     -94.9385385
9.19                 0.970953674     -95.1027723
9.191                0.970883347     -95.2674249
9.192                0.970812868     -95.4324971
9.193                0.970742237       -95.59799
9.194                0.970671453     -95.7639045
9.195                0.970600519     -95.9302416
9.196                0.970529434     -96.0970022
9.197                0.970458198     -96.2641872
9.198                0.970386813     -96.4317977
9.199                0.970315278     -96.5998345
9.2                  0.970243594     -96.7682987
9.201                0.970171761     -96.9371911
9.202                 0.97009978     -97.1065127
9.203                0.970027652     -97.2762645
9.204                0.969955376     -97.4464473
9.205                0.969882954     -97.6170622
9.206                0.969810386       -97.78811
9.207                0.969737673     -97.9595917
9.208                0.969664815     -98.1315082
9.209                0.969591812     -98.3038604
9.21                 0.969518665     -98.4766492
9.211                0.969445376     -98.6498757
9.212                0.969371944     -98.8235406
9.213                0.969298369     -98.9976448
9.214                0.969224654     -99.1721894
9.215                0.969150798     -99.3471752
9.216                0.969076802     -99.5226031
9.217                0.969002666      -99.698474
9.218                0.968928392     -99.8747888
9.219                 0.96885398     -100.051548
9.22                  0.96877943     -100.228754
9.221                0.968704744     -100.406405
9.222                0.968629923     -100.584505
9.223                0.968554966     -100.763052
9.224                0.968479875     -100.942049
9.225                0.968404651     -101.121495
9.226                0.968329293     -101.301393
9.227                0.968253804     -101.481743
9.228                0.968178184     -101.662545
9.229                0.968102434       -101.8438
9.23                 0.968026554      -102.02551
9.231                0.967950546     -102.207675
9.232                 0.96787441     -102.390296
9.233                0.967798148     -102.573373
9.234                0.967721759     -102.756909
9.235                0.967645246     -102.940903
9.236                0.967568609     -103.125356
9.237                0.967491849     -103.310269
9.238                0.967414967     -103.495643
9.239                0.967337963     -103.681479
9.24                  0.96726084     -103.867777
9.241                0.967183598     -104.054539
9.242                0.967106238     -104.241764
9.243                 0.96702876     -104.429455
9.244                0.966951167     -104.617611
9.245                 0.96687346     -104.806233
9.246                0.966795638     -104.995322
9.247                0.966717704      -105.18488
9.248                0.966639659     -105.374906
9.249                0.966561503     -105.565401
9.25                 0.966483239     -105.756367
9.251                0.966404866     -105.947803
9.252                0.966326387     -106.139711
9.253                0.966247802     -106.332091
9.254                0.966169113     -106.524944
9.255                0.966090321     -106.718271
9.256                0.966011427     -106.912072
9.257                0.965932433     -107.106348
9.258                 0.96585334       -107.3011
9.259                0.965774149     -107.496328
9.26                 0.965694861     -107.692033
9.261                0.965615479     -107.888216
9.262                0.965536002     -108.084878
9.263                0.965456434     -108.282018
9.264                0.965376774     -108.479638
9.265                0.965297025     -108.677738
9.266                0.965217188     -108.876319
9.267                0.965137264     -109.075382
9.268                0.965057256     -109.274926
9.269                0.964977164     -109.474954
9.27                 0.964896989     -109.675464
9.271                0.964816735     -109.876459
9.272                0.964736401     -110.077937
9.273                 0.96465599     -110.279901
9.274                0.964575504      -110.48235
9.275                0.964494943     -110.685285
9.276                 0.96441431     -110.888707
9.277                0.964333606     -111.092616
9.278                0.964252833     -111.297012
9.279                0.964171992     -111.501897
9.28                 0.964091086      -111.70727
9.281                0.964010116     -111.913132
9.282                0.963929083     -112.119483
9.283                0.963847991     -112.326325
9.284                0.963766839     -112.533656
9.285                0.963685631     -112.741479
9.286                0.963604368     -112.949793
9.287                0.963523052     -113.158599
9.288                0.963441685     -113.367897
9.289                0.963360268     -113.577687
9.29                 0.963278804      -113.78797
9.291                0.963197295     -113.998747
9.292                0.963115742     -114.210017
9.293                0.963034148     -114.421781
9.294                0.962952514     -114.634039
9.295                0.962870843     -114.846792
9.296                0.962789136     -115.060039
9.297                0.962707397     -115.273782
9.298                0.962625625     -115.488021
9.299                0.962543825     -115.702755
9.3                  0.962461998     -115.917986
9.301                0.962380146     -116.133713
9.302                0.962298271     -116.349936
9.303                0.962216376     -116.566656
9.304                0.962134463     -116.783873
9.305                0.962052533     -117.001587
9.306                 0.96197059     -117.219799
9.307                0.961888635     -117.438508
9.308                0.961806672     -117.657715
9.309                0.961724701      -117.87742
9.31                 0.961642726     -118.097623
9.311                0.961560748     -118.318323
9.312                0.961478771     -118.539523
9.313                0.961396797      -118.76122
9.314                0.961314828     -118.983416
9.315                0.961232866      -119.20611
9.316                0.961150914     -119.429303
9.317                0.961068975     -119.652994
9.318                0.960987051     -119.877184
9.319                0.960905144     -120.101873
9.32                 0.960823257      -120.32706
9.321                0.960741393     -120.552745
9.322                0.960659555     -120.778929
9.323                0.960577744     -121.005612
9.324                0.960495964     -121.232793
9.325                0.960414217     -121.460472
9.326                0.960332506     -121.688649
9.327                0.960250833     -121.917324
9.328                0.960169202     -122.146498
9.329                0.960087615     -122.376169
9.33                 0.960006075     -122.606337
9.331                0.959924584     -122.837003
9.332                0.959843146     -123.068166
9.333                0.959761763     -123.299826
9.334                0.959680439     -123.531983
9.335                0.959599175     -123.764637
9.336                0.959517975     -123.997786
9.337                0.959436842     -124.231432
9.338                0.959355779     -124.465573
9.339                0.959274788     -124.700209
9.34                 0.959193873      -124.93534
9.341                0.959113037     -125.170966
9.342                0.959032283     -125.407086
9.343                0.958951613       -125.6437
9.344                0.958871031     -125.880808
9.345                 0.95879054     -126.118408
9.346                0.958710142     -126.356501
9.347                0.958629842     -126.595086
9.348                0.958549642     -126.834163
9.349                0.958469545      -127.07373
9.35                 0.958389555     -127.313789
9.351                0.958309675     -127.554337
9.352                0.958229907     -127.795374
9.353                0.958150256     -128.036901
9.354                0.958070723     -128.278915
9.355                0.957991314     -128.521418
9.356                 0.95791203     -128.764407
9.357                0.957832876     -129.007883
9.358                0.957753854     -129.251844
9.359                0.957674969      -129.49629
9.36                 0.957596222      -129.74122
9.361                0.957517618     -129.986634
9.362                 0.95743916     -130.232531
9.363                0.957360851     -130.478909
9.364                0.957282695     -130.725769
9.365                0.957204696     -130.973109
9.366                0.957126856     -131.220928
9.367                0.957049179     -131.469226
9.368                0.956971669     -131.718002
9.369                0.956894329     -131.967254
9.37                 0.956817163     -132.216983
9.371                0.956740174     -132.467186
9.372                0.956663365     -132.717863
9.373                0.956586741     -132.969013
9.374                0.956510305     -133.220635
9.375                0.956434061     -133.472727
9.376                0.956358011      -133.72529
9.377                 0.95628216     -133.978321
9.378                0.956206512      -134.23182
9.379                0.956131069     -134.485786
9.38                 0.956055836     -134.740216
9.381                0.955980816     -134.995111
9.382                0.955906014     -135.250469
9.383                0.955831432     -135.506289
9.384                0.955757074     -135.762569
9.385                0.955682944     -136.019308
9.386                0.955609046     -136.276506
9.387                0.955535384      -136.53416
9.388                0.955461961     -136.792269
9.389                0.955388781     -137.050833
9.39                 0.955315848     -137.309849
9.391                0.955243165     -137.569316
9.392                0.955170737     -137.829233
9.393                0.955098567     -138.089598
9.394                0.955026659      -138.35041
9.395                0.954955016     -138.611667
9.396                0.954883643     -138.873369
