! TOUCHSTONE file generated by CST DESIGN STUDIO
! Date and time: Tue Feb  4 17:56:39 2025
! Project name: C:\Work\MatlabApps\UnitCellOptimizationMatlab\CST\unitcell.cst
! Tree item: Tasks\Sweep1\SPara1\S-Parameters
! Header version: 2024
! Port assignment regex: !\s*Touchstone port\s*([0-9]+)\s*=\s*(CST MWS port|CST DES external port|CST DES block port)\s*(.+)\s* \(\"(.*)\"\)(\s*mode\s*([0-9]+))?.*
! Touchstone port assignment:
! Touchstone port 1 = CST DES external port 1 ("")
# GHz S MA R 50
9                     0.98208246     -65.0212155
9.001                0.982045102     -65.1124603
9.002                 0.98200763     -65.2039186
9.003                0.981970045     -65.2955911
9.004                0.981932345     -65.3874785
9.005                0.981894531     -65.4795813
9.006                0.981856603     -65.5719004
9.007                0.981818559     -65.6644363
9.008                  0.9817804     -65.7571897
9.009                0.981742126     -65.8501614
9.01                 0.981703735     -65.9433518
9.011                0.981665228     -66.0367619
9.012                0.981626604     -66.1303921
9.013                0.981587863     -66.2242433
9.014                0.981549005      -66.318316
9.015                0.981510029      -66.412611
9.016                0.981470935      -66.507129
9.017                0.981431722     -66.6018706
9.018                0.981392391     -66.6968365
9.019                0.981352941     -66.7920275
9.02                 0.981313371     -66.8874442
9.021                0.981273682     -66.9830873
9.022                0.981233872     -67.0789576
9.023                0.981193942     -67.1750557
9.024                0.981153892     -67.2713823
9.025                 0.98111372     -67.3679381
9.026                0.981073427     -67.4647239
9.027                0.981033012     -67.5617404
9.028                0.980992474     -67.6589882
9.029                0.980951815     -67.7564682
9.03                 0.980911032     -67.8541809
9.031                0.980870127     -67.9521271
9.032                0.980829098     -68.0503076
9.033                0.980787945     -68.1487231
9.034                0.980746668     -68.2473743
9.035                0.980705266     -68.3462619
9.036                 0.98066374     -68.4453867
9.037                0.980622088     -68.5447493
9.038                0.980580311     -68.6443506
9.039                0.980538408     -68.7441913
9.04                 0.980496378      -68.844272
9.041                0.980454223     -68.9445936
9.042                 0.98041194     -69.0451568
9.043                 0.98036953     -69.1459623
9.044                0.980326992      -69.247011
9.045                0.980284327     -69.3483034
9.046                0.980241533     -69.4498405
9.047                0.980198611     -69.5516229
9.048                0.980155559     -69.6536514
9.049                0.980112379     -69.7559268
9.05                 0.980069069     -69.8584498
9.051                0.980025628     -69.9612211
9.052                0.979982058     -70.0642417
9.053                0.979938357     -70.1675122
9.054                0.979894524     -70.2710334
9.055                0.979850561      -70.374806
9.056                0.979806466     -70.4788309
9.057                0.979762238     -70.5831088
9.058                0.979717879     -70.6876406
9.059                0.979673387     -70.7924269
9.06                 0.979628761     -70.8974686
9.061                0.979584003     -71.0027664
9.062                 0.97953911     -71.1083212
9.063                0.979494084     -71.2141338
9.064                0.979448923     -71.3202049
9.065                0.979403627     -71.4265353
9.066                0.979358196     -71.5331259
9.067                 0.97931263     -71.6399773
9.068                0.979266928     -71.7470906
9.069                0.979221091     -71.8544663
9.07                 0.979175116     -71.9621054
9.071                0.979129005     -72.0700087
9.072                0.979082757     -72.1781769
9.073                0.979036371     -72.2866109
9.074                0.978989848     -72.3953115
9.075                0.978943186     -72.5042795
9.076                0.978896387     -72.6135158
9.077                0.978849448     -72.7230211
9.078                 0.97880237     -72.8327963
9.079                0.978755153     -72.9428422
9.08                 0.978707796     -73.0531597
9.081                0.978660299     -73.1637495
9.082                0.978612662     -73.2746126
9.083                0.978564884     -73.3857497
9.084                0.978516965     -73.4971617
9.085                0.978468904     -73.6088494
9.086                0.978420702     -73.7208136
9.087                0.978372358     -73.8330553
9.088                0.978323871     -73.9455753
9.089                0.978275242     -74.0583743
9.09                  0.97822647     -74.1714534
9.091                0.978177554     -74.2848132
9.092                0.978128495     -74.3984547
9.093                0.978079292     -74.5123788
9.094                0.978029944     -74.6265862
9.095                0.977980452     -74.7410779
9.096                0.977930815     -74.8558547
9.097                0.977881033     -74.9709175
9.098                0.977831105     -75.0862672
9.099                0.977781032     -75.2019046
9.1                  0.977730812     -75.3178306
9.101                0.977680446     -75.4340461
9.102                0.977629933     -75.5505519
9.103                0.977579273      -75.667349
9.104                0.977528466     -75.7844382
9.105                0.977477511     -75.9018204
9.106                0.977426408     -76.0194965
9.107                0.977375156     -76.1374674
9.108                0.977323757      -76.255734
9.109                0.977272208     -76.3742971
9.11                  0.97722051     -76.4931577
9.111                0.977168663     -76.6123166
9.112                0.977116666     -76.7317748
9.113                0.977064518     -76.8515332
9.114                0.977012221     -76.9715926
9.115                0.976959773      -77.091954
9.116                0.976907174     -77.2126183
9.117                0.976854424     -77.3335863
9.118                0.976801522     -77.4548591
9.119                0.976748469     -77.5764374
9.12                 0.976695263     -77.6983223
9.121                0.976641906     -77.8205147
9.122                0.976588395     -77.9430154
9.123                0.976534732     -78.0658254
9.124                0.976480916     -78.1889456
9.125                0.976426947     -78.3123769
9.126                0.976372824     -78.4361203
9.127                0.976318546     -78.5601768
9.128                0.976264115     -78.6845471
9.129                 0.97620953     -78.8092323
9.13                 0.976154789     -78.9342333
9.131                0.976099894      -79.059551
9.132                0.976044844     -79.1851864
9.133                0.975989638     -79.3111404
9.134                0.975934277      -79.437414
9.135                0.975878759     -79.5640081
9.136                0.975823086     -79.6909236
9.137                0.975767256     -79.8181615
9.138                0.975711269     -79.9457228
9.139                0.975655126     -80.0736084
9.14                 0.975598826     -80.2018192
9.141                0.975542368     -80.3303563
9.142                0.975485753     -80.4592205
9.143                 0.97542898     -80.5884128
9.144                 0.97537205     -80.7179343
9.145                0.975314961     -80.8477858
9.146                0.975257713     -80.9779683
9.147                0.975200308     -81.1084828
9.148                0.975142743     -81.2393302
9.149                 0.97508502     -81.3705116
9.15                 0.975027137     -81.5020279
9.151                0.974969095       -81.63388
9.152                0.974910893      -81.766069
9.153                0.974852532     -81.8985958
9.154                0.974794011     -82.0314614
9.155                0.974735329     -82.1646668
9.156                0.974676488     -82.2982129
9.157                0.974617486     -82.4321007
9.158                0.974558324     -82.5663313
9.159                   0.974499     -82.7009056
9.16                 0.974439516     -82.8358246
9.161                0.974379871     -82.9710892
9.162                0.974320065     -83.1067006
9.163                0.974260097     -83.2426596
9.164                0.974199968     -83.3789672
9.165                0.974139677     -83.5156245
9.166                0.974079224     -83.6526324
9.167                 0.97401861      -83.789992
9.168                0.973957833     -83.9277042
9.169                0.973896895     -84.0657701
9.17                 0.973835794     -84.2041906
9.171                0.973774531     -84.3429667
9.172                0.973713105     -84.4820995
9.173                0.973651517     -84.6215899
9.174                0.973589766     -84.7614389
9.175                0.973527853     -84.9016476
9.176                0.973465776      -85.042217
9.177                0.973403537      -85.183148
9.178                0.973341135     -85.3244417
9.179                 0.97327857     -85.4660991
9.18                 0.973215841     -85.6081212
9.181                 0.97315295      -85.750509
9.182                0.973089895     -85.8932635
9.183                0.973026678     -86.0363858
9.184                0.972963296     -86.1798768
9.185                0.972899752     -86.3237376
9.186                0.972836044     -86.4679691
9.187                0.972772173     -86.6125725
9.188                0.972708139     -86.7575486
9.189                0.972643941     -86.9028986
9.19                 0.972579579     -87.0486235
9.191                0.972515055     -87.1947242
9.192                0.972450367     -87.3412018
9.193                0.972385515     -87.4880573
9.194                  0.9723205     -87.6352918
9.195                0.972255322     -87.7829062
9.196                0.972189981     -87.9309016
9.197                0.972124476     -88.0792789
9.198                0.972058808     -88.2280393
9.199                0.971992977     -88.3771838
9.2                  0.971926983     -88.5267133
9.201                0.971860826     -88.6766289
9.202                0.971794506     -88.8269316
9.203                0.971728024     -88.9776225
9.204                0.971661378     -89.1287025
9.205                 0.97159457     -89.2801727
9.206                0.971527599     -89.4320341
9.207                0.971460466     -89.5842877
9.208                 0.97139317     -89.7369346
9.209                0.971325713     -89.8899758
9.21                 0.971258093     -90.0434123
9.211                0.971190311     -90.1972452
9.212                0.971122368     -90.3514754
9.213                0.971054263     -90.5061039
9.214                0.970985997     -90.6611319
9.215                0.970917569     -90.8165603
9.216                 0.97084898     -90.9723902
9.217                0.970780231     -91.1286225
9.218                0.970711321     -91.2852583
9.219                 0.97064225     -91.4422986
9.22                 0.970573019     -91.5997445
9.221                0.970503629     -91.7575969
9.222                0.970434078     -91.9158569
9.223                0.970364368     -92.0745254
9.224                0.970294499     -92.2336036
9.225                0.970224471     -92.3930924
9.226                0.970154284     -92.5529929
9.227                0.970083939      -92.713306
9.228                0.970013435     -92.8740328
9.229                0.969942774     -93.0351742
9.23                 0.969871955     -93.1967314
9.231                0.969800979     -93.3587053
9.232                0.969729847     -93.5210969
9.233                0.969658558     -93.6839072
9.234                0.969587112     -93.8471372
9.235                0.969515511      -94.010788
9.236                0.969443755     -94.1748605
9.237                0.969371844     -94.3393558
9.238                0.969299778     -94.5042748
9.239                0.969227558     -94.6696185
9.24                 0.969155184      -94.835388
9.241                0.969082657     -95.0015843
9.242                0.969009977     -95.1682082
9.243                0.968937144     -95.3352609
9.244                 0.96886416     -95.5027433
9.245                0.968791024     -95.6706564
9.246                0.968717737     -95.8390012
9.247                  0.9686443     -96.0077787
9.248                0.968570712     -96.1769899
9.249                0.968496976     -96.3466356
9.25                  0.96842309      -96.516717
9.251                0.968349056      -96.687235
9.252                0.968274874     -96.8581905
9.253                0.968200545     -97.0295846
9.254                0.968126069     -97.2014182
9.255                0.968051448     -97.3736922
9.256                 0.96797668     -97.5464076
9.257                0.967901768     -97.7195655
9.258                0.967826712     -97.8931667
9.259                0.967751513     -98.0672121
9.26                  0.96767617     -98.2417028
9.261                0.967600686     -98.4166397
9.262                 0.96752506     -98.5920238
9.263                0.967449293     -98.7678559
9.264                0.967373386      -98.944137
9.265                0.967297339     -99.1208681
9.266                0.967221155       -99.29805
9.267                0.967144832     -99.4756838
9.268                0.967068372     -99.6537703
9.269                0.966991776     -99.8323104
9.27                 0.966915045     -100.011305
9.271                0.966838179     -100.190755
9.272                0.966761179     -100.370662
9.273                0.966684047     -100.551025
9.274                0.966606782     -100.731847
9.275                0.966529386     -100.913128
9.276                 0.96645186     -101.094869
9.277                0.966374204     -101.277071
9.278                 0.96629642     -101.459735
9.279                0.966218508     -101.642861
9.28                  0.96614047     -101.826451
9.281                0.966062306     -102.010505
9.282                0.965984018     -102.195024
9.283                0.965905606     -102.380009
9.284                0.965827071     -102.565461
9.285                0.965748415     -102.751381
9.286                0.965669638      -102.93777
9.287                0.965590742     -103.124628
9.288                0.965511728     -103.311956
9.289                0.965432596     -103.499755
9.29                 0.965353348     -103.688026
9.291                0.965273985      -103.87677
9.292                0.965194509     -104.065988
9.293                0.965114919      -104.25568
9.294                0.965035218     -104.445847
9.295                0.964955407     -104.636489
9.296                0.964875487     -104.827609
9.297                0.964795459     -105.019206
9.298                0.964715325     -105.211281
9.299                0.964635085     -105.403835
9.3                  0.964554741     -105.596869
9.301                0.964474295     -105.790384
9.302                0.964393747      -105.98438
9.303                  0.9643131     -106.178857
9.304                0.964232353     -106.373818
9.305                 0.96415151     -106.569262
9.306                 0.96407057      -106.76519
9.307                0.963989537     -106.961602
9.308                 0.96390841     -107.158501
9.309                0.963827192     -107.355885
9.31                 0.963745883     -107.553757
9.311                0.963664487     -107.752116
9.312                0.963583003     -107.950963
9.313                0.963501434       -108.1503
9.314                0.963419781     -108.350126
9.315                0.963338045     -108.550442
9.316                0.963256229     -108.751249
9.317                0.963174334     -108.952547
9.318                0.963092361     -109.154338
9.319                0.963010313     -109.356621
9.32                  0.96292819     -109.559397
9.321                0.962845995     -109.762668
9.322                0.962763729     -109.966432
9.323                0.962681395     -110.170692
9.324                0.962598993     -110.375448
9.325                0.962516525     -110.580699
9.326                0.962433994     -110.786447
9.327                0.962351402     -110.992693
9.328                0.962268749     -111.199436
9.329                0.962186038     -111.406677
9.33                 0.962103271     -111.614417
9.331                 0.96202045     -111.822656
9.332                0.961937576     -112.031395
9.333                0.961854652     -112.240634
9.334                 0.96177168     -112.450374
9.335                0.961688661     -112.660615
9.336                0.961605597     -112.871357
9.337                0.961522491     -113.082601
9.338                0.961439345     -113.294348
9.339                0.961356161     -113.506597
9.34                  0.96127294      -113.71935
9.341                0.961189685     -113.932606
9.342                0.961106398     -114.146365
9.343                0.961023082     -114.360629
9.344                0.960939738     -114.575398
9.345                0.960856369     -114.790672
9.346                0.960772976      -115.00645
9.347                0.960689563     -115.222735
9.348                0.960606131     -115.439525
9.349                0.960522683     -115.656821
9.35                 0.960439221     -115.874623
9.351                0.960355747     -116.092932
9.352                0.960272264     -116.311748
9.353                0.960188774     -116.531071
9.354                0.960105279     -116.750901
9.355                0.960021783     -116.971239
9.356                0.959938287     -117.192085
9.357                0.959854794     -117.413438
9.358                0.959771306     -117.635299
9.359                0.959687826     -117.857668
9.36                 0.959604356     -118.080546
9.361                  0.9595209     -118.303932
9.362                0.959437459     -118.527827
9.363                0.959354037      -118.75223
9.364                0.959270635     -118.977141
9.365                0.959187257     -119.202562
9.366                0.959103905     -119.428491
9.367                0.959020581     -119.654928
9.368                 0.95893729     -119.881875
9.369                0.958854032      -120.10933
9.37                 0.958770812     -120.337294
9.371                0.958687632     -120.565767
9.372                0.958604495     -120.794748
9.373                0.958521403     -121.024238
9.374                0.958438359     -121.254236
9.375                0.958355367     -121.484743
9.376                0.958272429     -121.715758
9.377                0.958189548     -121.947281
9.378                0.958106727     -122.179312
9.379                0.958023969      -122.41185
9.38                 0.957941277     -122.644897
9.381                0.957858654      -122.87845
9.382                0.957776103     -123.112511
9.383                0.957693627     -123.347079
9.384                 0.95761123     -123.582153
9.385                0.957528913     -123.817733
9.386                0.957446681      -124.05382
9.387                0.957364537     -124.290413
9.388                0.957282483      -124.52751
9.389                0.957200523     -124.765113
9.39                  0.95711866     -125.003221
9.391                0.957036898     -125.241833
9.392                0.956955239     -125.480949
9.393                0.956873686     -125.720568
9.394                0.956792244      -125.96069
9.395                0.956710915     -126.201315
9.396                0.956629703     -126.442442
