! TOUCHSTONE file generated by CST DESIGN STUDIO
! Date and time: Tue Feb  4 13:14:50 2025
! Project name: C:\Work\MatlabApps\UnitCellOptimizationMatlab\CST\unitcell.cst
! Tree item: Tasks\Sweep1\SPara1\S-Parameters
! Header version: 2024
! Port assignment regex: !\s*Touchstone port\s*([0-9]+)\s*=\s*(CST MWS port|CST DES external port|CST DES block port)\s*(.+)\s* \(\"(.*)\"\)(\s*mode\s*([0-9]+))?.*
! Touchstone port assignment:
! Touchstone port 1 = CST DES external port 1 ("")
# GHz S MA R 50
9                    0.952763781     -86.0929418
9.001                0.952728486     -86.2457475
9.002                0.952693003     -86.3990165
9.003                0.952657327     -86.5527503
9.004                0.952621455     -86.7069502
9.005                0.952585385     -86.8616177
9.006                0.952549113     -87.0167543
9.007                0.952512637     -87.1723614
9.008                0.952475953     -87.3284404
9.009                0.952439058     -87.4849928
9.01                 0.952401949       -87.64202
9.011                0.952364623     -87.7995235
9.012                0.952327078     -87.9575047
9.013                0.952289309      -88.115965
9.014                0.952251314      -88.274906
9.015                 0.95221309      -88.434329
9.016                0.952174633     -88.5942355
9.017                0.952135941      -88.754627
9.018                 0.95209701     -88.9155048
9.019                0.952057838     -89.0768705
9.02                  0.95201842     -89.2387254
9.021                0.951978755     -89.4010711
9.022                0.951938838      -89.563909
9.023                0.951898667     -89.7272405
9.024                0.951858239      -89.891067
9.025                 0.95181755     -90.0553901
9.026                0.951776597     -90.2202111
9.027                0.951735378     -90.3855315
9.028                0.951693888     -90.5513528
9.029                0.951652126     -90.7176763
9.03                 0.951610087     -90.8845036
9.031                0.951567768      -91.051836
9.032                0.951525167     -91.2196751
9.033                 0.95148228     -91.3880222
9.034                0.951439104     -91.5568788
9.035                0.951395636     -91.7262463
9.036                0.951351872     -91.8961262
9.037                 0.95130781     -92.0665199
9.038                0.951263447     -92.2374288
9.039                0.951218778     -92.4088544
9.04                 0.951173801     -92.5807981
9.041                0.951128513     -92.7532613
9.042                0.951082911     -92.9262454
9.043                0.951036992     -93.0997519
9.044                0.950990751     -93.2737822
9.045                0.950944187     -93.4483378
9.046                0.950897296       -93.62342
9.047                0.950850074     -93.7990302
9.048                0.950802519     -93.9751699
9.049                0.950754628     -94.1518405
9.05                 0.950706397     -94.3290433
9.051                0.950657823     -94.5067799
9.052                0.950608904     -94.6850515
9.053                0.950559635     -94.8638597
9.054                0.950510014     -95.0432057
9.055                0.950460037     -95.2230911
9.056                0.950409702     -95.4035171
9.057                0.950359006     -95.5844852
9.058                0.950307944     -95.7659968
9.059                0.950256515     -95.9480532
9.06                 0.950204715     -96.1306559
9.061                0.950152541     -96.3138061
9.062                 0.95009999     -96.4975053
9.063                0.950047058     -96.6817548
9.064                0.949993744      -96.866556
9.065                0.949940042     -97.0519103
9.066                0.949885952      -97.237819
9.067                0.949831469     -97.4242834
9.068                 0.94977659     -97.6113049
9.069                0.949721313     -97.7988849
9.07                 0.949665635     -97.9870247
9.071                0.949609552     -98.1757255
9.072                0.949553061     -98.3649888
9.073                 0.94949616     -98.5548159
9.074                0.949438845      -98.745208
9.075                0.949381113     -98.9361665
9.076                0.949322963     -99.1276926
9.077                 0.94926439     -99.3197878
9.078                0.949205391     -99.5124532
9.079                0.949145965     -99.7056902
9.08                 0.949086107        -99.8995
9.081                0.949025816     -100.093884
9.082                0.948965087     -100.288843
9.083                0.948903919     -100.484379
9.084                0.948842309     -100.680493
9.085                0.948780253     -100.877186
9.086                0.948717749      -101.07446
9.087                0.948654794     -101.272315
9.088                0.948591386     -101.470752
9.089                0.948527521     -101.669774
9.09                 0.948463197     -101.869381
9.091                0.948398411     -102.069575
9.092                0.948333161     -102.270356
9.093                0.948267443     -102.471727
9.094                0.948201256     -102.673687
9.095                0.948134596     -102.876238
9.096                0.948067462     -103.079382
9.097                 0.94799985     -103.283119
9.098                0.947931757     -103.487451
9.099                0.947863183     -103.692379
9.1                  0.947794123     -103.897904
9.101                0.947724575     -104.104026
9.102                0.947654537     -104.310748
9.103                0.947584007      -104.51807
9.104                0.947512982     -104.725994
9.105                 0.94744146      -104.93452
9.106                0.947369438     -105.143649
9.107                0.947296915     -105.353383
9.108                0.947223887     -105.563722
9.109                0.947150353     -105.774668
9.11                  0.94707631     -105.986222
9.111                0.947001756     -106.198384
9.112                 0.94692669     -106.411156
9.113                0.946851108     -106.624539
9.114                0.946775009     -106.838533
9.115                0.946698391      -107.05314
9.116                0.946621252      -107.26836
9.117                0.946543589     -107.484195
9.118                0.946465402     -107.700645
9.119                0.946386687     -107.917711
9.12                 0.946307443     -108.135395
9.121                0.946227668     -108.353697
9.122                0.946147361     -108.572618
9.123                0.946066519     -108.792158
9.124                0.945985141      -109.01232
9.125                0.945903225     -109.233102
9.126                 0.94582077     -109.454508
9.127                0.945737773     -109.676536
9.128                0.945654234     -109.899188
9.129                0.945570151     -110.122465
9.13                 0.945485522     -110.346368
9.131                0.945400346     -110.570897
9.132                0.945314622     -110.796053
9.133                0.945228348     -111.021836
9.134                0.945141522     -111.248248
9.135                0.945054145     -111.475289
9.136                0.944966213     -111.702959
9.137                0.944877727      -111.93126
9.138                0.944788685     -112.160193
9.139                0.944699086     -112.389756
9.14                 0.944608929     -112.619952
9.141                0.944518214     -112.850781
9.142                0.944426938     -113.082243
9.143                0.944335102     -113.314339
9.144                0.944242705      -113.54707
9.145                0.944149745     -113.780436
9.146                0.944056222     -114.014437
9.147                0.943962136     -114.249074
9.148                0.943867486     -114.484347
9.149                0.943772271     -114.720258
9.15                 0.943676491     -114.956805
9.151                0.943580146     -115.193991
9.152                0.943483234     -115.431814
9.153                0.943385757     -115.670276
9.154                0.943287712     -115.909376
9.155                0.943189102     -116.149116
9.156                0.943089925     -116.389495
9.157                 0.94299018     -116.630513
9.158                 0.94288987     -116.872172
9.159                0.942788992     -117.114471
9.16                 0.942687548     -117.357409
9.161                0.942585538     -117.600989
9.162                0.942482961     -117.845209
9.163                0.942379819      -118.09007
9.164                0.942276111     -118.335572
9.165                0.942171839     -118.581715
9.166                0.942067002     -118.828499
9.167                0.941961602     -119.075925
9.168                0.941855638     -119.323991
9.169                0.941749112     -119.572699
9.17                 0.941642025     -119.822048
9.171                0.941534377     -120.072039
9.172                0.941426169      -120.32267
9.173                0.941317403     -120.573942
9.174                0.941208079     -120.825856
9.175                0.941098199      -121.07841
9.176                0.940987764     -121.331604
9.177                0.940876775     -121.585439
9.178                0.940765233     -121.839915
9.179                0.940653141      -122.09503
9.18                 0.940540499     -122.350785
9.181                 0.94042731     -122.607179
9.182                0.940313575     -122.864212
9.183                0.940199295     -123.121884
9.184                0.940084473     -123.380195
9.185                0.939969111     -123.639143
9.186                0.939853211     -123.898728
9.187                0.939736774     -124.158951
9.188                0.939619803      -124.41981
9.189                  0.9395023     -124.681306
9.19                 0.939384268     -124.943436
9.191                0.939265709     -125.206202
9.192                0.939146626     -125.469602
9.193                0.939027021     -125.733636
9.194                0.938906896     -125.998302
9.195                0.938786256     -126.263601
9.196                0.938665101     -126.529531
9.197                0.938543437     -126.796093
9.198                0.938421265     -127.063284
9.199                0.938298588     -127.331105
9.2                   0.93817541     -127.599553
9.201                0.938051735      -127.86863
9.202                0.937927565     -128.138333
9.203                0.937802904     -128.408662
9.204                0.937677755     -128.679615
9.205                0.937552123     -128.951192
9.206                0.937426011     -129.223392
9.207                0.937299423     -129.496213
9.208                0.937172362     -129.769655
9.209                0.937044834     -130.043716
9.21                 0.936916841     -130.318395
9.211                0.936788388     -130.593691
9.212                 0.93665948     -130.869603
9.213                 0.93653012      -131.14613
9.214                0.936400314     -131.423269
9.215                0.936270065     -131.701021
9.216                0.936139379     -131.979383
9.217                0.936008261     -132.258354
9.218                0.935876714     -132.537933
9.219                0.935744744     -132.818118
9.22                 0.935612357     -133.098908
9.221                0.935479556     -133.380301
9.222                0.935346348     -133.662295
9.223                0.935212738     -133.944889
9.224                0.935078731     -134.228082
9.225                0.934944332     -134.511872
9.226                0.934809548     -134.796256
9.227                0.934674383     -135.081233
9.228                0.934538844     -135.366802
9.229                0.934402937     -135.652961
9.23                 0.934266667     -135.939707
9.231                0.934130041     -136.227039
9.232                0.933993065     -136.514955
9.233                0.933855744     -136.803453
9.234                0.933718086     -137.092531
9.235                0.933580097     -137.382186
9.236                0.933441783     -137.672418
9.237                 0.93330315     -137.963223
9.238                0.933164207       -138.2546
9.239                0.933024958     -138.546546
9.24                 0.932885412     -138.839059
9.241                0.932745575     -139.132137
9.242                0.932605455     -139.425778
9.243                0.932465058     -139.719979
9.244                0.932324391     -140.014738
9.245                0.932183463     -140.310052
9.246                 0.93204228     -140.605919
9.247                 0.93190085     -140.902337
9.248                0.931759181     -141.199302
9.249                 0.93161728     -141.496813
9.25                 0.931475155     -141.794867
9.251                0.931332815     -142.093462
9.252                0.931190266     -142.392593
9.253                0.931047516      -142.69226
9.254                0.930904575     -142.992458
9.255                0.930761451     -143.293186
9.256                 0.93061815      -143.59444
9.257                0.930474683     -143.896217
9.258                0.930331057     -144.198516
9.259                0.930187281     -144.501332
9.26                 0.930043363     -144.804663
9.261                0.929899313     -145.108505
9.262                0.929755138     -145.412856
9.263                0.929610849     -145.717713
9.264                0.929466453     -146.023072
9.265                 0.92932196      -146.32893
9.266                0.929177378     -146.635285
9.267                0.929032718     -146.942132
9.268                0.928887988     -147.249469
9.269                0.928743197     -147.557292
9.27                 0.928598355     -147.865598
9.271                0.928453472     -148.174383
9.272                0.928308556     -148.483644
9.273                0.928163617     -148.793378
9.274                0.928018666     -149.103581
9.275                0.927873711      -149.41425
9.276                0.927728762      -149.72538
9.277                 0.92758383     -150.036969
9.278                0.927438924     -150.349012
9.279                0.927294055     -150.661507
9.28                 0.927149231     -150.974448
9.281                0.927004463     -151.287833
9.282                0.926859762     -151.601658
9.283                0.926715138     -151.915919
9.284                  0.9265706     -152.230611
9.285                0.926426159     -152.545732
9.286                0.926281825     -152.861277
9.287                 0.92613761     -153.177242
9.288                0.925993522     -153.493623
9.289                0.925849573     -153.810416
9.29                 0.925705773     -154.127618
9.291                0.925562133     -154.445223
9.292                0.925418664     -154.763228
9.293                0.925275375     -155.081629
9.294                0.925132278     -155.400421
9.295                0.924989383       -155.7196
9.296                0.924846702     -156.039162
9.297                0.924704245     -156.359102
9.298                0.924562022     -156.679417
9.299                0.924420045     -157.000101
9.3                  0.924278325     -157.321151
9.301                0.924136872     -157.642562
9.302                0.923995698     -157.964329
9.303                0.923854812     -158.286449
9.304                0.923714228     -158.608916
9.305                0.923573954     -158.931725
9.306                0.923434003     -159.254873
9.307                0.923294385     -159.578355
9.308                0.923155112     -159.902165
9.309                0.923016194       -160.2263
9.31                 0.922877643     -160.550754
9.311                 0.92273947     -160.875523
9.312                0.922601685     -161.200603
9.313                  0.9224643     -161.525987
9.314                0.922327327     -161.851672
9.315                0.922190775     -162.177653
9.316                0.922054656     -162.503924
9.317                0.921918982     -162.830481
9.318                0.921783763     -163.157319
9.319                0.921649011     -163.484433
9.32                 0.921514736     -163.811818
9.321                0.921380949     -164.139469
9.322                0.921247663      -164.46738
9.323                0.921114887     -164.795547
9.324                0.920982632     -165.123966
9.325                0.920850911     -165.452629
9.326                0.920719733     -165.781534
9.327                 0.92058911     -166.110673
9.328                0.920459052     -166.440043
9.329                0.920329572     -166.769638
9.33                 0.920200678     -167.099452
9.331                0.920072383     -167.429481
9.332                0.919944697      -167.75972
9.333                0.919817631     -168.090162
9.334                0.919691196     -168.420803
9.335                0.919565402     -168.751638
9.336                 0.91944026     -169.082661
9.337                 0.91931578     -169.413866
9.338                0.919191975     -169.745249
9.339                0.919068853     -170.076804
9.34                 0.918946425     -170.408525
9.341                0.918824702     -170.740408
9.342                0.918703695     -171.072447
9.343                0.918583413     -171.404635
9.344                0.918463867     -171.736969
9.345                0.918345067     -172.069442
9.346                0.918227023     -172.402049
9.347                0.918109746     -172.734785
9.348                0.917993246     -173.067643
9.349                0.917877531     -173.400619
9.35                 0.917762614     -173.733707
9.351                0.917648502     -174.066901
9.352                0.917535206     -174.400196
9.353                0.917422737     -174.733586
9.354                0.917311102     -175.067066
9.355                0.917200313      -175.40063
9.356                0.917090378     -175.734273
9.357                0.916981307     -176.067989
9.358                0.916873109     -176.401772
9.359                0.916765794     -176.735616
9.36                  0.91665937     -177.069517
9.361                0.916553847     -177.403469
9.362                0.916449234     -177.737466
9.363                0.916345539     -178.071501
9.364                0.916242772     -178.405571
9.365                0.916140941     -178.739669
9.366                0.916040055     -179.073789
9.367                0.915940122     -179.407926
9.368                 0.91584115     -179.742074
9.369                0.915743149      179.923772
9.37                 0.915646127      179.589618
9.371                0.915550091       179.25547
9.372                0.915455049      178.921333
9.373                 0.91536101      178.587212
9.374                0.915267981      178.253115
9.375                0.915175971      177.919045
9.376                0.915084986      177.585009
9.377                0.914995034      177.251013
9.378                0.914906124      176.917061
9.379                 0.91481826       176.58316
9.38                 0.914731453      176.249315
9.381                0.914645707      175.915532
9.382                 0.91456103      175.581816
9.383                 0.91447743      175.248172
9.384                0.914394912      174.914607
9.385                0.914313484      174.581127
9.386                0.914233151      174.247735
9.387                0.914153921      173.914439
9.388                0.914075799      173.581243
9.389                0.913998792      173.248153
9.39                 0.913922906      172.915174
9.391                0.913848146      172.582313
9.392                0.913774518      172.249574
9.393                0.913702028      171.916963
9.394                0.913630682      171.584486
9.395                0.913560485      171.252147
9.396                0.913491442      170.919952
