! TOUCHSTONE file generated by CST DESIGN STUDIO
! Date and time: Tue Feb  4 13:15:00 2025
! Project name: C:\Work\MatlabApps\UnitCellOptimizationMatlab\CST\unitcell.cst
! Tree item: Tasks\Sweep1\SPara1\S-Parameters
! Header version: 2024
! Port assignment regex: !\s*Touchstone port\s*([0-9]+)\s*=\s*(CST MWS port|CST DES external port|CST DES block port)\s*(.+)\s* \(\"(.*)\"\)(\s*mode\s*([0-9]+))?.*
! Touchstone port assignment:
! Touchstone port 1 = CST DES external port 1 ("")
# GHz S MA R 50
9                    0.973463028     -62.2811675
9.001                0.973445901     -62.3737329
9.002                0.973428504     -62.4665416
9.003                0.973410836     -62.5595945
9.004                0.973392894     -62.6528922
9.005                0.973374675     -62.7464356
9.006                0.973356179     -62.8402254
9.007                0.973337401     -62.9342624
9.008                0.973318341     -63.0285473
9.009                0.973298995     -63.1230809
9.01                 0.973279362     -63.2178641
9.011                 0.97325944     -63.3128975
9.012                0.973239226     -63.4081821
9.013                0.973218717     -63.5037185
9.014                0.973197913     -63.5995075
9.015                 0.97317681       -63.69555
9.016                0.973155406     -63.7918468
9.017                0.973133699     -63.8883986
9.018                0.973111687     -63.9852062
9.019                0.973089367     -64.0822705
9.02                 0.973066737     -64.1795922
9.021                0.973043795     -64.2771722
9.022                0.973020539     -64.3750112
9.023                0.972996966     -64.4731101
9.024                0.972973075     -64.5714697
9.025                0.972948862     -64.6700908
9.026                0.972924325     -64.7689743
9.027                0.972899463     -64.8681208
9.028                0.972874272     -64.9675314
9.029                0.972848751     -65.0672067
9.03                 0.972822898     -65.1671477
9.031                0.972796709     -65.2673552
9.032                0.972770183     -65.3678299
9.033                0.972743317     -65.4685727
9.034                 0.97271611     -65.5695846
9.035                0.972688558     -65.6708662
9.036                0.972660659     -65.7724185
9.037                0.972632412     -65.8742423
9.038                0.972603813     -65.9763385
9.039                0.972574861     -66.0787079
9.04                 0.972545553     -66.1813513
9.041                0.972515886     -66.2842697
9.042                0.972485859     -66.3874638
9.043                0.972455469     -66.4909346
9.044                0.972424714     -66.5946829
9.045                0.972393591     -66.6987096
9.046                0.972362098     -66.8030155
9.047                0.972330233     -66.9076015
9.048                0.972297993     -67.0124686
9.049                0.972265376     -67.1176175
9.05                  0.97223238     -67.2230492
9.051                0.972199001     -67.3287645
9.052                0.972165239     -67.4347643
9.053                0.972131091     -67.5410496
9.054                0.972096553     -67.6476212
9.055                0.972061624     -67.7544799
9.056                0.972026302     -67.8616268
9.057                0.971990584     -67.9690627
9.058                0.971954467     -68.0767885
9.059                 0.97191795     -68.1848051
9.06                  0.97188103     -68.2931134
9.061                0.971843704     -68.4017143
9.062                 0.97180597     -68.5106088
9.063                0.971767827     -68.6197977
9.064                 0.97172927      -68.729282
9.065                0.971690299     -68.8390626
9.066                 0.97165091     -68.9491404
9.067                0.971611102     -69.0595164
9.068                0.971570871     -69.1701914
9.069                0.971530216     -69.2811664
9.07                 0.971489134     -69.3924424
9.071                0.971447623     -69.5040203
9.072                 0.97140568     -69.6159009
9.073                0.971363303     -69.7280854
9.074                0.971320489     -69.8405745
9.075                0.971277237     -69.9533693
9.076                0.971233543     -70.0664707
9.077                0.971189406     -70.1798797
9.078                0.971144823     -70.2935971
9.079                0.971099791     -70.4076241
9.08                 0.971054308     -70.5219615
9.081                0.971008373     -70.6366103
9.082                0.970961981     -70.7515714
9.083                0.970915132     -70.8668459
9.084                0.970867823     -70.9824347
9.085                 0.97082005     -71.0983387
9.086                0.970771813     -71.2145591
9.087                0.970723107     -71.3310966
9.088                0.970673932     -71.4479524
9.089                0.970624285     -71.5651274
9.09                 0.970574163     -71.6826227
9.091                0.970523564     -71.8004391
9.092                0.970472485     -71.9185776
9.093                0.970420925     -72.0370394
9.094                 0.97036888     -72.1558253
9.095                0.970316349     -72.2749365
9.096                0.970263328     -72.3943738
9.097                0.970209817     -72.5141383
9.098                0.970155811      -72.634231
9.099                0.970101309     -72.7546529
9.1                  0.970046309     -72.8754051
9.101                0.969990808     -72.9964885
9.102                0.969934804     -73.1179042
9.103                0.969878294     -73.2396532
9.104                0.969821276     -73.3617365
9.105                0.969763748     -73.4841551
9.106                0.969705707     -73.6069102
9.107                0.969647151     -73.7300026
9.108                0.969588077     -73.8534335
9.109                0.969528484     -73.9772039
9.11                 0.969468369     -74.1013149
9.111                0.969407729     -74.2257674
9.112                0.969346562     -74.3505625
9.113                0.969284866     -74.4757013
9.114                0.969222639     -74.6011849
9.115                0.969159878     -74.7270142
9.116                0.969096581     -74.8531904
9.117                0.969032745     -74.9797145
9.118                0.968968369     -75.1065875
9.119                0.968903449     -75.2338106
9.12                 0.968837985     -75.3613848
9.121                0.968771972     -75.4893111
9.122                0.968705409     -75.6175907
9.123                0.968638294     -75.7462246
9.124                0.968570625     -75.8752139
9.125                0.968502398     -76.0045597
9.126                0.968433613      -76.134263
9.127                0.968364266      -76.264325
9.128                0.968294355     -76.3947468
9.129                0.968223878     -76.5255293
9.13                 0.968152833     -76.6566738
9.131                0.968081218     -76.7881813
9.132                0.968009029     -76.9200529
9.133                0.967936266     -77.0522898
9.134                0.967862926     -77.1848929
9.135                0.967789006     -77.3178635
9.136                0.967714504     -77.4512026
9.137                0.967639418     -77.5849114
9.138                0.967563747     -77.7189909
9.139                0.967487487     -77.8534422
9.14                 0.967410636     -77.9882666
9.141                0.967333193     -78.1234651
9.142                0.967255155     -78.2590388
9.143                 0.96717652     -78.3949889
9.144                0.967097286     -78.5313164
9.145                0.967017451     -78.6680226
9.146                0.966937012     -78.8051085
9.147                0.966855967     -78.9425753
9.148                0.966774314     -79.0804241
9.149                0.966692052      -79.218656
9.15                 0.966609178     -79.3572723
9.151                0.966525689     -79.4962739
9.152                0.966441585     -79.6356622
9.153                0.966356862     -79.7754382
9.154                0.966271519      -79.915603
9.155                0.966185553     -80.0561579
9.156                0.966098963     -80.1971039
9.157                0.966011746     -80.3384423
9.158                0.965923901     -80.4801742
9.159                0.965835426     -80.6223007
9.16                 0.965746317      -80.764823
9.161                0.965656575     -80.9077423
9.162                0.965566196     -81.0510598
9.163                0.965475178     -81.1947765
9.164                 0.96538352     -81.3388938
9.165                0.965291219     -81.4834126
9.166                0.965198274     -81.6283343
9.167                0.965104683       -81.77366
9.168                0.965010443     -81.9193908
9.169                0.964915554      -82.065528
9.17                 0.964820012     -82.2120727
9.171                0.964723817     -82.3590262
9.172                0.964626966     -82.5063895
9.173                0.964529457     -82.6541639
9.174                0.964431289     -82.8023505
9.175                 0.96433246     -82.9509506
9.176                0.964232968     -83.0999654
9.177                0.964132812     -83.2493959
9.178                0.964031988     -83.3992435
9.179                0.963930497     -83.5495093
9.18                 0.963828335     -83.7001945
9.181                0.963725502     -83.8513004
9.182                0.963621995      -84.002828
9.183                0.963517813     -84.1547787
9.184                0.963412954     -84.3071535
9.185                0.963307417     -84.4599538
9.186                  0.9632012     -84.6131806
9.187                0.963094301     -84.7668353
9.188                0.962986719      -84.920919
9.189                0.962878452      -85.075433
9.19                 0.962769498     -85.2303784
9.191                0.962659856     -85.3857564
9.192                0.962549525     -85.5415683
9.193                0.962438503     -85.6978153
9.194                0.962326789     -85.8544985
9.195                 0.96221438     -86.0116192
9.196                0.962101276     -86.1691787
9.197                0.961987475      -86.327178
9.198                0.961872976     -86.4856185
9.199                0.961757778     -86.6445014
9.2                  0.961641878     -86.8038278
9.201                0.961525276      -86.963599
9.202                 0.96140797     -87.1238162
9.203                 0.96128996     -87.2844806
9.204                0.961171243     -87.4455935
9.205                0.961051819      -87.607156
9.206                0.960931686     -87.7691694
9.207                0.960810843     -87.9316349
9.208                0.960689289     -88.0945538
9.209                0.960567023     -88.2579271
9.21                 0.960444043     -88.4217562
9.211                 0.96032035     -88.5860423
9.212                 0.96019594     -88.7507866
9.213                0.960070814     -88.9159903
9.214                0.959944971     -89.0816547
9.215                0.959818409     -89.2477809
9.216                0.959691127     -89.4143702
9.217                0.959563125     -89.5814238
9.218                0.959434401     -89.7489429
9.219                0.959304955     -89.9169288
9.22                 0.959174786     -90.0853826
9.221                0.959043893     -90.2543056
9.222                0.958912275      -90.423699
9.223                0.958779931      -90.593564
9.224                0.958646862     -90.7639018
9.225                0.958513065     -90.9347137
9.226                 0.95837854     -91.1060008
9.227                0.958243287     -91.2777644
9.228                0.958107305     -91.4500057
9.229                0.957970594     -91.6227259
9.23                 0.957833152     -91.7959262
9.231                 0.95769498     -91.9696078
9.232                0.957556077      -92.143772
9.233                0.957416441     -92.3184198
9.234                0.957276074     -92.4935527
9.235                0.957134975     -92.6691716
9.236                0.956993143     -92.8452779
9.237                0.956850577     -93.0218728
9.238                0.956707279     -93.1989574
9.239                0.956563246      -93.376533
9.24                  0.95641848     -93.5546007
9.241                 0.95627298     -93.7331617
9.242                0.956126746     -93.9122173
9.243                0.955979777     -94.0917686
9.244                0.955832075     -94.2718168
9.245                0.955683637     -94.4523631
9.246                0.955534466     -94.6334087
9.247                 0.95538456     -94.8149548
9.248                 0.95523392     -94.9970024
9.249                0.955082546     -95.1795529
9.25                 0.954930438     -95.3626074
9.251                0.954777597     -95.5461671
9.252                0.954624022      -95.730233
9.253                0.954469714     -95.9148065
9.254                0.954314673     -96.0998886
9.255                  0.9541589     -96.2854805
9.256                0.954002395     -96.4715834
9.257                0.953845159     -96.6581984
9.258                0.953687191     -96.8453267
9.259                0.953528493     -97.0329694
9.26                 0.953369065     -97.2211276
9.261                0.953208909     -97.4098025
9.262                0.953048023     -97.5989953
9.263                 0.95288641      -97.788707
9.264                 0.95272407     -97.9789388
9.265                0.952561004     -98.1696917
9.266                0.952397213      -98.360967
9.267                0.952232697     -98.5527658
9.268                0.952067459      -98.745089
9.269                0.951901497     -98.9379379
9.27                 0.951734815     -99.1313136
9.271                0.951567413     -99.3252171
9.272                0.951399292     -99.5196495
9.273                0.951230453     -99.7146119
9.274                0.951060898     -99.9101054
9.275                0.950890628     -100.106131
9.276                0.950719644      -100.30269
9.277                0.950547948     -100.499783
9.278                0.950375541     -100.697412
9.279                0.950202425     -100.895577
9.28                 0.950028602     -101.094279
9.281                0.949854073      -101.29352
9.282                0.949678839       -101.4933
9.283                0.949502904     -101.693621
9.284                0.949326267     -101.894484
9.285                0.949148932     -102.095889
9.286                0.948970901     -102.297838
9.287                0.948792174     -102.500331
9.288                0.948612755      -102.70337
9.289                0.948432646     -102.906955
9.29                 0.948251848     -103.111088
9.291                0.948070364      -103.31577
9.292                0.947888196     -103.521001
9.293                0.947705346     -103.726782
9.294                0.947521818     -103.933115
9.295                0.947337613         -104.14
9.296                0.947152734     -104.347438
9.297                0.946967184     -104.555431
9.298                0.946780965     -104.763979
9.299                 0.94659408     -104.973083
9.3                  0.946406531     -105.182743
9.301                0.946218323     -105.392962
9.302                0.946029457     -105.603739
9.303                0.945839936     -105.815076
9.304                0.945649764     -106.026973
9.305                0.945458945     -106.239431
9.306                 0.94526748     -106.452452
9.307                0.945075373     -106.666035
9.308                0.944882628     -106.880182
9.309                0.944689248     -107.094894
9.31                 0.944495236     -107.310172
9.311                0.944300597     -107.526015
9.312                0.944105333     -107.742426
9.313                0.943909448     -107.959404
9.314                0.943712946      -108.17695
9.315                0.943515832     -108.395066
9.316                0.943318108     -108.613753
9.317                0.943119779     -108.833009
9.318                0.942920848     -109.052838
9.319                0.942721321     -109.273238
9.32                 0.942521201     -109.494211
9.321                0.942320492     -109.715758
9.322                0.942119198     -109.937879
9.323                0.941917325     -110.160575
9.324                0.941714877     -110.383846
9.325                0.941511857     -110.607694
9.326                0.941308272     -110.832118
9.327                0.941104125      -111.05712
9.328                0.940899421     -111.282699
9.329                0.940694165     -111.508857
9.33                 0.940488363     -111.735595
9.331                0.940282019     -111.962912
9.332                0.940075138     -112.190809
9.333                0.939867725     -112.419287
9.334                0.939659786     -112.648346
9.335                0.939451326     -112.877987
9.336                0.939242351      -113.10821
9.337                0.939032866     -113.339015
9.338                0.938822876     -113.570404
9.339                0.938612387     -113.802377
9.34                 0.938401406     -114.034933
9.341                0.938189937     -114.268074
9.342                0.937977987     -114.501799
9.343                0.937765561      -114.73611
9.344                0.937552666     -114.971006
9.345                0.937339309     -115.206488
9.346                0.937125494     -115.442556
9.347                0.936911229     -115.679211
9.348                 0.93669652     -115.916452
9.349                0.936481373     -116.154281
9.35                 0.936265795     -116.392697
9.351                0.936049792       -116.6317
9.352                0.935833372     -116.871291
9.353                0.935616542      -117.11147
9.354                0.935399307     -117.352237
9.355                0.935181675     -117.593592
9.356                0.934963653     -117.835536
9.357                0.934745249     -118.078069
9.358                0.934526469      -118.32119
9.359                0.934307321       -118.5649
9.36                 0.934087813     -118.809198
9.361                0.933867951     -119.054086
9.362                0.933647743     -119.299562
9.363                0.933427198     -119.545628
9.364                0.933206323     -119.792282
9.365                0.932985125     -120.039525
9.366                0.932763613     -120.287357
9.367                0.932541794     -120.535778
9.368                0.932319677     -120.784787
9.369                 0.93209727     -121.034385
9.37                 0.931874581     -121.284572
9.371                0.931651619     -121.535346
9.372                0.931428392     -121.786709
9.373                0.931204909      -122.03866
9.374                0.930981177     -122.291198
9.375                0.930757207     -122.544324
9.376                0.930533006     -122.798037
9.377                0.930308584     -123.052336
9.378                0.930083949     -123.307223
9.379                0.929859111     -123.562695
9.38                 0.929634078     -123.818753
9.381                 0.92940886     -124.075397
9.382                0.929183467     -124.332626
9.383                0.928957907     -124.590439
9.384                 0.92873219     -124.848837
9.385                0.928506326     -125.107818
9.386                0.928280324     -125.367382
9.387                0.928054194     -125.627529
9.388                0.927827946     -125.888258
9.389                 0.92760159     -126.149569
9.39                 0.927375135      -126.41146
9.391                0.927148592     -126.673932
9.392                 0.92692197     -126.936983
9.393                0.926695281     -127.200613
9.394                0.926468534     -127.464822
9.395                0.926241739     -127.729608
9.396                0.926014908      -127.99497
