! TOUCHSTONE file generated by CST DESIGN STUDIO
! Date and time: Tue Feb  4 13:44:15 2025
! Project name: C:\Work\MatlabApps\UnitCellOptimizationMatlab\CST\unitcell.cst
! Tree item: Tasks\Sweep1\SPara1\S-Parameters
! Header version: 2024
! Port assignment regex: !\s*Touchstone port\s*([0-9]+)\s*=\s*(CST MWS port|CST DES external port|CST DES block port)\s*(.+)\s* \(\"(.*)\"\)(\s*mode\s*([0-9]+))?.*
! Touchstone port assignment:
! Touchstone port 1 = CST DES external port 1 ("")
# GHz S MA R 50
9                     0.99087829     -69.4911346
9.001                0.990858887     -69.5902692
9.002                0.990839426     -69.6896374
9.003                0.990819905     -69.7892399
9.004                0.990800325     -69.8890773
9.005                0.990780685     -69.9891505
9.006                0.990760985       -70.08946
9.007                0.990741226     -70.1900067
9.008                0.990721407     -70.2907912
9.009                0.990701527     -70.3918143
9.01                 0.990681587     -70.4930766
9.011                0.990661586     -70.5945789
9.012                0.990641525     -70.6963218
9.013                0.990621403     -70.7983062
9.014                 0.99060122     -70.9005328
9.015                0.990580976     -71.0030022
9.016                0.990560671     -71.1057151
9.017                0.990540304     -71.2086724
9.018                0.990519876     -71.3118748
9.019                0.990499385      -71.415323
9.02                 0.990478834     -71.5190176
9.021                 0.99045822     -71.6229596
9.022                0.990437544     -71.7271495
9.023                0.990416805     -71.8315882
9.024                0.990396005     -71.9362763
9.025                0.990375141     -72.0412147
9.026                0.990354215     -72.1464041
9.027                0.990333226     -72.2518452
9.028                0.990312174     -72.3575388
9.029                0.990291058     -72.4634856
9.03                  0.99026988     -72.5696864
9.031                0.990248638     -72.6761419
9.032                0.990227332      -72.782853
9.033                0.990205962     -72.8898203
9.034                0.990184529     -72.9970447
9.035                0.990163031     -73.1045269
9.036                0.990141469     -73.2122676
9.037                0.990119843     -73.3202677
9.038                0.990098152     -73.4285279
9.039                0.990076396     -73.5370489
9.04                 0.990054576     -73.6458317
9.041                0.990032691     -73.7548768
9.042                 0.99001074     -73.8641852
9.043                0.989988725     -73.9737576
9.044                0.989966644     -74.0835948
9.045                0.989944497     -74.1936975
9.046                0.989922285     -74.3040666
9.047                0.989900007     -74.4147028
9.048                0.989877663      -74.525607
9.049                0.989855253     -74.6367799
9.05                 0.989832776     -74.7482223
9.051                0.989810233     -74.8599351
9.052                0.989787624      -74.971919
9.053                0.989764948     -75.0841748
9.054                0.989742205     -75.1967033
9.055                0.989719395     -75.3095054
9.056                0.989696518     -75.4225818
9.057                0.989673574     -75.5359334
9.058                0.989650562     -75.6495609
9.059                0.989627483     -75.7634652
9.06                 0.989604337     -75.8776471
9.061                0.989581122     -75.9921074
9.062                 0.98955784     -76.1068469
9.063                0.989534489     -76.2218665
9.064                0.989511071     -76.3371669
9.065                0.989487584     -76.4527491
9.066                0.989464029     -76.5686137
9.067                0.989440405     -76.6847617
9.068                0.989416712     -76.8011939
9.069                 0.98939295     -76.9179111
9.07                  0.98936912     -77.0349142
9.071                 0.98934522     -77.1522039
9.072                0.989321252     -77.2697811
9.073                0.989297213     -77.3876467
9.074                0.989273106     -77.5058015
9.075                0.989248929     -77.6242463
9.076                0.989224682      -77.742982
9.077                0.989200365     -77.8620095
9.078                0.989175978     -77.9813295
9.079                0.989151521      -78.100943
9.08                 0.989126994     -78.2208507
9.081                0.989102397     -78.3410536
9.082                0.989077729     -78.4615524
9.083                 0.98905299     -78.5823482
9.084                0.989028181     -78.7034416
9.085                0.989003301     -78.8248336
9.086                 0.98897835      -78.946525
9.087                0.988953328     -79.0685167
9.088                0.988928235     -79.1908096
9.089                 0.98890307     -79.3134045
9.09                 0.988877835     -79.4363023
9.091                0.988852527     -79.5595039
9.092                0.988827149     -79.6830101
9.093                0.988801698     -79.8068218
9.094                0.988776176     -79.9309399
9.095                0.988750581     -80.0553653
9.096                0.988724915     -80.1800988
9.097                0.988699176     -80.3051414
9.098                0.988673366     -80.4304939
9.099                0.988647483     -80.5561571
9.1                  0.988621527     -80.6821321
9.101                0.988595499     -80.8084196
9.102                0.988569399     -80.9350205
9.103                0.988543225     -81.0619358
9.104                0.988516979     -81.1891663
9.105                 0.98849066      -81.316713
9.106                0.988464268     -81.4445767
9.107                0.988437803     -81.5727583
9.108                0.988411265     -81.7012587
9.109                0.988384654     -81.8300788
9.11                 0.988357969     -81.9592195
9.111                 0.98833121     -82.0886817
9.112                0.988304379     -82.2184664
9.113                0.988277473     -82.3485744
9.114                0.988250494     -82.4790066
9.115                0.988223441     -82.6097639
9.116                0.988196315     -82.7408473
9.117                0.988169114     -82.8722576
9.118                 0.98814184     -83.0039958
9.119                0.988114491     -83.1360627
9.12                 0.988087069     -83.2684594
9.121                0.988059572     -83.4011866
9.122                0.988032001     -83.5342453
9.123                0.988004356     -83.6676365
9.124                0.987976636     -83.8013611
9.125                0.987948842     -83.9354198
9.126                0.987920974     -84.0698138
9.127                0.987893031     -84.2045439
9.128                0.987865013      -84.339611
9.129                0.987836921     -84.4750161
9.13                 0.987808754       -84.61076
9.131                0.987780512     -84.7468438
9.132                0.987752196     -84.8832682
9.133                0.987723805     -85.0200344
9.134                0.987695339     -85.1571431
9.135                0.987666798     -85.2945953
9.136                0.987638182      -85.432392
9.137                0.987609491      -85.570534
9.138                0.987580725     -85.7090223
9.139                0.987551885     -85.8478579
9.14                 0.987522969     -85.9870417
9.141                0.987493978     -86.1265745
9.142                0.987464912     -86.2664574
9.143                0.987435771     -86.4066912
9.144                0.987406554      -86.547277
9.145                0.987377263     -86.6882156
9.146                0.987347896      -86.829508
9.147                0.987318455     -86.9711551
9.148                0.987288938     -87.1131579
9.149                0.987259346     -87.2555172
9.15                 0.987229678     -87.3982341
9.151                0.987199936     -87.5413095
9.152                0.987170118     -87.6847442
9.153                0.987140226     -87.8285394
9.154                0.987110258     -87.9726958
9.155                0.987080215     -88.1172145
9.156                0.987050097     -88.2620963
9.157                0.987019903     -88.4073423
9.158                0.986989635     -88.5529533
9.159                0.986959292     -88.6989303
9.16                 0.986928873     -88.8452743
9.161                 0.98689838     -88.9919862
9.162                0.986867812     -89.1390668
9.163                0.986837168     -89.2865173
9.164                 0.98680645     -89.4343385
9.165                0.986775657     -89.5825314
9.166                0.986744789     -89.7310968
9.167                0.986713847     -89.8800358
9.168                 0.98668283     -90.0293493
9.169                0.986651738     -90.1790382
9.17                 0.986620571     -90.3291035
9.171                 0.98658933     -90.4795461
9.172                0.986558015     -90.6303669
9.173                0.986526625      -90.781567
9.174                0.986495161     -90.9331471
9.175                0.986463623     -91.0851084
9.176                 0.98643201     -91.2374517
9.177                0.986400324     -91.3901779
9.178                0.986368564     -91.5432881
9.179                0.986336729      -91.696783
9.18                 0.986304821     -91.8506638
9.181                0.986272839     -92.0049312
9.182                0.986240784     -92.1595863
9.183                0.986208655       -92.31463
9.184                0.986176453     -92.4700632
9.185                0.986144178     -92.6258869
9.186                 0.98611183     -92.7821019
9.187                0.986079408     -92.9387093
9.188                0.986046914     -93.0957099
9.189                0.986014347     -93.2531047
9.19                 0.985981708     -93.4108945
9.191                0.985948996     -93.5690805
9.192                0.985916211     -93.7276634
9.193                0.985883355     -93.8866441
9.194                0.985850427     -94.0460237
9.195                0.985817426     -94.2058031
9.196                0.985784355     -94.3659831
9.197                0.985751211     -94.5265646
9.198                0.985717997     -94.6875487
9.199                0.985684711     -94.8489362
9.2                  0.985651354      -95.010728
9.201                0.985617927     -95.1729251
9.202                0.985584429     -95.3355283
9.203                 0.98555086     -95.4985385
9.204                0.985517221     -95.6619568
9.205                0.985483513     -95.8257839
9.206                0.985449735     -95.9900209
9.207                0.985415887     -96.1546685
9.208                 0.98538197     -96.3197277
9.209                0.985347983     -96.4851994
9.21                 0.985313928     -96.6510845
9.211                0.985279805     -96.8173838
9.212                0.985245612     -96.9840984
9.213                0.985211352      -97.151229
9.214                0.985177024     -97.3187765
9.215                0.985142629     -97.4867419
9.216                0.985108166      -97.655126
9.217                0.985073636     -97.8239297
9.218                0.985039039     -97.9931539
9.219                0.985004375     -98.1627994
9.22                 0.984969646     -98.3328671
9.221                 0.98493485     -98.5033579
9.222                0.984899989     -98.6742727
9.223                0.984865063     -98.8456123
9.224                0.984830071     -99.0173775
9.225                0.984795015     -99.1895693
9.226                0.984759895     -99.3621885
9.227                 0.98472471     -99.5352359
9.228                0.984689462     -99.7087124
9.229                0.984654151     -99.8826188
9.23                 0.984618776     -100.056956
9.231                0.984583339     -100.231725
9.232                0.984547839     -100.406926
9.233                0.984512278      -100.58256
9.234                0.984476655     -100.758629
9.235                0.984440971     -100.935132
9.236                0.984405226     -101.112071
9.237                0.984369421     -101.289447
9.238                0.984333556      -101.46726
9.239                0.984297631     -101.645511
9.24                 0.984261647     -101.824201
9.241                0.984225604     -102.003331
9.242                0.984189503     -102.182901
9.243                0.984153344     -102.362913
9.244                0.984117127     -102.543367
9.245                0.984080854     -102.724263
9.246                0.984044524     -102.905603
9.247                0.984008138     -103.087388
9.248                0.983971696     -103.269618
9.249                  0.9839352     -103.452294
9.25                 0.983898648     -103.635416
9.251                0.983862043     -103.818986
9.252                0.983825384     -104.003004
9.253                0.983788671     -104.187471
9.254                0.983751906     -104.372387
9.255                0.983715089     -104.557754
9.256                 0.98367822     -104.743572
9.257                0.983641301     -104.929842
9.258                 0.98360433     -105.116565
9.259                 0.98356731      -105.30374
9.26                  0.98353024     -105.491369
9.261                0.983493122     -105.679453
9.262                0.983455955     -105.867993
9.263                0.983418741     -106.056988
9.264                0.983381479      -106.24644
9.265                0.983344172     -106.436349
9.266                0.983306818     -106.626716
9.267                0.983269419     -106.817542
9.268                0.983231975     -107.008827
9.269                0.983194487     -107.200571
9.27                 0.983156956     -107.392777
9.271                0.983119382     -107.585443
9.272                0.983081767     -107.778571
9.273                0.983044109     -107.972162
9.274                0.983006411     -108.166215
9.275                0.982968673     -108.360732
9.276                0.982930896     -108.555713
9.277                 0.98289308     -108.751159
9.278                0.982855226      -108.94707
9.279                0.982817335     -109.143447
9.28                 0.982779407     -109.340291
9.281                0.982741444     -109.537601
9.282                0.982703445     -109.735379
9.283                0.982665413     -109.933624
9.284                0.982627346     -110.132339
9.285                0.982589247     -110.331522
9.286                0.982551116     -110.531175
9.287                0.982512954     -110.731298
9.288                0.982474762     -110.931892
9.289                0.982436539     -111.132956
9.29                 0.982398289     -111.334492
9.291                 0.98236001       -111.5365
9.292                0.982321704      -111.73898
9.293                0.982283371     -111.941933
9.294                0.982245014      -112.14536
9.295                0.982206632      -112.34926
9.296                0.982168226     -112.553634
9.297                0.982129797     -112.758482
9.298                0.982091346     -112.963806
9.299                0.982052875     -113.169605
9.3                  0.982014383     -113.375879
9.301                0.981975872     -113.582629
9.302                0.981937343     -113.789856
9.303                0.981898796     -113.997559
9.304                0.981860233      -114.20574
9.305                0.981821654     -114.414398
9.306                0.981783061     -114.623533
9.307                0.981744455     -114.833146
9.308                0.981705836     -115.043238
9.309                0.981667205     -115.253807
9.31                 0.981628564     -115.464856
9.311                0.981589914     -115.676384
9.312                0.981551255     -115.888391
9.313                0.981512588     -116.100877
9.314                0.981473915     -116.313843
9.315                0.981435236     -116.527289
9.316                0.981396554     -116.741215
9.317                0.981357868     -116.955621
9.318                 0.98131918     -117.170508
9.319                 0.98128049     -117.385875
9.32                 0.981241801     -117.601723
9.321                0.981203113     -117.818051
9.322                0.981164427     -118.034861
9.323                0.981125745     -118.252152
9.324                0.981087067     -118.469923
9.325                0.981048395     -118.688176
9.326                0.981009729     -118.906911
9.327                0.980971072     -119.126126
9.328                0.980932423     -119.345823
9.329                0.980893785     -119.566001
9.33                 0.980855159     -119.786661
9.331                0.980816545     -120.007802
9.332                0.980777945     -120.229424
9.333                0.980739361     -120.451528
9.334                0.980700793     -120.674113
9.335                0.980662242     -120.897179
9.336                0.980623711     -121.120726
9.337                0.980585199     -121.344754
9.338                0.980546709     -121.569264
9.339                0.980508242     -121.794253
9.34                 0.980469799     -122.019724
9.341                0.980431382     -122.245675
9.342                0.980392991     -122.472107
9.343                0.980354627     -122.699018
9.344                0.980316294      -122.92641
9.345                0.980277991     -123.154281
9.346                 0.98023972     -123.382631
9.347                0.980201482     -123.611461
9.348                0.980163279      -123.84077
9.349                0.980125112     -124.070558
9.35                 0.980086983     -124.300824
9.351                0.980048892     -124.531568
9.352                0.980010842      -124.76279
9.353                0.979972834     -124.994489
9.354                0.979934868     -125.226665
9.355                0.979896948     -125.459318
9.356                0.979859073     -125.692448
9.357                0.979821246     -125.926053
9.358                0.979783468     -126.160133
9.359                 0.97974574     -126.394689
9.36                 0.979708064     -126.629719
9.361                0.979670441     -126.865223
9.362                0.979632873       -127.1012
9.363                0.979595362     -127.337651
9.364                0.979557909     -127.574573
9.365                0.979520515     -127.811968
9.366                0.979483182     -128.049834
9.367                0.979445911     -128.288171
9.368                0.979408704     -128.526978
9.369                0.979371563     -128.766255
9.37                 0.979334489        -129.006
9.371                0.979297484     -129.246214
9.372                0.979260549     -129.486895
9.373                0.979223686     -129.728042
9.374                0.979186897     -129.969656
9.375                0.979150182     -130.211735
9.376                0.979113544     -130.454279
9.377                0.979076985     -130.697286
9.378                0.979040505     -130.940757
9.379                0.979004107     -131.184689
9.38                 0.978967792     -131.429083
9.381                0.978931562     -131.673938
9.382                0.978895418     -131.919252
9.383                0.978859363     -132.165024
9.384                0.978823397     -132.411254
9.385                0.978787523     -132.657941
9.386                0.978751742     -132.905084
9.387                0.978716056     -133.152682
9.388                0.978680466     -133.400734
9.389                0.978644975     -133.649238
9.39                 0.978609583     -133.898195
9.391                0.978574293     -134.147602
9.392                0.978539107     -134.397458
9.393                0.978504025     -134.647764
9.394                 0.97846905     -134.898516
9.395                0.978434184     -135.149715
9.396                0.978399428     -135.401359
