! TOUCHSTONE file generated by CST DESIGN STUDIO
! Date and time: Tue Feb  4 13:44:01 2025
! Project name: C:\Work\MatlabApps\UnitCellOptimizationMatlab\CST\unitcell.cst
! Tree item: Tasks\Sweep1\SPara1\S-Parameters
! Header version: 2024
! Port assignment regex: !\s*Touchstone port\s*([0-9]+)\s*=\s*(CST MWS port|CST DES external port|CST DES block port)\s*(.+)\s* \(\"(.*)\"\)(\s*mode\s*([0-9]+))?.*
! Touchstone port assignment:
! Touchstone port 1 = CST DES external port 1 ("")
# GHz S MA R 50
9                    0.989403067     -77.2811707
9.001                0.989377476     -77.3972988
9.002                0.989351808     -77.5137087
9.003                0.989326064     -77.6304011
9.004                0.989300242     -77.7473768
9.005                0.989274343     -77.8646366
9.006                0.989248367     -77.9821815
9.007                0.989222313     -78.1000121
9.008                0.989196182     -78.2181294
9.009                0.989169973     -78.3365341
9.01                 0.989143687      -78.455227
9.011                0.989117322     -78.5742091
9.012                0.989090878      -78.693481
9.013                0.989064357     -78.8130437
9.014                0.989037757      -78.932898
9.015                0.989011078     -79.0530447
9.016                0.988984321     -79.1734846
9.017                0.988957484     -79.2942186
9.018                0.988930569     -79.4152476
9.019                0.988903574     -79.5365723
9.02                 0.988876499     -79.6581936
9.021                0.988849346     -79.7801123
9.022                0.988822112     -79.9023293
9.023                0.988794799     -80.0248454
9.024                0.988767405     -80.1476616
9.025                0.988739932     -80.2707785
9.026                0.988712378     -80.3941971
9.027                0.988684744     -80.5179183
9.028                0.988657029     -80.6419428
9.029                0.988629234     -80.7662716
9.03                 0.988601357     -80.8909055
9.031                  0.9885734     -81.0158453
9.032                0.988545362     -81.1410919
9.033                0.988517243     -81.2666462
9.034                0.988489042      -81.392509
9.035                 0.98846076     -81.5186813
9.036                0.988432396     -81.6451637
9.037                 0.98840395     -81.7719573
9.038                0.988375423      -81.899063
9.039                0.988346814     -82.0264814
9.04                 0.988318122     -82.1542136
9.041                0.988289348     -82.2822604
9.042                0.988260493     -82.4106227
9.043                0.988231554     -82.5393014
9.044                0.988202533     -82.6682972
9.045                 0.98817343     -82.7976112
9.046                0.988144243     -82.9272441
9.047                0.988114974      -83.057197
9.048                0.988085622     -83.1874705
9.049                0.988056186     -83.3180657
9.05                 0.988026668     -83.4489834
9.051                0.987997066     -83.5802244
9.052                 0.98796738     -83.7117898
9.053                0.987937611     -83.8436803
9.054                0.987907759     -83.9758969
9.055                0.987877823     -84.1084403
9.056                0.987847803     -84.2413117
9.057                0.987817699     -84.3745117
9.058                0.987787511     -84.5080413
9.059                0.987757239     -84.6419015
9.06                 0.987726882      -84.776093
9.061                0.987696442     -84.9106168
9.062                0.987665917     -85.0454738
9.063                0.987635308     -85.1806649
9.064                0.987604614      -85.316191
9.065                0.987573836     -85.4520529
9.066                0.987542973     -85.5882516
9.067                0.987512025      -85.724788
9.068                0.987480993     -85.8616629
9.069                0.987449875     -85.9988774
9.07                 0.987418673     -86.1364322
9.071                0.987387386     -86.2743282
9.072                0.987356013     -86.4125665
9.073                0.987324556     -86.5511478
9.074                0.987293013     -86.6900732
9.075                0.987261385     -86.8293434
9.076                0.987229672     -86.9689594
9.077                0.987197874     -87.1089221
9.078                 0.98716599     -87.2492325
9.079                 0.98713402     -87.3898913
9.08                 0.987101966     -87.5308996
9.081                0.987069825     -87.6722582
9.082                  0.9870376     -87.8139681
9.083                0.987005288     -87.9560301
9.084                0.986972891     -88.0984452
9.085                0.986940409     -88.2412142
9.086                 0.98690784     -88.3843382
9.087                0.986875187     -88.5278179
9.088                0.986842447     -88.6716543
9.089                0.986809622     -88.8158484
9.09                  0.98677671      -88.960401
9.091                0.986743714      -89.105313
9.092                0.986710631     -89.2505853
9.093                0.986677463      -89.396219
9.094                0.986644209     -89.5422147
9.095                0.986610869     -89.6885736
9.096                0.986577443     -89.8352965
9.097                0.986543932     -89.9823842
9.098                0.986510335     -90.1298378
9.099                0.986476652     -90.2776581
9.1                  0.986442884     -90.4258461
9.101                 0.98640903     -90.5744025
9.102                 0.98637509     -90.7233285
9.103                0.986341065     -90.8726248
9.104                0.986306954     -91.0222924
9.105                0.986272758     -91.1723322
9.106                0.986238476      -91.322745
9.107                0.986204108     -91.4735319
9.108                0.986169656     -91.6246937
9.109                0.986135117     -91.7762313
9.11                 0.986100494     -91.9281456
9.111                0.986065785     -92.0804376
9.112                0.986030991     -92.2331081
9.113                0.985996112      -92.386158
9.114                0.985961148     -92.5395883
9.115                0.985926099     -92.6933999
9.116                0.985890965     -92.8475936
9.117                0.985855746     -93.0021703
9.118                0.985820443      -93.157131
9.119                0.985785055     -93.3124766
9.12                 0.985749582     -93.4682079
9.121                0.985714025     -93.6243259
9.122                0.985678383     -93.7808314
9.123                0.985642658     -93.9377253
9.124                0.985606848     -94.0950087
9.125                0.985570954     -94.2526822
9.126                0.985534976     -94.4107469
9.127                0.985498915     -94.5692035
9.128                 0.98546277     -94.7280531
9.129                0.985426541     -94.8872965
9.13                 0.985390229     -95.0469345
9.131                0.985353834     -95.2069682
9.132                0.985317356     -95.3673982
9.133                0.985280795     -95.5282256
9.134                0.985244151     -95.6894512
9.135                0.985207425     -95.8510759
9.136                0.985170616     -96.0131006
9.137                0.985133725      -96.175526
9.138                0.985096752     -96.3383532
9.139                0.985059697      -96.501583
9.14                 0.985022561     -96.6652162
9.141                0.984985343     -96.8292538
9.142                0.984948044     -96.9936965
9.143                0.984910663     -97.1585452
9.144                0.984873202     -97.3238009
9.145                 0.98483566     -97.4894643
9.146                0.984798038     -97.6555363
9.147                0.984760335     -97.8220178
9.148                0.984722553     -97.9889096
9.149                0.984684691     -98.1562126
9.15                 0.984646749     -98.3239275
9.151                0.984608728     -98.4920553
9.152                0.984570629     -98.6605969
9.153                 0.98453245     -98.8295529
9.154                0.984494193     -98.9989243
9.155                0.984455858     -99.1687118
9.156                0.984417446     -99.3389164
9.157                0.984378955     -99.5095389
9.158                0.984340387       -99.68058
9.159                0.984301743     -99.8520406
9.16                 0.984263021     -100.023921
9.161                0.984224224     -100.196223
9.162                 0.98418535     -100.368947
9.163                  0.9841464     -100.542094
9.164                0.984107376     -100.715664
9.165                0.984068276     -100.889658
9.166                0.984029101     -101.064078
9.167                0.983989852     -101.238924
9.168                0.983950529     -101.414196
9.169                0.983911133     -101.589895
9.17                 0.983871663     -101.766023
9.171                 0.98383212      -101.94258
9.172                0.983792505     -102.119567
9.173                0.983752818     -102.296984
9.174                0.983713059     -102.474832
9.175                0.983673229     -102.653113
9.176                0.983633328     -102.831827
9.177                0.983593356     -103.010974
9.178                0.983553315     -103.190555
9.179                0.983513204     -103.370571
9.18                 0.983473023     -103.551023
9.181                0.983432775     -103.731912
9.182                0.983392457     -103.913238
9.183                0.983352073     -104.095002
9.184                0.983311621     -104.277205
9.185                0.983271102     -104.459846
9.186                0.983230517     -104.642928
9.187                0.983189866     -104.826451
9.188                0.983149149     -105.010416
9.189                0.983108368     -105.194822
9.19                 0.983067523     -105.379671
9.191                0.983026614     -105.564964
9.192                0.982985642     -105.750701
9.193                0.982944607     -105.936883
9.194                 0.98290351      -106.12351
9.195                0.982862352     -106.310584
9.196                0.982821133     -106.498104
9.197                0.982779853     -106.686072
9.198                0.982738513     -106.874487
9.199                0.982697115     -107.063352
9.2                  0.982655658     -107.252666
9.201                0.982614142     -107.442429
9.202                 0.98257257     -107.632644
9.203                0.982530941     -107.823309
9.204                0.982489255     -108.014426
9.205                0.982447515     -108.205996
9.206                0.982405719     -108.398018
9.207                 0.98236387     -108.590494
9.208                0.982321967     -108.783424
9.209                0.982280011     -108.976808
9.21                 0.982238003     -109.170648
9.211                0.982195944     -109.364943
9.212                0.982153835     -109.559694
9.213                0.982111675     -109.754902
9.214                0.982069467     -109.950568
9.215                0.982027209     -110.146691
9.216                0.981984905     -110.343272
9.217                0.981942553     -110.540312
9.218                0.981900155     -110.737812
9.219                0.981857712     -110.935771
9.22                 0.981815224      -111.13419
9.221                0.981772692      -111.33307
9.222                0.981730118     -111.532411
9.223                0.981687501     -111.732214
9.224                0.981644843     -111.932478
9.225                0.981602144     -112.133205
9.226                0.981559406     -112.334395
9.227                0.981516629     -112.536048
9.228                0.981473814     -112.738164
9.229                0.981430962     -112.940745
9.23                 0.981388073     -113.143789
9.231                 0.98134515     -113.347299
9.232                0.981302192     -113.551274
9.233                0.981259201     -113.755714
9.234                0.981216177      -113.96062
9.235                0.981173121     -114.165992
9.236                0.981130035      -114.37183
9.237                0.981086919     -114.578135
9.238                0.981043774     -114.784907
9.239                0.981000602     -114.992147
9.24                 0.980957403     -115.199854
9.241                0.980914178     -115.408029
9.242                0.980870928     -115.616671
9.243                0.980827655     -115.825783
9.244                0.980784359     -116.035363
9.245                0.980741041     -116.245411
9.246                0.980697702     -116.455929
9.247                0.980654344     -116.666916
9.248                0.980610967     -116.878372
9.249                0.980567573     -117.090297
9.25                 0.980524163     -117.302693
9.251                0.980480737     -117.515558
9.252                0.980437297     -117.728893
9.253                0.980393845     -117.942699
9.254                 0.98035038     -118.156974
9.255                0.980306904      -118.37172
9.256                0.980263419     -118.586937
9.257                0.980219926     -118.802623
9.258                0.980176425     -119.018781
9.259                0.980132919     -119.235409
9.26                 0.980089407     -119.452507
9.261                0.980045892     -119.670077
9.262                0.980002374     -119.888117
9.263                0.979958855     -120.106627
9.264                0.979915336     -120.325608
9.265                0.979871819      -120.54506
9.266                0.979828304     -120.764983
9.267                0.979784792     -120.985376
9.268                0.979741286     -121.206239
9.269                0.979697786     -121.427573
9.27                 0.979654294     -121.649377
9.271                0.979610811     -121.871651
9.272                0.979567338     -122.094395
9.273                0.979523877     -122.317609
9.274                0.979480429     -122.541293
9.275                0.979436995     -122.765446
9.276                0.979393577     -122.990068
9.277                0.979350176      -123.21516
9.278                0.979306793     -123.440721
9.279                0.979263431      -123.66675
9.28                 0.979220089     -123.893248
9.281                0.979176771     -124.120214
9.282                0.979133476     -124.347647
9.283                0.979090207     -124.575549
9.284                0.979046965     -124.803918
9.285                0.979003751     -125.032753
9.286                0.978960568     -125.262055
9.287                0.978917415     -125.491824
9.288                0.978874296     -125.722058
9.289                0.978831211     -125.952758
9.29                 0.978788162     -126.183923
9.291                 0.97874515     -126.415553
9.292                0.978702178     -126.647647
9.293                0.978659246     -126.880204
9.294                0.978616355     -127.113225
9.295                0.978573509     -127.346709
9.296                0.978530707     -127.580654
9.297                0.978487953     -127.815062
9.298                0.978445247     -128.049931
9.299                 0.97840259      -128.28526
9.3                  0.978359985      -128.52105
9.301                0.978317434     -128.757299
9.302                0.978274937     -128.994007
9.303                0.978232496     -129.231173
9.304                0.978190113     -129.468796
9.305                0.978147791     -129.706877
9.306                0.978105529     -129.945413
9.307                0.978063331     -130.184406
9.308                0.978021197     -130.423853
9.309                 0.97797913     -130.663754
9.31                  0.97793713     -130.904108
9.311                0.977895201     -131.144915
9.312                0.977853343     -131.386173
9.313                0.977811558     -131.627883
9.314                0.977769848     -131.870042
9.315                0.977728215     -132.112651
9.316                 0.97768666     -132.355707
9.317                0.977645185     -132.599212
9.318                0.977603793     -132.843163
9.319                0.977562484     -133.087559
9.32                  0.97752126       -133.3324
9.321                0.977480124     -133.577685
9.322                0.977439077     -133.823412
9.323                0.977398121     -134.069581
9.324                0.977357257     -134.316191
9.325                0.977316488      -134.56324
9.326                0.977275815     -134.810728
9.327                 0.97723524     -135.058653
9.328                0.977194765     -135.307015
9.329                0.977154392     -135.555811
9.33                 0.977114123     -135.805042
9.331                0.977073959     -136.054706
9.332                0.977033902     -136.304801
9.333                0.976993955     -136.555327
9.334                0.976954118     -136.806282
9.335                0.976914395     -137.057665
9.336                0.976874786     -137.309474
9.337                0.976835294     -137.561709
9.338                 0.97679592     -137.814369
9.339                0.976756667     -138.067451
9.34                 0.976717537     -138.320954
9.341                 0.97667853     -138.574877
9.342                 0.97663965     -138.829219
9.343                0.976600898     -139.083979
9.344                0.976562276     -139.339154
9.345                0.976523786     -139.594743
9.346                0.976485429     -139.850746
9.347                0.976447209     -140.107159
9.348                0.976409126     -140.363983
9.349                0.976371182     -140.621214
9.35                  0.97633338     -140.878853
9.351                0.976295722     -141.136896
9.352                0.976258209     -141.395344
9.353                0.976220844     -141.654193
9.354                0.976183628     -141.913442
9.355                0.976146563      -142.17309
9.356                0.976109651     -142.433134
9.357                0.976072894     -142.693574
9.358                0.976036295     -142.954408
9.359                0.975999855     -143.215633
9.36                 0.975963575     -143.477247
9.361                0.975927459      -143.73925
9.362                0.975891507      -144.00164
9.363                0.975855723     -144.264413
9.364                0.975820107      -144.52757
9.365                0.975784662     -144.791107
9.366                 0.97574939     -145.055022
9.367                0.975714292     -145.319315
9.368                0.975679371     -145.583982
9.369                0.975644629     -145.849023
9.37                 0.975610067     -146.114434
9.371                0.975575688     -146.380214
9.372                0.975541493     -146.646361
9.373                0.975507484     -146.912873
9.374                0.975473664     -147.179748
9.375                0.975440034     -147.446984
9.376                0.975406596     -147.714578
9.377                0.975373352     -147.982528
9.378                0.975340304     -148.250832
9.379                0.975307455     -148.519489
9.38                 0.975274805     -148.788495
9.381                0.975242357      -149.05785
9.382                0.975210113     -149.327549
9.383                0.975178074     -149.597592
9.384                0.975146243     -149.867975
9.385                0.975114621     -150.138697
9.386                0.975083211     -150.409755
9.387                0.975052014     -150.681147
9.388                0.975021032      -150.95287
9.389                0.974990266     -151.224923
9.39                  0.97495972     -151.497302
9.391                0.974929395     -151.770005
9.392                0.974899292      -152.04303
9.393                0.974869413     -152.316374
9.394                0.974839761     -152.590035
9.395                0.974810337     -152.864011
9.396                0.974781143     -153.138298
