! TOUCHSTONE file generated by CST DESIGN STUDIO
! Date and time: Tue Feb  4 13:44:03 2025
! Project name: C:\Work\MatlabApps\UnitCellOptimizationMatlab\CST\unitcell.cst
! Tree item: Tasks\Sweep1\SPara1\S-Parameters
! Header version: 2024
! Port assignment regex: !\s*Touchstone port\s*([0-9]+)\s*=\s*(CST MWS port|CST DES external port|CST DES block port)\s*(.+)\s* \(\"(.*)\"\)(\s*mode\s*([0-9]+))?.*
! Touchstone port assignment:
! Touchstone port 1 = CST DES external port 1 ("")
# GHz S MA R 50
9                    0.989563639     -76.4807288
9.001                0.989538716     -76.5950046
9.002                0.989513718      -76.709557
9.003                0.989488645     -76.8243866
9.004                0.989463497     -76.9394944
9.005                0.989438274      -77.054881
9.006                0.989412975     -77.1705473
9.007                0.989387601     -77.2864942
9.008                0.989362152     -77.4027224
9.009                0.989336626     -77.5192327
9.01                 0.989311025      -77.636026
9.011                0.989285347      -77.753103
9.012                0.989259593     -77.8704646
9.013                0.989233763     -77.9881117
9.014                0.989207856     -78.1060449
9.015                0.989181872     -78.2242652
9.016                0.989155812     -78.3427734
9.017                0.989129674     -78.4615703
9.018                 0.98910346     -78.5806567
9.019                0.989077168     -78.7000335
9.02                 0.989050798     -78.8197015
9.021                0.989024351     -78.9396615
9.022                0.988997826     -79.0599143
9.023                0.988971223     -79.1804608
9.024                0.988944542     -79.3013019
9.025                0.988917783     -79.4224383
9.026                0.988890945      -79.543871
9.027                0.988864029     -79.6656007
9.028                0.988837035     -79.7876283
9.029                0.988809961     -79.9099547
9.03                 0.988782809     -80.0325806
9.031                0.988755577      -80.155507
9.032                0.988728267     -80.2787347
9.033                0.988700877     -80.4022645
9.034                0.988673408     -80.5260973
9.035                0.988645859      -80.650234
9.036                 0.98861823     -80.7746753
9.037                0.988590521     -80.8994223
9.038                0.988562733     -81.0244756
9.039                0.988534864     -81.1498363
9.04                 0.988506915     -81.2755051
9.041                0.988478886     -81.4014829
9.042                0.988450776     -81.5277706
9.043                0.988422586      -81.654369
9.044                0.988394315     -81.7812791
9.045                0.988365963     -81.9085016
9.046                 0.98833753     -82.0360375
9.047                0.988309016     -82.1638876
9.048                0.988280421     -82.2920528
9.049                0.988251744      -82.420534
9.05                 0.988222986      -82.549332
9.051                0.988194147     -82.6784478
9.052                0.988165226     -82.8078821
9.053                0.988136223      -82.937636
9.054                0.988107138     -83.0677102
9.055                0.988077971     -83.1981056
9.056                0.988048723     -83.3288232
9.057                0.988019392     -83.4598638
9.058                0.987989978     -83.5912283
9.059                0.987960483     -83.7229176
9.06                 0.987930905     -83.8549325
9.061                0.987901244     -83.9872741
9.062                0.987871501      -84.119943
9.063                0.987841675     -84.2529404
9.064                0.987811766     -84.3862669
9.065                0.987781774     -84.5199236
9.066                0.987751699     -84.6539113
9.067                0.987721541     -84.7882309
9.068                  0.9876913     -84.9228834
9.069                0.987660976     -85.0578696
9.07                 0.987630568     -85.1931903
9.071                0.987600077     -85.3288466
9.072                0.987569503     -85.4648393
9.073                0.987538845     -85.6011693
9.074                0.987508103     -85.7378375
9.075                0.987477278     -85.8748448
9.076                0.987446368     -86.0121922
9.077                0.987415376     -86.1498804
9.078                0.987384299     -86.2879105
9.079                0.987353138     -86.4262833
9.08                 0.987321893     -86.5649997
9.081                0.987290565     -86.7040607
9.082                0.987259152     -86.8434671
9.083                0.987227655     -86.9832199
9.084                0.987196074     -87.1233199
9.085                0.987164409     -87.2637682
9.086                0.987132659     -87.4045655
9.087                0.987100825     -87.5457127
9.088                0.987068907     -87.6872109
9.089                0.987036905     -87.8290609
9.09                 0.987004818     -87.9712636
9.091                0.986972647       -88.11382
9.092                0.986940391     -88.2567308
9.093                0.986908051     -88.3999972
9.094                0.986875626     -88.5436199
9.095                0.986843117     -88.6875999
9.096                0.986810524      -88.831938
9.097                0.986777846     -88.9766353
9.098                0.986745083     -89.1216926
9.099                0.986712236     -89.2671108
9.1                  0.986679304     -89.4128909
9.101                0.986646288     -89.5590337
9.102                0.986613188     -89.7055402
9.103                0.986580003     -89.8524113
9.104                0.986546733     -89.9996479
9.105                0.986513379     -90.1472508
9.106                0.986479941     -90.2952211
9.107                0.986446418     -90.4435597
9.108                0.986412811     -90.5922673
9.109                0.986379119      -90.741345
9.11                 0.986345343     -90.8907937
9.111                0.986311483     -91.0406143
9.112                0.986277538     -91.1908077
9.113                 0.98624351     -91.3413747
9.114                0.986209397     -91.4923164
9.115                  0.9861752     -91.6436336
9.116                0.986140919     -91.7953272
9.117                0.986106554     -91.9473982
9.118                0.986072105     -92.0998474
9.119                0.986037572     -92.2526757
9.12                 0.986002956     -92.4058841
9.121                0.985968256     -92.5594735
9.122                0.985933472     -92.7134447
9.123                0.985898605     -92.8677988
9.124                0.985863654     -93.0225365
9.125                0.985828619     -93.1776587
9.126                0.985793502     -93.3331665
9.127                0.985758301     -93.4890606
9.128                0.985723018      -93.645342
9.129                0.985687651     -93.8020116
9.13                 0.985652202     -93.9590703
9.131                0.985616669      -94.116519
9.132                0.985581054     -94.2743585
9.133                0.985545357     -94.4325898
9.134                0.985509578     -94.5912137
9.135                0.985473716     -94.7502311
9.136                0.985437772      -94.909643
9.137                0.985401746     -95.0694503
9.138                0.985365638     -95.2296537
9.139                0.985329449     -95.3902542
9.14                 0.985293178     -95.5512527
9.141                0.985256826       -95.71265
9.142                0.985220393     -95.8744471
9.143                0.985183879     -96.0366448
9.144                0.985147284     -96.1992439
9.145                0.985110609     -96.3622455
9.146                0.985073853     -96.5256502
9.147                0.985037017     -96.6894591
9.148                0.985000101     -96.8536729
9.149                0.984963106     -97.0182926
9.15                  0.98492603     -97.1833189
9.151                0.984888875     -97.3487528
9.152                0.984851642     -97.5145952
9.153                0.984814329     -97.6808468
9.154                0.984776937     -97.8475085
9.155                0.984739468     -98.0145812
9.156                 0.98470192     -98.1820657
9.157                0.984664294     -98.3499629
9.158                 0.98462659     -98.5182736
9.159                0.984588809     -98.6869987
9.16                 0.984550951      -98.856139
9.161                0.984513015     -99.0256952
9.162                0.984475004     -99.1956684
9.163                0.984436916     -99.3660592
9.164                0.984398752     -99.5368686
9.165                0.984360512     -99.7080972
9.166                0.984322197     -99.8797461
9.167                0.984283806     -100.051816
9.168                0.984245341     -100.224307
9.169                0.984206802     -100.397222
9.17                 0.984168188     -100.570559
9.171                0.984129501     -100.744321
9.172                 0.98409074     -100.918508
9.173                0.984051906      -101.09312
9.174                0.984012999     -101.268159
9.175                 0.98397402     -101.443626
9.176                0.983934969      -101.61952
9.177                0.983895846     -101.795844
9.178                0.983856652     -101.972597
9.179                0.983817387     -102.149781
9.18                 0.983778052     -102.327396
9.181                0.983738647     -102.505443
9.182                0.983699172     -102.683923
9.183                0.983659628     -102.862836
9.184                0.983620015     -103.042183
9.185                0.983580333     -103.221966
9.186                0.983540584     -103.402184
9.187                0.983500768     -103.582839
9.188                0.983460884     -103.763931
9.189                0.983420934     -103.945461
9.19                 0.983380917     -104.127429
9.191                0.983340836     -104.309837
9.192                0.983300689     -104.492685
9.193                0.983260477     -104.675973
9.194                0.983220202     -104.859703
9.195                0.983179862     -105.043876
9.196                 0.98313946     -105.228491
9.197                0.983098995      -105.41355
9.198                0.983058468     -105.599052
9.199                 0.98301788        -105.785
9.2                  0.982977231     -105.971393
9.201                0.982936521     -106.158233
9.202                0.982895752     -106.345519
9.203                0.982854923     -106.533253
9.204                0.982814036     -106.721435
9.205                0.982773091     -106.910065
9.206                0.982732088     -107.099146
9.207                0.982691029     -107.288676
9.208                0.982649913     -107.478656
9.209                0.982608742     -107.669088
9.21                 0.982567516     -107.859972
9.211                0.982526235     -108.051308
9.212                0.982484901     -108.243097
9.213                0.982443514      -108.43534
9.214                0.982402074     -108.628036
9.215                0.982360583     -108.821188
9.216                0.982319041     -109.014795
9.217                0.982277449     -109.208857
9.218                0.982235807     -109.403376
9.219                0.982194117     -109.598352
9.22                 0.982152378     -109.793785
9.221                0.982110592     -109.989676
9.222                0.982068759     -110.186026
9.223                 0.98202688     -110.382834
9.224                0.981984957     -110.580102
9.225                0.981942989      -110.77783
9.226                0.981900977     -110.976018
9.227                0.981858923     -111.174668
9.228                0.981816826     -111.373778
9.229                0.981774689      -111.57335
9.23                 0.981732511     -111.773384
9.231                0.981690293     -111.973881
9.232                0.981648037     -112.174841
9.233                0.981605743     -112.376265
9.234                0.981563413     -112.578152
9.235                0.981521046     -112.780504
9.236                0.981478644      -112.98332
9.237                0.981436207     -113.186601
9.238                0.981393737     -113.390348
9.239                0.981351235      -113.59456
9.24                 0.981308701     -113.799238
9.241                0.981266136     -114.004383
9.242                0.981223541     -114.209995
9.243                0.981180918     -114.416074
9.244                0.981138267      -114.62262
9.245                0.981095589     -114.829633
9.246                0.981052885     -115.037115
9.247                0.981010156     -115.245065
9.248                0.980967403     -115.453483
9.249                0.980924627      -115.66237
9.25                  0.98088183     -115.871726
9.251                0.980839011     -116.081551
9.252                0.980796173     -116.291846
9.253                0.980753316      -116.50261
9.254                0.980710441     -116.713844
9.255                 0.98066755     -116.925548
9.256                0.980624642     -117.137722
9.257                0.980581721     -117.350366
9.258                0.980538786     -117.563481
9.259                0.980495839     -117.777067
9.26                 0.980452881     -117.991123
9.261                0.980409913      -118.20565
9.262                0.980366935     -118.420648
9.263                0.980323951     -118.636117
9.264                0.980280959     -118.852057
9.265                0.980237962     -119.068468
9.266                0.980194962     -119.285351
9.267                0.980151958     -119.502704
9.268                0.980108952     -119.720529
9.269                0.980065946     -119.938825
9.27                  0.98002294     -120.157592
9.271                0.979979936     -120.376831
9.272                0.979936936     -120.596541
9.273                0.979893939     -120.816721
9.274                0.979850949     -121.037373
9.275                0.979807965     -121.258496
9.276                 0.97976499      -121.48009
9.277                0.979722024     -121.702154
9.278                0.979679069      -121.92469
9.279                0.979636127     -122.147695
9.28                 0.979593197     -122.371171
9.281                0.979550283     -122.595118
9.282                0.979507385     -122.819534
9.283                0.979464504     -123.044421
9.284                0.979421642     -123.269776
9.285                0.979378801     -123.495602
9.286                0.979335981     -123.721896
9.287                0.979293185      -123.94866
9.288                0.979250413     -124.175892
9.289                0.979207667     -124.403593
9.29                 0.979164948     -124.631761
9.291                0.979122258     -124.860397
9.292                0.979079599     -125.089501
9.293                0.979036971     -125.319072
9.294                0.978994376      -125.54911
9.295                0.978951817     -125.779614
9.296                0.978909293     -126.010584
9.297                0.978866807     -126.242019
9.298                 0.97882436     -126.473919
9.299                0.978781954     -126.706285
9.3                  0.978739591     -126.939114
9.301                0.978697271     -127.172407
9.302                0.978654996     -127.406163
9.303                0.978612769     -127.640382
9.304                 0.97857059     -127.875063
9.305                0.978528461     -128.110206
9.306                0.978486384     -128.345809
9.307                 0.97844436     -128.581873
9.308                0.978402391     -128.818397
9.309                0.978360478     -129.055381
9.31                 0.978318624     -129.292822
9.311                0.978276829     -129.530722
9.312                0.978235096     -129.769079
9.313                0.978193426     -130.007893
9.314                0.978151821     -130.247162
9.315                0.978110282     -130.486886
9.316                0.978068811     -130.727065
9.317                 0.97802741     -130.967698
9.318                 0.97798608     -131.208783
9.319                0.977944824      -131.45032
9.32                 0.977903642     -131.692309
9.321                0.977862537     -131.934747
9.322                0.977821511     -132.177636
9.323                0.977780564     -132.420972
9.324                  0.9777397     -132.664757
9.325                0.977698919     -132.908988
9.326                0.977658223     -133.153665
9.327                0.977617614     -133.398788
9.328                0.977577094     -133.644354
9.329                0.977536665     -133.890362
9.33                 0.977496328     -134.136813
9.331                0.977456086     -134.383705
9.332                0.977415939     -134.631036
9.333                0.977375891     -134.878806
9.334                0.977335942     -135.127014
9.335                0.977296094     -135.375658
9.336                 0.97725635     -135.624738
9.337                0.977216711     -135.874252
9.338                0.977177179     -136.124199
9.339                0.977137756     -136.374577
9.34                 0.977098443     -136.625387
9.341                0.977059243     -136.876625
9.342                0.977020157     -137.128292
9.343                0.976981188     -137.380386
9.344                0.976942337     -137.632905
9.345                0.976903605     -137.885848
9.346                0.976864996     -138.139214
9.347                 0.97682651     -138.393002
9.348                 0.97678815      -138.64721
9.349                0.976749918     -138.901837
9.35                 0.976711815     -139.156881
9.351                0.976673843      -139.41234
9.352                0.976636004     -139.668214
9.353                0.976598301     -139.924501
9.354                0.976560735       -140.1812
9.355                0.976523308     -140.438308
9.356                0.976486021     -140.695824
9.357                0.976448878     -140.953747
9.358                0.976411879     -141.212076
9.359                0.976375027     -141.470808
9.36                 0.976338323     -141.729941
9.361                 0.97630177     -141.989475
9.362                 0.97626537     -142.249407
9.363                0.976229124     -142.509737
9.364                0.976193034     -142.770461
9.365                0.976157102     -143.031578
9.366                0.976121331     -143.293088
9.367                0.976085721     -143.554987
9.368                0.976050276     -143.817274
9.369                0.976014997     -144.079947
9.37                 0.975979885     -144.343004
9.371                0.975944944     -144.606444
9.372                0.975910174     -144.870264
9.373                0.975875578     -145.134463
9.374                0.975841158     -145.399039
9.375                0.975806915      -145.66399
9.376                0.975772852     -145.929313
9.377                 0.97573897     -146.195006
9.378                0.975705272     -146.461069
9.379                0.975671759     -146.727498
9.38                 0.975638433     -146.994292
9.381                0.975605297     -147.261448
9.382                0.975572351     -147.528965
9.383                0.975539599      -147.79684
9.384                0.975507041     -148.065071
9.385                 0.97547468     -148.333656
9.386                0.975442518     -148.602593
9.387                0.975410557     -148.871879
9.388                0.975378798     -149.141513
9.389                0.975347243     -149.411491
9.39                 0.975315895     -149.681813
9.391                0.975284755     -149.952474
9.392                0.975253825     -150.223474
9.393                0.975223107      -150.49481
9.394                0.975192602     -150.766479
9.395                0.975162314     -151.038479
9.396                0.975132243     -151.310808
