! TOUCHSTONE file generated by CST DESIGN STUDIO
! Date and time: Tue Feb  4 17:57:20 2025
! Project name: C:\Work\MatlabApps\UnitCellOptimizationMatlab\CST\unitcell.cst
! Tree item: Tasks\Sweep1\SPara1\S-Parameters
! Header version: 2024
! Port assignment regex: !\s*Touchstone port\s*([0-9]+)\s*=\s*(CST MWS port|CST DES external port|CST DES block port)\s*(.+)\s* \(\"(.*)\"\)(\s*mode\s*([0-9]+))?.*
! Touchstone port assignment:
! Touchstone port 1 = CST DES external port 1 ("")
# GHz S MA R 50
9                    0.893970423     -106.002727
9.001                0.893720031     -106.236125
9.002                0.893468513     -106.470272
9.003                0.893215871     -106.705172
9.004                0.892962104     -106.940826
9.005                0.892707215     -107.177235
9.006                0.892451202     -107.414401
9.007                0.892194068     -107.652325
9.008                0.891935814     -107.891008
9.009                0.891676439     -108.130453
9.01                 0.891415947     -108.370661
9.011                0.891154337     -108.611632
9.012                0.890891612     -108.853369
9.013                0.890627772     -109.095873
9.014                0.890362821     -109.339145
9.015                0.890096759     -109.583187
9.016                0.889829589     -109.827999
9.017                0.889561312     -110.073584
9.018                0.889291932     -110.319943
9.019                 0.88902145     -110.567076
9.02                 0.888749869     -110.814985
9.021                0.888477191     -111.063672
9.022                 0.88820342     -111.313137
9.023                0.887928558     -111.563382
9.024                0.887652608     -111.814407
9.025                0.887375574     -112.066215
9.026                0.887097459     -112.318806
9.027                0.886818267     -112.572181
9.028                   0.886538     -112.826342
9.029                0.886256664     -113.081289
9.03                 0.885974261     -113.337023
9.031                0.885690797     -113.593546
9.032                0.885406274     -113.850859
9.033                0.885120699     -114.108962
9.034                0.884834074     -114.367856
9.035                0.884546406     -114.627542
9.036                0.884257698     -114.888022
9.037                0.883967957     -115.149295
9.038                0.883677187     -115.411364
9.039                0.883385393     -115.674228
9.04                 0.883092581     -115.937888
9.041                0.882798757     -116.202346
9.042                0.882503927     -116.467602
9.043                0.882208097     -116.733656
9.044                0.881911273     -117.000509
9.045                0.881613461     -117.268163
9.046                0.881314668     -117.536617
9.047                0.881014901     -117.805871
9.048                0.880714167     -118.075928
9.049                0.880412472     -118.346786
9.05                 0.880109825     -118.618448
9.051                0.879806232     -118.890912
9.052                0.879501701     -119.164179
9.053                0.879196241     -119.438251
9.054                0.878889858     -119.713126
9.055                0.878582562     -119.988807
9.056                0.878274361     -120.265291
9.057                0.877965263     -120.542581
9.058                0.877655277     -120.820676
9.059                0.877344411     -121.099577
9.06                 0.877032677     -121.379283
9.061                0.876720081     -121.659794
9.062                0.876406635     -121.941112
9.063                0.876092348     -122.223235
9.064                0.875777229     -122.506163
9.065                0.875461289     -122.789898
9.066                0.875144539     -123.074437
9.067                0.874826988     -123.359783
9.068                0.874508647     -123.645933
9.069                0.874189528     -123.932889
9.07                 0.873869642     -124.220649
9.071                0.873548999     -124.509214
9.072                0.873227612     -124.798584
9.073                0.872905492     -125.088757
9.074                0.872582651     -125.379733
9.075                0.872259102     -125.671512
9.076                0.871934856     -125.964094
9.077                0.871609926     -126.257478
9.078                0.871284325     -126.551663
9.079                0.870958066     -126.846649
9.08                 0.870631161     -127.142434
9.081                0.870303626     -127.439019
9.082                0.869975472     -127.736403
9.083                0.869646714     -128.034584
9.084                0.869317366     -128.333563
9.085                0.868987442     -128.633337
9.086                0.868656956     -128.933906
9.087                0.868325924     -129.235269
9.088                0.867994359     -129.537425
9.089                0.867662278     -129.840374
9.09                 0.867329694     -130.144112
9.091                0.866996625     -130.448641
9.092                0.866663084     -130.753958
9.093                0.866329089     -131.060061
9.094                0.865994655     -131.366951
9.095                0.865659799     -131.674624
9.096                0.865324537     -131.983081
9.097                0.864988886     -132.292319
9.098                0.864652862     -132.602336
9.099                0.864316484     -132.913132
9.1                  0.863979767     -133.224705
9.101                 0.86364273     -133.537052
9.102                0.863305391     -133.850172
9.103                0.862967766     -134.164064
9.104                0.862629876     -134.478725
9.105                0.862291737     -134.794153
9.106                0.861953368     -135.110347
9.107                0.861614788     -135.427305
9.108                0.861276016     -135.745024
9.109                0.860937071     -136.063502
9.11                 0.860597973     -136.382737
9.111                 0.86025874     -136.702727
9.112                0.859919393      -137.02347
9.113                0.859579951     -137.344962
9.114                0.859240435     -137.667203
9.115                0.858900864     -137.990188
9.116                 0.85856126     -138.313917
9.117                0.858221642     -138.638385
9.118                0.857882032     -138.963591
9.119                 0.85754245     -139.289532
9.12                 0.857202918     -139.616204
9.121                0.856863457     -139.943606
9.122                0.856524089     -140.271734
9.123                0.856184835     -140.600585
9.124                0.855845716     -140.930157
9.125                0.855506756     -141.260446
9.126                0.855167976     -141.591449
9.127                0.854829399     -141.923163
9.128                0.854491046     -142.255584
9.129                0.854152942      -142.58871
9.13                 0.853815108     -142.922537
9.131                0.853477567     -143.257061
9.132                0.853140342     -143.592279
9.133                0.852803458     -143.928188
9.134                0.852466936     -144.264784
9.135                0.852130801     -144.602063
9.136                0.851795077     -144.940021
9.137                0.851459786     -145.278655
9.138                0.851124954     -145.617961
9.139                0.850790604     -145.957935
9.14                 0.850456759     -146.298573
9.141                0.850123446     -146.639871
9.142                0.849790687     -146.981824
9.143                0.849458507     -147.324429
9.144                0.849126932     -147.667681
9.145                0.848795985     -148.011576
9.146                0.848465691      -148.35611
9.147                0.848136076     -148.701279
9.148                0.847807165     -149.047077
9.149                0.847478982       -149.3935
9.15                 0.847151552     -149.740544
9.151                0.846824902     -150.088205
9.152                0.846499056     -150.436476
9.153                0.846174039     -150.785354
9.154                0.845849878     -151.134833
9.155                0.845526597      -151.48491
9.156                0.845204223     -151.835578
9.157                 0.84488278     -152.186832
9.158                0.844562295     -152.538669
9.159                0.844242794     -152.891082
9.16                 0.843924301     -153.244066
9.161                0.843606843     -153.597616
9.162                0.843290446     -153.951727
9.163                0.842975136     -154.306393
9.164                0.842660938     -154.661609
9.165                0.842347879     -155.017369
9.166                0.842035983     -155.373669
9.167                0.841725278     -155.730501
9.168                0.841415789     -156.087861
9.169                0.841107542     -156.445742
9.17                 0.840800563     -156.804139
9.171                0.840494878     -157.163047
9.172                0.840190513     -157.522458
9.173                0.839887493     -157.882368
9.174                0.839585844      -158.24277
9.175                0.839285593     -158.603658
9.176                0.838986764     -158.965025
9.177                0.838689384     -159.326867
9.178                0.838393478     -159.689176
9.179                0.838099072     -160.051946
9.18                 0.837806192     -160.415171
9.181                0.837514862     -160.778845
9.182                0.837225108      -161.14296
9.183                0.836936955     -161.507511
9.184                0.836650429     -161.872491
9.185                0.836365555     -162.237893
9.186                0.836082358      -162.60371
9.187                0.835800862     -162.969937
9.188                0.835521093     -163.336566
9.189                0.835243076      -163.70359
9.19                 0.834966834     -164.071003
9.191                0.834692393     -164.438797
9.192                0.834419776     -164.806966
9.193                0.834149008     -165.175502
9.194                0.833880114     -165.544399
9.195                0.833613116      -165.91365
9.196                0.833348039     -166.283247
9.197                0.833084907     -166.653183
9.198                0.832823742     -167.023452
9.199                0.832564568     -167.394045
9.2                  0.832307409     -167.764955
9.201                0.832052288     -168.136176
9.202                0.831799226       -168.5077
9.203                0.831548247     -168.879518
9.204                0.831299373     -169.251625
9.205                0.831052627     -169.624012
9.206                0.830808029     -169.996673
9.207                0.830565603     -170.369598
9.208                 0.83032537     -170.742781
9.209                0.830087351     -171.116215
9.21                 0.829851568     -171.489891
9.211                 0.82961804     -171.863801
9.212                 0.82938679     -172.237939
9.213                0.829157837     -172.612296
9.214                0.828931202     -172.986865
9.215                0.828706904     -173.361638
9.216                0.828484964     -173.736606
9.217                0.828265401     -174.111763
9.218                0.828048234       -174.4871
9.219                0.827833482     -174.862609
9.22                 0.827621164     -175.238283
9.221                0.827411298     -175.614113
9.222                0.827203903     -175.990091
9.223                0.826998996     -176.366211
9.224                0.826796595     -176.742462
9.225                0.826596718     -177.118838
9.226                0.826399381     -177.495331
9.227                  0.8262046     -177.871932
9.228                0.826012394     -178.248633
9.229                0.825822777     -178.625427
9.23                 0.825635765     -179.002305
9.231                0.825451375     -179.379258
9.232                0.825269621      -179.75628
9.233                0.825090517      179.866638
9.234                 0.82491408      179.489505
9.235                0.824740323      179.112328
9.236                0.824569259      178.735116
9.237                0.824400904      178.357877
9.238                0.824235269      177.980619
9.239                0.824072368      177.603349
9.24                 0.823912213      177.226077
9.241                0.823754818       176.84881
9.242                0.823600193      176.471557
9.243                 0.82344835      176.094326
9.244                0.823299301      175.717124
9.245                0.823153057      175.339961
9.246                0.823009628      174.962843
9.247                0.822869024      174.585781
9.248                0.822731255       174.20878
9.249                0.822596332       173.83185
9.25                 0.822464262      173.454999
9.251                0.822335056      173.078234
9.252                 0.82220872      172.701565
9.253                0.822085265      172.324999
9.254                0.821964696      171.948543
9.255                0.821847023      171.572207
9.256                0.821732251      171.195998
9.257                0.821620387      170.819924
9.258                0.821511438      170.443993
9.259                 0.82140541      170.068214
9.26                 0.821302309      169.692594
9.261                0.821202139      169.317141
9.262                0.821104905      168.941863
9.263                0.821010613      168.566768
9.264                0.820919266      168.191864
9.265                0.820830868      167.817158
9.266                0.820745422      167.442659
9.267                0.820662933      167.068375
9.268                0.820583401      166.694312
9.269                 0.82050683       166.32048
9.27                 0.820433222      165.946885
9.271                0.820362579      165.573535
9.272                0.820294901      165.200439
9.273                 0.82023019      164.827603
9.274                0.820168446      164.455035
9.275                 0.82010967      164.082743
9.276                0.820053862      163.710734
9.277                 0.82000102      163.339016
9.278                0.819951144      162.967596
9.279                0.819904234      162.596482
9.28                 0.819860287       162.22568
9.281                0.819819302        161.8552
9.282                0.819781277      161.485046
9.283                0.819746208      161.115228
9.284                0.819714094      160.745752
9.285                 0.81968493      160.376624
9.286                0.819658715      160.007854
9.287                0.819635443      159.639447
9.288                 0.81961511       159.27141
9.289                0.819597712      158.903751
9.29                 0.819583245      158.536476
9.291                0.819571702      158.169593
9.292                0.819563079      157.803108
9.293                 0.81955737      157.437028
9.294                0.819554569      157.071359
9.295                0.819554668       156.70611
9.296                0.819557663      156.341285
9.297                0.819563545      155.976892
9.298                0.819572307      155.612937
9.299                0.819583942      155.249427
9.3                  0.819598442      154.886368
9.301                0.819615798      154.523767
9.302                0.819636002       154.16163
9.303                0.819659046      153.799963
9.304                 0.81968492      153.438773
9.305                0.819713616      153.078065
9.306                0.819745122      152.717846
9.307                0.819779431      152.358121
9.308                 0.81981653      151.998898
9.309                0.819856411      151.640181
9.31                 0.819899063      151.281977
9.311                0.819944474      150.924291
9.312                0.819992633       150.56713
9.313                 0.82004353      150.210498
9.314                0.820097152      149.854402
9.315                0.820153488      149.498848
9.316                0.820212525       149.14384
9.317                0.820274252      148.789384
9.318                0.820338655      148.435485
9.319                0.820405722       148.08215
9.32                  0.82047544      147.729383
9.321                0.820547795      147.377189
9.322                0.820622775      147.025574
9.323                0.820700366      146.674543
9.324                0.820780553      146.324101
9.325                0.820863323      145.974252
9.326                0.820948662      145.625002
9.327                0.821036555      145.276355
9.328                0.821126987      144.928317
9.329                0.821219945      144.580891
9.33                 0.821315412      144.234083
9.331                0.821413374      143.887898
9.332                0.821513816      143.542339
9.333                0.821616722      143.197412
9.334                0.821722076       142.85312
9.335                0.821829863      142.509468
9.336                0.821940067      142.166461
9.337                0.822052672      141.824102
9.338                0.822167661      141.482396
9.339                0.822285018      141.141346
9.34                 0.822404728      140.800957
9.341                0.822526772      140.461233
9.342                0.822651135      140.122177
9.343                  0.8227778      139.783794
9.344                0.822906749      139.446087
9.345                0.823037966       139.10906
9.346                0.823171434      138.772717
9.347                0.823307134      138.437061
9.348                 0.82344505      138.102095
9.349                0.823585165      137.767823
9.35                  0.82372746      137.434249
9.351                0.823871918      137.101376
9.352                0.824018522      136.769206
9.353                0.824167253      136.437744
9.354                0.824318093      136.106992
9.355                0.824471025      135.776954
9.356                0.824626031      135.447632
9.357                0.824783092       135.11903
9.358                 0.82494219      134.791149
9.359                0.825103307      134.463994
9.36                 0.825266425      134.137567
9.361                0.825431525       133.81187
9.362                0.825598589      133.486907
9.363                0.825767599      133.162679
9.364                0.825938535       132.83919
9.365                0.826111381      132.516442
9.366                0.826286116      132.194436
9.367                0.826462722      131.873176
9.368                0.826641182      131.552664
9.369                0.826821475      131.232902
9.37                 0.827003585      130.913892
9.371                0.827187491      130.595637
9.372                0.827373175      130.278137
9.373                0.827560619      129.961396
9.374                0.827749804      129.645416
9.375                0.827940711      129.330197
9.376                0.828133322      129.015742
9.377                0.828327617      128.702054
9.378                0.828523579      128.389132
9.379                0.828721188       128.07698
9.38                 0.828920426      127.765598
9.381                0.829121274      127.454988
9.382                0.829323714      127.145153
9.383                0.829527726      126.836092
9.384                0.829733293      126.527808
9.385                0.829940396      126.220301
9.386                0.830149016      125.913574
9.387                0.830359135      125.607627
9.388                0.830570735      125.302462
9.389                0.830783796      124.998079
9.39                 0.830998301       124.69448
9.391                 0.83121423      124.391666
9.392                0.831431567      124.089638
9.393                0.831650293      123.788396
9.394                0.831870388      123.487941
9.395                0.832091836      123.188275
9.396                0.832314618      122.889398
