! TOUCHSTONE file generated by CST DESIGN STUDIO
! Date and time: Tue Feb  4 17:57:36 2025
! Project name: C:\Work\MatlabApps\UnitCellOptimizationMatlab\CST\unitcell.cst
! Tree item: Tasks\Sweep1\SPara1\S-Parameters
! Header version: 2024
! Port assignment regex: !\s*Touchstone port\s*([0-9]+)\s*=\s*(CST MWS port|CST DES external port|CST DES block port)\s*(.+)\s* \(\"(.*)\"\)(\s*mode\s*([0-9]+))?.*
! Touchstone port assignment:
! Touchstone port 1 = CST DES external port 1 ("")
# GHz S MA R 50
9                    0.967129605     -52.7307834
9.001                0.967044644     -52.8034432
9.002                0.966959206     -52.8762639
9.003                 0.96687329      -52.949246
9.004                0.966786893     -53.0223899
9.005                0.966700016     -53.0956962
9.006                0.966612655     -53.1691653
9.007                 0.96652481     -53.2427977
9.008                0.966436478      -53.316594
9.009                 0.96634766     -53.3905545
9.01                 0.966258352     -53.4646798
9.011                0.966168554     -53.5389703
9.012                0.966078264     -53.6134267
9.013                0.965987481     -53.6880492
9.014                0.965896203     -53.7628386
9.015                0.965804428     -53.8377952
9.016                0.965712156     -53.9129195
9.017                0.965619384     -53.9882121
9.018                0.965526111     -54.0636735
9.019                0.965432336     -54.1393041
9.02                 0.965338057     -54.2151046
9.021                0.965243273     -54.2910753
9.022                0.965147982     -54.3672168
9.023                0.965052182     -54.4435296
9.024                0.964955872     -54.5200143
9.025                0.964859051     -54.5966714
9.026                0.964761717     -54.6735013
9.027                0.964663868     -54.7505046
9.028                0.964565503     -54.8276819
9.029                0.964466621     -54.9050336
9.03                  0.96436722     -54.9825603
9.031                0.964267298     -55.0602625
9.032                0.964166854     -55.1381407
9.033                0.964065886     -55.2161956
9.034                0.963964393     -55.2944275
9.035                0.963862374     -55.3728372
9.036                0.963759826      -55.451425
9.037                0.963656749     -55.5301916
9.038                 0.96355314     -55.6091374
9.039                0.963448998     -55.6882631
9.04                 0.963344322     -55.7675693
9.041                 0.96323911     -55.8470563
9.042                 0.96313336     -55.9267249
9.043                0.963027072     -56.0065755
9.044                0.962920242     -56.0866087
9.045                0.962812871     -56.1668251
9.046                0.962704956     -56.2472252
9.047                0.962596496     -56.3278097
9.048                0.962487489      -56.408579
9.049                0.962377934     -56.4895338
9.05                 0.962267829     -56.5706746
9.051                0.962157172     -56.6520019
9.052                0.962045963     -56.7335165
9.053                0.961934199     -56.8152188
9.054                0.961821878     -56.8971094
9.055                   0.961709     -56.9791889
9.056                0.961595563     -57.0614579
9.057                0.961481565     -57.1439171
9.058                0.961367005     -57.2265668
9.059                0.961251881     -57.3094079
9.06                 0.961136191     -57.3924408
9.061                0.961019934     -57.4756662
9.062                0.960903108     -57.5590846
9.063                0.960785713     -57.6426967
9.064                0.960667745     -57.7265031
9.065                0.960549204     -57.8105044
9.066                0.960430088     -57.8947011
9.067                0.960310396     -57.9790939
9.068                0.960190125     -58.0636835
9.069                0.960069275     -58.1484703
9.07                 0.959947844     -58.2334552
9.071                0.959825829     -58.3186385
9.072                 0.95970323     -58.4040211
9.073                0.959580045     -58.4896035
9.074                0.959456273     -58.5753863
9.075                0.959331911     -58.6613703
9.076                0.959206959     -58.7475559
9.077                0.959081414     -58.8339439
9.078                0.958955275     -58.9205348
9.079                0.958828541     -59.0073294
9.08                 0.958701209     -59.0943283
9.081                0.958573279     -59.1815321
9.082                0.958444748     -59.2689414
9.083                0.958315616      -59.356557
9.084                 0.95818588     -59.4443794
9.085                0.958055538     -59.5324094
9.086                 0.95792459     -59.6206476
9.087                0.957793034     -59.7090946
9.088                0.957660868     -59.7977512
9.089                 0.95752809     -59.8866179
9.09                 0.957394699     -59.9756955
9.091                0.957260693     -60.0649846
9.092                0.957126071     -60.1544859
9.093                0.956990831        -60.2442
9.094                0.956854972     -60.3341278
9.095                0.956718491     -60.4242698
9.096                0.956581387     -60.5146267
9.097                 0.95644366     -60.6051992
9.098                0.956305306     -60.6959881
9.099                0.956166324     -60.7869939
9.1                  0.956026714     -60.8782174
9.101                0.955886472     -60.9696594
9.102                0.955745598     -61.0613204
9.103                 0.95560409     -61.1532013
9.104                0.955461947     -61.2453027
9.105                0.955319166     -61.3376252
9.106                0.955175746     -61.4301698
9.107                0.955031686      -61.522937
9.108                0.954886984     -61.6159275
9.109                0.954741638     -61.7091422
9.11                 0.954595647     -61.8025817
9.111                0.954449009     -61.8962467
9.112                0.954301722      -61.990138
9.113                0.954153785     -62.0842563
9.114                0.954005196     -62.1786024
9.115                0.953855954     -62.2731769
9.116                0.953706057     -62.3679807
9.117                0.953555503     -62.4630145
9.118                0.953404291      -62.558279
9.119                 0.95325242     -62.6537749
9.12                 0.953099886     -62.7495031
9.121                 0.95294669     -62.8454643
9.122                0.952792829     -62.9416592
9.123                0.952638302     -63.0380886
9.124                0.952483107     -63.1347533
9.125                0.952327242     -63.2316541
9.126                0.952170706     -63.3287917
9.127                0.952013497     -63.4261668
9.128                0.951855614     -63.5237803
9.129                0.951697055      -63.621633
9.13                 0.951537818     -63.7197256
9.131                0.951377902     -63.8180589
9.132                0.951217306     -63.9166337
9.133                0.951056027     -64.0154508
9.134                0.950894063     -64.1145111
9.135                0.950731415     -64.2138152
9.136                0.950568078      -64.313364
9.137                0.950404053     -64.4131583
9.138                0.950239338      -64.513199
9.139                 0.95007393     -64.6134867
9.14                 0.949907829     -64.7140225
9.141                0.949741032     -64.8148069
9.142                0.949573539      -64.915841
9.143                0.949405347     -65.0171255
9.144                0.949236455     -65.1186612
9.145                0.949066861     -65.2204489
9.146                0.948896563     -65.3224896
9.147                0.948725561      -65.424784
9.148                0.948553853      -65.527333
9.149                0.948381436     -65.6301374
9.15                 0.948208309     -65.7331981
9.151                0.948034472     -65.8365158
9.152                0.947859921     -65.9400916
9.153                0.947684656     -66.0439262
9.154                0.947508674     -66.1480205
9.155                0.947331975     -66.2523754
9.156                0.947154557     -66.3569916
9.157                0.946976418     -66.4618702
9.158                0.946797557     -66.5670119
9.159                0.946617971     -66.6724177
9.16                  0.94643766     -66.7780884
9.161                0.946256622     -66.8840249
9.162                0.946074855     -66.9902281
9.163                0.945892358     -67.0966989
9.164                0.945709128     -67.2034381
9.165                0.945525166     -67.3104468
9.166                0.945340468     -67.4177257
9.167                0.945155034     -67.5252758
9.168                0.944968862      -67.633098
9.169                 0.94478195     -67.7411932
9.17                 0.944594296     -67.8495623
9.171                  0.9444059     -67.9582062
9.172                 0.94421676     -68.0671259
9.173                0.944026873     -68.1763223
9.174                 0.94383624     -68.2857963
9.175                0.943644857     -68.3955488
9.176                0.943452723     -68.5055808
9.177                0.943259838     -68.6158932
9.178                0.943066199      -68.726487
9.179                0.942871805      -68.837363
9.18                 0.942676654     -68.9485223
9.181                0.942480745     -69.0599658
9.182                0.942284077     -69.1716945
9.183                0.942086647     -69.2837093
9.184                0.941888454     -69.3960112
9.185                0.941689497     -69.5086011
9.186                0.941489775     -69.6214801
9.187                0.941289285      -69.734649
9.188                0.941088027     -69.8481089
9.189                0.940885998     -69.9618608
9.19                 0.940683197     -70.0759056
9.191                0.940479624     -70.1902444
9.192                0.940275276      -70.304878
9.193                0.940070151     -70.4198076
9.194                 0.93986425     -70.5350341
9.195                0.939657569     -70.6505585
9.196                0.939450107     -70.7663819
9.197                0.939241864     -70.8825051
9.198                0.939032837     -70.9989294
9.199                0.938823025     -71.1156556
9.2                  0.938612427     -71.2326847
9.201                0.938401042     -71.3500179
9.202                0.938188867     -71.4676562
9.203                0.937975901     -71.5856005
9.204                0.937762144     -71.7038519
9.205                0.937547593     -71.8224115
9.206                0.937332248     -71.9412803
9.207                0.937116106     -72.0604593
9.208                0.936899167     -72.1799496
9.209                0.936681429     -72.2997523
9.21                  0.93646289     -72.4198683
9.211                 0.93624355     -72.5402989
9.212                0.936023407     -72.6610449
9.213                 0.93580246     -72.7821076
9.214                0.935580706     -72.9034879
9.215                0.935358146      -73.025187
9.216                0.935134777      -73.147206
9.217                0.934910599     -73.2695458
9.218                0.934685609     -73.3922076
9.219                0.934459808     -73.5151926
9.22                 0.934233192     -73.6385017
9.221                0.934005762     -73.7621362
9.222                0.933777515      -73.886097
9.223                0.933548451     -74.0103853
9.224                0.933318568     -74.1350023
9.225                0.933087865     -74.2599489
9.226                0.932856341     -74.3852265
9.227                0.932623994     -74.5108359
9.228                0.932390824     -74.6367785
9.229                0.932156829     -74.7630553
9.23                 0.931922008     -74.8896674
9.231                0.931686359     -75.0166161
9.232                0.931449882     -75.1439024
9.233                0.931212575     -75.2715274
9.234                0.930974437     -75.3994924
9.235                0.930735467     -75.5277984
9.236                0.930495664     -75.6564467
9.237                0.930255027     -75.7854383
9.238                0.930013554     -75.9147746
9.239                0.929771245     -76.0444565
9.24                 0.929528098     -76.1744853
9.241                0.929284113     -76.3048622
9.242                0.929039287     -76.4355883
9.243                0.928793621     -76.5666649
9.244                0.928547113     -76.6980931
9.245                0.928299762      -76.829874
9.246                0.928051567      -76.962009
9.247                0.927802527     -77.0944991
9.248                0.927552641     -77.2273457
9.249                0.927301908     -77.3605498
9.25                 0.927050328     -77.4941127
9.251                0.926797898     -77.6280356
9.252                0.926544618     -77.7623198
9.253                0.926290488     -77.8969664
9.254                0.926035506     -78.0319766
9.255                0.925779672     -78.1673518
9.256                0.925522984     -78.3030931
9.257                0.925265442     -78.4392017
9.258                0.925007045     -78.5756789
9.259                0.924747792      -78.712526
9.26                 0.924487682     -78.8497441
9.261                0.924226714     -78.9873346
9.262                0.923964888     -79.1252986
9.263                0.923702203     -79.2636374
9.264                0.923438658     -79.4023524
9.265                0.923174253     -79.5414447
9.266                0.922908986     -79.6809156
9.267                0.922642857     -79.8207664
9.268                0.922375865     -79.9609984
9.269                 0.92210801     -80.1016128
9.27                 0.921839291     -80.2426109
9.271                0.921569707      -80.383994
9.272                0.921299258     -80.5257634
9.273                0.921027944     -80.6679204
9.274                0.920755762     -80.8104662
9.275                0.920482714     -80.9534022
9.276                0.920208799     -81.0967297
9.277                0.919934016     -81.2404499
9.278                0.919658364     -81.3845642
9.279                0.919381843     -81.5290739
9.28                 0.919104453     -81.6739803
9.281                0.918826194     -81.8192847
9.282                0.918547064     -81.9649885
9.283                0.918267064     -82.1110929
9.284                0.917986193     -82.2575993
9.285                0.917704451     -82.4045091
9.286                0.917421838     -82.5518235
9.287                0.917138352     -82.6995438
9.288                0.916853995     -82.8476716
9.289                0.916568766     -82.9962079
9.29                 0.916282665     -83.1451544
9.291                0.915995691     -83.2945121
9.292                0.915707844     -83.4442826
9.293                0.915419125     -83.5944672
9.294                0.915129532     -83.7450672
9.295                0.914839067     -83.8960841
9.296                0.914547729      -84.047519
9.297                0.914255518     -84.1993736
9.298                0.913962434      -84.351649
9.299                0.913668477     -84.5043467
9.3                  0.913373648      -84.657468
9.301                0.913077946     -84.8110144
9.302                0.912781371     -84.9649872
9.303                0.912483924     -85.1193878
9.304                0.912185604     -85.2742176
9.305                0.911886413     -85.4294779
9.306                 0.91158635     -85.5851702
9.307                0.911285416     -85.7412959
9.308                 0.91098361     -85.8978564
9.309                0.910680934      -86.054853
9.31                 0.910377388     -86.2122872
9.311                0.910072972     -86.3701603
9.312                0.909767686     -86.5284739
9.313                0.909461532     -86.6872292
9.314                0.909154509     -86.8464278
9.315                0.908846619     -87.0060709
9.316                0.908537861     -87.1661601
9.317                0.908228237     -87.3266968
9.318                0.907917746     -87.4876823
9.319                0.907606391     -87.6491182
9.32                 0.907294171     -87.8110058
9.321                0.906981088     -87.9733465
9.322                0.906667142     -88.1361418
9.323                0.906352334     -88.2993932
9.324                0.906036665      -88.463102
9.325                0.905720136     -88.6272697
9.326                0.905402748     -88.7918978
9.327                0.905084502     -88.9569876
9.328                0.904765399     -89.1225407
9.329                 0.90444544     -89.2885584
9.33                 0.904124626     -89.4550422
9.331                0.903802959     -89.6219936
9.332                 0.90348044      -89.789414
9.333                 0.90315707     -89.9573048
9.334                 0.90283285     -90.1256675
9.335                0.902507782     -90.2945036
9.336                0.902181867     -90.4638145
9.337                0.901855107     -90.6336017
9.338                0.901527503     -90.8038666
9.339                0.901199056     -90.9746107
9.34                  0.90086977     -91.1458354
9.341                0.900539644     -91.3175422
9.342                0.900208681     -91.4897326
9.343                0.899876882      -91.662408
9.344                 0.89954425     -91.8355699
9.345                0.899210786     -92.0092197
9.346                0.898876492      -92.183359
9.347                 0.89854137     -92.3579891
9.348                0.898205423     -92.5331116
9.349                0.897868651     -92.7087279
9.35                 0.897531058     -92.8848394
9.351                0.897192645     -93.0614477
9.352                0.896853415     -93.2385542
9.353                 0.89651337     -93.4161604
9.354                0.896172512     -93.5942677
9.355                0.895830844     -93.7728776
9.356                0.895488368     -93.9519916
9.357                0.895145087     -94.1316111
9.358                0.894801004     -94.3117377
9.359                 0.89445612     -94.4923727
9.36                 0.894110439     -94.6735176
9.361                0.893763963     -94.8551739
9.362                0.893416696     -95.0373431
9.363                 0.89306864     -95.2200267
9.364                0.892719798      -95.403226
9.365                0.892370173     -95.5869425
9.366                0.892019768     -95.7711778
9.367                0.891668586     -95.9559333
9.368                0.891316631     -96.1412104
9.369                0.890963905     -96.3270105
9.37                 0.890610413     -96.5133353
9.371                0.890256157      -96.700186
9.372                0.889901141     -96.8875642
9.373                0.889545368     -97.0754712
9.374                0.889188843     -97.2639087
9.375                0.888831568     -97.4528779
9.376                0.888473548     -97.6423804
9.377                0.888114786     -97.8324176
9.378                0.887755286     -98.0229909
9.379                0.887395053     -98.2141017
9.38                 0.887034089     -98.4057516
9.381                  0.8866724     -98.5979419
9.382                0.886309989     -98.7906741
9.383                0.885946861     -98.9839496
9.384                 0.88558302     -99.1777699
9.385                0.885218471     -99.3721363
9.386                0.884853217     -99.5670502
9.387                0.884487264     -99.7625131
9.388                0.884120616     -99.9585265
9.389                0.883753278     -100.155092
9.39                 0.883385255      -100.35221
9.391                0.883016551     -100.549883
9.392                0.882647171     -100.748112
9.393                0.882277121     -100.946898
9.394                0.881906406     -101.146244
9.395                 0.88153503     -101.346149
9.396                   0.881163     -101.546616
