! TOUCHSTONE file generated by CST DESIGN STUDIO
! Date and time: Tue Feb  4 17:57:34 2025
! Project name: C:\Work\MatlabApps\UnitCellOptimizationMatlab\CST\unitcell.cst
! Tree item: Tasks\Sweep1\SPara1\S-Parameters
! Header version: 2024
! Port assignment regex: !\s*Touchstone port\s*([0-9]+)\s*=\s*(CST MWS port|CST DES external port|CST DES block port)\s*(.+)\s* \(\"(.*)\"\)(\s*mode\s*([0-9]+))?.*
! Touchstone port assignment:
! Touchstone port 1 = CST DES external port 1 ("")
# GHz S MA R 50
9                    0.961871362     -57.1864199
9.001                0.961773624     -57.2693236
9.002                0.961675306     -57.3524247
9.003                0.961576405     -57.4357238
9.004                0.961476919     -57.5192215
9.005                0.961376847     -57.6029183
9.006                0.961276186      -57.686815
9.007                0.961174935     -57.7709121
9.008                0.961073091     -57.8552102
9.009                0.960970652       -57.93971
9.01                 0.960867617     -58.0244121
9.011                0.960763982     -58.1093171
9.012                0.960659747     -58.1944256
9.013                0.960554909     -58.2797383
9.014                0.960449466     -58.3652558
9.015                0.960343415     -58.4509787
9.016                0.960236756     -58.5369078
9.017                0.960129485     -58.6230435
9.018                0.960021601     -58.7093866
9.019                0.959913101     -58.7959377
9.02                 0.959803985     -58.8826974
9.021                0.959694248     -58.9696665
9.022                 0.95958389     -59.0568455
9.023                0.959472908     -59.1442351
9.024                  0.9593613      -59.231836
9.025                0.959249065     -59.3196488
9.026                0.959136199     -59.4076741
9.027                0.959022702     -59.4959128
9.028                 0.95890857     -59.5843653
9.029                0.958793801     -59.6730325
9.03                 0.958678395     -59.7619149
9.031                0.958562348     -59.8510132
9.032                0.958445658     -59.9403281
9.033                0.958328324     -60.0298604
9.034                0.958210342     -60.1196106
9.035                0.958091712     -60.2095795
9.036                0.957972431     -60.2997677
9.037                0.957852496     -60.3901759
9.038                0.957731906     -60.4808049
9.039                0.957610659     -60.5716553
9.04                 0.957488752     -60.6627279
9.041                0.957366184     -60.7540232
9.042                0.957242952     -60.8455421
9.043                0.957119053     -60.9372852
9.044                0.956994487     -61.0292533
9.045                0.956869251      -61.121447
9.046                0.956743342     -61.2138671
9.047                0.956616759     -61.3065143
9.048                0.956489499     -61.3993893
9.049                 0.95636156     -61.4924928
9.05                  0.95623294     -61.5858255
9.051                0.956103638     -61.6793883
9.052                 0.95597365     -61.7731817
9.053                0.955842975     -61.8672066
9.054                 0.95571161     -61.9614637
9.055                0.955579554     -62.0559537
9.056                0.955446804     -62.1506773
9.057                0.955313358     -62.2456354
9.058                0.955179214     -62.3408286
9.059                 0.95504437     -62.4362577
9.06                 0.954908824     -62.5319235
9.061                0.954772572     -62.6278266
9.062                0.954635615      -62.723968
9.063                0.954497948     -62.8203483
9.064                 0.95435957     -62.9169682
9.065                0.954220479     -63.0138287
9.066                0.954080673     -63.1109303
9.067                 0.95394015      -63.208274
9.068                0.953798906     -63.3058605
9.069                0.953656941     -63.4036905
9.07                 0.953514252     -63.5017649
9.071                0.953370837     -63.6000844
9.072                0.953226693     -63.6986498
9.073                0.953081819     -63.7974619
9.074                0.952936212     -63.8965215
9.075                0.952789871     -63.9958295
9.076                0.952642792     -64.0953865
9.077                0.952494975     -64.1951934
9.078                0.952346416      -64.295251
9.079                0.952197113     -64.3955602
9.08                 0.952047065     -64.4961216
9.081                0.951896269     -64.5969362
9.082                0.951744723     -64.6980048
9.083                0.951592425     -64.7993281
9.084                0.951439373     -64.9009071
9.085                0.951285564     -65.0027425
9.086                0.951130997     -65.1048351
9.087                0.950975669     -65.2071859
9.088                0.950819577     -65.3097956
9.089                0.950662721      -65.412665
9.09                 0.950505097     -65.5157951
9.091                0.950346704     -65.6191866
9.092                0.950187539     -65.7228405
9.093                0.950027601     -65.8267575
9.094                0.949866886     -65.9309385
9.095                0.949705394     -66.0353844
9.096                0.949543121      -66.140096
9.097                0.949380065     -66.2450743
9.098                0.949216225       -66.35032
9.099                0.949051598     -66.4558341
9.1                  0.948886183     -66.5616173
9.101                0.948719976     -66.6676707
9.102                0.948552976     -66.7739951
9.103                0.948385181     -66.8805913
9.104                0.948216588     -66.9874603
9.105                0.948047195     -67.0946029
9.106                0.947877001       -67.20202
9.107                0.947706002     -67.3097126
9.108                0.947534198     -67.4176815
9.109                0.947361585     -67.5259276
9.11                 0.947188162     -67.6344519
9.111                0.947013926     -67.7432553
9.112                0.946838876     -67.8523386
9.113                0.946663009     -67.9617028
9.114                0.946486323     -68.0713488
9.115                0.946308816     -68.1812776
9.116                0.946130485       -68.29149
9.117                 0.94595133      -68.401987
9.118                0.945771347     -68.5127695
9.119                0.945590534     -68.6238385
9.12                  0.94540889     -68.7351949
9.121                0.945226412     -68.8468397
9.122                0.945043098     -68.9587737
9.123                0.944858946      -69.070998
9.124                0.944673954     -69.1835135
9.125                 0.94448812     -69.2963212
9.126                0.944301442      -69.409422
9.127                0.944113917     -69.5228169
9.128                0.943925544     -69.6365068
9.129                 0.94373632     -69.7504928
9.13                 0.943546244     -69.8647757
9.131                0.943355313     -69.9793567
9.132                0.943163525     -70.0942366
9.133                0.942970879     -70.2094165
9.134                0.942777371     -70.3248973
9.135                0.942583001     -70.4406801
9.136                0.942387766     -70.5567658
9.137                0.942191663     -70.6731554
9.138                0.941994692     -70.7898499
9.139                0.941796849     -70.9068504
9.14                 0.941598134     -71.0241579
9.141                0.941398543     -71.1417733
9.142                0.941198075     -71.2596977
9.143                0.940996728     -71.3779321
9.144                  0.9407945     -71.4964776
9.145                0.940591388     -71.6153351
9.146                0.940387392     -71.7345057
9.147                0.940182508     -71.8539904
9.148                0.939976735     -71.9737903
9.149                0.939770071     -72.0939064
9.15                 0.939562513     -72.2143398
9.151                0.939354061     -72.3350915
9.152                0.939144712     -72.4561625
9.153                0.938934463      -72.577554
9.154                0.938723314     -72.6992669
9.155                0.938511262     -72.8213024
9.156                0.938298305     -72.9436614
9.157                0.938084442     -73.0663452
9.158                 0.93786967     -73.1893547
9.159                0.937653987     -73.3126911
9.16                 0.937437392     -73.4363553
9.161                0.937219883     -73.5603486
9.162                0.937001458     -73.6846719
9.163                0.936782114     -73.8093265
9.164                0.936561851     -73.9343133
9.165                0.936340666     -74.0596335
9.166                0.936118558     -74.1852882
9.167                0.935895524     -74.3112785
9.168                0.935671563     -74.4376055
9.169                0.935446673     -74.5642703
9.17                 0.935220852     -74.6912741
9.171                0.934994099     -74.8186179
9.172                0.934766411     -74.9463029
9.173                0.934537787     -75.0743303
9.174                0.934308225      -75.202701
9.175                0.934077724     -75.3314164
9.176                0.933846281     -75.4604775
9.177                0.933613895     -75.5898855
9.178                0.933380565     -75.7196414
9.179                0.933146287     -75.8497466
9.18                 0.932911062     -75.9802021
9.181                0.932674887      -76.111009
9.182                 0.93243776     -76.2421686
9.183                0.932199681      -76.373682
9.184                0.931960646     -76.5055504
9.185                0.931720655      -76.637775
9.186                0.931479706     -76.7703568
9.187                0.931237798     -76.9032972
9.188                0.930994928     -77.0365973
9.189                0.930751095     -77.1702582
9.19                 0.930506299     -77.3042813
9.191                0.930260536     -77.4386676
9.192                0.930013806     -77.5734183
9.193                0.929766107     -77.7085347
9.194                0.929517438      -77.844018
9.195                0.929267797     -77.9798694
9.196                0.929017183       -78.11609
9.197                0.928765594     -78.2526812
9.198                 0.92851303     -78.3896441
9.199                0.928259487     -78.5269799
9.2                  0.928004966     -78.6646899
9.201                0.927749464     -78.8027753
9.202                0.927492981     -78.9412374
9.203                0.927235515     -79.0800773
9.204                0.926977064     -79.2192964
9.205                0.926717628     -79.3588957
9.206                0.926457205     -79.4988767
9.207                0.926195795     -79.6392406
9.208                0.925933394     -79.7799886
9.209                0.925670003     -79.9211219
9.21                 0.925405621     -80.0626419
9.211                0.925140245     -80.2045497
9.212                0.924873876     -80.3468467
9.213                0.924606511     -80.4895341
9.214                 0.92433815     -80.6326133
9.215                0.924068791     -80.7760854
9.216                0.923798434     -80.9199518
9.217                0.923527077     -81.0642137
9.218                 0.92325472     -81.2088725
9.219                0.922981362     -81.3539294
9.22                    0.922707     -81.4993857
9.221                0.922431635     -81.6452427
9.222                0.922155266     -81.7915018
9.223                0.921877892     -81.9381642
9.224                0.921599511     -82.0852312
9.225                0.921320123     -82.2327041
9.226                0.921039728     -82.3805843
9.227                0.920758323      -82.528873
9.228                 0.92047591     -82.6775717
9.229                0.920192486     -82.8266815
9.23                 0.919908051     -82.9762039
9.231                0.919622604     -83.1261402
9.232                0.919336146     -83.2764916
9.233                0.919048674     -83.4272596
9.234                0.918760189     -83.5784454
9.235                0.918470689     -83.7300505
9.236                0.918180175     -83.8820761
9.237                0.917888646     -84.0345235
9.238                0.917596101     -84.1873943
9.239                0.917302541     -84.3406896
9.24                 0.917007963     -84.4944109
9.241                0.916712369     -84.6485595
9.242                0.916415757     -84.8031368
9.243                0.916118128     -84.9581441
9.244                0.915819481     -85.1135828
9.245                0.915519815     -85.2694543
9.246                0.915219132     -85.4257599
9.247                0.914917429      -85.582501
9.248                0.914614708      -85.739679
9.249                0.914310968     -85.8972953
9.25                 0.914006209     -86.0553512
9.251                0.913700431     -86.2138482
9.252                0.913393634     -86.3727876
9.253                0.913085819     -86.5321708
9.254                0.912776984     -86.6919991
9.255                 0.91246713     -86.8522741
9.256                0.912156257      -87.012997
9.257                0.911844367     -87.1741694
9.258                0.911531457     -87.3357925
9.259                 0.91121753     -87.4978678
9.26                 0.910902585     -87.6603967
9.261                0.910586622     -87.8233806
9.262                0.910269643     -87.9868208
9.263                0.909951647     -88.1507189
9.264                0.909632635     -88.3150762
9.265                0.909312607     -88.4798942
9.266                0.908991564     -88.6451742
9.267                0.908669506     -88.8109176
9.268                0.908346435      -88.977126
9.269                0.908022351     -89.1438006
9.27                 0.907697254      -89.310943
9.271                0.907371146     -89.4785545
9.272                0.907044026     -89.6466367
9.273                0.906715897     -89.8151908
9.274                0.906386759     -89.9842183
9.275                0.906056613     -90.1537208
9.276                 0.90572546     -90.3236995
9.277                0.905393301     -90.4941559
9.278                0.905060137     -90.6650915
9.279                0.904725969     -90.8365077
9.28                 0.904390799     -91.0084059
9.281                0.904054628     -91.1807876
9.282                0.903717458     -91.3536542
9.283                0.903379289     -91.5270071
9.284                0.903040122     -91.7008478
9.285                0.902699961     -91.8751777
9.286                0.902358805     -92.0499983
9.287                0.902016658     -92.2253109
9.288                0.901673519     -92.4011172
9.289                0.901329392     -92.5774184
9.29                 0.900984277      -92.754216
9.291                0.900638178     -92.9315115
9.292                0.900291095     -93.1093063
9.293                 0.89994303     -93.2876018
9.294                0.899593986     -93.4663995
9.295                0.899243965     -93.6457009
9.296                0.898892968     -93.8255074
9.297                0.898540999     -94.0058204
9.298                0.898188059     -94.1866413
9.299                 0.89783415     -94.3679717
9.3                  0.897479275     -94.5498129
9.301                0.897123437     -94.7321664
9.302                0.896766638     -94.9150336
9.303                0.896408881      -95.098416
9.304                0.896050168     -95.2823151
9.305                0.895690501     -95.4667321
9.306                0.895329885     -95.6516687
9.307                0.894968321     -95.8371262
9.308                0.894605813      -96.023106
9.309                0.894242363     -96.2096097
9.31                 0.893877975     -96.3966385
9.311                0.893512652      -96.584194
9.312                0.893146397     -96.7722777
9.313                0.892779213     -96.9608908
9.314                0.892411104     -97.1500349
9.315                0.892042074     -97.3397113
9.316                0.891672125     -97.5299215
9.317                0.891301261      -97.720667
9.318                0.890929486     -97.9119491
9.319                0.890556804     -98.1037692
9.32                 0.890183219     -98.2961288
9.321                0.889808734     -98.4890292
9.322                0.889433354      -98.682472
9.323                0.889057082     -98.8764584
9.324                0.888679923       -99.07099
9.325                0.888301881      -99.266068
9.326                 0.88792296     -99.4616939
9.327                0.887543165     -99.6578691
9.328                  0.8871625      -99.854595
9.329                 0.88678097     -100.051873
9.33                 0.886398579     -100.249704
9.331                0.886015333     -100.448091
9.332                0.885631235     -100.647033
9.333                0.885246292     -100.846533
9.334                0.884860508     -101.046592
9.335                0.884473887     -101.247211
9.336                0.884086436     -101.448392
9.337                 0.88369816     -101.650136
9.338                0.883309063     -101.852445
9.339                0.882919152     -102.055319
9.34                 0.882528432      -102.25876
9.341                0.882136909     -102.462769
9.342                0.881744588     -102.667349
9.343                0.881351475     -102.872499
9.344                0.880957577     -103.078222
9.345                0.880562899     -103.284518
9.346                0.880167447      -103.49139
9.347                0.879771228     -103.698838
9.348                0.879374248     -103.906863
9.349                0.878976513     -104.115467
9.35                 0.878578031     -104.324652
9.351                0.878178807     -104.534418
9.352                0.877778848     -104.744767
9.353                0.877378162     -104.955699
9.354                0.876976755     -105.167217
9.355                0.876574634     -105.379322
9.356                0.876171807     -105.592014
9.357                0.875768281     -105.805295
9.358                0.875364062     -106.019166
9.359                0.874959159     -106.233629
9.36                  0.87455358     -106.448685
9.361                0.874147331     -106.664334
9.362                0.873740421     -106.880579
9.363                0.873332858     -107.097419
9.364                0.872924649     -107.314857
9.365                0.872515804     -107.532894
9.366                0.872106329      -107.75153
9.367                0.871696234     -107.970767
9.368                0.871285527     -108.190606
9.369                0.870874217     -108.411049
9.37                 0.870462311     -108.632095
9.371                 0.87004982     -108.853747
9.372                0.869636752     -109.076006
9.373                0.869223117     -109.298872
9.374                0.868808922     -109.522347
9.375                0.868394179     -109.746431
9.376                0.867978895     -109.971127
9.377                0.867563081     -110.196434
9.378                0.867146746     -110.422353
9.379                0.866729901     -110.648887
9.38                 0.866312554     -110.876036
9.381                0.865894717     -111.103801
9.382                0.865476398     -111.332182
9.383                0.865057609     -111.561181
9.384                 0.86463836     -111.790799
9.385                0.864218662     -112.021037
9.386                0.863798524     -112.251896
9.387                0.863377958     -112.483376
9.388                0.862956975     -112.715478
9.389                0.862535586     -112.948204
9.39                 0.862113801     -113.181554
9.391                0.861691633      -113.41553
9.392                0.861269092     -113.650131
9.393                 0.86084619     -113.885359
9.394                0.860422939     -114.121215
9.395                0.859999351     -114.357699
9.396                0.859575437     -114.594813
