! TOUCHSTONE file generated by CST DESIGN STUDIO
! Date and time: Tue Feb  4 17:57:26 2025
! Project name: C:\Work\MatlabApps\UnitCellOptimizationMatlab\CST\unitcell.cst
! Tree item: Tasks\Sweep1\SPara1\S-Parameters
! Header version: 2024
! Port assignment regex: !\s*Touchstone port\s*([0-9]+)\s*=\s*(CST MWS port|CST DES external port|CST DES block port)\s*(.+)\s* \(\"(.*)\"\)(\s*mode\s*([0-9]+))?.*
! Touchstone port assignment:
! Touchstone port 1 = CST DES external port 1 ("")
# GHz S MA R 50
9                    0.929587148     -81.1649632
9.001                0.929406311     -81.3155027
9.002                0.929224345     -81.4665012
9.003                0.929041247     -81.6179601
9.004                0.928857011      -81.769881
9.005                0.928671634     -81.9222654
9.006                0.928485111     -82.0751147
9.007                0.928297438     -82.2284305
9.008                0.928108611     -82.3822143
9.009                0.927918624     -82.5364677
9.01                 0.927727475      -82.691192
9.011                0.927535158      -82.846389
9.012                 0.92734167       -83.00206
9.013                0.927147006     -83.1582066
9.014                0.926951161     -83.3148304
9.015                0.926754133     -83.4719329
9.016                0.926555916     -83.6295155
9.017                0.926356506     -83.7875799
9.018                0.926155899     -83.9461276
9.019                0.925954091     -84.1051601
9.02                 0.925751078      -84.264679
9.021                0.925546856     -84.4246858
9.022                 0.92534142     -84.5851821
9.023                0.925134767     -84.7461695
9.024                0.924926892     -84.9076494
9.025                0.924717792     -85.0696234
9.026                0.924507463     -85.2320932
9.027                  0.9242959     -85.3950601
9.028                  0.9240831      -85.558526
9.029                0.923869058     -85.7224922
9.03                 0.923653771     -85.8869603
9.031                0.923437235      -86.051932
9.032                0.923219447     -86.2174087
9.033                0.923000401     -86.3833922
9.034                0.922780095     -86.5498838
9.035                0.922558524     -86.7168853
9.036                0.922335686     -86.8843982
9.037                0.922111576      -87.052424
9.038                 0.92188619     -87.2209644
9.039                0.921659525     -87.3900209
9.04                 0.921431578     -87.5595951
9.041                0.921202344     -87.7296887
9.042                0.920971821     -87.9003031
9.043                0.920740004       -88.07144
9.044                 0.92050689     -88.2431009
9.045                0.920272477     -88.4152875
9.046                0.920036759     -88.5880013
9.047                0.919799735      -88.761244
9.048                0.919561401     -88.9350171
9.049                0.919321752     -89.1093222
9.05                 0.919080787     -89.2841609
9.051                0.918838502     -89.4595347
9.052                0.918594894     -89.6354454
9.053                 0.91834996     -89.8118945
9.054                0.918103696     -89.9888836
9.055                0.917856099     -90.1664142
9.056                0.917607167      -90.344488
9.057                0.917356897     -90.5231066
9.058                0.917105286     -90.7022715
9.059                 0.91685233     -90.8819844
9.06                 0.916598028     -91.0622469
9.061                0.916342376     -91.2430605
9.062                0.916085371     -91.4244268
9.063                0.915827011     -91.6063475
9.064                0.915567294     -91.7888242
9.065                0.915306216     -91.9718583
9.066                0.915043776     -92.1554516
9.067                0.914779971     -92.3396056
9.068                0.914514798     -92.5243219
9.069                0.914248255      -92.709602
9.07                 0.913980341     -92.8954477
9.071                0.913711051     -93.0818605
9.072                0.913440386     -93.2688419
9.073                0.913168341     -93.4563935
9.074                0.912894916      -93.644517
9.075                0.912620109     -93.8332139
9.076                0.912343917     -94.0224857
9.077                0.912066338     -94.2123342
9.078                0.911787372     -94.4027608
9.079                0.911507015     -94.5937671
9.08                 0.911225268     -94.7853547
9.081                0.910942127     -94.9775252
9.082                0.910657591     -95.1702801
9.083                0.910371659      -95.363621
9.084                 0.91008433     -95.5575495
9.085                0.909795603     -95.7520671
9.086                0.909505475     -95.9471753
9.087                0.909213946     -96.1428759
9.088                0.908921016     -96.3391702
9.089                0.908626682     -96.5360598
9.09                 0.908330944     -96.7335463
9.091                0.908033801     -96.9316313
9.092                0.907735253     -97.1303162
9.093                0.907435298     -97.3296026
9.094                0.907133937      -97.529492
9.095                0.906831168      -97.729986
9.096                0.906526991      -97.931086
9.097                0.906221407     -98.1327937
9.098                0.905914413     -98.3351104
9.099                0.905606012     -98.5380378
9.1                  0.905296201     -98.7415773
9.101                0.904984983     -98.9457304
9.102                0.904672355     -99.1504986
9.103                 0.90435832     -99.3558834
9.104                0.904042876     -99.5618863
9.105                0.903726025     -99.7685088
9.106                0.903407767     -99.9757523
9.107                0.903088103     -100.183618
9.108                0.902767033     -100.392108
9.109                0.902444557     -100.601224
9.11                 0.902120678     -100.810966
9.111                0.901795396     -101.021336
9.112                0.901468712     -101.232337
9.113                0.901140627     -101.443968
9.114                0.900811142     -101.656232
9.115                 0.90048026      -101.86913
9.116                0.900147981     -102.082664
9.117                0.899814308     -102.296834
9.118                0.899479241     -102.511642
9.119                0.899142783      -102.72709
9.12                 0.898804936     -102.943179
9.121                0.898465702     -103.159911
9.122                0.898125084     -103.377285
9.123                0.897783082     -103.595306
9.124                0.897439701     -103.813972
9.125                0.897094943     -104.033286
9.126                0.896748809     -104.253249
9.127                0.896401304     -104.473863
9.128                 0.89605243     -104.695128
9.129                 0.89570219     -104.917046
9.13                 0.895350587     -105.139618
9.131                0.894997625     -105.362846
9.132                0.894643307      -105.58673
9.133                0.894287637     -105.811273
9.134                0.893930619     -106.036475
9.135                0.893572256     -106.262337
9.136                0.893212553     -106.488861
9.137                0.892851513     -106.716048
9.138                0.892489141     -106.943899
9.139                0.892125441     -107.172415
9.14                 0.891760418     -107.401597
9.141                0.891394077     -107.631448
9.142                0.891026422     -107.861967
9.143                0.890657458     -108.093156
9.144                0.890287191     -108.325016
9.145                0.889915626     -108.557548
9.146                0.889542769     -108.790753
9.147                0.889168624     -109.024633
9.148                0.888793198     -109.259188
9.149                0.888416496     -109.494419
9.15                 0.888038525     -109.730328
9.151                0.887659291     -109.966915
9.152                  0.8872788     -110.204182
9.153                0.886897059     -110.442129
9.154                0.886514074     -110.680758
9.155                0.886129853     -110.920069
9.156                0.885744402     -111.160064
9.157                0.885357728     -111.400742
9.158                0.884969839     -111.642106
9.159                0.884580742     -111.884156
9.16                 0.884190445     -112.126893
9.161                0.883798956     -112.370318
9.162                0.883406282     -112.614431
9.163                0.883012433     -112.859234
9.164                0.882617415     -113.104727
9.165                0.882221239     -113.350912
9.166                0.881823912     -113.597788
9.167                0.881425443     -113.845356
9.168                0.881025842     -114.093618
9.169                0.880625117     -114.342574
9.17                 0.880223278     -114.592225
9.171                0.879820335     -114.842571
9.172                0.879416298     -115.093613
9.173                0.879011175     -115.345352
9.174                0.878604978     -115.597788
9.175                0.878197716     -115.850922
9.176                0.877789401     -116.104754
9.177                0.877380042     -116.359286
9.178                0.876969651     -116.614517
9.179                0.876558239     -116.870447
9.18                 0.876145816     -117.127079
9.181                0.875732395     -117.384411
9.182                0.875317987     -117.642444
9.183                0.874902604      -117.90118
9.184                0.874486257     -118.160617
9.185                0.874068959     -118.420757
9.186                0.873650723       -118.6816
9.187                 0.87323156     -118.943145
9.188                0.872811484     -119.205395
9.189                0.872390507     -119.468348
9.19                 0.871968643     -119.732004
9.191                0.871545905     -119.996365
9.192                0.871122306      -120.26143
9.193                0.870697861       -120.5272
9.194                0.870272583     -120.793674
9.195                0.869846486     -121.060853
9.196                0.869419585     -121.328736
9.197                0.868991893     -121.597325
9.198                0.868563427     -121.866618
9.199                  0.8681342     -122.136615
9.2                  0.867704229     -122.407318
9.201                0.867273527     -122.678725
9.202                0.866842111     -122.950837
9.203                0.866409997     -123.223653
9.204                0.865977199     -123.497173
9.205                0.865543736     -123.771397
9.206                0.865109622     -124.046325
9.207                0.864674874     -124.321957
9.208                0.864239509     -124.598292
9.209                0.863803544      -124.87533
9.21                 0.863366996      -125.15307
9.211                0.862929882     -125.431513
9.212                 0.86249222     -125.710657
9.213                0.862054028     -125.990503
9.214                0.861615323      -126.27105
9.215                0.861176124     -126.552297
9.216                0.860736448     -126.834244
9.217                0.860296315      -127.11689
9.218                0.859855743     -127.400234
9.219                 0.85941475     -127.684276
9.22                 0.858973357     -127.969016
9.221                0.858531582     -128.254452
9.222                0.858089446     -128.540584
9.223                0.857646966     -128.827411
9.224                0.857204164     -129.114931
9.225                 0.85676106     -129.403145
9.226                0.856317673     -129.692052
9.227                0.855874025     -129.981649
9.228                0.855430135     -130.271937
9.229                0.854986025     -130.562915
9.23                 0.854541716      -130.85458
9.231                0.854097229     -131.146933
9.232                0.853652585     -131.439972
9.233                0.853207807     -131.733696
9.234                0.852762914     -132.028103
9.235                0.852317931     -132.323193
9.236                0.851872879     -132.618963
9.237                0.851427779     -132.915414
9.238                0.850982656     -133.212542
9.239                 0.85053753     -133.510348
9.24                 0.850092426     -133.808829
9.241                0.849647366     -134.107984
9.242                0.849202374     -134.407812
9.243                0.848757472      -134.70831
9.244                0.848312685     -135.009477
9.245                0.847868036     -135.311312
9.246                0.847423549     -135.613813
9.247                0.846979247     -135.916978
9.248                0.846535156     -136.220804
9.249                  0.8460913     -136.525292
9.25                 0.845647702     -136.830437
9.251                0.845204388     -137.136239
9.252                0.844761383     -137.442696
9.253                0.844318711     -137.749805
9.254                0.843876398     -138.057565
9.255                0.843434469     -138.365973
9.256                0.842992949     -138.675027
9.257                0.842551864     -138.984725
9.258                 0.84211124     -139.295065
9.259                0.841671102     -139.606044
9.26                 0.841231476     -139.917661
9.261                0.840792389     -140.229912
9.262                0.840353866     -140.542795
9.263                0.839915935     -140.856308
9.264                0.839478621     -141.170448
9.265                0.839041951     -141.485212
9.266                0.838605951     -141.800599
9.267                 0.83817065     -142.116605
9.268                0.837736072     -142.433227
9.269                0.837302246     -142.750464
9.27                 0.836869199     -143.068311
9.271                0.836436958     -143.386767
9.272                 0.83600555     -143.705828
9.273                0.835575002     -144.025491
9.274                0.835145343     -144.345753
9.275                0.834716599     -144.666611
9.276                0.834288798     -144.988063
9.277                0.833861969     -145.310104
9.278                0.833436138     -145.632733
9.279                0.833011334     -145.955944
9.28                 0.832587585     -146.279736
9.281                0.832164918     -146.604105
9.282                0.831743362     -146.929047
9.283                0.831322946     -147.254559
9.284                0.830903696     -147.580637
9.285                0.830485642     -147.907279
9.286                0.830068811      -148.23448
9.287                0.829653232     -148.562236
9.288                0.829238933     -148.890545
9.289                0.828825943     -149.219401
9.29                  0.82841429     -149.548802
9.291                0.828004002     -149.878744
9.292                0.827595108     -150.209223
9.293                0.827187636     -150.540234
9.294                0.826781615     -150.871774
9.295                0.826377073     -151.203839
9.296                0.825974039     -151.536424
9.297                 0.82557254     -151.869526
9.298                0.825172606     -152.203141
9.299                0.824774265     -152.537263
9.3                  0.824377546     -152.871889
9.301                0.823982475     -153.207015
9.302                0.823589083     -153.542636
9.303                0.823197397     -153.878748
9.304                0.822807446     -154.215346
9.305                0.822419257     -154.552425
9.306                0.822032859     -154.889982
9.307                0.821648281     -155.228011
9.308                0.821265549     -155.566509
9.309                0.820884692     -155.905469
9.31                 0.820505739     -156.244888
9.311                0.820128716      -156.58476
9.312                0.819753652     -156.925081
9.313                0.819380574     -157.265846
9.314                 0.81900951      -157.60705
9.315                0.818640487     -157.948688
9.316                0.818273533     -158.290755
9.317                0.817908675     -158.633245
9.318                 0.81754594     -158.976155
9.319                0.817185356     -159.319478
9.32                 0.816826949     -159.663209
9.321                0.816470746     -160.007343
9.322                0.816116774     -160.351876
9.323                 0.81576506       -160.6968
9.324                0.815415629     -161.042112
9.325                0.815068508     -161.387806
9.326                0.814723724     -161.733875
9.327                0.814381302     -162.080316
9.328                0.814041268     -162.427121
9.329                0.813703647     -162.774286
9.33                 0.813368466     -163.121805
9.331                0.813035749     -163.469673
9.332                0.812705522     -163.817883
9.333                0.812377809      -164.16643
9.334                0.812052636     -164.515308
9.335                0.811730026     -164.864511
9.336                0.811410005     -165.214033
9.337                0.811092597     -165.563869
9.338                0.810777824     -165.914013
9.339                0.810465712     -166.264458
9.34                 0.810156284     -166.615199
9.341                0.809849562     -166.966229
9.342                 0.80954557     -167.317543
9.343                0.809244332     -167.669134
9.344                0.808945868     -168.020997
9.345                0.808650203     -168.373125
9.346                0.808357358     -168.725511
9.347                0.808067354     -169.078151
9.348                0.807780214     -169.431036
9.349                0.807495959     -169.784162
9.35                 0.807214609     -170.137522
9.351                0.806936187     -170.491109
9.352                0.806660711     -170.844917
9.353                0.806388204      -171.19894
9.354                0.806118683     -171.553172
9.355                0.805852171     -171.907605
9.356                0.805588684     -172.262233
9.357                0.805328244      -172.61705
9.358                0.805070869      -172.97205
9.359                0.804816577     -173.327225
9.36                 0.804565386      -173.68257
9.361                0.804317315     -174.038077
9.362                0.804072381      -174.39374
9.363                0.803830601     -174.749552
9.364                0.803591993     -175.105508
9.365                0.803356573     -175.461599
9.366                0.803124358     -175.817819
9.367                0.802895363     -176.174162
9.368                0.802669605     -176.530621
9.369                0.802447098      -176.88719
9.37                 0.802227858      -177.24386
9.371                0.802011899     -177.600627
9.372                0.801799236     -177.957482
9.373                0.801589883     -178.314419
9.374                0.801383853     -178.671431
9.375                 0.80118116     -179.028512
9.376                0.800981817     -179.385655
9.377                0.800785837     -179.742852
9.378                0.800593231      179.899902
9.379                0.800404012      179.542616
9.38                 0.800218191      179.185295
9.381                 0.80003578      178.827947
9.382                0.799856789      178.470579
9.383                0.799681229      178.113197
9.384                0.799509109      177.755808
9.385                0.799340441      177.398419
9.386                0.799175232      177.041037
9.387                0.799013493      176.683669
9.388                0.798855231      176.326321
9.389                0.798700455      175.969002
9.39                 0.798549173      175.611717
9.391                0.798401392      175.254473
9.392                 0.79825712      174.897277
9.393                0.798116363      174.540137
9.394                0.797979127      174.183058
9.395                 0.79784542      173.826049
9.396                0.797715246      173.469115
