! TOUCHSTONE file generated by CST DESIGN STUDIO
! Date and time: Tue Feb  4 12:57:22 2025
! Project name: C:\Work\MatlabApps\UnitCellOptimizationMatlab\CST\unitcell.cst
! Tree item: Tasks\Sweep1\SPara1\S-Parameters
! Header version: 2024
! Port assignment regex: !\s*Touchstone port\s*([0-9]+)\s*=\s*(CST MWS port|CST DES external port|CST DES block port)\s*(.+)\s* \(\"(.*)\"\)(\s*mode\s*([0-9]+))?.*
! Touchstone port assignment:
! Touchstone port 1 = CST DES external port 1 ("")
# GHz S MA R 50
9                    0.967027283     -79.8757608
9.001                0.966959299     -80.0068935
9.002                0.966891018     -80.1383775
9.003                 0.96682244     -80.2702141
9.004                0.966753563     -80.4024043
9.005                0.966684387     -80.5349491
9.006                0.966614911     -80.6678497
9.007                0.966545133     -80.8011071
9.008                0.966475053     -80.9347224
9.009                 0.96640467     -81.0686966
9.01                 0.966333983      -81.203031
9.011                 0.96626299     -81.3377265
9.012                0.966191692     -81.4727842
9.013                0.966120086     -81.6082052
9.014                0.966048173     -81.7439907
9.015                 0.96597595     -81.8801417
9.016                0.965903418     -82.0166594
9.017                0.965830576     -82.1535447
9.018                0.965757421     -82.2907989
9.019                0.965683955      -82.428423
9.02                 0.965610175     -82.5664181
9.021                 0.96553608     -82.7047854
9.022                 0.96546167     -82.8435259
9.023                0.965386945     -82.9826407
9.024                0.965311902      -83.122131
9.025                0.965236541     -83.2619979
9.026                0.965160862     -83.4022424
9.027                0.965084862     -83.5428658
9.028                0.965008543     -83.6838691
9.029                0.964931902     -83.8252535
9.03                 0.964854939       -83.96702
9.031                0.964777652     -84.1091698
9.032                0.964700042      -84.251704
9.033                0.964622107     -84.3946238
9.034                0.964543846     -84.5379302
9.035                0.964465258     -84.6816244
9.036                0.964386344     -84.8257076
9.037                0.964307101     -84.9701808
9.038                0.964227529     -85.1150452
9.039                0.964147628      -85.260302
9.04                 0.964067395     -85.4059522
9.041                0.963986832      -85.551997
9.042                0.963905936     -85.6984375
9.043                0.963824707      -85.845275
9.044                0.963743145     -85.9925104
9.045                0.963661248      -86.140145
9.046                0.963579015     -86.2881799
9.047                0.963496447     -86.4366163
9.048                0.963413542     -86.5854553
9.049                0.963330299      -86.734698
9.05                 0.963246718     -86.8843456
9.051                0.963162798     -87.0343992
9.052                0.963078538       -87.18486
9.053                0.962993937     -87.3357291
9.054                0.962908996     -87.4870077
9.055                0.962823712      -87.638697
9.056                0.962738086      -87.790798
9.057                0.962652117      -87.943312
9.058                0.962565804     -88.0962401
9.059                0.962479146     -88.2495834
9.06                 0.962392143     -88.4033431
9.061                0.962304794     -88.5575204
9.062                0.962217098     -88.7121164
9.063                0.962129056     -88.8671323
9.064                0.962040665     -89.0225691
9.065                0.961951926     -89.1784282
9.066                0.961862838     -89.3347106
9.067                0.961773401     -89.4914174
9.068                0.961683613       -89.64855
9.069                0.961593475     -89.8061093
9.07                 0.961502985     -89.9640966
9.071                0.961412144      -90.122513
9.072                 0.96132095     -90.2813597
9.073                0.961229403     -90.4406378
9.074                0.961137503     -90.6003485
9.075                0.961045249      -90.760493
9.076                0.960952641     -90.9210724
9.077                0.960859678     -91.0820878
9.078                0.960766359     -91.2435404
9.079                0.960672685     -91.4054314
9.08                 0.960578654      -91.567762
9.081                0.960484267     -91.7305332
9.082                0.960389523     -91.8937462
9.083                0.960294421     -92.0574023
9.084                0.960198961     -92.2215025
9.085                0.960103143     -92.3860479
9.086                0.960006967     -92.5510398
9.087                0.959910431     -92.7164793
9.088                0.959813537     -92.8823676
9.089                0.959716282     -93.0487057
9.09                 0.959618668     -93.2154949
9.091                0.959520694     -93.3827362
9.092                0.959422359     -93.5504309
9.093                0.959323663       -93.71858
9.094                0.959224607     -93.8871848
9.095                0.959125189     -94.0562463
9.096                 0.95902541     -94.2257656
9.097                0.958925269     -94.3957441
9.098                0.958824767     -94.5661826
9.099                0.958723902     -94.7370825
9.1                  0.958622676     -94.9084448
9.101                0.958521087     -95.0802707
9.102                0.958419136     -95.2525612
9.103                0.958316822     -95.4253176
9.104                0.958214146     -95.5985409
9.105                0.958111107     -95.7722322
9.106                0.958007706     -95.9463928
9.107                0.957903942     -96.1210236
9.108                0.957799816     -96.2961259
9.109                0.957695326     -96.4717007
9.11                 0.957590474     -96.6477491
9.111                 0.95748526     -96.8242722
9.112                0.957379683     -97.0012712
9.113                0.957273744     -97.1787472
9.114                0.957167442     -97.3567012
9.115                0.957060778     -97.5351343
9.116                0.956953753     -97.7140477
9.117                0.956846365     -97.8934425
9.118                0.956738616     -98.0733196
9.119                0.956630505     -98.2536802
9.12                 0.956522033     -98.4345254
9.121                  0.9564132     -98.6158563
9.122                0.956304007     -98.7976739
9.123                0.956194453     -98.9799793
9.124                0.956084539     -99.1627735
9.125                0.955974265     -99.3460577
9.126                0.955863632     -99.5298328
9.127                 0.95575264        -99.7141
9.128                 0.95564129     -99.8988602
9.129                0.955529581     -100.084115
9.13                 0.955417515     -100.269864
9.131                0.955305091      -100.45611
9.132                0.955192312     -100.642853
9.133                0.955079176     -100.830094
9.134                0.954965684     -101.017835
9.135                0.954851837     -101.206075
9.136                0.954737637     -101.394818
9.137                0.954623082     -101.584062
9.138                0.954508175      -101.77381
9.139                0.954392915     -101.964062
9.14                 0.954277303     -102.154819
9.141                0.954161341     -102.346083
9.142                0.954045028     -102.537854
9.143                0.953928367     -102.730133
9.144                0.953811357     -102.922921
9.145                0.953693999      -103.11622
9.146                0.953576294      -103.31003
9.147                0.953458244     -103.504351
9.148                0.953339849     -103.699186
9.149                0.953221109     -103.894535
9.15                 0.953102027     -104.090398
9.151                0.952982604     -104.286778
9.152                0.952862839     -104.483674
9.153                0.952742735     -104.681087
9.154                0.952622292      -104.87902
9.155                0.952501511     -105.077471
9.156                0.952380394     -105.276443
9.157                0.952258943     -105.475936
9.158                0.952137157     -105.675952
9.159                0.952015039      -105.87649
9.16                  0.95189259     -106.077552
9.161                0.951769811     -106.279138
9.162                0.951646703      -106.48125
9.163                0.951523269     -106.683888
9.164                0.951399509     -106.887054
9.165                0.951275424     -107.090747
9.166                0.951151017     -107.294969
9.167                0.951026289     -107.499721
9.168                0.950901242     -107.705003
9.169                0.950775876     -107.910816
9.17                 0.950650194     -108.117161
9.171                0.950524198     -108.324038
9.172                0.950397889     -108.531449
9.173                0.950271269     -108.739394
9.174                 0.95014434     -108.947874
9.175                0.950017103      -109.15689
9.176                0.949889561     -109.366442
9.177                0.949761715      -109.57653
9.178                0.949633567     -109.787157
9.179                0.949505119     -109.998322
9.18                 0.949376374     -110.210025
9.181                0.949247333     -110.422269
9.182                0.949117999     -110.635053
9.183                0.948988373     -110.848377
9.184                0.948858458     -111.062244
9.185                0.948728256     -111.276652
9.186                0.948597769     -111.491604
9.187                   0.948467     -111.707099
9.188                 0.94833595     -111.923137
9.189                0.948204623     -112.139721
9.19                  0.94807302     -112.356849
9.191                0.947941144     -112.574523
9.192                0.947808998     -112.792743
9.193                0.947676584      -113.01151
9.194                0.947543905     -113.230824
9.195                0.947410963     -113.450685
9.196                0.947277761     -113.671095
9.197                0.947144302     -113.892053
9.198                0.947010588     -114.113561
9.199                0.946876622     -114.335618
9.2                  0.946742407     -114.558225
9.201                0.946607947     -114.781382
9.202                0.946473243     -115.005089
9.203                0.946338298     -115.229348
9.204                0.946203117     -115.454159
9.205                0.946067702     -115.679521
9.206                0.945932055     -115.905435
9.207                0.945796181     -116.131902
9.208                0.945660081     -116.358921
9.209                0.945523761     -116.586493
9.21                 0.945387222     -116.814619
9.211                0.945250468     -117.043298
9.212                0.945113503     -117.272532
9.213                0.944976329     -117.502319
9.214                0.944838951      -117.73266
9.215                0.944701371     -117.963556
9.216                0.944563594     -118.195006
9.217                0.944425623     -118.427012
9.218                0.944287462     -118.659572
9.219                0.944149113     -118.892687
9.22                 0.944010582     -119.126357
9.221                0.943871872     -119.360582
9.222                0.943732986     -119.595363
9.223                0.943593928     -119.830699
9.224                0.943454703     -120.066591
9.225                0.943315315     -120.303038
9.226                0.943175766      -120.54004
9.227                0.943036062     -120.777598
9.228                0.942896207     -121.015711
9.229                0.942756204     -121.254379
9.23                 0.942616059     -121.493602
9.231                0.942475774     -121.733381
9.232                0.942335355     -121.973715
9.233                0.942194806     -122.214603
9.234                 0.94205413     -122.456046
9.235                0.941913334     -122.698044
9.236                 0.94177242     -122.940596
9.237                0.941631395     -123.183702
9.238                0.941490261     -123.427362
9.239                0.941349024     -123.671576
9.24                 0.941207689     -123.916343
9.241                 0.94106626     -124.161663
9.242                0.940924742     -124.407536
9.243                 0.94078314     -124.653962
9.244                0.940641459     -124.900939
9.245                0.940499703     -125.148468
9.246                0.940357879     -125.396548
9.247                0.940215989     -125.645179
9.248                0.940074041      -125.89436
9.249                0.939932038     -126.144092
9.25                 0.939789986     -126.394372
9.251                 0.93964789     -126.645202
9.252                0.939505756      -126.89658
9.253                0.939363589     -127.148506
9.254                0.939221393     -127.400978
9.255                0.939079175     -127.653998
9.256                 0.93893694     -127.907563
9.257                0.938794694     -128.161674
9.258                0.938652441     -128.416329
9.259                0.938510188     -128.671529
9.26                  0.93836794     -128.927271
9.261                0.938225702     -129.183556
9.262                0.938083481     -129.440382
9.263                0.937941283      -129.69775
9.264                0.937799112     -129.955657
9.265                0.937656976     -130.214103
9.266                0.937514879     -130.473088
9.267                0.937372828      -130.73261
9.268                0.937230829     -130.992669
9.269                0.937088888     -131.253263
9.27                  0.93694701     -131.514391
9.271                0.936805202     -131.776054
9.272                0.936663471     -132.038248
9.273                0.936521822     -132.300974
9.274                0.936380261      -132.56423
9.275                0.936238795     -132.828016
9.276                0.936097431      -133.09233
9.277                0.935956174      -133.35717
9.278                 0.93581503     -133.622536
9.279                0.935674008     -133.888427
9.28                 0.935533112     -134.154841
9.281                0.935392349     -134.421777
9.282                0.935251727     -134.689234
9.283                0.935111251      -134.95721
9.284                0.934970929     -135.225705
9.285                0.934830766     -135.494715
9.286                 0.93469077     -135.764241
9.287                0.934550947     -136.034281
9.288                0.934411305     -136.304833
9.289                0.934271849     -136.575896
9.29                 0.934132588     -136.847469
9.291                0.933993527     -137.119549
9.292                0.933854674     -137.392135
9.293                0.933716035     -137.665226
9.294                0.933577618      -137.93882
9.295                 0.93343943     -138.212915
9.296                0.933301478      -138.48751
9.297                0.933163768     -138.762602
9.298                0.933026309     -139.038191
9.299                0.932889107     -139.314274
9.3                  0.932752169      -139.59085
9.301                0.932615502     -139.867916
9.302                0.932479115     -140.145471
9.303                0.932343013     -140.423513
9.304                0.932207205      -140.70204
9.305                0.932071697      -140.98105
9.306                0.931936497     -141.260541
9.307                0.931801613     -141.540512
9.308                0.931667052     -141.820959
9.309                 0.93153282     -142.101881
9.31                 0.931398927     -142.383276
9.311                0.931265378     -142.665142
9.312                0.931132182     -142.947476
9.313                0.930999346     -143.230277
9.314                0.930866877     -143.513542
9.315                0.930734784     -143.797269
9.316                0.930603073     -144.081455
9.317                0.930471753     -144.366099
9.318                 0.93034083     -144.651198
9.319                0.930210313     -144.936749
9.32                 0.930080209      -145.22275
9.321                0.929950526       -145.5092
9.322                0.929821271     -145.796094
9.323                0.929692451     -146.083432
9.324                0.929564076     -146.371209
9.325                0.929436151     -146.659425
9.326                0.929308686     -146.948076
9.327                0.929181687     -147.237159
9.328                0.929055163     -147.526672
9.329                 0.92892912     -147.816613
9.33                 0.928803567     -148.106978
9.331                0.928678512     -148.397765
9.332                0.928553962     -148.688971
9.333                0.928429924     -148.980593
9.334                0.928306408     -149.272629
9.335                0.928183419     -149.565076
9.336                0.928060966      -149.85793
9.337                0.927939057      -150.15119
9.338                0.927817699     -150.444851
9.339                  0.9276969     -150.738911
9.34                 0.927576668     -151.033368
9.341                0.927457011     -151.328217
9.342                0.927337935     -151.623456
9.343                0.927219449     -151.919083
9.344                 0.92710156     -152.215093
9.345                0.926984277     -152.511483
9.346                0.926867606     -152.808251
9.347                0.926751555     -153.105394
9.348                0.926636132     -153.402908
9.349                0.926521344     -153.700789
9.35                 0.926407199     -153.999035
9.351                0.926293705     -154.297643
9.352                0.926180869     -154.596608
9.353                0.926068698     -154.895928
9.354                0.925957201     -155.195599
9.355                0.925846383     -155.495618
9.356                0.925736254     -155.795982
9.357                 0.92562682     -156.096686
9.358                0.925518088     -156.397728
9.359                0.925410067     -156.699104
9.36                 0.925302763      -157.00081
9.361                0.925196184     -157.302843
9.362                0.925090336     -157.605199
9.363                0.924985228     -157.907875
9.364                0.924880866     -158.210867
9.365                0.924777257     -158.514171
9.366                0.924674409     -158.817784
9.367                0.924572329     -159.121702
9.368                0.924471023     -159.425921
9.369                  0.9243705     -159.730437
9.37                 0.924270765     -160.035247
9.371                0.924171825     -160.340347
9.372                0.924073689     -160.645733
9.373                0.923976361     -160.951401
9.374                 0.92387985     -161.257347
9.375                0.923784162     -161.563567
9.376                0.923689304     -161.870058
9.377                0.923595281     -162.176815
9.378                0.923502102     -162.483835
9.379                0.923409772     -162.791113
9.38                 0.923318299     -163.098646
9.381                0.923227687     -163.406429
9.382                0.923137945     -163.714458
9.383                0.923049077      -164.02273
9.384                0.922961091      -164.33124
9.385                0.922873993     -164.639984
9.386                0.922787789     -164.948957
9.387                0.922702484     -165.258157
9.388                0.922618086     -165.567578
9.389                  0.9225346     -165.877217
9.39                 0.922452031     -166.187068
9.391                0.922370386     -166.497129
9.392                0.922289671     -166.807394
9.393                0.922209892      -167.11786
9.394                0.922131053     -167.428522
9.395                 0.92205316     -167.739375
9.396                 0.92197622     -168.050417
