! TOUCHSTONE file generated by CST DESIGN STUDIO
! Date and time: Tue Feb  4 12:57:32 2025
! Project name: C:\Work\MatlabApps\UnitCellOptimizationMatlab\CST\unitcell.cst
! Tree item: Tasks\Sweep1\SPara1\S-Parameters
! Header version: 2024
! Port assignment regex: !\s*Touchstone port\s*([0-9]+)\s*=\s*(CST MWS port|CST DES external port|CST DES block port)\s*(.+)\s* \(\"(.*)\"\)(\s*mode\s*([0-9]+))?.*
! Touchstone port assignment:
! Touchstone port 1 = CST DES external port 1 ("")
# GHz S MA R 50
9                    0.975575092     -59.8223088
9.001                0.975530477     -59.9066368
9.002                0.975485641     -59.9911627
9.003                0.975440585     -60.0758872
9.004                0.975395306     -60.1608109
9.005                0.975349805     -60.2459345
9.006                0.975304081     -60.3312585
9.007                0.975258133     -60.4167836
9.008                0.975211961     -60.5025104
9.009                0.975165564     -60.5884396
9.01                  0.97511894     -60.6745719
9.011                 0.97507209     -60.7609079
9.012                0.975025014     -60.8474482
9.013                0.974977709     -60.9341935
9.014                0.974930176     -61.0211445
9.015                0.974882413     -61.1083017
9.016                0.974834421      -61.195666
9.017                0.974786198     -61.2832378
9.018                0.974737744      -61.371018
9.019                0.974689058     -61.4590071
9.02                 0.974640139     -61.5472059
9.021                0.974590987      -61.635615
9.022                0.974541601      -61.724235
9.023                0.974491981     -61.8130668
9.024                0.974442125     -61.9021108
9.025                0.974392033     -61.9913679
9.026                0.974341704     -62.0808387
9.027                0.974291138     -62.1705239
9.028                0.974240333     -62.2604242
9.029                 0.97418929     -62.3505402
9.03                 0.974138007     -62.4408727
9.031                0.974086484     -62.5314224
9.032                0.974034719     -62.6221899
9.033                0.973982713      -62.713176
9.034                0.973930465     -62.8043814
9.035                0.973877973     -62.8958068
9.036                0.973825238     -62.9874528
9.037                0.973772258     -63.0793202
9.038                0.973719032     -63.1714098
9.039                0.973665561     -63.2637221
9.04                 0.973611843      -63.356258
9.041                0.973557877     -63.4490182
9.042                0.973503663     -63.5420034
9.043                  0.9734492     -63.6352142
9.044                0.973394488     -63.7286515
9.045                0.973339525      -63.822316
9.046                0.973284311     -63.9162084
9.047                0.973228845     -64.0103295
9.048                0.973173127     -64.1046799
9.049                0.973117155     -64.1992604
9.05                 0.973060929     -64.2940718
9.051                0.973004448     -64.3891149
9.052                0.972947712     -64.4843902
9.053                 0.97289072     -64.5798987
9.054                 0.97283347     -64.6756411
9.055                0.972775962     -64.7716181
9.056                0.972718197     -64.8678305
9.057                0.972660171      -64.964279
9.058                0.972601886     -65.0609644
9.059                 0.97254334     -65.1578875
9.06                 0.972484532     -65.2550491
9.061                0.972425462     -65.3524498
9.062                0.972366129     -65.4500906
9.063                0.972306532     -65.5479721
9.064                0.972246671     -65.6460952
9.065                0.972186544     -65.7444606
9.066                0.972126151     -65.8430691
9.067                0.972065491     -65.9419216
9.068                0.972004564     -66.0410187
9.069                0.971943368     -66.1403613
9.07                 0.971881903     -66.2399502
9.071                0.971820168     -66.3397862
9.072                0.971758162       -66.43987
9.073                0.971695885     -66.5402026
9.074                0.971633336     -66.6407846
9.075                0.971570513      -66.741617
9.076                0.971507417     -66.8427004
9.077                0.971444046     -66.9440358
9.078                  0.9713804      -67.045624
9.079                0.971316478     -67.1474657
9.08                 0.971252279     -67.2495618
9.081                0.971187802     -67.3519131
9.082                0.971123047     -67.4545204
9.083                0.971058012     -67.5573846
9.084                0.970992698     -67.6605066
9.085                0.970927103      -67.763887
9.086                0.970861226     -67.8675269
9.087                0.970795067     -67.9714269
9.088                0.970728624     -68.0755881
9.089                0.970661898     -68.1800111
9.09                 0.970594887     -68.2846969
9.091                 0.97052759     -68.3896463
9.092                0.970460007     -68.4948602
9.093                0.970392137     -68.6003395
9.094                 0.97032398     -68.7060849
9.095                0.970255533     -68.8120973
9.096                0.970186797     -68.9183777
9.097                0.970117771     -69.0249269
9.098                0.970048454     -69.1317457
9.099                0.969978845     -69.2388351
9.1                  0.969908943     -69.3461958
9.101                0.969838748     -69.4538289
9.102                0.969768259     -69.5617351
9.103                0.969697475     -69.6699154
9.104                0.969626395     -69.7783706
9.105                0.969555018     -69.8871017
9.106                0.969483344     -69.9961095
9.107                0.969411372      -70.105395
9.108                0.969339101     -70.2149589
9.109                 0.96926653     -70.3248023
9.11                 0.969193659      -70.434926
9.111                0.969120486      -70.545331
9.112                0.969047012     -70.6560181
9.113                0.968973234     -70.7669883
9.114                0.968899152     -70.8782425
9.115                0.968824767     -70.9897815
9.116                0.968750075     -71.1016064
9.117                0.968675078     -71.2137181
9.118                0.968599774     -71.3261174
9.119                0.968524162     -71.4388053
9.12                 0.968448242     -71.5517827
9.121                0.968372012     -71.6650506
9.122                0.968295473       -71.77861
9.123                0.968218622     -71.8924616
9.124                 0.96814146     -72.0066066
9.125                0.968063986     -72.1210458
9.126                0.967986198     -72.2357802
9.127                0.967908096     -72.3508108
9.128                 0.96782968     -72.4661384
9.129                0.967750948     -72.5817641
9.13                   0.9676719     -72.6976889
9.131                0.967592535     -72.8139136
9.132                0.967512851     -72.9304392
9.133                0.967432849     -73.0472668
9.134                0.967352528     -73.1643972
9.135                0.967271886     -73.2818315
9.136                0.967190924     -73.3995707
9.137                0.967109639     -73.5176156
9.138                0.967028032     -73.6359674
9.139                0.966946102     -73.7546269
9.14                 0.966863847     -73.8735953
9.141                0.966781268     -73.9928733
9.142                0.966698363     -74.1124622
9.143                0.966615131     -74.2323628
9.144                0.966531573     -74.3525761
9.145                0.966447686     -74.4731032
9.146                0.966363471     -74.5939451
9.147                0.966278926     -74.7151027
9.148                0.966194052     -74.8365772
9.149                0.966108846     -74.9583694
9.15                 0.966023308     -75.0804804
9.151                0.965937438     -75.2029112
9.152                0.965851235     -75.3256629
9.153                0.965764697     -75.4487364
9.154                0.965677825     -75.5721328
9.155                0.965590618     -75.6958532
9.156                0.965503074     -75.8198985
9.157                0.965415194     -75.9442698
9.158                0.965326975     -76.0689681
9.159                0.965238419     -76.1939945
9.16                 0.965149523       -76.31935
9.161                0.965060288     -76.4450356
9.162                0.964970711     -76.5710525
9.163                0.964880794     -76.6974016
9.164                0.964790535      -76.824084
9.165                0.964699933     -76.9511007
9.166                0.964608987     -77.0784528
9.167                0.964517697     -77.2061415
9.168                0.964426063     -77.3341676
9.169                0.964334083     -77.4625324
9.17                 0.964241757     -77.5912368
9.171                0.964149084      -77.720282
9.172                0.964056063      -77.849669
9.173                0.963962694     -77.9793988
9.174                0.963868977     -78.1094727
9.175                0.963774909     -78.2398915
9.176                0.963680492     -78.3706565
9.177                0.963585723     -78.5017688
9.178                0.963490603     -78.6332293
9.179                 0.96339513     -78.7650392
9.18                 0.963299305     -78.8971996
9.181                0.963203126     -79.0297115
9.182                0.963106593     -79.1625762
9.183                0.963009705     -79.2957946
9.184                0.962912462     -79.4293679
9.185                0.962814863     -79.5632971
9.186                0.962716907     -79.6975835
9.187                0.962618593      -79.832228
9.188                0.962519922     -79.9672319
9.189                0.962420892     -80.1025962
9.19                 0.962321504      -80.238322
9.191                0.962221755     -80.3744104
9.192                0.962121646     -80.5108627
9.193                0.962021177     -80.6476798
9.194                0.961920346      -80.784863
9.195                0.961819153     -80.9224133
9.196                0.961717597     -81.0603318
9.197                0.961615678     -81.1986198
9.198                0.961513396     -81.3372783
9.199                 0.96141075     -81.4763085
9.2                  0.961307739     -81.6157115
9.201                0.961204362     -81.7554885
9.202                 0.96110062     -81.8956405
9.203                0.960996512     -82.0361688
9.204                0.960892037     -82.1770744
9.205                0.960787195     -82.3183586
9.206                0.960681985     -82.4600224
9.207                0.960576406     -82.6020671
9.208                 0.96047046     -82.7444937
9.209                0.960364144     -82.8873035
9.21                 0.960257458     -83.0304976
9.211                0.960150403     -83.1740771
9.212                0.960042977     -83.3180432
9.213                 0.95993518     -83.4623971
9.214                0.959827012     -83.6071399
9.215                0.959718472     -83.7522728
9.216                 0.95960956     -83.8977969
9.217                0.959500276     -84.0437135
9.218                0.959390619     -84.1900237
9.219                0.959280588     -84.3367286
9.22                 0.959170184     -84.4838295
9.221                0.959059406     -84.6313275
9.222                0.958948254     -84.7792237
9.223                0.958836728     -84.9275195
9.224                0.958724826     -85.0762159
9.225                0.958612549     -85.2253141
9.226                0.958499897     -85.3748153
9.227                0.958386869     -85.5247207
9.228                0.958273465     -85.6750314
9.229                0.958159684     -85.8257488
9.23                 0.958045527     -85.9768738
9.231                0.957930994     -86.1284078
9.232                0.957816083     -86.2803519
9.233                0.957700795     -86.4327073
9.234                 0.95758513     -86.5854751
9.235                0.957469087     -86.7386567
9.236                0.957352666     -86.8922531
9.237                0.957235867     -87.0462656
9.238                 0.95711869     -87.2006954
9.239                0.957001135     -87.3555436
9.24                 0.956883202     -87.5108115
9.241                 0.95676489     -87.6665002
9.242                  0.9566462     -87.8226109
9.243                0.956527131     -87.9791449
9.244                0.956407683     -88.1361033
9.245                0.956287857     -88.2934873
9.246                0.956167652     -88.4512982
9.247                0.956047068     -88.6095371
9.248                0.955926105     -88.7682052
9.249                0.955804764     -88.9273038
9.25                 0.955683043      -89.086834
9.251                0.955560944      -89.246797
9.252                0.955438467      -89.407194
9.253                0.955315611     -89.5680263
9.254                0.955192376      -89.729295
9.255                0.955068763     -89.8910013
9.256                0.954944771     -90.0531465
9.257                0.954820402     -90.2157316
9.258                0.954695655      -90.378758
9.259                0.954570529     -90.5422269
9.26                 0.954445027     -90.7061393
9.261                0.954319146     -90.8704966
9.262                0.954192889     -91.0352999
9.263                0.954066255     -91.2005505
9.264                0.953939244     -91.3662494
9.265                0.953811857      -91.532398
9.266                0.953684094     -91.6989974
9.267                0.953555955     -91.8660488
9.268                 0.95342744     -92.0335534
9.269                0.953298551     -92.2015124
9.27                 0.953169287      -92.369927
9.271                0.953039649     -92.5387984
9.272                0.952909637     -92.7081278
9.273                0.952779251     -92.8779163
9.274                0.952648493     -93.0481652
9.275                0.952517362     -93.2188757
9.276                 0.95238586     -93.3900488
9.277                0.952253986     -93.5616859
9.278                0.952121741     -93.7337881
9.279                0.951989126     -93.9063566
9.28                 0.951856142     -94.0793925
9.281                0.951722788     -94.2528971
9.282                0.951589066     -94.4268715
9.283                0.951454977     -94.6013168
9.284                 0.95132052     -94.7762344
9.285                0.951185697     -94.9516253
9.286                0.951050509     -95.1274907
9.287                0.950914956     -95.3038317
9.288                0.950779038     -95.4806496
9.289                0.950642758     -95.6579455
9.29                 0.950506115     -95.8357206
9.291                0.950369111      -96.013976
9.292                0.950231746     -96.1927128
9.293                0.950094021     -96.3719323
9.294                0.949955938     -96.5516355
9.295                0.949817497     -96.7318237
9.296                0.949678699      -96.912498
9.297                0.949539546     -97.0936594
9.298                0.949400037     -97.2753092
9.299                0.949260175     -97.4574484
9.3                  0.949119961     -97.6400783
9.301                0.948979395     -97.8231999
9.302                0.948838479     -98.0068144
9.303                0.948697214     -98.1909228
9.304                0.948555601     -98.3755263
9.305                0.948413642     -98.5606261
9.306                0.948271337     -98.7462231
9.307                0.948128688     -98.9323186
9.308                0.947985697     -99.1189136
9.309                0.947842364     -99.3060092
9.31                 0.947698692     -99.4936066
9.311                0.947554681     -99.6817067
9.312                0.947410333     -99.8703107
9.313                 0.94726565      -100.05942
9.314                0.947120633     -100.249035
9.315                0.946975283     -100.439157
9.316                0.946829602     -100.629787
9.317                0.946683593     -100.820927
9.318                0.946537256     -101.012576
9.319                0.946390593     -101.204738
9.32                 0.946243606     -101.397411
9.321                0.946096296     -101.590598
9.322                0.945948666     -101.784299
9.323                0.945800718     -101.978516
9.324                0.945652452     -102.173249
9.325                0.945503872       -102.3685
9.326                0.945354978      -102.56427
9.327                0.945205774     -102.760558
9.328                 0.94505626     -102.957368
9.329                 0.94490644     -103.154699
9.33                 0.944756314     -103.352552
9.331                0.944605886     -103.550929
9.332                0.944455157      -103.74983
9.333                 0.94430413     -103.949256
9.334                0.944152806     -104.149209
9.335                0.944001188     -104.349689
9.336                0.943849279     -104.550698
9.337                0.943697081     -104.752235
9.338                0.943544595     -104.954303
9.339                0.943391825     -105.156902
9.34                 0.943238773     -105.360032
9.341                0.943085441     -105.563696
9.342                0.942931833     -105.767893
9.343                0.942777949     -105.972624
9.344                0.942623795     -106.177891
9.345                 0.94246937     -106.383695
9.346                 0.94231468     -106.590035
9.347                0.942159726     -106.796914
9.348                0.942004511     -107.004331
9.349                0.941849037     -107.212289
9.35                 0.941693309     -107.420786
9.351                0.941537328     -107.629825
9.352                0.941381098     -107.839406
9.353                0.941224622     -108.049531
9.354                0.941067902     -108.260198
9.355                0.940910943     -108.471411
9.356                0.940753746     -108.683168
9.357                0.940596315     -108.895472
9.358                0.940438653     -109.108322
9.359                0.940280765      -109.32172
9.36                 0.940122652     -109.535665
9.361                0.939964318      -109.75016
9.362                0.939805767     -109.965204
9.363                0.939647002     -110.180799
9.364                0.939488026     -110.396945
9.365                0.939328844     -110.613642
9.366                0.939169459     -110.830891
9.367                0.939009874     -111.048693
9.368                0.938850092     -111.267049
9.369                0.938690119     -111.485959
9.37                 0.938529957     -111.705424
9.371                0.938369611     -111.925444
9.372                0.938209083      -112.14602
9.373                0.938048379     -112.367152
9.374                0.937887502     -112.588841
9.375                0.937726456     -112.811088
9.376                0.937565245     -113.033893
9.377                0.937403874     -113.257256
9.378                0.937242345     -113.481179
9.379                0.937080665     -113.705661
9.38                 0.936918836     -113.930703
9.381                0.936756864     -114.156305
9.382                0.936594752     -114.382468
9.383                0.936432505     -114.609193
9.384                0.936270127     -114.836479
9.385                0.936107623     -115.064328
9.386                0.935944998     -115.292739
9.387                0.935782256     -115.521712
9.388                0.935619401     -115.751249
9.389                0.935456439      -115.98135
9.39                 0.935293374     -116.212014
9.391                0.935130211     -116.443242
9.392                0.934966955     -116.675035
9.393                0.934803611     -116.907392
9.394                0.934640183     -117.140315
9.395                0.934476677     -117.373802
9.396                0.934313097     -117.607855
