! TOUCHSTONE file generated by CST DESIGN STUDIO
! Date and time: Tue Feb  4 18:06:04 2025
! Project name: C:\Work\MatlabApps\UnitCellOptimizationMatlab\CST\unitcell.cst
! Tree item: Tasks\Sweep1\SPara1\S-Parameters
! Header version: 2024
! Port assignment regex: !\s*Touchstone port\s*([0-9]+)\s*=\s*(CST MWS port|CST DES external port|CST DES block port)\s*(.+)\s* \(\"(.*)\"\)(\s*mode\s*([0-9]+))?.*
! Touchstone port assignment:
! Touchstone port 1 = CST DES external port 1 ("")
# GHz S MA R 50
9                    0.976366776     -70.3596325
9.001                0.976312264     -70.4625513
9.002                0.976257586     -70.5657194
9.003                0.976202741     -70.6691376
9.004                0.976147729     -70.7728068
9.005                0.976092551     -70.8767277
9.006                0.976037204     -70.9809011
9.007                 0.97598169     -71.0853277
9.008                0.975926007     -71.1900083
9.009                0.975870155     -71.2949437
9.01                 0.975814133     -71.4001348
9.011                0.975757942     -71.5055821
9.012                 0.97570158     -71.6112867
9.013                0.975645047     -71.7172492
9.014                0.975588343     -71.8234704
9.015                0.975531468     -71.9299511
9.016                 0.97547442     -72.0366922
9.017                  0.9754172     -72.1436944
9.018                0.975359806     -72.2509586
9.019                0.975302239     -72.3584854
9.02                 0.975244499     -72.4662758
9.021                0.975186583     -72.5743305
9.022                0.975128493     -72.6826504
9.023                0.975070228     -72.7912363
9.024                0.975011787     -72.9000889
9.025                 0.97495317     -73.0092091
9.026                0.974894377     -73.1185977
9.027                0.974835406     -73.2282555
9.028                0.974776258     -73.3381834
9.029                0.974716932     -73.4483822
9.03                 0.974657428     -73.5588527
9.031                0.974597745     -73.6695957
9.032                0.974537882      -73.780612
9.033                 0.97447784     -73.8919026
9.034                0.974417619     -74.0034682
9.035                0.974357216     -74.1153097
9.036                0.974296633     -74.2274278
9.037                0.974235868     -74.3398236
9.038                0.974174921     -74.4524977
9.039                0.974113793     -74.5654511
9.04                 0.974052481     -74.6786845
9.041                0.973990987      -74.792199
9.042                0.973929309     -74.9059952
9.043                0.973867447      -75.020074
9.044                0.973805401     -75.1344364
9.045                 0.97374317     -75.2490832
9.046                0.973680754     -75.3640151
9.047                0.973618152     -75.4792332
9.048                0.973555365     -75.5947383
9.049                 0.97349239     -75.7105311
9.05                 0.973429229     -75.8266127
9.051                0.973365881     -75.9429839
9.052                0.973302345     -76.0596455
9.053                0.973238621     -76.1765984
9.054                0.973174709     -76.2938435
9.055                0.973110607     -76.4113818
9.056                0.973046317      -76.529214
9.057                0.972981836      -76.647341
9.058                0.972917166     -76.7657638
9.059                0.972852305     -76.8844832
9.06                 0.972787253     -77.0035002
9.061                 0.97272201     -77.1228155
9.062                0.972656575     -77.2424302
9.063                0.972590948     -77.3623451
9.064                0.972525129     -77.4825611
9.065                0.972459116     -77.6030791
9.066                0.972392911     -77.7239001
9.067                0.972326512     -77.8450248
9.068                0.972259919     -77.9664543
9.069                0.972193131     -78.0881894
9.07                 0.972126149     -78.2102311
9.071                0.972058972     -78.3325803
9.072                0.971991599     -78.4552378
9.073                 0.97192403     -78.5782046
9.074                0.971856265     -78.7014817
9.075                0.971788304     -78.8250698
9.076                0.971720145     -78.9489701
9.077                 0.97165179     -79.0731833
9.078                0.971583236     -79.1977105
9.079                0.971514485     -79.3225525
9.08                 0.971445535     -79.4477103
9.081                0.971376387     -79.5731848
9.082                0.971307039      -79.698977
9.083                0.971237492     -79.8250877
9.084                0.971167746      -79.951518
9.085                0.971097799     -80.0782687
9.086                0.971027652     -80.2053408
9.087                0.970957304     -80.3327353
9.088                0.970886756     -80.4604531
9.089                0.970816005     -80.5884951
9.09                 0.970745054     -80.7168623
9.091                  0.9706739     -80.8455557
9.092                0.970602544     -80.9745761
9.093                0.970530985     -81.1039246
9.094                0.970459224     -81.2336021
9.095                0.970387259     -81.3636096
9.096                0.970315091      -81.493948
9.097                0.970242719     -81.6246183
9.098                0.970170142     -81.7556214
9.099                0.970097362     -81.8869584
9.1                  0.970024377     -82.0186301
9.101                0.969951187     -82.1506376
9.102                0.969877792     -82.2829818
9.103                0.969804192     -82.4156637
9.104                0.969730385     -82.5486842
9.105                0.969656373     -82.6820444
9.106                0.969582155     -82.8157452
9.107                 0.96950773     -82.9497876
9.108                0.969433099     -83.0841726
9.109                 0.96935826     -83.2189011
9.11                 0.969283215     -83.3539741
9.111                0.969207962     -83.4893926
9.112                0.969132502     -83.6251576
9.113                0.969056833     -83.7612701
9.114                0.968980957     -83.8977311
9.115                0.968904873     -84.0345415
9.116                 0.96882858     -84.1717024
9.117                0.968752078     -84.3092147
9.118                0.968675368     -84.4470794
9.119                0.968598448     -84.5852975
9.12                  0.96852132       -84.72387
9.121                0.968443982      -84.862798
9.122                0.968366435     -85.0020823
9.123                0.968288678     -85.1417241
9.124                0.968210711     -85.2817242
9.125                0.968132534     -85.4220837
9.126                0.968054147     -85.5628037
9.127                 0.96797555      -85.703885
9.128                0.967896743     -85.8453287
9.129                0.967817725     -85.9871359
9.13                 0.967738496     -86.1293074
9.131                0.967659057     -86.2718444
9.132                0.967579406     -86.4147477
9.133                0.967499545     -86.5580185
9.134                0.967419473     -86.7016578
9.135                 0.96733919     -86.8456664
9.136                0.967258696     -86.9900456
9.137                 0.96717799     -87.1347962
9.138                0.967097073     -87.2799192
9.139                0.967015945     -87.4254158
9.14                 0.966934605     -87.5712868
9.141                0.966853054     -87.7175333
9.142                0.966771292     -87.8641564
9.143                0.966689318      -88.011157
9.144                0.966607132     -88.1585361
9.145                0.966524735     -88.3062948
9.146                0.966442127     -88.4544341
9.147                0.966359307      -88.602955
9.148                0.966276276     -88.7518585
9.149                0.966193033     -88.9011456
9.15                 0.966109579     -89.0508173
9.151                0.966025913     -89.2008747
9.152                0.965942037     -89.3513187
9.153                0.965857949     -89.5021505
9.154                0.965773649     -89.6533709
9.155                0.965689139     -89.8049811
9.156                0.965604418      -89.956982
9.157                0.965519486     -90.1093746
9.158                0.965434343       -90.26216
9.159                0.965348989     -90.4153392
9.16                 0.965263425     -90.5689132
9.161                0.965177651      -90.722883
9.162                0.965091666     -90.8772497
9.163                0.965005471     -91.0320142
9.164                0.964919067     -91.1871775
9.165                0.964832452     -91.3427408
9.166                0.964745628     -91.4987049
9.167                0.964658595     -91.6550709
9.168                0.964571353     -91.8118398
9.169                0.964483901     -91.9690127
9.17                 0.964396242     -92.1265905
9.171                0.964308373     -92.2845742
9.172                0.964220297      -92.442965
9.173                0.964132012     -92.6017637
9.174                 0.96404352     -92.7609713
9.175                0.963954821      -92.920589
9.176                0.963865914     -93.0806176
9.177                0.963776801     -93.2410583
9.178                0.963687481      -93.401912
9.179                0.963597956     -93.5631796
9.18                 0.963508225     -93.7248623
9.181                0.963418288      -93.886961
9.182                0.963328146     -94.0494768
9.183                  0.9632378     -94.2124105
9.184                 0.96314725     -94.3757632
9.185                0.963056495      -94.539536
9.186                0.962965538     -94.7037297
9.187                0.962874377     -94.8683455
9.188                0.962783015     -95.0333842
9.189                 0.96269145     -95.1988469
9.19                 0.962599683     -95.3647346
9.191                0.962507716     -95.5310482
9.192                0.962415548     -95.6977888
9.193                 0.96232318     -95.8649573
9.194                0.962230613     -96.0325547
9.195                0.962137847     -96.2005819
9.196                0.962044882       -96.36904
9.197                 0.96195172     -96.5379299
9.198                 0.96185836     -96.7072527
9.199                0.961764804     -96.8770092
9.2                  0.961671052     -97.0472004
9.201                0.961577105     -97.2178273
9.202                0.961482963     -97.3888909
9.203                0.961388627     -97.5603921
9.204                0.961294098     -97.7323319
9.205                0.961199376     -97.9047112
9.206                0.961104462      -98.077531
9.207                0.961009357     -98.2507922
9.208                0.960914062     -98.4244958
9.209                0.960818577     -98.5986427
9.21                 0.960722903     -98.7732339
9.211                0.960627041     -98.9482703
9.212                0.960530992     -99.1237528
9.213                0.960434757     -99.2996823
9.214                0.960338336     -99.4760598
9.215                 0.96024173     -99.6528863
9.216                0.960144941     -99.8301625
9.217                0.960047968     -100.007889
9.218                0.959950814     -100.186068
9.219                0.959853479     -100.364699
9.22                 0.959755963     -100.543784
9.221                0.959658268     -100.723323
9.222                0.959560396     -100.903317
9.223                0.959462346     -101.083768
9.224                0.959364119     -101.264675
9.225                0.959265718      -101.44604
9.226                0.959167143     -101.627864
9.227                0.959068395     -101.810148
9.228                0.958969475     -101.992892
9.229                0.958870385     -102.176098
9.23                 0.958771125     -102.359766
9.231                0.958671696     -102.543897
9.232                0.958572101     -102.728492
9.233                0.958472339     -102.913552
9.234                0.958372413     -103.099077
9.235                0.958272323     -103.285069
9.236                0.958172071     -103.471529
9.237                0.958071657     -103.658456
9.238                0.957971085     -103.845852
9.239                0.957870353     -104.033718
9.24                 0.957769465     -104.222055
9.241                0.957668421     -104.410863
9.242                0.957567223     -104.600143
9.243                0.957465872     -104.789896
9.244                 0.95736437     -104.980123
9.245                0.957262717     -105.170824
9.246                0.957160917     -105.362001
9.247                0.957058969     -105.553654
9.248                0.956956875     -105.745783
9.249                0.956854638      -105.93839
9.25                 0.956752259     -106.131475
9.251                0.956649738      -106.32504
9.252                0.956547079     -106.519084
9.253                0.956444282     -106.713608
9.254                0.956341349     -106.908614
9.255                0.956238281     -107.104101
9.256                0.956135082     -107.300071
9.257                0.956031751     -107.496525
9.258                0.955928292     -107.693462
9.259                0.955824705     -107.890884
9.26                 0.955720993     -108.088791
9.261                0.955617157     -108.287185
9.262                0.955513199     -108.486065
9.263                0.955409122     -108.685432
9.264                0.955304926     -108.885287
9.265                0.955200614     -109.085631
9.266                0.955096188     -109.286463
9.267                 0.95499165     -109.487786
9.268                0.954887002     -109.689599
9.269                0.954782245     -109.891902
9.27                 0.954677383     -110.094698
9.271                0.954572416     -110.297985
9.272                0.954467347     -110.501765
9.273                0.954362179     -110.706039
9.274                0.954256912     -110.910806
9.275                 0.95415155     -111.116067
9.276                0.954046095     -111.321824
9.277                0.953940549     -111.528075
9.278                0.953834914     -111.734823
9.279                0.953729192     -111.942067
9.28                 0.953623386     -112.149807
9.281                0.953517497     -112.358045
9.282                 0.95341153     -112.566781
9.283                0.953305484     -112.776015
9.284                0.953199365     -112.985747
9.285                0.953093172     -113.195979
9.286                 0.95298691      -113.40671
9.287                 0.95288058     -113.617942
9.288                0.952774186     -113.829673
9.289                0.952667729     -114.041905
9.29                 0.952561212     -114.254639
9.291                0.952454638     -114.467874
9.292                0.952348009      -114.68161
9.293                0.952241328     -114.895849
9.294                0.952134598      -115.11059
9.295                0.952027822     -115.325834
9.296                0.951921001     -115.541581
9.297                 0.95181414     -115.757831
9.298                 0.95170724     -115.974585
9.299                0.951600305     -116.191843
9.3                  0.951493337     -116.409606
9.301                0.951386339     -116.627872
9.302                0.951279314     -116.846643
9.303                0.951172266     -117.065919
9.304                0.951065197       -117.2857
9.305                0.950958109     -117.505987
9.306                0.950851007     -117.726778
9.307                0.950743893     -117.948075
9.308                0.950636769     -118.169878
9.309                0.950529641     -118.392187
9.31                 0.950422509     -118.615001
9.311                0.950315378     -118.838322
9.312                0.950208251     -119.062149
9.313                 0.95010113     -119.286482
9.314                 0.94999402     -119.511321
9.315                0.949886923     -119.736666
9.316                0.949779843     -119.962518
9.317                0.949672783     -120.188876
9.318                0.949565746      -120.41574
9.319                0.949458736     -120.643111
9.32                 0.949351756     -120.870987
9.321                 0.94924481      -121.09937
9.322                0.949137901     -121.328259
9.323                0.949031032     -121.557654
9.324                0.948924208     -121.787555
9.325                0.948817431     -122.017962
9.326                0.948710705     -122.248874
9.327                0.948604035     -122.480292
9.328                0.948497422     -122.712215
9.329                0.948390872     -122.944644
9.33                 0.948284387     -123.177577
9.331                0.948177972     -123.411015
9.332                 0.94807163     -123.644957
9.333                0.947965365     -123.879404
9.334                0.947859181     -124.114355
9.335                0.947753082     -124.349809
9.336                0.947647071     -124.585767
9.337                0.947541152     -124.822227
9.338                 0.94743533      -125.05919
9.339                0.947329608     -125.296656
9.34                 0.947223989     -125.534624
9.341                0.947118479     -125.773093
9.342                0.947013081     -126.012063
9.343                  0.9469078     -126.251533
9.344                0.946802638     -126.491504
9.345                0.946697601     -126.731975
9.346                0.946592692     -126.972945
9.347                0.946487915     -127.214413
9.348                0.946383276      -127.45638
9.349                0.946278777     -127.698844
9.35                 0.946174423     -127.941805
9.351                0.946070219     -128.185263
9.352                0.945966168     -128.429217
9.353                0.945862275     -128.673665
9.354                0.945758544     -128.918608
9.355                 0.94565498     -129.164045
9.356                0.945551586     -129.409975
9.357                0.945448368     -129.656398
9.358                 0.94534533     -129.903312
9.359                0.945242475     -130.150717
9.36                 0.945139809     -130.398612
9.361                0.945037336     -130.646997
9.362                0.944935061      -130.89587
9.363                0.944832987      -131.14523
9.364                 0.94473112     -131.395078
9.365                0.944629464     -131.645411
9.366                0.944528024     -131.896229
9.367                0.944426804     -132.147531
9.368                0.944325809     -132.399316
9.369                0.944225043     -132.651584
9.37                 0.944124511     -132.904332
9.371                0.944024218     -133.157561
9.372                0.943924169     -133.411268
9.373                0.943824368     -133.665454
9.374                 0.94372482     -133.920116
9.375                 0.94362553     -134.175254
9.376                0.943526502     -134.430867
9.377                0.943427741     -134.686953
9.378                0.943329252     -134.943511
9.379                0.943231041     -135.200541
9.38                  0.94313311      -135.45804
9.381                0.943035467     -135.716008
9.382                0.942938115     -135.974443
9.383                0.942841059     -136.233344
9.384                0.942744304      -136.49271
9.385                0.942647856     -136.752539
9.386                0.942551718      -137.01283
9.387                0.942455896     -137.273581
9.388                0.942360395     -137.534792
9.389                 0.94226522     -137.796461
9.39                 0.942170376     -138.058585
9.391                0.942075867     -138.321165
9.392                0.941981699     -138.584197
9.393                0.941887877     -138.847682
9.394                0.941794406     -139.111616
9.395                 0.94170129     -139.375999
9.396                0.941608536     -139.640829
