! TOUCHSTONE file generated by CST DESIGN STUDIO
! Date and time: Tue Feb  4 18:06:02 2025
! Project name: C:\Work\MatlabApps\UnitCellOptimizationMatlab\CST\unitcell.cst
! Tree item: Tasks\Sweep1\SPara1\S-Parameters
! Header version: 2024
! Port assignment regex: !\s*Touchstone port\s*([0-9]+)\s*=\s*(CST MWS port|CST DES external port|CST DES block port)\s*(.+)\s* \(\"(.*)\"\)(\s*mode\s*([0-9]+))?.*
! Touchstone port assignment:
! Touchstone port 1 = CST DES external port 1 ("")
# GHz S MA R 50
9                    0.976143076      -72.512337
9.001                 0.97608658     -72.6201087
9.002                0.976029913     -72.7281442
9.003                0.975973073     -72.8364443
9.004                0.975916061       -72.94501
9.005                0.975858875     -73.0538419
9.006                0.975801517     -73.1629409
9.007                0.975743984     -73.2723078
9.008                0.975686277     -73.3819435
9.009                0.975628395     -73.4918487
9.01                 0.975570338     -73.6020243
9.011                0.975512105      -73.712471
9.012                0.975453697     -73.8231898
9.013                0.975395111     -73.9341814
9.014                0.975336349     -74.0454466
9.015                0.975277409     -74.1569864
9.016                0.975218292     -74.2688015
9.017                0.975158996     -74.3808928
9.018                0.975099522     -74.4932611
9.019                0.975039868     -74.6059072
9.02                 0.974980035     -74.7188321
9.021                0.974920022     -74.8320364
9.022                0.974859829     -74.9455212
9.023                0.974799455     -75.0592871
9.024                0.974738899     -75.1733352
9.025                0.974678162     -75.2876662
9.026                0.974617243      -75.402281
9.027                0.974556142     -75.5171804
9.028                0.974494857     -75.6323654
9.029                0.974433389     -75.7478367
9.03                 0.974371738     -75.8635952
9.031                0.974309902     -75.9796419
9.032                0.974247882     -76.0959775
9.033                0.974185677     -76.2126029
9.034                0.974123286     -76.3295191
9.035                 0.97406071     -76.4467268
9.036                0.973997948      -76.564227
9.037                0.973934999     -76.6820206
9.038                0.973871863     -76.8001084
9.039                0.973808539     -76.9184912
9.04                 0.973745028     -77.0371701
9.041                0.973681329     -77.1561458
9.042                0.973617441     -77.2754193
9.043                0.973553364     -77.3949914
9.044                0.973489098     -77.5148631
9.045                0.973424642     -77.6350353
9.046                0.973359996     -77.7555087
9.047                0.973295159     -77.8762844
9.048                0.973230132     -77.9973633
9.049                0.973164913     -78.1187462
9.05                 0.973099503      -78.240434
9.051                  0.9730339     -78.3624277
9.052                0.972968106     -78.4847281
9.053                0.972902118     -78.6073362
9.054                0.972835937     -78.7302529
9.055                0.972769563     -78.8534791
9.056                0.972702995     -78.9770157
9.057                0.972636233     -79.1008637
9.058                0.972569276     -79.2250239
9.059                0.972502124     -79.3494972
9.06                 0.972434777     -79.4742847
9.061                0.972367234     -79.5993872
9.062                0.972299496     -79.7248057
9.063                0.972231561      -79.850541
9.064                0.972163429     -79.9765941
9.065                  0.9720951      -80.102966
9.066                0.972026574     -80.2296576
9.067                 0.97195785     -80.3566698
9.068                0.971888928     -80.4840035
9.069                0.971819808     -80.6116598
9.07                  0.97175049     -80.7396394
9.071                0.971680972     -80.8679435
9.072                0.971611255     -80.9965729
9.073                0.971541338     -81.1255286
9.074                0.971471222     -81.2548115
9.075                0.971400905     -81.3844225
9.076                0.971330388     -81.5143627
9.077                 0.97125967      -81.644633
9.078                0.971188751     -81.7752343
9.079                0.971117631     -81.9061676
9.08                 0.971046308     -82.0374339
9.081                0.970974784      -82.169034
9.082                0.970903058     -82.3009691
9.083                0.970831129     -82.4332399
9.084                0.970758998     -82.5658476
9.085                0.970686663     -82.6987931
9.086                0.970614125     -82.8320772
9.087                0.970541384     -82.9657011
9.088                0.970468438     -83.0996657
9.089                0.970395289     -83.2339719
9.09                 0.970321935     -83.3686207
9.091                0.970248377     -83.5036131
9.092                0.970174615     -83.6389501
9.093                0.970100647     -83.7746326
9.094                0.970026474     -83.9106617
9.095                0.969952095     -84.0470383
9.096                0.969877511     -84.1837633
9.097                0.969802721     -84.3208379
9.098                0.969727725     -84.4582628
9.099                0.969652523     -84.5960393
9.1                  0.969577115     -84.7341681
9.101                0.969501499     -84.8726504
9.102                0.969425677      -85.011487
9.103                0.969349648     -85.1506791
9.104                0.969273412     -85.2902275
9.105                0.969196969     -85.4301333
9.106                0.969120318     -85.5703975
9.107                 0.96904346      -85.711021
9.108                0.968966394     -85.8520049
9.109                 0.96888912     -85.9933502
9.11                 0.968811638     -86.1350577
9.111                0.968733947     -86.2771287
9.112                0.968656049     -86.4195639
9.113                0.968577942     -86.5623645
9.114                0.968499627     -86.7055315
9.115                0.968421103     -86.8490658
9.116                0.968342371     -86.9929684
9.117                 0.96826343     -87.1372403
9.118                 0.96818428     -87.2818827
9.119                0.968104921     -87.4268963
9.12                 0.968025353     -87.5722823
9.121                0.967945576     -87.7180417
9.122                 0.96786559     -87.8641755
9.123                0.967785395     -88.0106846
9.124                0.967704991       -88.15757
9.125                0.967624378     -88.3048329
9.126                0.967543555     -88.4524742
9.127                0.967462524     -88.6004948
9.128                0.967381283     -88.7488958
9.129                0.967299833     -88.8976783
9.13                 0.967218174     -89.0468432
9.131                0.967136306     -89.1963915
9.132                0.967054228     -89.3463242
9.133                0.966971942     -89.4966424
9.134                0.966889446      -89.647347
9.135                0.966806742     -89.7984391
9.136                0.966723829     -89.9499196
9.137                0.966640706     -90.1017897
9.138                0.966557376     -90.2540502
9.139                0.966473836     -90.4067022
9.14                 0.966390088     -90.5597467
9.141                0.966306132     -90.7131847
9.142                0.966221967     -90.8670173
9.143                0.966137594     -91.0212454
9.144                0.966053013       -91.17587
9.145                0.965968224     -91.3308921
9.146                0.965883228     -91.4863128
9.147                0.965798024     -91.6421331
9.148                0.965712613     -91.7983539
9.149                0.965626994     -91.9549762
9.15                 0.965541169     -92.1120012
9.151                0.965455136     -92.2694297
9.152                0.965368898     -92.4272628
9.153                0.965282452     -92.5855014
9.154                0.965195801     -92.7441467
9.155                0.965108945     -92.9031995
9.156                0.965021882     -93.0626609
9.157                0.964934615     -93.2225319
9.158                0.964847142     -93.3828135
9.159                0.964759465     -93.5435066
9.16                 0.964671583     -93.7046123
9.161                0.964583498     -93.8661315
9.162                0.964495209     -94.0280654
9.163                0.964406716     -94.1904147
9.164                0.964318021     -94.3531806
9.165                0.964229123     -94.5163641
9.166                0.964140023      -94.679966
9.167                0.964050721     -94.8439874
9.168                0.963961218     -95.0084294
9.169                0.963871514     -95.1732928
9.17                 0.963781609     -95.3385786
9.171                0.963691504     -95.5042879
9.172                  0.9636012     -95.6704216
9.173                0.963510697     -95.8369806
9.174                0.963419995      -96.003966
9.175                0.963329095     -96.1713788
9.176                0.963237997     -96.3392198
9.177                0.963146702     -96.5074901
9.178                0.963055211     -96.6761907
9.179                0.962963524     -96.8453224
9.18                 0.962871642     -97.0148863
9.181                0.962779565     -97.1848832
9.182                0.962687293     -97.3553143
9.183                0.962594828     -97.5261804
9.184                0.962502171     -97.6974824
9.185                0.962409321     -97.8692214
9.186                0.962316279     -98.0413982
9.187                0.962223047     -98.2140139
9.188                0.962129624     -98.3870692
9.189                0.962036012     -98.5605653
9.19                 0.961942211      -98.734503
9.191                0.961848223     -98.9088832
9.192                0.961754047     -99.0837069
9.193                0.961659684      -99.258975
9.194                0.961565136     -99.4346884
9.195                0.961470403      -99.610848
9.196                0.961375486     -99.7874548
9.197                0.961280386     -99.9645097
9.198                0.961185104     -100.142013
9.199                 0.96108964     -100.319967
9.2                  0.960993996     -100.498372
9.201                0.960898172     -100.677228
9.202                0.960802169     -100.856536
9.203                0.960705989     -101.036298
9.204                0.960609632     -101.216515
9.205                0.960513099     -101.397186
9.206                0.960416392     -101.578314
9.207                 0.96031951     -101.759899
9.208                0.960222456     -101.941941
9.209                0.960125231     -102.124442
9.21                 0.960027834     -102.307402
9.211                0.959930269     -102.490823
9.212                0.959832535     -102.674706
9.213                0.959734633      -102.85905
9.214                0.959636566     -103.043857
9.215                0.959538334     -103.229128
9.216                0.959439938     -103.414863
9.217                 0.95934138     -103.601064
9.218                 0.95924266      -103.78773
9.219                0.959143781     -103.974864
9.22                 0.959044743     -104.162466
9.221                0.958945547     -104.350536
9.222                0.958846195     -104.539076
9.223                0.958746689     -104.728085
9.224                0.958647029     -104.917566
9.225                0.958547217     -105.107519
9.226                0.958447255     -105.297943
9.227                0.958347144     -105.488842
9.228                0.958246884     -105.680214
9.229                0.958146479     -105.872061
9.23                 0.958045928     -106.064383
9.231                0.957945235     -106.257181
9.232                0.957844399     -106.450457
9.233                0.957743424      -106.64421
9.234                 0.95764231     -106.838442
9.235                0.957541059     -107.033152
9.236                0.957439672     -107.228343
9.237                0.957338152     -107.424013
9.238                0.957236499     -107.620165
9.239                0.957134717     -107.816799
9.24                 0.957032805     -108.013916
9.241                0.956930767     -108.211515
9.242                0.956828603     -108.409598
9.243                0.956726317     -108.608166
9.244                0.956623908     -108.807219
9.245                 0.95652138     -109.006758
9.246                0.956418734     -109.206782
9.247                0.956315971     -109.407294
9.248                0.956213095     -109.608294
9.249                0.956110107     -109.809781
9.25                 0.956007008     -110.011757
9.251                0.955903801     -110.214223
9.252                0.955800488     -110.417178
9.253                 0.95569707     -110.620624
9.254                 0.95559355     -110.824561
9.255                0.955489931     -111.028989
9.256                0.955386213      -111.23391
9.257                0.955282399     -111.439323
9.258                0.955178492     -111.645229
9.259                0.955074493     -111.851628
9.26                 0.954970405     -112.058522
9.261                0.954866229      -112.26591
9.262                0.954761969     -112.473793
9.263                0.954657626     -112.682171
9.264                0.954553203     -112.891046
9.265                0.954448702     -113.100417
9.266                0.954344125     -113.310284
9.267                0.954239476     -113.520649
9.268                0.954134755     -113.731511
9.269                0.954029966     -113.942871
9.27                 0.953925111      -114.15473
9.271                0.953820193     -114.367087
9.272                0.953715214     -114.579943
9.273                0.953610176     -114.793299
9.274                0.953505083     -115.007154
9.275                0.953399937      -115.22151
9.276                 0.95329474     -115.436366
9.277                0.953189495     -115.651722
9.278                0.953084205      -115.86758
9.279                0.952978873     -116.083939
9.28                   0.9528735     -116.300799
9.281                0.952768091     -116.518161
9.282                0.952662648     -116.736024
9.283                0.952557173      -116.95439
9.284                0.952451669     -117.173259
9.285                 0.95234614      -117.39263
9.286                0.952240588     -117.612503
9.287                0.952135017      -117.83288
9.288                0.952029428     -118.053759
9.289                0.951923825     -118.275142
9.29                 0.951818212     -118.497028
9.291                0.951712591     -118.719418
9.292                0.951606964     -118.942311
9.293                0.951501336     -119.165708
9.294                 0.95139571     -119.389608
9.295                0.951290088     -119.614012
9.296                0.951184473      -119.83892
9.297                 0.95107887     -120.064331
9.298                0.950973281     -120.290246
9.299                0.950867709     -120.516665
9.3                  0.950762157     -120.743588
9.301                 0.95065663     -120.971015
9.302                 0.95055113     -121.198945
9.303                0.950445661     -121.427378
9.304                0.950340226     -121.656315
9.305                0.950234828     -121.885756
9.306                0.950129471     -122.115699
9.307                0.950024159     -122.346146
9.308                0.949918895     -122.577096
9.309                0.949813682     -122.808548
9.31                 0.949708524     -123.040503
9.311                0.949603425      -123.27296
9.312                0.949498388      -123.50592
9.313                0.949393416     -123.739381
9.314                0.949288515     -123.973344
9.315                0.949183686     -124.207808
9.316                0.949078935     -124.442774
9.317                0.948974264      -124.67824
9.318                0.948869677     -124.914206
9.319                0.948765179     -125.150673
9.32                 0.948660773     -125.387639
9.321                0.948556462     -125.625105
9.322                0.948452252      -125.86307
9.323                0.948348145     -126.101533
9.324                0.948244146     -126.340494
9.325                0.948140258     -126.579952
9.326                0.948036486     -126.819908
9.327                0.947932833     -127.060361
9.328                0.947829304     -127.301309
9.329                0.947725903     -127.542753
9.33                 0.947622633     -127.784692
9.331                0.947519499     -128.027126
9.332                0.947416505     -128.270053
9.333                0.947313655     -128.513473
9.334                0.947210953     -128.757386
9.335                0.947108404     -129.001791
9.336                0.947006011     -129.246687
9.337                0.946903779     -129.492074
9.338                0.946801712     -129.737951
9.339                0.946699815     -129.984316
9.34                 0.946598092      -130.23117
9.341                0.946496546     -130.478512
9.342                0.946395183      -130.72634
9.343                0.946294007     -130.974654
9.344                0.946193022     -131.223453
9.345                0.946092233     -131.472736
9.346                0.945991644     -131.722503
9.347                0.945891259     -131.972752
9.348                0.945791083     -132.223483
9.349                0.945691121     -132.474694
9.35                 0.945591377     -132.726384
9.351                0.945491856     -132.978553
9.352                0.945392561       -133.2312
9.353                0.945293498     -133.484323
9.354                0.945194672     -133.737922
9.355                0.945096086     -133.991995
9.356                0.944997747     -134.246541
9.357                0.944899657     -134.501559
9.358                0.944801822     -134.757048
9.359                0.944704247     -135.013007
9.36                 0.944606936     -135.269435
9.361                0.944509893     -135.526329
9.362                0.944413125      -135.78369
9.363                0.944316635     -136.041516
9.364                0.944220428     -136.299805
9.365                0.944124509     -136.558557
9.366                0.944028883     -136.817769
9.367                0.943933555     -137.077441
9.368                0.943838529     -137.337571
9.369                 0.94374381     -137.598158
9.37                 0.943649403       -137.8592
9.371                0.943555313     -138.120696
9.372                0.943461544     -138.382644
9.373                0.943368103     -138.645043
9.374                0.943274993     -138.907892
9.375                0.943182219     -139.171188
9.376                0.943089786      -139.43493
9.377                  0.9429977     -139.699117
9.378                0.942905965     -139.963747
9.379                0.942814586     -140.228818
9.38                 0.942723568     -140.494329
9.381                0.942632916     -140.760277
9.382                0.942542634     -141.026662
9.383                0.942452729     -141.293482
9.384                0.942363204     -141.560734
9.385                0.942274065     -141.828417
9.386                0.942185317     -142.096529
9.387                0.942096964     -142.365068
9.388                0.942009012     -142.634033
9.389                0.941921466     -142.903421
9.39                  0.94183433     -143.173231
9.391                 0.94174761      -143.44346
9.392                0.941661311     -143.714107
9.393                0.941575436      -143.98517
9.394                0.941489993     -144.256646
9.395                0.941404985     -144.528534
9.396                0.941320417     -144.800831
