! TOUCHSTONE file generated by CST DESIGN STUDIO
! Date and time: Tue Feb  4 18:06:00 2025
! Project name: C:\Work\MatlabApps\UnitCellOptimizationMatlab\CST\unitcell.cst
! Tree item: Tasks\Sweep1\SPara1\S-Parameters
! Header version: 2024
! Port assignment regex: !\s*Touchstone port\s*([0-9]+)\s*=\s*(CST MWS port|CST DES external port|CST DES block port)\s*(.+)\s* \(\"(.*)\"\)(\s*mode\s*([0-9]+))?.*
! Touchstone port assignment:
! Touchstone port 1 = CST DES external port 1 ("")
# GHz S MA R 50
9                    0.975934197     -74.6062727
9.001                  0.9758759     -74.7189032
9.002                0.975817426      -74.831812
9.003                0.975758773     -74.9449998
9.004                0.975699942     -75.0584676
9.005                0.975640932      -75.172216
9.006                0.975581742      -75.286246
9.007                0.975522373     -75.4005585
9.008                0.975462824     -75.5151543
9.009                0.975403094     -75.6300342
9.01                 0.975343183     -75.7451991
9.011                0.975283091     -75.8606499
9.012                0.975222817     -75.9763874
9.013                0.975162361     -76.0924125
9.014                0.975101722      -76.208726
9.015                0.975040901     -76.3253288
9.016                0.974979895     -76.4422218
9.017                0.974918707     -76.5594059
9.018                0.974857333     -76.6768819
9.019                0.974795776     -76.7946507
9.02                 0.974734033     -76.9127132
9.021                0.974672105     -77.0310702
9.022                0.974609991     -77.1497227
9.023                 0.97454769     -77.2686714
9.024                0.974485204     -77.3879174
9.025                 0.97442253     -77.5074615
9.026                0.974359669     -77.6273046
9.027                 0.97429662     -77.7474475
9.028                0.974233383     -77.8678912
9.029                0.974169958     -77.9886365
9.03                 0.974106343     -78.1096844
9.031                 0.97404254     -78.2310358
9.032                0.973978546     -78.3526915
9.033                0.973914363     -78.4746525
9.034                 0.97384999     -78.5969197
9.035                0.973785425     -78.7194939
9.036                 0.97372067     -78.8423761
9.037                0.973655723     -78.9655672
9.038                0.973590584     -79.0890681
9.039                0.973525253     -79.2128797
9.04                 0.973459729     -79.3370029
9.041                0.973394013     -79.4614387
9.042                0.973328103      -79.586188
9.043                   0.973262     -79.7112517
9.044                0.973195702     -79.8366306
9.045                0.973129211     -79.9623259
9.046                0.973062524     -80.0883382
9.047                0.972995643     -80.2146687
9.048                0.972928567     -80.3413183
9.049                0.972861294     -80.4682877
9.05                 0.972793826     -80.5955781
9.051                0.972726162     -80.7231903
9.052                0.972658301     -80.8511253
9.053                0.972590243      -80.979384
9.054                0.972521988     -81.1079673
9.055                0.972453535     -81.2368762
9.056                0.972384884     -81.3661117
9.057                0.972316036     -81.4956747
9.058                0.972246988      -81.625566
9.059                0.972177742     -81.7557868
9.06                 0.972108297     -81.8863379
9.061                0.972038653     -82.0172203
9.062                0.971968809     -82.1484349
9.063                0.971898765     -82.2799827
9.064                0.971828521     -82.4118646
9.065                0.971758076     -82.5440817
9.066                0.971687431     -82.6766348
9.067                0.971616584      -82.809525
9.068                0.971545537     -82.9427532
9.069                0.971474288     -83.0763203
9.07                 0.971402837     -83.2102273
9.071                0.971331184     -83.3444753
9.072                0.971259328     -83.4790651
9.073                0.971187271     -83.6139977
9.074                 0.97111501     -83.7492741
9.075                0.971042547     -83.8848953
9.076                 0.97096988     -84.0208623
9.077                 0.97089701      -84.157176
9.078                0.970823936     -84.2938373
9.079                0.970750659     -84.4308474
9.08                 0.970677177     -84.5682071
9.081                0.970603491     -84.7059174
9.082                0.970529601     -84.8439794
9.083                0.970455506      -84.982394
9.084                0.970381206     -85.1211621
9.085                0.970306702     -85.2602848
9.086                0.970231992     -85.3997631
9.087                0.970157076     -85.5395979
9.088                0.970081956     -85.6797903
9.089                0.970006629     -85.8203411
9.09                 0.969931097     -85.9612515
9.091                0.969855359     -86.1025223
9.092                0.969779415     -86.2441547
9.093                0.969703264     -86.3861495
9.094                0.969626908     -86.5285078
9.095                0.969550344     -86.6712305
9.096                0.969473575     -86.8143188
9.097                0.969396598     -86.9577734
9.098                0.969319415     -87.1015956
9.099                0.969242025     -87.2457862
9.1                  0.969164428     -87.3903462
9.101                0.969086624     -87.5352767
9.102                0.969008612     -87.6805786
9.103                0.968930394     -87.8262529
9.104                0.968851968     -87.9723007
9.105                0.968773335     -88.1187229
9.106                0.968694495     -88.2655206
9.107                0.968615448     -88.4126947
9.108                0.968536193     -88.5602463
9.109                0.968456731     -88.7081763
9.11                 0.968377061     -88.8564858
9.111                0.968297184     -89.0051757
9.112                0.968217099      -89.154247
9.113                0.968136807     -89.3037009
9.114                0.968056308     -89.4535381
9.115                0.967975601     -89.6037599
9.116                0.967894687      -89.754367
9.117                0.967813566     -89.9053607
9.118                0.967732237     -90.0567418
9.119                0.967650702     -90.2085114
9.12                 0.967568959     -90.3606705
9.121                0.967487009     -90.5132201
9.122                0.967404853     -90.6661611
9.123                0.967322489     -90.8194946
9.124                0.967239919     -90.9732216
9.125                0.967157143     -91.1273431
9.126                 0.96707416     -91.2818601
9.127                 0.96699097     -91.4367736
9.128                0.966907574     -91.5920845
9.129                0.966823973      -91.747794
9.13                 0.966740165     -91.9039029
9.131                0.966656152     -92.0604124
9.132                0.966571933     -92.2173233
9.133                 0.96648751     -92.3746367
9.134                0.966402881     -92.5323536
9.135                0.966318047     -92.6904749
9.136                0.966233008     -92.8490018
9.137                0.966147765     -93.0079351
9.138                0.966062318     -93.1672759
9.139                0.965976667     -93.3270251
9.14                 0.965890813     -93.4871837
9.141                0.965804755     -93.6477529
9.142                0.965718494     -93.8087334
9.143                 0.96563203     -93.9701263
9.144                0.965545364     -94.1319327
9.145                0.965458496     -94.2941534
9.146                0.965371426     -94.4567895
9.147                0.965284155      -94.619842
9.148                0.965196683     -94.7833118
9.149                 0.96510901     -94.9471999
9.15                 0.965021137     -95.1115073
9.151                0.964933064      -95.276235
9.152                0.964844792     -95.4413839
9.153                 0.96475632     -95.6069551
9.154                0.964667651     -95.7729494
9.155                0.964578783     -95.9393679
9.156                0.964489717     -96.1062116
9.157                0.964400454     -96.2734813
9.158                0.964310995      -96.441178
9.159                0.964221339     -96.6093028
9.16                 0.964131488     -96.7778566
9.161                0.964041442     -96.9468403
9.162                0.963951201     -97.1162549
9.163                0.963860767     -97.2861013
9.164                0.963770139     -97.4563805
9.165                0.963679318     -97.6270935
9.166                0.963588305     -97.7982411
9.167                  0.9634971     -97.9698243
9.168                0.963405705     -98.1418441
9.169                0.963314119     -98.3143014
9.17                 0.963222344     -98.4871972
9.171                 0.96313038     -98.6605323
9.172                0.963038227     -98.8343076
9.173                0.962945887     -99.0085242
9.174                0.962853361     -99.1831829
9.175                0.962760648     -99.3582847
9.176                 0.96266775     -99.5338304
9.177                0.962574668      -99.709821
9.178                0.962481402     -99.8862573
9.179                0.962387953      -100.06314
9.18                 0.962294322     -100.240471
9.181                 0.96220051      -100.41825
9.182                0.962106517     -100.596479
9.183                0.962012345     -100.775157
9.184                0.961917995     -100.954287
9.185                0.961823467     -101.133869
9.186                0.961728762     -101.313904
9.187                0.961633882     -101.494392
9.188                0.961538826     -101.675335
9.189                0.961443597     -101.856734
9.19                 0.961348195     -102.038589
9.191                0.961252622     -102.220901
9.192                0.961156877     -102.403672
9.193                0.961060963     -102.586901
9.194                0.960964881      -102.77059
9.195                 0.96086863     -102.954739
9.196                0.960772214      -103.13935
9.197                0.960675632     -103.324423
9.198                0.960578886     -103.509959
9.199                0.960481977     -103.695959
9.2                  0.960384907     -103.882424
9.201                0.960287676     -104.069354
9.202                0.960190285     -104.256751
9.203                0.960092737     -104.444614
9.204                0.959995031     -104.632945
9.205                0.959897171     -104.821745
9.206                0.959799156     -105.011015
9.207                0.959700988     -105.200754
9.208                0.959602669     -105.390965
9.209                  0.9595042     -105.581647
9.21                 0.959405582     -105.772801
9.211                0.959306816     -105.964429
9.212                0.959207905      -106.15653
9.213                 0.95910885     -106.349106
9.214                0.959009651     -106.542158
9.215                0.958910311     -106.735686
9.216                0.958810831      -106.92969
9.217                0.958711213     -107.124172
9.218                0.958611458     -107.319132
9.219                0.958511568      -107.51457
9.22                 0.958411545     -107.710489
9.221                0.958311389     -107.906887
9.222                0.958211103     -108.103766
9.223                0.958110689     -108.301127
9.224                0.958010147      -108.49897
9.225                0.957909481     -108.697296
9.226                0.957808691     -108.896105
9.227                0.957707779     -109.095399
9.228                0.957606748     -109.295176
9.229                0.957505598      -109.49544
9.23                 0.957404333     -109.696189
9.231                0.957302953     -109.897424
9.232                 0.95720146     -110.099147
9.233                0.957099858     -110.301357
9.234                0.956998146     -110.504055
9.235                0.956896328     -110.707242
9.236                0.956794406     -110.910918
9.237                 0.95669238     -111.115084
9.238                0.956590254      -111.31974
9.239                 0.95648803     -111.524887
9.24                 0.956385709     -111.730525
9.241                0.956283294     -111.936655
9.242                0.956180787     -112.143278
9.243                 0.95607819     -112.350393
9.244                0.955975505     -112.558001
9.245                0.955872734     -112.766104
9.246                0.955769881       -112.9747
9.247                0.955666945      -113.18379
9.248                0.955563932     -113.393376
9.249                0.955460841     -113.603457
9.25                 0.955357677     -113.814034
9.251                 0.95525444     -114.025107
9.252                0.955151135     -114.236677
9.253                0.955047762     -114.448743
9.254                0.954944325     -114.661307
9.255                0.954840826     -114.874368
9.256                0.954737267     -115.087927
9.257                0.954633651     -115.301984
9.258                0.954529981      -115.51654
9.259                0.954426258     -115.731595
9.26                 0.954322487     -115.947149
9.261                0.954218669     -116.163202
9.262                0.954114806     -116.379755
9.263                0.954010903     -116.596808
9.264                0.953906961      -116.81436
9.265                0.953802983     -117.032413
9.266                0.953698971     -117.250967
9.267                 0.95359493     -117.470021
9.268                0.953490861     -117.689576
9.269                0.953386767     -117.909632
9.27                 0.953282651      -118.13019
9.271                0.953178517     -118.351248
9.272                0.953074366     -118.572808
9.273                0.952970203      -118.79487
9.274                0.952866029     -119.017433
9.275                0.952761849     -119.240498
9.276                0.952657664     -119.464064
9.277                0.952553479     -119.688133
9.278                0.952449295     -119.912703
9.279                0.952345117     -120.137775
9.28                 0.952240947     -120.363349
9.281                0.952136789     -120.589425
9.282                0.952032646     -120.816003
9.283                 0.95192852     -121.043082
9.284                0.951824416     -121.270663
9.285                0.951720336     -121.498746
9.286                0.951616284      -121.72733
9.287                0.951512264     -121.956415
9.288                0.951408277     -122.186002
9.289                0.951304329      -122.41609
9.29                 0.951200422     -122.646679
9.291                 0.95109656     -122.877769
9.292                0.950992745      -123.10936
9.293                0.950888983     -123.341451
9.294                0.950785276     -123.574042
9.295                0.950681627     -123.807133
9.296                0.950578041     -124.040724
9.297                0.950474521     -124.274814
9.298                 0.95037107     -124.509403
9.299                0.950267692     -124.744491
9.3                  0.950164391     -124.980078
9.301                0.950061171     -125.216162
9.302                0.949958035     -125.452745
9.303                0.949854988     -125.689825
9.304                0.949752032     -125.927401
9.305                0.949649171     -126.165475
9.306                 0.94954641     -126.404044
9.307                0.949443752     -126.643109
9.308                0.949341202      -126.88267
9.309                0.949238762     -127.122724
9.31                 0.949136438     -127.363274
9.311                0.949034232     -127.604316
9.312                 0.94893215     -127.845852
9.313                0.948830194      -128.08788
9.314                0.948728369       -128.3304
9.315                 0.94862668     -128.573411
9.316                0.948525129     -128.816913
9.317                0.948423722     -129.060905
9.318                0.948322461     -129.305387
9.319                0.948221353     -129.550357
9.32                 0.948120399     -129.795814
9.321                0.948019606     -130.041759
9.322                0.947918976      -130.28819
9.323                0.947818515     -130.535107
9.324                0.947718226     -130.782509
9.325                0.947618114     -131.030395
9.326                0.947518183     -131.278764
9.327                0.947418437     -131.527615
9.328                0.947318881     -131.776947
9.329                0.947219519      -132.02676
9.33                 0.947120355     -132.277053
9.331                0.947021394     -132.527824
9.332                0.946922641     -132.779073
9.333                0.946824098     -133.030799
9.334                0.946725772        -133.283
9.335                0.946627667     -133.535676
9.336                0.946529787     -133.788825
9.337                0.946432136     -134.042447
9.338                0.946334719      -134.29654
9.339                0.946237541     -134.551104
9.34                 0.946140606     -134.806136
9.341                0.946043919     -135.061637
9.342                0.945947485     -135.317604
9.343                0.945851307     -135.574037
9.344                0.945755391     -135.830933
9.345                0.945659741     -136.088293
9.346                0.945564362     -136.346115
9.347                0.945469258     -136.604397
9.348                0.945374435     -136.863138
9.349                0.945279897     -137.122337
9.35                 0.945185648     -137.381992
9.351                0.945091694     -137.642103
9.352                0.944998038     -137.902666
9.353                0.944904687     -138.163682
9.354                0.944811644     -138.425148
9.355                0.944718915     -138.687064
9.356                0.944626504     -138.949427
9.357                0.944534415     -139.212236
9.358                0.944442655     -139.475489
9.359                0.944351227     -139.739186
9.36                 0.944260136     -140.003323
9.361                0.944169388     -140.267901
9.362                0.944078986     -140.532916
9.363                0.943988937     -140.798367
9.364                0.943899244     -141.064253
9.365                0.943809912     -141.330572
9.366                0.943720947     -141.597322
9.367                0.943632353     -141.864501
9.368                0.943544136     -142.132107
9.369                0.943456299     -142.400139
9.37                 0.943368848     -142.668595
9.371                0.943281788     -142.937473
9.372                0.943195124     -143.206771
9.373                 0.94310886     -143.476487
9.374                0.943023001     -143.746619
9.375                0.942937553     -144.017165
9.376                 0.94285252     -144.288123
9.377                0.942767907     -144.559491
9.378                0.942683718     -144.831267
9.379                 0.94259996     -145.103449
9.38                 0.942516636     -145.376035
9.381                0.942433752     -145.649023
9.382                0.942351312      -145.92241
9.383                0.942269321     -146.196194
9.384                0.942187785     -146.470374
9.385                0.942106707     -146.744947
9.386                0.942026093      -147.01991
9.387                0.941945948     -147.295262
9.388                0.941866277        -147.571
9.389                0.941787083     -147.847122
9.39                 0.941708373     -148.123625
9.391                0.941630151     -148.400507
9.392                0.941552422     -148.677766
9.393                 0.94147519       -148.9554
9.394                0.941398461     -149.233405
9.395                0.941322238     -149.511779
9.396                0.941246528     -149.790521
