! TOUCHSTONE file generated by CST DESIGN STUDIO
! Date and time: Tue Feb  4 18:05:55 2025
! Project name: C:\Work\MatlabApps\UnitCellOptimizationMatlab\CST\unitcell.cst
! Tree item: Tasks\Sweep1\SPara1\S-Parameters
! Header version: 2024
! Port assignment regex: !\s*Touchstone port\s*([0-9]+)\s*=\s*(CST MWS port|CST DES external port|CST DES block port)\s*(.+)\s* \(\"(.*)\"\)(\s*mode\s*([0-9]+))?.*
! Touchstone port assignment:
! Touchstone port 1 = CST DES external port 1 ("")
# GHz S MA R 50
9                    0.975410145      -80.319651
9.001                   0.975347     -80.4460939
9.002                0.975283668     -80.5728556
9.003                0.975220148     -80.6999372
9.004                0.975156441     -80.8273395
9.005                0.975092546     -80.9550635
9.006                0.975028462     -81.0831102
9.007                 0.97496419     -81.2114804
9.008                0.974899729     -81.3401752
9.009                0.974835078     -81.4691953
9.01                 0.974770238     -81.5985419
9.011                0.974705208     -81.7282158
9.012                0.974639988     -81.8582179
9.013                0.974574577     -81.9885493
9.014                0.974508976     -82.1192108
9.015                0.974443183     -82.2502034
9.016                0.974377199      -82.381528
9.017                0.974311023     -82.5131857
9.018                0.974244654     -82.6451773
9.019                0.974178094     -82.7775038
9.02                 0.974111341     -82.9101662
9.021                0.974044394     -83.0431655
9.022                0.973977255     -83.1765024
9.023                0.973909922     -83.3101782
9.024                0.973842395     -83.4441936
9.025                0.973774674     -83.5785497
9.026                0.973706759     -83.7132474
9.027                 0.97363865     -83.8482878
9.028                0.973570345     -83.9836716
9.029                0.973501846        -84.1194
9.03                 0.973433151     -84.2554739
9.031                 0.97336426     -84.3918943
9.032                0.973295174     -84.5286621
9.033                0.973225891     -84.6657783
9.034                0.973156412     -84.8032438
9.035                0.973086737     -84.9410598
9.036                0.973016865      -85.079227
9.037                0.972946796     -85.2177466
9.038                 0.97287653     -85.3566195
9.039                0.972806067     -85.4958466
9.04                 0.972735406     -85.6354289
9.041                0.972664547     -85.7753675
9.042                 0.97259349     -85.9156633
9.043                0.972522235     -86.0563173
9.044                0.972450782     -86.1973304
9.045                 0.97237913     -86.3387037
9.046                 0.97230728     -86.4804382
9.047                0.972235231     -86.6225348
9.048                0.972162983     -86.7649945
9.049                0.972090535     -86.9078183
9.05                 0.972017889     -87.0510071
9.051                0.971945043     -87.1945621
9.052                0.971871997     -87.3384841
9.053                0.971798752     -87.4827742
9.054                0.971725307     -87.6274334
9.055                0.971651662     -87.7724626
9.056                0.971577817     -87.9178628
9.057                0.971503772      -88.063635
9.058                0.971429527     -88.2097803
9.059                0.971355081     -88.3562996
9.06                 0.971280435     -88.5031939
9.061                0.971205589     -88.6504641
9.062                0.971130542     -88.7981114
9.063                0.971055294     -88.9461367
9.064                0.970979846      -89.094541
9.065                0.970904197     -89.2433252
9.066                0.970828347     -89.3924904
9.067                0.970752297     -89.5420376
9.068                0.970676046     -89.6919678
9.069                0.970599594     -89.8422819
9.07                 0.970522942     -89.9929809
9.071                0.970446088      -90.144066
9.072                0.970369034      -90.295538
9.073                0.970291779     -90.4473979
9.074                0.970214323     -90.5996468
9.075                0.970136667     -90.7522856
9.076                 0.97005881     -90.9053153
9.077                0.969980752      -91.058737
9.078                0.969902494     -91.2125515
9.079                0.969824035       -91.36676
9.08                 0.969745376     -91.5213635
9.081                0.969666516     -91.6763628
9.082                0.969587456      -91.831759
9.083                0.969508196     -91.9875531
9.084                0.969428737      -92.143746
9.085                0.969349077     -92.3003389
9.086                0.969269217     -92.4573326
9.087                0.969189158     -92.6147281
9.088                0.969108899     -92.7725265
9.089                0.969028442     -92.9307287
9.09                 0.968947784     -93.0893358
9.091                0.968866928     -93.2483486
9.092                0.968785874     -93.4077682
9.093                 0.96870462     -93.5675956
9.094                0.968623169     -93.7278318
9.095                0.968541519     -93.8884777
9.096                0.968459671     -94.0495342
9.097                0.968377626     -94.2110025
9.098                0.968295383     -94.3728835
9.099                0.968212943     -94.5351781
9.1                  0.968130306     -94.6978874
9.101                0.968047473     -94.8610122
9.102                0.967964443     -95.0245536
9.103                0.967881217     -95.1885126
9.104                0.967797796       -95.35289
9.105                 0.96771418      -95.517687
9.106                0.967630368     -95.6829044
9.107                0.967546362     -95.8485432
9.108                0.967462162     -96.0146044
9.109                0.967377768     -96.1810889
9.11                  0.96729318     -96.3479977
9.111                0.967208399     -96.5153317
9.112                0.967123426      -96.683092
9.113                0.967038261     -96.8512794
9.114                0.966952904     -97.0198949
9.115                0.966867355     -97.1889394
9.116                0.966781616     -97.3584139
9.117                0.966695686     -97.5283194
9.118                0.966609567     -97.6986568
9.119                0.966523258     -97.8694269
9.12                 0.966436761     -98.0406308
9.121                0.966350075     -98.2122694
9.122                0.966263201     -98.3843436
9.123                0.966176141     -98.5568543
9.124                0.966088894     -98.7298024
9.125                0.966001461      -98.903189
9.126                0.965913842     -99.0770148
9.127                0.965826039     -99.2512808
9.128                0.965738052      -99.425988
9.129                0.965649881     -99.6011371
9.13                 0.965561528     -99.7767292
9.131                0.965472993     -99.9527651
9.132                0.965384276     -100.129246
9.133                0.965295378     -100.306172
9.134                0.965206301     -100.483545
9.135                0.965117045     -100.661365
9.136                 0.96502761     -100.839633
9.137                0.964937997     -101.018351
9.138                0.964848208     -101.197518
9.139                0.964758243     -101.377137
9.14                 0.964668102     -101.557207
9.141                0.964577787      -101.73773
9.142                0.964487299     -101.918706
9.143                0.964396638     -102.100136
9.144                0.964305806     -102.282022
9.145                0.964214802     -102.464364
9.146                0.964123629     -102.647163
9.147                0.964032287     -102.830419
9.148                0.963940777     -103.014134
9.149                  0.9638491     -103.198308
9.15                 0.963757257     -103.382942
9.151                0.963665249     -103.568037
9.152                0.963573078     -103.753594
9.153                0.963480743     -103.939613
9.154                0.963388247     -104.126096
9.155                 0.96329559     -104.313043
9.156                0.963202773     -104.500455
9.157                0.963109798     -104.688333
9.158                0.963016666     -104.876677
9.159                0.962923377     -105.065488
9.16                 0.962829934     -105.254768
9.161                0.962736337     -105.444516
9.162                0.962642587     -105.634734
9.163                0.962548687     -105.825422
9.164                0.962454636     -106.016581
9.165                0.962360436     -106.208211
9.166                0.962266089     -106.400314
9.167                0.962171597     -106.592891
9.168                0.962076959     -106.785941
9.169                0.961982178     -106.979465
9.17                 0.961887255     -107.173465
9.171                0.961792191     -107.367941
9.172                0.961696989     -107.562894
9.173                0.961601649     -107.758324
9.174                0.961506172     -107.954231
9.175                0.961410561     -108.150618
9.176                0.961314817     -108.347483
9.177                0.961218941     -108.544829
9.178                0.961122934     -108.742655
9.179                  0.9610268     -108.940963
9.18                 0.960930538     -109.139752
9.181                0.960834151     -109.339023
9.182                0.960737641     -109.538778
9.183                0.960641008     -109.739016
9.184                0.960544256     -109.939738
9.185                0.960447384     -110.140945
9.186                0.960350396     -110.342637
9.187                0.960253293     -110.544816
9.188                0.960156076      -110.74748
9.189                0.960058748     -110.950632
9.19                 0.959961311     -111.154271
9.191                0.959863765     -111.358398
9.192                0.959766114     -111.563014
9.193                0.959668358     -111.768118
9.194                0.959570501     -111.973712
9.195                0.959472543     -112.179796
9.196                0.959374487     -112.386371
9.197                0.959276335     -112.593436
9.198                0.959178088     -112.800993
9.199                 0.95907975     -113.009041
9.2                  0.958981321     -113.217582
9.201                0.958882804     -113.426616
9.202                0.958784202     -113.636142
9.203                0.958685515     -113.846162
9.204                0.958586747     -114.056676
9.205                  0.9584879     -114.267683
9.206                0.958388975     -114.479186
9.207                0.958289976     -114.691183
9.208                0.958190904     -114.903676
9.209                0.958091761     -115.116664
9.21                  0.95799255     -115.330148
9.211                0.957893274     -115.544128
9.212                0.957793934     -115.758605
9.213                0.957694533     -115.973578
9.214                0.957595074     -116.189049
9.215                0.957495558     -116.405017
9.216                0.957395989     -116.621482
9.217                0.957296368     -116.838445
9.218                0.957196699     -117.055906
9.219                0.957096984     -117.273865
9.22                 0.956997225     -117.492322
9.221                0.956897425     -117.711278
9.222                0.956797586     -117.930733
9.223                0.956697712     -118.150686
9.224                0.956597805     -118.371138
9.225                0.956497867      -118.59209
9.226                0.956397902     -118.813541
9.227                0.956297912      -119.03549
9.228                0.956197899      -119.25794
9.229                0.956097868     -119.480888
9.23                 0.955997819     -119.704336
9.231                0.955897757     -119.928284
9.232                0.955797685     -120.152731
9.233                0.955697604     -120.377678
9.234                0.955597519     -120.603124
9.235                0.955497431     -120.829069
9.236                0.955397344     -121.055514
9.237                0.955297262     -121.282458
9.238                0.955197186     -121.509902
9.239                 0.95509712     -121.737845
9.24                 0.954997068     -121.966287
9.241                0.954897031     -122.195228
9.242                0.954797014     -122.424668
9.243                 0.95469702     -122.654606
9.244                0.954597051     -122.885043
9.245                0.954497111     -123.115978
9.246                0.954397204     -123.347412
9.247                0.954297331     -123.579343
9.248                0.954197498     -123.811772
9.249                0.954097706     -124.044698
9.25                  0.95399796     -124.278122
9.251                0.953898263     -124.512042
9.252                0.953798618     -124.746459
9.253                0.953699028     -124.981372
9.254                0.953599497     -125.216781
9.255                0.953500029     -125.452685
9.256                0.953400626     -125.689085
9.257                0.953301293     -125.925979
9.258                0.953202033     -126.163368
9.259                0.953102849      -126.40125
9.26                 0.953003746     -126.639626
9.261                0.952904726     -126.878495
9.262                0.952805794     -127.117856
9.263                0.952706952      -127.35771
9.264                0.952608206     -127.598054
9.265                0.952509557      -127.83889
9.266                0.952411011     -128.080216
9.267                0.952312571     -128.322031
9.268                 0.95221424     -128.564336
9.269                0.952116023     -128.807129
9.27                 0.952017923      -129.05041
9.271                0.951919945     -129.294178
9.272                0.951822091     -129.538433
9.273                0.951724366     -129.783174
9.274                0.951626774     -130.028399
9.275                0.951529318     -130.274109
9.276                0.951432004     -130.520302
9.277                0.951334834     -130.766978
9.278                0.951237812     -131.014136
9.279                0.951140944     -131.261776
9.28                 0.951044232     -131.509895
9.281                0.950947681     -131.758494
9.282                0.950851294     -132.007571
9.283                0.950755077     -132.257126
9.284                0.950659033     -132.507158
9.285                0.950563166     -132.757665
9.286                 0.95046748     -133.008647
9.287                 0.95037198     -133.260102
9.288                0.950276669     -133.512031
9.289                0.950181553      -133.76443
9.29                 0.950086635     -134.017301
9.291                0.949991919     -134.270641
9.292                 0.94989741     -134.524449
9.293                0.949803112     -134.778725
9.294                0.949709029     -135.033466
9.295                0.949615166     -135.288673
9.296                0.949521527     -135.544343
9.297                0.949428116     -135.800476
9.298                0.949334938      -136.05707
9.299                0.949241997     -136.314124
9.3                  0.949149297     -136.571636
9.301                0.949056843     -136.829606
9.302                 0.94896464     -137.088032
9.303                0.948872691     -137.346912
9.304                0.948781001     -137.606246
9.305                0.948689575     -137.866032
9.306                0.948598417     -138.126268
9.307                0.948507532     -138.386953
9.308                0.948416924     -138.648086
9.309                0.948326597     -138.909664
9.31                 0.948236557     -139.171687
9.311                0.948146807     -139.434153
9.312                0.948057353      -139.69706
9.313                0.947968198     -139.960407
9.314                0.947879348     -140.224192
9.315                0.947790806     -140.488414
9.316                0.947702578      -140.75307
9.317                0.947614668      -141.01816
9.318                0.947527081     -141.283681
9.319                0.947439821     -141.549631
9.32                 0.947352893      -141.81601
9.321                0.947266301     -142.082814
9.322                 0.94718005     -142.350043
9.323                0.947094145     -142.617695
9.324                0.947008591     -142.885767
9.325                0.946923391     -143.154257
9.326                0.946838551     -143.423165
9.327                0.946754075     -143.692487
9.328                0.946669968     -143.962222
9.329                0.946586235     -144.232369
9.33                  0.94650288     -144.502924
9.331                0.946419907     -144.773886
9.332                0.946337322     -145.045253
9.333                0.946255129     -145.317023
9.334                0.946173333     -145.589193
9.335                0.946091938     -145.861762
9.336                 0.94601095     -146.134727
9.337                0.945930371     -146.408087
9.338                0.945850208     -146.681838
9.339                0.945770465      -146.95598
9.34                 0.945691147     -147.230509
9.341                0.945612257     -147.505423
9.342                0.945533801      -147.78072
9.343                0.945455784     -148.056398
9.344                0.945378209     -148.332454
9.345                0.945301082     -148.608886
9.346                0.945224408     -148.885692
9.347                0.945148189     -149.162869
9.348                0.945072432     -149.440415
9.349                0.944997141     -149.718327
9.35                  0.94492232     -149.996602
9.351                0.944847974     -150.275239
9.352                0.944774108     -150.554235
9.353                0.944700725     -150.833587
9.354                0.944627831     -151.113292
9.355                0.944555429     -151.393349
9.356                0.944483525     -151.673753
9.357                0.944412123     -151.954504
9.358                0.944341227     -152.235597
9.359                0.944270841     -152.517031
9.36                 0.944200971     -152.798803
9.361                 0.94413162     -153.080909
9.362                0.944062793     -153.363348
9.363                0.943994494     -153.646116
9.364                0.943926727      -153.92921
9.365                0.943859498     -154.212628
9.366                0.943792809     -154.496367
9.367                0.943726666     -154.780424
9.368                0.943661072     -155.064796
9.369                0.943596032      -155.34948
9.37                  0.94353155     -155.634474
9.371                0.943467631     -155.919774
9.372                0.943404277     -156.205376
9.373                0.943341494      -156.49128
9.374                0.943279286      -156.77748
9.375                0.943217656     -157.063975
9.376                0.943156609      -157.35076
9.377                0.943096149     -157.637834
9.378                0.943036279     -157.925193
9.379                0.942977004     -158.212833
9.38                 0.942918328     -158.500753
9.381                0.942860254     -158.788947
9.382                0.942802786     -159.077414
9.383                0.942745929      -159.36615
9.384                0.942689686     -159.655152
9.385                 0.94263406     -159.944416
9.386                0.942579056      -160.23394
9.387                0.942524677      -160.52372
9.388                0.942470927     -160.813752
9.389                0.942417809     -161.104034
9.39                 0.942365328     -161.394562
9.391                0.942313486     -161.685332
9.392                0.942262287     -161.976342
9.393                0.942211735     -162.267588
9.394                0.942161834     -162.559066
9.395                0.942112585     -162.850774
9.396                0.942063994     -163.142707
