! TOUCHSTONE file generated by CST DESIGN STUDIO
! Date and time: Tue Feb  4 18:06:07 2025
! Project name: C:\Work\MatlabApps\UnitCellOptimizationMatlab\CST\unitcell.cst
! Tree item: Tasks\Sweep1\SPara1\S-Parameters
! Header version: 2024
! Port assignment regex: !\s*Touchstone port\s*([0-9]+)\s*=\s*(CST MWS port|CST DES external port|CST DES block port)\s*(.+)\s* \(\"(.*)\"\)(\s*mode\s*([0-9]+))?.*
! Touchstone port assignment:
! Touchstone port 1 = CST DES external port 1 ("")
# GHz S MA R 50
9                    0.976854635     -65.9274081
9.001                0.976804484     -66.0207868
9.002                 0.97675418     -66.1143865
9.003                0.976703723     -66.2082078
9.004                0.976653111     -66.3022513
9.005                0.976602344     -66.3965178
9.006                0.976551423     -66.4910079
9.007                0.976500346     -66.5857224
9.008                0.976449113     -66.6806619
9.009                0.976397724     -66.7758272
9.01                 0.976346178     -66.8712189
9.011                0.976294474     -66.9668377
9.012                0.976242613     -67.0626844
9.013                0.976190593     -67.1587597
9.014                0.976138415     -67.2550642
9.015                0.976086078     -67.3515987
9.016                0.976033581     -67.4483639
9.017                0.975980924     -67.5453605
9.018                0.975928106     -67.6425892
9.019                0.975875128     -67.7400508
9.02                 0.975821988     -67.8377459
9.021                0.975768686     -67.9356753
9.022                0.975715222     -68.0338398
9.023                0.975661595     -68.1322399
9.024                0.975607805     -68.2308766
9.025                0.975553852     -68.3297505
9.026                0.975499734     -68.4288624
9.027                0.975445451     -68.5282129
9.028                0.975391004     -68.6278029
9.029                0.975336391      -68.727633
9.03                 0.975281612     -68.8277041
9.031                0.975226666     -68.9280168
9.032                0.975171554      -69.028572
9.033                0.975116274     -69.1293703
9.034                0.975060827     -69.2304126
9.035                0.975005211     -69.3316995
9.036                0.974949427     -69.4332319
9.037                0.974893473     -69.5350105
9.038                 0.97483735      -69.637036
9.039                0.974781056     -69.7393093
9.04                 0.974724592     -69.8418311
9.041                0.974667957     -69.9446021
9.042                0.974611151     -70.0476232
9.043                0.974554173     -70.1508951
9.044                0.974497022     -70.2544186
9.045                0.974439698     -70.3581945
9.046                0.974382201     -70.4622235
9.047                0.974324531     -70.5665065
9.048                0.974266686     -70.6710442
9.049                0.974208666     -70.7758374
9.05                 0.974150472     -70.8808869
9.051                0.974092101     -70.9861936
9.052                0.974033555     -71.0917581
9.053                0.973974832     -71.1975813
9.054                0.973915932      -71.303664
9.055                0.973856855      -71.410007
9.056                  0.9737976     -71.5166112
9.057                0.973738167     -71.6234772
9.058                0.973678555     -71.7306059
9.059                0.973618763     -71.8379982
9.06                 0.973558792     -71.9456548
9.061                0.973498641     -72.0535766
9.062                0.973438309     -72.1617643
9.063                0.973377797     -72.2702189
9.064                0.973317102     -72.3789411
9.065                0.973256226     -72.4879317
9.066                0.973195168     -72.5971916
9.067                0.973133926     -72.7067216
9.068                0.973072502     -72.8165225
9.069                0.973010893     -72.9265952
9.07                 0.972949101     -73.0369406
9.071                0.972887124     -73.1475594
9.072                0.972824962     -73.2584524
9.073                0.972762614     -73.3696206
9.074                0.972700081     -73.4810648
9.075                0.972637361     -73.5927858
9.076                0.972574454     -73.7047845
9.077                 0.97251136     -73.8170617
9.078                0.972448078     -73.9296183
9.079                0.972384608     -74.0424552
9.08                  0.97232095     -74.1555731
9.081                0.972257103     -74.2689731
9.082                0.972193066     -74.3826558
9.083                0.972128839     -74.4966223
9.084                0.972064422     -74.6108733
9.085                0.971999815     -74.7254097
9.086                0.971935016     -74.8402325
9.087                0.971870026     -74.9553424
9.088                0.971804843     -75.0707404
9.089                0.971739469     -75.1864274
9.09                 0.971673901     -75.3024041
9.091                 0.97160814     -75.4186716
9.092                0.971542186     -75.5352307
9.093                0.971476038     -75.6520822
9.094                0.971409695     -75.7692271
9.095                0.971343157     -75.8866663
9.096                0.971276423     -76.0044007
9.097                0.971209494     -76.1224311
9.098                0.971142369     -76.2407584
9.099                0.971075048     -76.3593837
9.1                  0.971007529     -76.4783077
9.101                0.970939813     -76.5975313
9.102                  0.9708719     -76.7170555
9.103                0.970803788     -76.8368813
9.104                0.970735478     -76.9570094
9.105                0.970666969     -77.0774408
9.106                 0.97059826     -77.1981765
9.107                0.970529352     -77.3192173
9.108                0.970460244     -77.4405642
9.109                0.970390935     -77.5622181
9.11                 0.970321426     -77.6841799
9.111                0.970251715     -77.8064505
9.112                0.970181802      -77.929031
9.113                0.970111688     -78.0519221
9.114                0.970041372     -78.1751249
9.115                0.969970852     -78.2986402
9.116                 0.96990013     -78.4224691
9.117                0.969829204     -78.5466124
9.118                0.969758075     -78.6710711
9.119                0.969686741     -78.7958461
9.12                 0.969615203     -78.9209384
9.121                 0.96954346      -79.046349
9.122                0.969471512     -79.1720787
9.123                0.969399359     -79.2981285
9.124                0.969326999     -79.4244995
9.125                0.969254434     -79.5511924
9.126                0.969181661     -79.6782084
9.127                0.969108683     -79.8055483
9.128                0.969035496     -79.9332132
9.129                0.968962103     -80.0612039
9.13                 0.968888502     -80.1895214
9.131                0.968814692     -80.3181668
9.132                0.968740674     -80.4471409
9.133                0.968666448     -80.5764448
9.134                0.968592012     -80.7060794
9.135                0.968517367     -80.8360456
9.136                0.968442513     -80.9663446
9.137                0.968367448     -81.0969772
9.138                0.968292174     -81.2279444
9.139                0.968216689     -81.3592472
9.14                 0.968140993     -81.4908866
9.141                0.968065086     -81.6228635
9.142                0.967988968     -81.7551791
9.143                0.967912639     -81.8878341
9.144                0.967836097     -82.0208297
9.145                0.967759344     -82.1541668
9.146                0.967682378     -82.2878464
9.147                  0.9676052     -82.4218695
9.148                0.967527809     -82.5562371
9.149                0.967450205     -82.6909502
9.15                 0.967372388     -82.8260098
9.151                0.967294357     -82.9614169
9.152                0.967216113     -83.0971725
9.153                0.967137655     -83.2332776
9.154                0.967058983     -83.3697332
9.155                0.966980096     -83.5065402
9.156                0.966900995     -83.6436998
9.157                 0.96682168      -83.781213
9.158                0.966742149     -83.9190806
9.159                0.966662404     -84.0573038
9.16                 0.966582443     -84.1958836
9.161                0.966502267     -84.3348209
9.162                0.966421876     -84.4741168
9.163                0.966341269     -84.6137722
9.164                0.966260446     -84.7537883
9.165                0.966179407     -84.8941661
9.166                0.966098152     -85.0349065
9.167                0.966016681     -85.1760105
9.168                0.965934994     -85.3174792
9.169                 0.96585309     -85.4593137
9.17                 0.965770969     -85.6015149
9.171                0.965688632     -85.7440838
9.172                0.965606079     -85.8870216
9.173                0.965523308     -86.0303291
9.174                0.965440321     -86.1740075
9.175                0.965357116     -86.3180578
9.176                0.965273695      -86.462481
9.177                0.965190057      -86.607278
9.178                0.965106201     -86.7524501
9.179                0.965022129     -86.8979981
9.18                 0.964937839     -87.0439232
9.181                0.964853332     -87.1902263
9.182                0.964768608     -87.3369085
9.183                0.964683666     -87.4839708
9.184                0.964598508     -87.6314142
9.185                0.964513132     -87.7792399
9.186                0.964427539     -87.9274488
9.187                0.964341729     -88.0760419
9.188                0.964255702     -88.2250204
9.189                0.964169457     -88.3743851
9.19                 0.964082996     -88.5241373
9.191                0.963996318     -88.6742778
9.192                0.963909423     -88.8248078
9.193                0.963822311     -88.9757283
9.194                0.963734982     -89.1270403
9.195                0.963647437     -89.2787449
9.196                0.963559676      -89.430843
9.197                0.963471698     -89.5833358
9.198                0.963383504     -89.7362243
9.199                0.963295094     -89.8895095
9.2                  0.963206468     -90.0431925
9.201                0.963117626     -90.1972742
9.202                0.963028568     -90.3517558
9.203                0.962939296     -90.5066382
9.204                0.962849808     -90.6619225
9.205                0.962760105     -90.8176098
9.206                0.962670187     -90.9737011
9.207                0.962580055     -91.1301974
9.208                0.962489708     -91.2870997
9.209                0.962399148     -91.4444091
9.21                 0.962308373     -91.6021267
9.211                0.962217385     -91.7602534
9.212                0.962126184     -91.9187903
9.213                 0.96203477     -92.0777384
9.214                0.961943144     -92.2370988
9.215                0.961851305     -92.3968725
9.216                0.961759254     -92.5570605
9.217                0.961666991     -92.7176639
9.218                0.961574518     -92.8786836
9.219                0.961481833     -93.0401208
9.22                 0.961388938     -93.2019764
9.221                0.961295833     -93.3642514
9.222                0.961202518      -93.526947
9.223                0.961108994      -93.690064
9.224                0.961015261     -93.8536036
9.225                 0.96092132     -94.0175668
9.226                0.960827171     -94.1819545
9.227                0.960732814     -94.3467679
9.228                0.960638251     -94.5120078
9.229                0.960543481     -94.6776754
9.23                 0.960448505     -94.8437716
9.231                0.960353324     -95.0102975
9.232                0.960257938      -95.177254
9.233                0.960162348     -95.3446422
9.234                0.960066554     -95.5124631
9.235                0.959970557     -95.6807177
9.236                0.959874358     -95.8494069
9.237                0.959777956     -96.0185318
9.238                0.959681354     -96.1880935
9.239                0.959584551     -96.3580928
9.24                 0.959487549     -96.5285308
9.241                0.959390347     -96.6994084
9.242                0.959292946     -96.8707267
9.243                0.959195348     -97.0424866
9.244                0.959097553     -97.2146892
9.245                0.958999562     -97.3873354
9.246                0.958901375     -97.5604261
9.247                0.958802994     -97.7339624
9.248                0.958704419     -97.9079453
9.249                 0.95860565     -98.0823756
9.25                  0.95850669     -98.2572544
9.251                0.958407538     -98.4325827
9.252                0.958308195     -98.6083613
9.253                0.958208664     -98.7845913
9.254                0.958108943     -98.9612736
9.255                0.958009035     -99.1384091
9.256                0.957908939     -99.3159989
9.257                0.957808658     -99.4940437
9.258                0.957708192     -99.6725447
9.259                0.957607543     -99.8515027
9.26                  0.95750671     -100.030919
9.261                0.957405696     -100.210793
9.262                0.957304501     -100.391128
9.263                0.957203126     -100.571923
9.264                0.957101573      -100.75318
9.265                0.956999842       -100.9349
9.266                0.956897936     -101.117083
9.267                0.956795853      -101.29973
9.268                0.956693598     -101.482843
9.269                0.956591169     -101.666421
9.27                 0.956488569     -101.850467
9.271                0.956385798     -102.034981
9.272                0.956282858     -102.219963
9.273                0.956179751     -102.405415
9.274                0.956076477     -102.591338
9.275                0.955973038     -102.777732
9.276                0.955869436     -102.964598
9.277                0.955765671     -103.151938
9.278                0.955661745     -103.339751
9.279                0.955557659     -103.528039
9.28                 0.955453415     -103.716803
9.281                0.955349015     -103.906043
9.282                0.955244459     -104.095761
9.283                 0.95513975     -104.285957
9.284                0.955034888     -104.476631
9.285                0.954929876     -104.667786
9.286                0.954824714      -104.85942
9.287                0.954719405     -105.051537
9.288                0.954613951     -105.244135
9.289                0.954508352     -105.437216
9.29                  0.95440261     -105.630781
9.291                0.954296728      -105.82483
9.292                0.954190706     -106.019364
9.293                0.954084547     -106.214385
9.294                0.953978252     -106.409892
9.295                0.953871824     -106.605886
9.296                0.953765263     -106.802369
9.297                0.953658572      -106.99934
9.298                0.953551753     -107.196801
9.299                0.953444807     -107.394752
9.3                  0.953337736     -107.593194
9.301                0.953230543     -107.792128
9.302                 0.95312323     -107.991554
9.303                0.953015797     -108.191474
9.304                0.952908248     -108.391886
9.305                0.952800584     -108.592794
9.306                0.952692807     -108.794196
9.307                 0.95258492     -108.996094
9.308                0.952476925     -109.198488
9.309                0.952368823     -109.401379
9.31                 0.952260617     -109.604768
9.311                 0.95215231     -109.808654
9.312                0.952043902      -110.01304
9.313                0.951935397     -110.217924
9.314                0.951826797     -110.423309
9.315                0.951718105     -110.629194
9.316                0.951609321      -110.83558
9.317                 0.95150045     -111.042467
9.318                0.951391492     -111.249856
9.319                0.951282452     -111.457748
9.32                  0.95117333     -111.666144
9.321                 0.95106413     -111.875042
9.322                0.950954854     -112.084445
9.323                0.950845504     -112.294352
9.324                0.950736084     -112.504765
9.325                0.950626595     -112.715683
9.326                0.950517041     -112.927107
9.327                0.950407423     -113.139037
9.328                0.950297745     -113.351474
9.329                 0.95018801     -113.564418
9.33                 0.950078219      -113.77787
9.331                0.949968376      -113.99183
9.332                0.949858484     -114.206299
9.333                0.949748545     -114.421276
9.334                0.949638562     -114.636762
9.335                0.949528538     -114.852758
9.336                0.949418476     -115.069263
9.337                0.949308379     -115.286279
9.338                 0.94919825     -115.503805
9.339                0.949088091     -115.721842
9.34                 0.948977907     -115.940389
9.341                0.948867699     -116.159448
9.342                0.948757471     -116.379019
9.343                0.948647226     -116.599101
9.344                0.948536968     -116.819695
9.345                0.948426698     -117.040801
9.346                0.948316421      -117.26242
9.347                 0.94820614     -117.484551
9.348                0.948095858     -117.707195
9.349                0.947985578     -117.930352
9.35                 0.947875304     -118.154022
9.351                0.947765038     -118.378205
9.352                0.947654785     -118.602901
9.353                0.947544547      -118.82811
9.354                0.947434328     -119.053833
9.355                0.947324132     -119.280069
9.356                0.947213962     -119.506819
9.357                0.947103821     -119.734083
9.358                0.946993714      -119.96186
9.359                0.946883643      -120.19015
9.36                 0.946773612     -120.418954
9.361                0.946663625     -120.648272
9.362                0.946553686     -120.878103
9.363                0.946443798     -121.108447
9.364                0.946333965     -121.339305
9.365                 0.94622419     -121.570676
9.366                0.946114478      -121.80256
9.367                0.946004833     -122.034957
9.368                0.945895257     -122.267867
9.369                0.945785755     -122.501289
9.37                 0.945676332     -122.735224
9.371                0.945566989     -122.969671
9.372                0.945457733      -123.20463
9.373                0.945348567     -123.440101
9.374                0.945239494     -123.676084
9.375                0.945130519     -123.912578
9.376                0.945021645     -124.149582
9.377                0.944912878     -124.387098
9.378                 0.94480422     -124.625124
9.379                0.944695677      -124.86366
9.38                 0.944587252     -125.102705
9.381                 0.94447895      -125.34226
9.382                0.944370775     -125.582323
9.383                 0.94426273     -125.822895
9.384                0.944154821     -126.063975
9.385                0.944047052     -126.305562
9.386                0.943939426     -126.547656
9.387                0.943831949     -126.790257
9.388                0.943724625     -127.033364
9.389                0.943617458     -127.276976
9.39                 0.943510452     -127.521093
9.391                0.943403612     -127.765715
9.392                0.943296943      -128.01084
9.393                 0.94319045     -128.256468
9.394                0.943084135     -128.502598
9.395                0.942978005     -128.749231
9.396                0.942872064     -128.996364
