! TOUCHSTONE file generated by CST DESIGN STUDIO
! Date and time: Tue Feb  4 18:45:08 2025
! Project name: C:\Work\MatlabApps\UnitCellOptimizationMatlab\CST\unitcell.cst
! Tree item: Tasks\Sweep1\SPara1\S-Parameters
! Header version: 2024
! Port assignment regex: !\s*Touchstone port\s*([0-9]+)\s*=\s*(CST MWS port|CST DES external port|CST DES block port)\s*(.+)\s* \(\"(.*)\"\)(\s*mode\s*([0-9]+))?.*
! Touchstone port assignment:
! Touchstone port 1 = CST DES external port 1 ("")
# GHz S MA R 50
9                    0.970624282     -85.3113815
9.001                0.970448113     -85.4684542
9.002                0.970270869     -85.6259535
9.003                 0.97009255     -85.7838804
9.004                0.969913151     -85.9422361
9.005                0.969732672     -86.1010218
9.006                 0.96955111     -86.2602386
9.007                0.969368461     -86.4198877
9.008                0.969184725     -86.5799703
9.009                0.968999899     -86.7404875
9.01                  0.96881398     -86.9014404
9.011                0.968626966     -87.0628303
9.012                0.968438856     -87.2246582
9.013                0.968249646     -87.3869253
9.014                0.968059336     -87.5496329
9.015                0.967867922      -87.712782
9.016                0.967675403     -87.8763737
9.017                0.967481777     -88.0404094
9.018                0.967287041       -88.20489
9.019                0.967091195     -88.3698168
9.02                 0.966894235      -88.535191
9.021                0.966696161     -88.7010136
9.022                 0.96649697     -88.8672858
9.023                0.966296661     -89.0340089
9.024                0.966095231     -89.2011839
9.025                0.965892679      -89.368812
9.026                0.965689004     -89.5368943
9.027                0.965484203     -89.7054321
9.028                0.965278276     -89.8744264
9.029                0.965071221     -90.0438785
9.03                 0.964863035     -90.2137894
9.031                0.964653718     -90.3841603
9.032                0.964443269     -90.5549923
9.033                0.964231686     -90.7262867
9.034                0.964018967     -90.8980446
9.035                0.963805111      -91.070267
9.036                0.963590118     -91.2429552
9.037                0.963373986     -91.4161103
9.038                0.963156713     -91.5897334
9.039                0.962938299     -91.7638257
9.04                 0.962718743     -91.9383883
9.041                0.962498043     -92.1134224
9.042                0.962276199      -92.288929
9.043                 0.96205321     -92.4649094
9.044                0.961829075     -92.6413646
9.045                0.961603794     -92.8182959
9.046                0.961377364     -92.9957042
9.047                0.961149787     -93.1735908
9.048                0.960921061     -93.3519568
9.049                0.960691185     -93.5308033
9.05                  0.96046016     -93.7101314
9.051                0.960227984     -93.8899423
9.052                0.959994658      -94.070237
9.053                 0.95976018     -94.2510167
9.054                0.959524551     -94.4322825
9.055                0.959287771     -94.6140354
9.056                0.959049838     -94.7962767
9.057                0.958810754     -94.9790074
9.058                0.958570518     -95.1622287
9.059                 0.95832913     -95.3459415
9.06                 0.958086591     -95.5301471
9.061                0.957842899     -95.7148465
9.062                0.957598056     -95.9000408
9.063                0.957352062      -96.085731
9.064                0.957104917     -96.2719184
9.065                0.956856622     -96.4586039
9.066                0.956607177     -96.6457887
9.067                0.956356582     -96.8334737
9.068                0.956104839     -97.0216602
9.069                0.955851947     -97.2103491
9.07                 0.955597908     -97.3995415
9.071                0.955342722     -97.5892385
9.072                0.955086391     -97.7794411
9.073                0.954828915     -97.9701505
9.074                0.954570295     -98.1613676
9.075                0.954310533     -98.3530934
9.076                0.954049629     -98.5453291
9.077                0.953787585     -98.7380756
9.078                0.953524403     -98.9313341
9.079                0.953260083     -99.1251054
9.08                 0.952994627     -99.3193907
9.081                0.952728036      -99.514191
9.082                0.952460313     -99.7095072
9.083                0.952191459     -99.9053404
9.084                0.951921476     -100.101692
9.085                0.951650365     -100.298562
9.086                0.951378129     -100.495952
9.087                 0.95110477     -100.693863
9.088                 0.95083029     -100.892296
9.089                0.950554691     -101.091252
9.09                 0.950277975     -101.290732
9.091                0.950000145     -101.490737
9.092                0.949721203     -101.691267
9.093                0.949441151     -101.892325
9.094                0.949159994      -102.09391
9.095                0.948877732     -102.296023
9.096                 0.94859437     -102.498666
9.097                0.948309909      -102.70184
9.098                0.948024354     -102.905545
9.099                0.947737706     -103.109783
9.1                   0.94744997     -103.314554
9.101                0.947161148     -103.519859
9.102                0.946871244     -103.725699
9.103                0.946580261     -103.932075
9.104                0.946288203     -104.138988
9.105                0.945995074     -104.346438
9.106                0.945700878     -104.554427
9.107                0.945405617     -104.762956
9.108                0.945109297     -104.972024
9.109                0.944811921     -105.181634
9.11                 0.944513493     -105.391786
9.111                0.944214019     -105.602481
9.112                0.943913501     -105.813719
9.113                0.943611944     -106.025501
9.114                0.943309354     -106.237829
9.115                0.943005734     -106.450702
9.116                 0.94270109     -106.664123
9.117                0.942395427     -106.878091
9.118                0.942088748     -107.092607
9.119                0.941781061     -107.307672
9.12                 0.941472368     -107.523287
9.121                0.941162677     -107.739452
9.122                0.940851992     -107.956169
9.123                0.940540319     -108.173438
9.124                0.940227664     -108.391259
9.125                0.939914032     -108.609634
9.126                0.939599429     -108.828563
9.127                0.939283861     -109.048046
9.128                0.938967334     -109.268085
9.129                0.938649855      -109.48868
9.13                 0.938331429     -109.709831
9.131                0.938012063      -109.93154
9.132                0.937691764     -110.153807
9.133                0.937370538     -110.376632
9.134                0.937048393     -110.600017
9.135                0.936725334     -110.823961
9.136                0.936401369     -111.048465
9.137                0.936076504      -111.27353
9.138                0.935750749     -111.499157
9.139                0.935424108     -111.725345
9.14                 0.935096591     -111.952096
9.141                0.934768204      -112.17941
9.142                0.934438956     -112.407288
9.143                0.934108854     -112.635729
9.144                0.933777906     -112.864735
9.145                 0.93344612     -113.094306
9.146                0.933113505     -113.324442
9.147                0.932780068     -113.555143
9.148                0.932445818     -113.786411
9.149                0.932110764     -114.018246
9.15                 0.931774914     -114.250647
9.151                0.931438278     -114.483616
9.152                0.931100863     -114.717152
9.153                 0.93076268     -114.951257
9.154                0.930423737      -115.18593
9.155                0.930084044     -115.421171
9.156                 0.92974361     -115.656982
9.157                0.929402444     -115.893362
9.158                0.929060557     -116.130311
9.159                0.928717958     -116.367831
9.16                 0.928374657      -116.60592
9.161                0.928030664     -116.844579
9.162                0.927685989     -117.083809
9.163                0.927340643      -117.32361
9.164                0.926994636     -117.563982
9.165                0.926647979     -117.804924
9.166                0.926300682     -118.046438
9.167                0.925952756     -118.288523
9.168                0.925604213     -118.531179
9.169                0.925255063     -118.774407
9.17                 0.924905317     -119.018206
9.171                0.924554987     -119.262577
9.172                0.924204085     -119.507519
9.173                0.923852621     -119.753034
9.174                0.923500608     -119.999119
9.175                0.923148057     -120.245777
9.176                0.922794981     -120.493005
9.177                0.922441392     -120.740806
9.178                0.922087301     -120.989178
9.179                0.921732722     -121.238121
9.18                 0.921377666     -121.487635
9.181                0.921022147      -121.73772
9.182                0.920666177     -121.988377
9.183                0.920309769     -122.239604
9.184                0.919952936     -122.491402
9.185                0.919595691     -122.743769
9.186                0.919238048     -122.996708
9.187                0.918880019     -123.250215
9.188                0.918521619     -123.504293
9.189                0.918162861      -123.75894
9.19                 0.917803759     -124.014155
9.191                0.917444327     -124.269939
9.192                0.917084578     -124.526292
9.193                0.916724527     -124.783212
9.194                0.916364188       -125.0407
9.195                0.916003576     -125.298754
9.196                0.915642705     -125.557375
9.197                 0.91528159     -125.816563
9.198                0.914920246     -126.076316
9.199                0.914558687     -126.336633
9.2                  0.914196928     -126.597516
9.201                0.913834985     -126.858962
9.202                0.913472873     -127.120971
9.203                0.913110607     -127.383544
9.204                0.912748202     -127.646678
9.205                0.912385675     -127.910374
9.206                0.912023041      -128.17463
9.207                0.911660317     -128.439447
9.208                0.911297516     -128.704822
9.209                0.910934657     -128.970756
9.21                 0.910571755     -129.237248
9.211                0.910208827     -129.504297
9.212                0.909845888     -129.771902
9.213                0.909482956     -130.040062
9.214                0.909120047     -130.308776
9.215                0.908757177     -130.578044
9.216                0.908394365     -130.847864
9.217                0.908031625     -131.118236
9.218                0.907668977     -131.389158
9.219                0.907306436     -131.660629
9.22                 0.906944021     -131.932649
9.221                0.906581748     -132.205216
9.222                0.906219635     -132.478329
9.223                0.905857699     -132.751988
9.224                0.905495959      -133.02619
9.225                0.905134431     -133.300936
9.226                0.904773135     -133.576222
9.227                0.904412088     -133.852049
9.228                0.904051307     -134.128415
9.229                0.903690811     -134.405319
9.23                 0.903330619     -134.682759
9.231                0.902970749     -134.960734
9.232                0.902611218     -135.239243
9.233                0.902252046     -135.518285
9.234                0.901893251     -135.797856
9.235                0.901534852     -136.077958
9.236                0.901176868     -136.358587
9.237                0.900819317     -136.639742
9.238                0.900462218     -136.921423
9.239                0.900105591     -137.203626
9.24                 0.899749454     -137.486351
9.241                0.899393826     -137.769596
9.242                0.899038727     -138.053359
9.243                0.898684176     -138.337639
9.244                0.898330193     -138.622434
9.245                0.897976796     -138.907741
9.246                0.897624005      -139.19356
9.247                 0.89727184     -139.479888
9.248                 0.89692032     -139.766724
9.249                0.896569465     -140.054066
9.25                 0.896219294     -140.341911
9.251                0.895869828     -140.630258
9.252                0.895521086     -140.919105
9.253                0.895173088      -141.20845
9.254                0.894825854      -141.49829
9.255                0.894479404     -141.788624
9.256                0.894133757      -142.07945
9.257                0.893788935     -142.370766
9.258                0.893444956     -142.662568
9.259                0.893101841     -142.954856
9.26                  0.89275961     -143.247627
9.261                0.892418283     -143.540878
9.262                0.892077881     -143.834608
9.263                0.891738423     -144.128813
9.264                 0.89139993     -144.423493
9.265                0.891062422     -144.718643
9.266                0.890725919     -145.014262
9.267                0.890390442     -145.310348
9.268                0.890056011     -145.606898
9.269                0.889722646     -145.903909
9.27                 0.889390367     -146.201379
9.271                0.889059196     -146.499305
9.272                0.888729151     -146.797685
9.273                0.888400254     -147.096516
9.274                0.888072524     -147.395795
9.275                0.887745983      -147.69552
9.276                0.887420649     -147.995688
9.277                0.887096545     -148.296296
9.278                0.886773689     -148.597341
9.279                0.886452103     -148.898821
9.28                 0.886131806     -149.200733
9.281                0.885812818     -149.503073
9.282                 0.88549516     -149.805839
9.283                0.885178852     -150.109028
9.284                0.884863915     -150.412637
9.285                0.884550367     -150.716663
9.286                 0.88423823     -151.021102
9.287                0.883927523     -151.325952
9.288                0.883618266      -151.63121
9.289                0.883310479     -151.936873
9.29                 0.883004182     -152.242936
9.291                0.882699395     -152.549398
9.292                0.882396138     -152.856254
9.293                 0.88209443     -153.163502
9.294                0.881794292     -153.471139
9.295                0.881495741      -153.77916
9.296                0.881198799     -154.087563
9.297                0.880903485     -154.396344
9.298                0.880609818     -154.705499
9.299                0.880317817     -155.015026
9.3                  0.880027501     -155.324921
9.301                0.879738891      -155.63518
9.302                0.879452004       -155.9458
9.303                 0.87916686     -156.256777
9.304                0.878883477     -156.568108
9.305                0.878601876     -156.879788
9.306                0.878322073     -157.191815
9.307                0.878044088     -157.504185
9.308                 0.87776794     -157.816893
9.309                0.877493646     -158.129936
9.31                 0.877221225     -158.443311
9.311                0.876950696     -158.757013
9.312                0.876682076      -159.07104
9.313                0.876415383     -159.385385
9.314                0.876150635     -159.700047
9.315                 0.87588785     -160.015021
9.316                0.875627046     -160.330303
9.317                0.875368239      -160.64589
9.318                0.875111447     -160.961776
9.319                0.874856688     -161.277958
9.32                 0.874603979     -161.594433
9.321                0.874353335     -161.911196
9.322                0.874104775     -162.228242
9.323                0.873858315     -162.545568
9.324                0.873613971      -162.86317
9.325                0.873371759     -163.181044
9.326                0.873131696     -163.499184
9.327                0.872893798     -163.817588
9.328                0.872658081      -164.13625
9.329                 0.87242456     -164.455167
9.33                 0.872193251     -164.774335
9.331                0.871964169     -165.093748
9.332                 0.87173733     -165.413402
9.333                0.871512748     -165.733294
9.334                0.871290438     -166.053419
9.335                0.871070416     -166.373772
9.336                0.870852695     -166.694349
9.337                0.870637289     -167.015146
9.338                0.870424214     -167.336158
9.339                0.870213482      -167.65738
9.34                 0.870005108     -167.978809
9.341                0.869799106     -168.300438
9.342                0.869595487     -168.622265
9.343                0.869394267     -168.944285
9.344                0.869195457     -169.266492
9.345                 0.86899907     -169.588882
9.346                 0.86880512     -169.911452
9.347                0.868613617     -170.234195
9.348                0.868424575     -170.557107
9.349                0.868238006     -170.880184
9.35                  0.86805392     -171.203421
9.351                 0.86787233     -171.526813
9.352                0.867693247     -171.850356
9.353                0.867516682     -172.174044
9.354                0.867342646     -172.497874
9.355                0.867171149      -172.82184
9.356                0.867002201     -173.145937
9.357                0.866835814     -173.470161
9.358                0.866671997     -173.794507
9.359                0.866510759      -174.11897
9.36                 0.866352111     -174.443546
9.361                0.866196061     -174.768228
9.362                0.866042618     -175.093014
9.363                0.865891791     -175.417897
9.364                0.865743589     -175.742872
9.365                0.865598021     -176.067936
9.366                0.865455093     -176.393083
9.367                0.865314814     -176.718308
9.368                0.865177192     -177.043606
9.369                0.865042234     -177.368973
9.37                 0.864909946     -177.694403
9.371                0.864780337     -178.019891
9.372                0.864653412     -178.345433
9.373                0.864529177     -178.671024
9.374                 0.86440764     -178.996658
9.375                0.864288805     -179.322331
9.376                0.864172679     -179.648038
9.377                0.864059267     -179.973773
9.378                0.863948573      179.700467
9.379                0.863840603      179.374689
9.38                 0.863735361      179.048897
9.381                0.863632852      178.723097
9.382                0.863533079      178.397292
9.383                0.863436047      178.071488
9.384                 0.86334176      177.745691
9.385                0.863250219      177.419904
9.386                 0.86316143      177.094134
9.387                0.863075393      176.768384
9.388                0.862992113      176.442661
9.389                 0.86291159      176.116968
9.39                 0.862833828      175.791311
9.391                0.862758828      175.465696
9.392                0.862686591      175.140126
9.393                 0.86261712      174.814607
9.394                0.862550414      174.489144
9.395                0.862486474      174.163741
9.396                0.862425302      173.838404
