! TOUCHSTONE file generated by CST DESIGN STUDIO
! Date and time: Tue Feb  4 18:45:03 2025
! Project name: C:\Work\MatlabApps\UnitCellOptimizationMatlab\CST\unitcell.cst
! Tree item: Tasks\Sweep1\SPara1\S-Parameters
! Header version: 2024
! Port assignment regex: !\s*Touchstone port\s*([0-9]+)\s*=\s*(CST MWS port|CST DES external port|CST DES block port)\s*(.+)\s* \(\"(.*)\"\)(\s*mode\s*([0-9]+))?.*
! Touchstone port assignment:
! Touchstone port 1 = CST DES external port 1 ("")
# GHz S MA R 50
9                    0.971672919     -98.9216783
9.001                 0.97147384     -99.1228497
9.002                0.971273207      -99.324575
9.003                0.971071019     -99.5268551
9.004                0.970867273      -99.729691
9.005                0.970661968     -99.9330838
9.006                0.970455102     -100.137034
9.007                0.970246673     -100.341543
9.008                 0.97003668     -100.546612
9.009                 0.96982512     -100.752241
9.01                 0.969611993     -100.958432
9.011                0.969397296     -101.165185
9.012                 0.96918103     -101.372501
9.013                0.968963192     -101.580382
9.014                0.968743781     -101.788828
9.015                0.968522797     -101.997839
9.016                0.968300238     -102.207417
9.017                0.968076105     -102.417564
9.018                0.967850395     -102.628278
9.019                0.967623109     -102.839562
9.02                 0.967394245     -103.051416
9.021                0.967163805     -103.263842
9.022                0.966931786     -103.476839
9.023                 0.96669819     -103.690409
9.024                0.966463016     -103.904552
9.025                0.966226264     -104.119269
9.026                0.965987934     -104.334562
9.027                0.965748027      -104.55043
9.028                0.965506543     -104.766875
9.029                0.965263482     -104.983897
9.03                 0.965018845     -105.201497
9.031                0.964772633     -105.419677
9.032                0.964524846     -105.638435
9.033                0.964275486     -105.857774
9.034                0.964024554     -106.077693
9.035                 0.96377205     -106.298194
9.036                0.963517977     -106.519278
9.037                0.963262335     -106.740944
9.038                0.963005127     -106.963194
9.039                0.962746353     -107.186027
9.04                 0.962486016     -107.409446
9.041                0.962224118      -107.63345
9.042                0.961960661      -107.85804
9.043                0.961695646     -108.083217
9.044                0.961429077     -108.308981
9.045                0.961160956     -108.535332
9.046                0.960891285     -108.762272
9.047                0.960620067       -108.9898
9.048                0.960347305     -109.217918
9.049                0.960073003     -109.446625
9.05                 0.959797162     -109.675923
9.051                0.959519787     -109.905812
9.052                0.959240882     -110.136291
9.053                0.958960448     -110.367363
9.054                0.958678492     -110.599027
9.055                0.958395015     -110.831283
9.056                0.958110022     -111.064132
9.057                0.957823518     -111.297574
9.058                0.957535507      -111.53161
9.059                0.957245992      -111.76624
9.06                  0.95695498     -112.001465
9.061                0.956662474     -112.237284
9.062                0.956368479     -112.473698
9.063                0.956073001     -112.710707
9.064                0.955776045     -112.948313
9.065                0.955477616     -113.186514
9.066                0.955177719     -113.425311
9.067                0.954876361     -113.664704
9.068                0.954573547     -113.904694
9.069                0.954269283     -114.145281
9.07                 0.953963575     -114.386465
9.071                 0.95365643     -114.628246
9.072                0.953347854     -114.870624
9.073                0.953037854     -115.113599
9.074                0.952726436     -115.357172
9.075                0.952413608     -115.601342
9.076                0.952099377      -115.84611
9.077                0.951783749     -116.091476
9.078                0.951466733      -116.33744
9.079                0.951148336     -116.584001
9.08                 0.950828566      -116.83116
9.081                0.950507431     -117.078917
9.082                0.950184939     -117.327271
9.083                0.949861098     -117.576223
9.084                0.949535917     -117.825772
9.085                0.949209404     -118.075919
9.086                0.948881569     -118.326664
9.087                0.948552419     -118.578005
9.088                0.948221966     -118.829943
9.089                0.947890216     -119.082478
9.09                 0.947557182      -119.33561
9.091                0.947222871     -119.589338
9.092                0.946887293     -119.843663
9.093                 0.94655046     -120.098583
9.094                0.946212381     -120.354099
9.095                0.945873066      -120.61021
9.096                0.945532526     -120.866916
9.097                0.945190772     -121.124216
9.098                0.944847814     -121.382111
9.099                0.944503665       -121.6406
9.1                  0.944158334     -121.899682
9.101                0.943811834     -122.159357
9.102                0.943464176     -122.419624
9.103                0.943115372     -122.680483
9.104                0.942765433     -122.941934
9.105                0.942414373     -123.203976
9.106                0.942062204     -123.466608
9.107                0.941708937      -123.72983
9.108                0.941354586     -123.993641
9.109                0.940999164     -124.258041
9.11                 0.940642683     -124.523028
9.111                0.940285157     -124.788603
9.112                  0.9399266     -125.054764
9.113                0.939567024     -125.321511
9.114                0.939206444     -125.588842
9.115                0.938844874     -125.856758
9.116                0.938482327     -126.125258
9.117                0.938118819      -126.39434
9.118                0.937754363     -126.664003
9.119                0.937388974     -126.934248
9.12                 0.937022668     -127.205072
9.121                0.936655459     -127.476476
9.122                0.936287362     -127.748457
9.123                0.935918393     -128.021015
9.124                0.935548567     -128.294149
9.125                0.935177901     -128.567859
9.126                0.934806409     -128.842141
9.127                0.934434108     -129.116997
9.128                0.934061015     -129.392425
9.129                0.933687145     -129.668422
9.13                 0.933312516     -129.944989
9.131                0.932937144     -130.222125
9.132                0.932561045     -130.499826
9.133                0.932184238     -130.778094
9.134                 0.93180674     -131.056926
9.135                0.931428567      -131.33632
9.136                0.931049738     -131.616277
9.137                 0.93067027     -131.896793
9.138                0.930290181     -132.177868
9.139                 0.92990949     -132.459501
9.14                 0.929528214     -132.741689
9.141                0.929146372     -133.024432
9.142                0.928763983     -133.307727
9.143                0.928381065     -133.591574
9.144                0.927997638      -133.87597
9.145                 0.92761372     -134.160915
9.146                 0.92722933     -134.446406
9.147                0.926844489     -134.732441
9.148                0.926459215      -135.01902
9.149                0.926073528      -135.30614
9.15                 0.925687448     -135.593799
9.151                0.925300996     -135.881996
9.152                 0.92491419     -136.170729
9.153                0.924527052     -136.459996
9.154                0.924139601     -136.749795
9.155                0.923751859     -137.040125
9.156                0.923363846     -137.330982
9.157                0.922975583     -137.622366
9.158                0.922587091     -137.914274
9.159                0.922198391     -138.206704
9.16                 0.921809504     -138.499654
9.161                0.921420451     -138.793122
9.162                0.921031254     -139.087106
9.163                0.920641936     -139.381603
9.164                0.920252516     -139.676612
9.165                0.919863018     -139.972131
9.166                0.919473463     -140.268156
9.167                0.919083873     -140.564686
9.168                0.918694271     -140.861718
9.169                0.918304679      -141.15925
9.17                 0.917915119     -141.457279
9.171                0.917525613     -141.755804
9.172                0.917136186     -142.054821
9.173                0.916746858     -142.354328
9.174                0.916357654     -142.654323
9.175                0.915968595     -142.954803
9.176                0.915579706     -143.255765
9.177                0.915191009     -143.557207
9.178                0.914802527     -143.859126
9.179                0.914414284      -144.16152
9.18                 0.914026303     -144.464386
9.181                0.913638608      -144.76772
9.182                0.913251222     -145.071521
9.183                0.912864169     -145.375785
9.184                0.912477472     -145.680509
9.185                0.912091156     -145.985691
9.186                0.911705243     -146.291328
9.187                0.911319759     -146.597417
9.188                0.910934727     -146.903954
9.189                 0.91055017     -147.210937
9.19                 0.910166114     -147.518363
9.191                0.909782582     -147.826229
9.192                0.909399598     -148.134531
9.193                0.909017187     -148.443266
9.194                0.908635373     -148.752432
9.195                 0.90825418     -149.062024
9.196                0.907873632     -149.372041
9.197                0.907493754     -149.682478
9.198                0.907114571     -149.993332
9.199                0.906736107       -150.3046
9.2                  0.906358385     -150.616278
9.201                0.905981431     -150.928364
9.202                 0.90560527     -151.240853
9.203                0.905229924     -151.553742
9.204                0.904855421     -151.867028
9.205                0.904481782     -152.180708
9.206                0.904109034     -152.494777
9.207                  0.9037372     -152.809232
9.208                0.903366306     -153.124069
9.209                0.902996375     -153.439286
9.21                 0.902627432     -153.754877
9.211                0.902259502      -154.07084
9.212                0.901892609     -154.387171
9.213                0.901526778     -154.703865
9.214                0.901162032      -155.02092
9.215                0.900798396     -155.338331
9.216                0.900435895     -155.656094
9.217                0.900074553     -155.974206
9.218                0.899714393     -156.292663
9.219                0.899355441      -156.61146
9.22                  0.89899772     -156.930594
9.221                0.898641255     -157.250061
9.222                 0.89828607     -157.569857
9.223                0.897932187     -157.889977
9.224                0.897579633     -158.210418
9.225                0.897228429     -158.531176
9.226                0.896878601     -158.852246
9.227                0.896530171     -159.173624
9.228                0.896183164     -159.495306
9.229                0.895837602     -159.817288
9.23                  0.89549351     -160.139566
9.231                0.895150911     -160.462134
9.232                0.894809827      -160.78499
9.233                0.894470283     -161.108129
9.234                  0.8941323     -161.431546
9.235                0.893795903     -161.755236
9.236                0.893461114     -162.079197
9.237                0.893127956     -162.403422
9.238                0.892796451     -162.727909
9.239                0.892466622     -163.052651
9.24                 0.892138491     -163.377646
9.241                0.891812081     -163.702887
9.242                0.891487413     -164.028372
9.243                 0.89116451     -164.354094
9.244                0.890843394     -164.680051
9.245                0.890524085     -165.006236
9.246                0.890206606     -165.332645
9.247                0.889890978     -165.659275
9.248                0.889577223     -165.986119
9.249                0.889265361     -166.313174
9.25                 0.888955414     -166.640435
9.251                0.888647402     -166.967896
9.252                0.888341345     -167.295554
9.253                0.888037265     -167.623403
9.254                0.887735182     -167.951439
9.255                0.887435115     -168.279657
9.256                0.887137084     -168.608052
9.257                 0.88684111     -168.936619
9.258                0.886547212     -169.265354
9.259                0.886255409     -169.594251
9.26                 0.885965721     -169.923306
9.261                0.885678166     -170.252513
9.262                0.885392763     -170.581869
9.263                0.885109531     -170.911367
9.264                0.884828488     -171.241003
9.265                0.884549652     -171.570773
9.266                0.884273041      -171.90067
9.267                0.883998674     -172.230691
9.268                0.883726567      -172.56083
9.269                0.883456738     -172.891082
9.27                 0.883189204     -173.221441
9.271                0.882923982     -173.551904
9.272                0.882661088     -173.882465
9.273                0.882400539     -174.213119
9.274                0.882142352     -174.543861
9.275                0.881886541     -174.874686
9.276                0.881633123     -175.205588
9.277                0.881382114     -175.536564
9.278                0.881133527     -175.867606
9.279                 0.88088738     -176.198712
9.28                 0.880643686     -176.529874
9.281                0.880402459     -176.861089
9.282                0.880163714     -177.192351
9.283                0.879927466     -177.523655
9.284                0.879693727     -177.854996
9.285                0.879462512     -178.186369
9.286                0.879233833     -178.517768
9.287                0.879007704     -178.849189
9.288                0.878784136     -179.180626
9.289                0.878563144     -179.512074
9.29                 0.878344739     -179.843528
9.291                0.878128932      179.825016
9.292                0.877915736      179.493566
9.293                0.877705161      179.162124
9.294                 0.87749722      178.830697
9.295                0.877291923       178.49929
9.296                 0.87708928      178.167908
9.297                0.876889302      177.836556
9.298                0.876691999      177.505239
9.299                 0.87649738      177.173963
9.3                  0.876305456      176.842732
9.301                0.876116234      176.511551
9.302                0.875929725      176.180426
9.303                0.875745937      175.849363
9.304                0.875564878      175.518365
9.305                0.875386557      175.187439
9.306                 0.87521098      174.856588
9.307                0.875038157       174.52582
9.308                0.874868093      174.195137
9.309                0.874700796      173.864547
9.31                 0.874536272      173.534053
9.311                0.874374529       173.20366
9.312                0.874215571      172.873375
9.313                0.874059405      172.543202
9.314                0.873906037      172.213145
9.315                0.873755471      171.883211
9.316                0.873607713      171.553403
9.317                0.873462768      171.223728
9.318                0.873320639       170.89419
9.319                 0.87318133      170.564793
9.32                 0.873044847      170.235544
9.321                0.872911192      169.906447
9.322                0.872780368      169.577507
9.323                0.872652378      169.248729
9.324                0.872527226      168.920118
9.325                0.872404913      168.591678
9.326                0.872285442      168.263415
9.327                0.872168815      167.935334
9.328                0.872055032      167.607439
9.329                0.871944096      167.279736
9.33                 0.871836008      166.952229
9.331                0.871730767      166.624922
9.332                0.871628375      166.297822
9.333                0.871528832      165.970932
9.334                0.871432138      165.644257
9.335                0.871338292      165.317802
9.336                0.871247294      164.991572
9.337                0.871159142      164.665571
9.338                0.871073836      164.339805
9.339                0.870991375      164.014277
9.34                 0.870911755      163.688993
9.341                0.870834977      163.363957
9.342                0.870761036      163.039174
9.343                0.870689931      162.714648
9.344                0.870621659      162.390383
9.345                0.870556217      162.066385
9.346                0.870493602      161.742658
9.347                0.870433809      161.419206
9.348                0.870376836      161.096034
9.349                0.870322678      160.773146
9.35                 0.870271331      160.450547
9.351                 0.87022279      160.128241
9.352                0.870177051      159.806232
9.353                0.870134108      159.484525
9.354                0.870093956      159.163124
9.355                 0.87005659      158.842033
9.356                0.870022004      158.521256
9.357                0.869990192      158.200799
9.358                0.869961147      157.880664
9.359                0.869934863      157.560856
9.36                 0.869911334       157.24138
9.361                0.869890552      156.922239
9.362                 0.86987251      156.603437
9.363                0.869857201      156.284979
9.364                0.869844617      155.966869
9.365                0.869834751       155.64911
9.366                0.869827594      155.331706
9.367                0.869823138      155.014662
9.368                0.869821375      154.697981
9.369                0.869822296      154.381668
9.37                 0.869825891      154.065726
9.371                0.869832153      153.750158
9.372                0.869841071      153.434969
9.373                0.869852636      153.120163
9.374                0.869866838      152.805742
9.375                0.869883668      152.491712
9.376                0.869903115      152.178075
9.377                 0.86992517      151.864835
9.378                0.869949821      151.551995
9.379                0.869977057      151.239561
9.38                 0.870006869      150.927533
9.381                0.870039245      150.615917
9.382                0.870074175      150.304716
9.383                0.870111645      149.993933
9.384                0.870151646      149.683572
9.385                0.870194165      149.373636
9.386                 0.87023919      149.064127
9.387                 0.87028671      148.755051
9.388                0.870336712      148.446409
9.389                0.870389184      148.138205
9.39                 0.870444113      147.830443
9.391                0.870501487      147.523125
9.392                0.870561294      147.216255
9.393                0.870623519      146.909835
9.394                 0.87068815      146.603869
9.395                0.870755174      146.298359
9.396                0.870824577      145.993309
