! TOUCHSTONE file generated by CST DESIGN STUDIO
! Date and time: Tue Feb  4 18:45:10 2025
! Project name: C:\Work\MatlabApps\UnitCellOptimizationMatlab\CST\unitcell.cst
! Tree item: Tasks\Sweep1\SPara1\S-Parameters
! Header version: 2024
! Port assignment regex: !\s*Touchstone port\s*([0-9]+)\s*=\s*(CST MWS port|CST DES external port|CST DES block port)\s*(.+)\s* \(\"(.*)\"\)(\s*mode\s*([0-9]+))?.*
! Touchstone port assignment:
! Touchstone port 1 = CST DES external port 1 ("")
# GHz S MA R 50
9                    0.970818154     -80.8270251
9.001                 0.97066035     -80.9708524
9.002                0.970501493     -81.1150592
9.003                0.970341581     -81.2596467
9.004                0.970180612     -81.4046159
9.005                0.970018585      -81.549968
9.006                0.969855498     -81.6957039
9.007                0.969691349     -81.8418247
9.008                0.969526137     -81.9883317
9.009                 0.96935986     -82.1352258
9.01                 0.969192516     -82.2825081
9.011                0.969024104     -82.4301797
9.012                0.968854623     -82.5782418
9.013                0.968684071     -82.7266953
9.014                0.968512446     -82.8755415
9.015                0.968339747     -83.0247814
9.016                0.968165973     -83.1744161
9.017                0.967991121     -83.3244467
9.018                0.967815192     -83.4748743
9.019                0.967638183     -83.6257001
9.02                 0.967460094      -83.776925
9.021                0.967280922     -83.9285503
9.022                0.967100667      -84.080577
9.023                0.966919327     -84.2330063
9.024                0.966736902     -84.3858392
9.025                0.966553389     -84.5390768
9.026                0.966368789     -84.6927204
9.027                0.966183099     -84.8467709
9.028                0.965996319     -85.0012296
9.029                0.965808448     -85.1560975
9.03                 0.965619485     -85.3113757
9.031                0.965429428     -85.4670654
9.032                0.965238277     -85.6231677
9.033                0.965046031     -85.7796837
9.034                 0.96485269     -85.9366146
9.035                0.964658251     -86.0939613
9.036                0.964462715     -86.2517252
9.037                 0.96426608     -86.4099073
9.038                0.964068346     -86.5685087
9.039                0.963869513     -86.7275306
9.04                 0.963669578      -86.886974
9.041                0.963468543     -87.0468402
9.042                0.963266407     -87.2071302
9.043                0.963063168     -87.3678452
9.044                0.962858826     -87.5289863
9.045                0.962653381     -87.6905547
9.046                0.962446832     -87.8525514
9.047                 0.96223918     -88.0149776
9.048                0.962030423     -88.1778345
9.049                0.961820561     -88.3411232
9.05                 0.961609595     -88.5048447
9.051                0.961397523     -88.6690004
9.052                0.961184346     -88.8335912
9.053                0.960970063     -88.9986183
9.054                0.960754675     -89.1640828
9.055                0.960538181      -89.329986
9.056                0.960320581     -89.4963289
9.057                0.960101876     -89.6631126
9.058                0.959882065     -89.8303384
9.059                0.959661148     -89.9980073
9.06                 0.959439127     -90.1661205
9.061                   0.959216     -90.3346791
9.062                0.958991768     -90.5036842
9.063                0.958766432      -90.673137
9.064                0.958539992     -90.8430386
9.065                0.958312448     -91.0133902
9.066                  0.9580838     -91.1841929
9.067                 0.95785405     -91.3554479
9.068                0.957623197     -91.5271562
9.069                0.957391243      -91.699319
9.07                 0.957158188     -91.8719374
9.071                0.956924032     -92.0450126
9.072                0.956688777     -92.2185457
9.073                0.956452423     -92.3925378
9.074                0.956214971     -92.5669901
9.075                0.955976422     -92.7419037
9.076                0.955736777     -92.9172797
9.077                0.955496037     -93.0931193
9.078                0.955254203     -93.2694235
9.079                0.955011276     -93.4461936
9.08                 0.954767258     -93.6234306
9.081                0.954522149     -93.8011356
9.082                0.954275951     -93.9793099
9.083                0.954028666     -94.1579544
9.084                0.953780293     -94.3370704
9.085                0.953530837     -94.5166589
9.086                0.953280296     -94.6967211
9.087                0.953028674      -94.877258
9.088                0.952775972     -95.0582709
9.089                0.952522192     -95.2397607
9.09                 0.952267335     -95.4217287
9.091                0.952011403     -95.6041759
9.092                0.951754398     -95.7871034
9.093                0.951496323     -95.9705124
9.094                0.951237178     -96.1544038
9.095                0.950976967      -96.338779
9.096                0.950715691     -96.5236388
9.097                0.950453353     -96.7089845
9.098                0.950189954     -96.8948172
9.099                0.949925498     -97.0811378
9.1                  0.949659986     -97.2679475
9.101                0.949393422     -97.4552475
9.102                0.949125807     -97.6430387
9.103                0.948857144     -97.8313222
9.104                0.948587436     -98.0200992
9.105                0.948316687     -98.2093707
9.106                0.948044897     -98.3991378
9.107                0.947772071     -98.5894015
9.108                0.947498212     -98.7801629
9.109                0.947223322     -98.9714231
9.11                 0.946947405     -99.1631831
9.111                0.946670463      -99.355444
9.112                0.946392501     -99.5482068
9.113                0.946113521     -99.7414726
9.114                0.945833527     -99.9352424
9.115                0.945552522     -100.129517
9.116                 0.94527051     -100.324298
9.117                0.944987494     -100.519586
9.118                0.944703479     -100.715382
9.119                0.944418467     -100.911688
9.12                 0.944132464     -101.108503
9.121                0.943845472      -101.30583
9.122                0.943557497     -101.503669
9.123                0.943268541     -101.702021
9.124                 0.94297861     -101.900888
9.125                0.942687707     -102.100269
9.126                0.942395836     -102.300167
9.127                0.942103003     -102.500582
9.128                0.941809212     -102.701515
9.129                0.941514467     -102.902967
9.13                 0.941218774     -103.104939
9.131                0.940922136     -103.307433
9.132                0.940624559     -103.510448
9.133                0.940326047     -103.713986
9.134                0.940026606     -103.918049
9.135                0.939726241     -104.122635
9.136                0.939424957     -104.327748
9.137                0.939122759     -104.533388
9.138                0.938819652     -104.739555
9.139                0.938515643      -104.94625
9.14                 0.938210737     -105.153475
9.141                0.937904938      -105.36123
9.142                0.937598254     -105.569517
9.143                 0.93729069     -105.778335
9.144                0.936982251     -105.987687
9.145                0.936672944     -106.197572
9.146                0.936362775     -106.407992
9.147                 0.93605175     -106.618948
9.148                0.935739876      -106.83044
9.149                0.935427158     -107.042469
9.15                 0.935113603     -107.255036
9.151                0.934799218     -107.468142
9.152                 0.93448401     -107.681788
9.153                0.934167984     -107.895974
9.154                0.933851149     -108.110702
9.155                 0.93353351     -108.325971
9.156                0.933215076     -108.541784
9.157                0.932895853      -108.75814
9.158                0.932575848      -108.97504
9.159                0.932255069     -109.192486
9.16                 0.931933523     -109.410477
9.161                0.931611218     -109.629015
9.162                0.931288161       -109.8481
9.163                 0.93096436     -110.067734
9.164                0.930639823     -110.287916
9.165                0.930314558     -110.508647
9.166                0.929988573     -110.729929
9.167                0.929661875     -110.951761
9.168                0.929334474     -111.174145
9.169                0.929006378      -111.39708
9.17                 0.928677595     -111.620569
9.171                0.928348133      -111.84461
9.172                0.928018001     -112.069206
9.173                0.927687208     -112.294356
9.174                0.927355764     -112.520061
9.175                0.927023676     -112.746322
9.176                0.926690953      -112.97314
9.177                0.926357606     -113.200514
9.178                0.926023643     -113.428445
9.179                0.925689074     -113.656934
9.18                 0.925353908     -113.885982
9.181                0.925018154     -114.115589
9.182                0.924681823     -114.345754
9.183                0.924344924      -114.57648
9.184                0.924007467     -114.807766
9.185                0.923669462     -115.039613
9.186                 0.92333092     -115.272021
9.187                 0.92299185     -115.504991
9.188                0.922652263     -115.738523
9.189                0.922312168     -115.972617
9.19                 0.921971578     -116.207274
9.191                0.921630502     -116.442494
9.192                0.921288951     -116.678277
9.193                0.920946936     -116.914625
9.194                0.920604468     -117.151536
9.195                0.920261558     -117.389012
9.196                0.919918218     -117.627053
9.197                0.919574458     -117.865658
9.198                0.919230289     -118.104829
9.199                0.918885725     -118.344566
9.2                  0.918540775     -118.584868
9.201                0.918195452     -118.825736
9.202                0.917849767      -119.06717
9.203                0.917503733     -119.309171
9.204                0.917157362     -119.551737
9.205                0.916810665     -119.794871
9.206                0.916463655     -120.038571
9.207                0.916116345     -120.282838
9.208                0.915768746     -120.527671
9.209                0.915420872     -120.773072
9.21                 0.915072734      -121.01904
9.211                0.914724347     -121.265574
9.212                0.914375722     -121.512676
9.213                0.914026873     -121.760344
9.214                0.913677812      -122.00858
9.215                0.913328554     -122.257382
9.216                0.912979111     -122.506752
9.217                0.912629496     -122.756688
9.218                0.912279724      -123.00719
9.219                0.911929808     -123.258259
9.22                 0.911579761     -123.509895
9.221                0.911229598     -123.762097
9.222                0.910879332     -124.014864
9.223                0.910528977     -124.268198
9.224                0.910178548     -124.522097
9.225                0.909828058     -124.776561
9.226                0.909477523     -125.031591
9.227                0.909126956     -125.287185
9.228                0.908776372     -125.543343
9.229                0.908425785     -125.800066
9.23                 0.908075211     -126.057352
9.231                0.907724665     -126.315202
9.232                 0.90737416     -126.573614
9.233                0.907023712     -126.832589
9.234                0.906673337     -127.092126
9.235                0.906323049     -127.352225
9.236                0.905972864     -127.612884
9.237                0.905622797     -127.874105
9.238                0.905272863     -128.135885
9.239                0.904923079     -128.398224
9.24                  0.90457346     -128.661122
9.241                0.904224021     -128.924579
9.242                0.903874779     -129.188593
9.243                0.903525749     -129.453163
9.244                0.903176947      -129.71829
9.245                0.902828391     -129.983973
9.246                0.902480094      -130.25021
9.247                0.902132075        -130.517
9.248                0.901784349     -130.784345
9.249                0.901436933     -131.052241
9.25                 0.901089843     -131.320689
9.251                0.900743097     -131.589687
9.252                0.900396709     -131.859235
9.253                0.900050699     -132.129331
9.254                0.899705081     -132.399976
9.255                0.899359873     -132.671167
9.256                0.899015093     -132.942904
9.257                0.898670756     -133.215186
9.258                0.898326881     -133.488011
9.259                0.897983485     -133.761379
9.26                 0.897640584     -134.035288
9.261                0.897298196     -134.309738
9.262                0.896956339     -134.584727
9.263                0.896615029     -134.860253
9.264                0.896274285     -135.136317
9.265                0.895934124     -135.412915
9.266                0.895594564     -135.690048
9.267                0.895255622     -135.967714
9.268                0.894917316     -136.245911
9.269                0.894579664     -136.524638
9.27                 0.894242684     -136.803894
9.271                0.893906394     -137.083676
9.272                0.893570811     -137.363985
9.273                0.893235954     -137.644818
9.274                0.892901841     -137.926174
9.275                 0.89256849      -138.20805
9.276                0.892235919     -138.490447
9.277                0.891904146     -138.773361
9.278                 0.89157319     -139.056792
9.279                0.891243069     -139.340737
9.28                   0.8909138     -139.625195
9.281                0.890585403     -139.910164
9.282                0.890257896     -140.195643
9.283                0.889931297     -140.481629
9.284                0.889605625     -140.768121
9.285                0.889280898     -141.055116
9.286                0.888957134     -141.342614
9.287                0.888634353     -141.630612
9.288                0.888312572     -141.919108
9.289                0.887991811       -142.2081
9.29                 0.887672087     -142.497586
9.291                 0.88735342     -142.787563
9.292                0.887035827     -143.078031
9.293                0.886719328     -143.368987
9.294                0.886403941     -143.660428
9.295                0.886089685     -143.952353
9.296                0.885776579     -144.244759
9.297                 0.88546464     -144.537644
9.298                0.885153888     -144.831006
9.299                0.884844341     -145.124842
9.3                  0.884536018      -145.41915
9.301                0.884228937     -145.713927
9.302                0.883923117     -146.009172
9.303                0.883618577     -146.304882
9.304                0.883315335     -146.601054
9.305                0.883013409     -146.897686
9.306                0.882712819     -147.194775
9.307                0.882413582     -147.492319
9.308                0.882115718     -147.790315
9.309                0.881819244      -148.08876
9.31                 0.881524179     -148.387652
9.311                0.881230541     -148.686989
9.312                0.880938349     -148.986766
9.313                0.880647621     -149.286982
9.314                0.880358375     -149.587634
9.315                 0.88007063     -149.888719
9.316                0.879784403     -150.190234
9.317                0.879499713     -150.492176
9.318                0.879216578     -150.794542
9.319                0.878935016     -151.097329
9.32                 0.878655045     -151.400535
9.321                0.878376682     -151.704156
9.322                0.878099946     -152.008189
9.323                0.877824854     -152.312631
9.324                0.877551425     -152.617479
9.325                0.877279675      -152.92273
9.326                0.877009622      -153.22838
9.327                0.876741284     -153.534427
9.328                0.876474679     -153.840867
9.329                0.876209822     -154.147697
9.33                 0.875946733     -154.454913
9.331                0.875685428     -154.762513
9.332                0.875425924     -155.070492
9.333                0.875168237     -155.378848
9.334                0.874912386     -155.687576
9.335                0.874658387     -155.996674
9.336                0.874406256     -156.306138
9.337                 0.87415601     -156.615965
9.338                0.873907665      -156.92615
9.339                0.873661239     -157.236691
9.34                 0.873416747     -157.547583
9.341                0.873174205     -157.858823
9.342                 0.87293363     -158.170407
9.343                0.872695037     -158.482333
9.344                0.872458443     -158.794595
9.345                0.872223862      -159.10719
9.346                0.871991311     -159.420114
9.347                0.871760805     -159.733364
9.348                0.871532359     -160.046935
9.349                0.871305989     -160.360824
9.35                 0.871081709     -160.675027
9.351                0.870859534      -160.98954
9.352                 0.87063948     -161.304358
9.353                 0.87042156     -161.619479
9.354                 0.87020579     -161.934897
9.355                0.869992184     -162.250609
9.356                0.869780755     -162.566611
9.357                0.869571518     -162.882899
9.358                0.869364486     -163.199468
9.359                0.869159674     -163.516314
9.36                 0.868957095     -163.833434
9.361                0.868756762     -164.150822
9.362                0.868558689     -164.468475
9.363                0.868362888     -164.786389
9.364                0.868169373     -165.104559
9.365                0.867978156     -165.422981
9.366                 0.86778925      -165.74165
9.367                0.867602667     -166.060562
9.368                0.867418419     -166.379714
9.369                0.867236518     -166.699099
9.37                 0.867056976     -167.018715
9.371                0.866879805     -167.338556
9.372                0.866705016     -167.658619
9.373                0.866532621     -167.978898
9.374                 0.86636263     -168.299389
9.375                0.866195054     -168.620088
9.376                0.866029905     -168.940989
9.377                0.865867191      -169.26209
9.378                0.865706925     -169.583384
9.379                0.865549115     -169.904867
9.38                 0.865393772     -170.226535
9.381                0.865240906     -170.548383
9.382                0.865090525     -170.870407
9.383                0.864942639     -171.192601
9.384                0.864797257     -171.514961
9.385                0.864654388     -171.837483
9.386                0.864514041     -172.160161
9.387                0.864376223     -172.482991
9.388                0.864240944     -172.805967
9.389                 0.86410821     -173.129087
9.39                 0.863978031     -173.452343
9.391                0.863850412     -173.775733
9.392                0.863725363      -174.09925
9.393                0.863602889      -174.42289
9.394                0.863482997     -174.746649
9.395                0.863365694      -175.07052
9.396                0.863250987     -175.394501
