! TOUCHSTONE file generated by CST DESIGN STUDIO
! Date and time: Tue Feb  4 18:45:04 2025
! Project name: C:\Work\MatlabApps\UnitCellOptimizationMatlab\CST\unitcell.cst
! Tree item: Tasks\Sweep1\SPara1\S-Parameters
! Header version: 2024
! Port assignment regex: !\s*Touchstone port\s*([0-9]+)\s*=\s*(CST MWS port|CST DES external port|CST DES block port)\s*(.+)\s* \(\"(.*)\"\)(\s*mode\s*([0-9]+))?.*
! Touchstone port assignment:
! Touchstone port 1 = CST DES external port 1 ("")
# GHz S MA R 50
9                     0.97105957     -94.4654464
9.001                0.970866279     -94.6514582
9.002                0.970671627      -94.837986
9.003                0.970475612      -95.025031
9.004                0.970278231     -95.2125941
9.005                0.970079481     -95.4006766
9.006                0.969879361     -95.5892795
9.007                0.969677867     -95.7784039
9.008                0.969474997     -95.9680509
9.009                0.969270749     -96.1582216
9.01                 0.969065121     -96.3489171
9.011                 0.96885811     -96.5401385
9.012                0.968649715     -96.7318867
9.013                0.968439934      -96.924163
9.014                0.968228764     -97.1169684
9.015                0.968016204     -97.3103038
9.016                0.967802252     -97.5041704
9.017                0.967586906     -97.6985693
9.018                0.967370165     -97.8935014
9.019                0.967152026     -98.0889678
9.02                 0.966932489     -98.2849695
9.021                0.966711552     -98.4815076
9.022                0.966489214      -98.678583
9.023                0.966265473     -98.8761969
9.024                0.966040328     -99.0743501
9.025                0.965813778     -99.2730437
9.026                0.965585822     -99.4722787
9.027                 0.96535646      -99.672056
9.028                0.965125689     -99.8723767
9.029                 0.96489351     -100.073242
9.03                 0.964659922     -100.274652
9.031                0.964424924     -100.476609
9.032                0.964188515     -100.679113
9.033                0.963950696     -100.882164
9.034                0.963711465     -101.085766
9.035                0.963470823     -101.289917
9.036                 0.96322877     -101.494619
9.037                0.962985304     -101.699873
9.038                0.962740427     -101.905679
9.039                0.962494139      -102.11204
9.04                 0.962246439     -102.318955
9.041                0.961997328     -102.526425
9.042                0.961746806     -102.734452
9.043                0.961494875     -102.943036
9.044                0.961241534     -103.152178
9.045                0.960986784     -103.361879
9.046                0.960730626      -103.57214
9.047                0.960473061     -103.782961
9.048                 0.96021409     -103.994344
9.049                0.959953714     -104.206289
9.05                 0.959691934     -104.418797
9.051                0.959428753     -104.631869
9.052                 0.95916417     -104.845505
9.053                0.958898188     -105.059707
9.054                0.958630808     -105.274476
9.055                0.958362032     -105.489811
9.056                0.958091863     -105.705713
9.057                0.957820301     -105.922185
9.058                0.957547349     -106.139225
9.059                 0.95727301     -106.356835
9.06                 0.956997286     -106.575016
9.061                0.956720179     -106.793768
9.062                0.956441692     -107.013092
9.063                0.956161827     -107.232989
9.064                0.955880588     -107.453459
9.065                0.955597977     -107.674502
9.066                0.955313997     -107.896121
9.067                0.955028652     -108.118314
9.068                0.954741945     -108.341084
9.069                 0.95445388      -108.56443
9.07                 0.954164459     -108.788353
9.071                0.953873687     -109.012853
9.072                0.953581568     -109.237932
9.073                0.953288106     -109.463589
9.074                0.952993304     -109.689826
9.075                0.952697167     -109.916642
9.076                0.952399699     -110.144039
9.077                0.952100905     -110.372016
9.078                0.951800789     -110.600575
9.079                0.951499357     -110.829715
9.08                 0.951196613     -111.059438
9.081                0.950892562     -111.289743
9.082                0.950587209     -111.520631
9.083                0.950280561     -111.752103
9.084                0.949972621     -111.984159
9.085                0.949663396     -112.216799
9.086                0.949352892     -112.450024
9.087                0.949041114     -112.683833
9.088                0.948728069     -112.918228
9.089                0.948413763     -113.153209
9.09                 0.948098201     -113.388776
9.091                0.947781392     -113.624929
9.092                 0.94746334     -113.861668
9.093                0.947144053     -114.098995
9.094                0.946823539     -114.336908
9.095                0.946501803     -114.575409
9.096                0.946178853     -114.814498
9.097                0.945854697     -115.054174
9.098                0.945529343     -115.294438
9.099                0.945202797      -115.53529
9.1                  0.944875067      -115.77673
9.101                0.944546163     -116.018758
9.102                0.944216091     -116.261375
9.103                 0.94388486     -116.504581
9.104                0.943552479     -116.748375
9.105                0.943218956     -116.992758
9.106                  0.9428843      -117.23773
9.107                0.942548519      -117.48329
9.108                0.942211624     -117.729439
9.109                0.941873623     -117.976177
9.11                 0.941534526     -118.223503
9.111                0.941194342     -118.471419
9.112                 0.94085308     -118.719922
9.113                0.940510752     -118.969014
9.114                0.940167366     -119.218695
9.115                0.939822934     -119.468964
9.116                0.939477465      -119.71982
9.117                0.939130969     -119.971265
9.118                0.938783459     -120.223297
9.119                0.938434944     -120.475917
9.12                 0.938085435     -120.729124
9.121                0.937734944     -120.982918
9.122                0.937383483     -121.237299
9.123                0.937031062     -121.492266
9.124                0.936677693     -121.747819
9.125                0.936323388     -122.003958
9.126                0.935968159     -122.260682
9.127                0.935612018     -122.517992
9.128                0.935254978     -122.775885
9.129                0.934897051     -123.034363
9.13                  0.93453825     -123.293425
9.131                0.934178587      -123.55307
9.132                0.933818076     -123.813297
9.133                0.933456729     -124.074107
9.134                0.933094561     -124.335498
9.135                0.932731583     -124.597471
9.136                0.932367811     -124.860024
9.137                0.932003258     -125.123156
9.138                0.931637937     -125.386868
9.139                0.931271864     -125.651159
9.14                 0.930905052     -125.916027
9.141                0.930537515     -126.181472
9.142                0.930169269     -126.447494
9.143                0.929800328     -126.714091
9.144                0.929430706     -126.981263
9.145                 0.92906042     -127.249009
9.146                0.928689485     -127.517329
9.147                0.928317915      -127.78622
9.148                0.927945726     -128.055683
9.149                0.927572935     -128.325716
9.15                 0.927199556     -128.596319
9.151                0.926825607     -128.867491
9.152                0.926451103      -129.13923
9.153                 0.92607606     -129.411535
9.154                0.925700495     -129.684406
9.155                0.925324425     -129.957842
9.156                0.924947867      -130.23184
9.157                0.924570837     -130.506401
9.158                0.924193353     -130.781523
9.159                0.923815432     -131.057205
9.16                 0.923437092     -131.333445
9.161                0.923058349     -131.610242
9.162                0.922679222     -131.887596
9.163                0.922299728     -132.165504
9.164                0.921919886     -132.443966
9.165                0.921539714      -132.72298
9.166                0.921159229     -133.002544
9.167                0.920778451     -133.282658
9.168                0.920397399      -133.56332
9.169                0.920016089     -133.844528
9.17                 0.919634543     -134.126281
9.171                0.919252778     -134.408577
9.172                0.918870813     -134.691415
9.173                0.918488669     -134.974793
9.174                0.918106364     -135.258709
9.175                0.917723918     -135.543163
9.176                 0.91734135     -135.828151
9.177                 0.91695868     -136.113674
9.178                0.916575929     -136.399728
9.179                0.916193116     -136.686312
9.18                 0.915810262     -136.973424
9.181                0.915427386     -137.261062
9.182                0.915044509     -137.549225
9.183                0.914661651     -137.837911
9.184                0.914278834     -138.127117
9.185                0.913896078     -138.416842
9.186                0.913513403     -138.707084
9.187                0.913130831      -138.99784
9.188                0.912748383      -139.28911
9.189                0.912366079     -139.580889
9.19                 0.911983942     -139.873178
9.191                0.911601992     -140.165972
9.192                0.911220251     -140.459271
9.193                0.910838741     -140.753072
9.194                0.910457482     -141.047372
9.195                0.910076498      -141.34217
9.196                0.909695809     -141.637463
9.197                0.909315438     -141.933249
9.198                0.908935407     -142.229526
9.199                0.908555737     -142.526291
9.2                  0.908176451     -142.823541
9.201                0.907797572     -143.121274
9.202                 0.90741912     -143.419488
9.203                 0.90704112     -143.718181
9.204                0.906663593     -144.017349
9.205                0.906286561      -144.31699
9.206                0.905910048     -144.617101
9.207                0.905534075     -144.917681
9.208                0.905158667     -145.218725
9.209                0.904783844     -145.520232
9.21                 0.904409631     -145.822198
9.211                 0.90403605     -146.124621
9.212                0.903663124     -146.427499
9.213                0.903290876     -146.730827
9.214                0.902919329     -147.034604
9.215                0.902548505     -147.338827
9.216                0.902178429     -147.643492
9.217                0.901809122     -147.948596
9.218                0.901440609     -148.254137
9.219                0.901072912     -148.560112
9.22                 0.900706054     -148.866517
9.221                0.900340059     -149.173349
9.222                 0.89997495     -149.480606
9.223                 0.89961075     -149.788283
9.224                0.899247482     -150.096379
9.225                0.898885169     -150.404889
9.226                0.898523835      -150.71381
9.227                0.898163503      -151.02314
9.228                0.897804196     -151.332875
9.229                0.897445938     -151.643011
9.23                 0.897088751     -151.953545
9.231                0.896732658     -152.264473
9.232                0.896377684     -152.575793
9.233                0.896023851     -152.887501
9.234                0.895671182     -153.199593
9.235                  0.8953197     -153.512066
9.236                0.894969429     -153.824915
9.237                0.894620391     -154.138139
9.238                0.894272609     -154.451732
9.239                0.893926107     -154.765692
9.24                 0.893580907     -155.080014
9.241                0.893237032     -155.394696
9.242                0.892894506     -155.709732
9.243                 0.89255335      -156.02512
9.244                0.892213587     -156.340856
9.245                0.891875241     -156.656935
9.246                0.891538333     -156.973354
9.247                0.891202886      -157.29011
9.248                0.890868924     -157.607197
9.249                0.890536467     -157.924613
9.25                 0.890205538     -158.242353
9.251                 0.88987616     -158.560413
9.252                0.889548354      -158.87879
9.253                0.889222143     -159.197478
9.254                0.888897549     -159.516475
9.255                0.888574593     -159.835776
9.256                0.888253297     -160.155376
9.257                0.887933683     -160.475273
9.258                0.887615772     -160.795461
9.259                0.887299586     -161.115936
9.26                 0.886985146     -161.436694
9.261                0.886672473     -161.757731
9.262                0.886361588     -162.079043
9.263                0.886052512     -162.400625
9.264                0.885745267     -162.722473
9.265                0.885439872     -163.044583
9.266                0.885136348      -163.36695
9.267                0.884834716     -163.689569
9.268                0.884534996     -164.012437
9.269                0.884237207     -164.335549
9.27                 0.883941371       -164.6589
9.271                0.883647506     -164.982487
9.272                0.883355633     -165.306304
9.273                0.883065771     -165.630346
9.274                0.882777939      -165.95461
9.275                0.882492157     -166.279091
9.276                0.882208443     -166.603785
9.277                0.881926816     -166.928685
9.278                0.881647295     -167.253789
9.279                0.881369899     -167.579091
9.28                 0.881094646     -167.904587
9.281                0.880821554     -168.230271
9.282                0.880550641      -168.55614
9.283                0.880281924     -168.882188
9.284                0.880015421     -169.208411
9.285                0.879751151     -169.534804
9.286                0.879489128     -169.861362
9.287                0.879229372     -170.188081
9.288                0.878971898     -170.514955
9.289                0.878716724      -170.84198
9.29                 0.878463865     -171.169151
9.291                0.878213337     -171.496463
9.292                0.877965157     -171.823911
9.293                 0.87771934     -172.151491
9.294                0.877475902     -172.479197
9.295                0.877234859     -172.807024
9.296                0.876996224     -173.134969
9.297                0.876760013     -173.463024
9.298                0.876526241     -173.791187
9.299                0.876294921     -174.119451
9.3                  0.876066069     -174.447812
9.301                0.875839698     -174.776265
9.302                0.875615821     -175.104805
9.303                0.875394453     -175.433426
9.304                0.875175606     -175.762125
9.305                0.874959293     -176.090895
9.306                0.874745527     -176.419732
9.307                 0.87453432     -176.748631
9.308                0.874325685     -177.077587
9.309                0.874119633     -177.406594
9.31                 0.873916177     -177.735648
9.311                0.873715327     -178.064743
9.312                0.873517096     -178.393876
9.313                0.873321493     -178.723039
9.314                0.873128529     -179.052229
9.315                0.872938216      -179.38144
9.316                0.872750563     -179.710668
9.317                0.872565579      179.960093
9.318                0.872383276      179.630848
9.319                0.872203661      179.301602
9.32                 0.872026744       178.97236
9.321                0.871852534      178.643127
9.322                 0.87168104      178.313909
9.323                 0.87151227      177.984709
9.324                0.871346231      177.655534
9.325                0.871182932      177.326389
9.326                0.871022379      176.997278
9.327                0.870864582      176.668206
9.328                0.870709545      176.339179
9.329                0.870557276      176.010202
9.33                 0.870407781       175.68128
9.331                0.870261067      175.352417
9.332                0.870117138       175.02362
9.333                0.869976002      174.694892
9.334                0.869837662      174.366239
9.335                0.869702125      174.037667
9.336                0.869569394      173.709179
9.337                0.869439474      173.380781
9.338                 0.86931237      173.052479
9.339                0.869188084      172.724277
9.34                 0.869066622      172.396179
9.341                0.868947986      172.068192
9.342                0.868832179       171.74032
9.343                0.868719204      171.412568
9.344                0.868609064      171.084941
9.345                0.868501761      170.757444
9.346                0.868397296      170.430082
9.347                0.868295672       170.10286
9.348                0.868196889      169.775782
9.349                 0.86810095      169.448854
9.35                 0.868007854      169.122081
9.351                0.867917603      168.795467
9.352                0.867830196      168.469017
9.353                0.867745634      168.142737
9.354                0.867663917       167.81663
9.355                0.867585044      167.490702
9.356                0.867509014      167.164957
9.357                0.867435826      166.839401
9.358                 0.86736548      166.514038
9.359                0.867297972      166.188873
9.36                 0.867233303       165.86391
9.361                0.867171468      165.539155
9.362                0.867112467      165.214611
9.363                0.867056296      164.890284
9.364                0.867002953      164.566179
9.365                0.866952435      164.242299
9.366                0.866904737       163.91865
9.367                0.866859857      163.595236
9.368                 0.86681779      163.272062
9.369                0.866778533      162.949132
9.37                 0.866742081      162.626451
9.371                0.866708429      162.304023
9.372                0.866677573      161.981853
9.373                0.866649506      161.659945
9.374                0.866624225      161.338304
9.375                0.866601723      161.016934
9.376                0.866581994       160.69584
9.377                0.866565033      160.375025
9.378                0.866550833      160.054495
9.379                0.866539387      159.734253
9.38                 0.866530688      159.414304
9.381                 0.86652473      159.094652
9.382                0.866521506      158.775301
9.383                0.866521007      158.456256
9.384                0.866523226      158.137521
9.385                0.866528156        157.8191
9.386                0.866535787      157.500997
9.387                0.866546112      157.183216
9.388                0.866559122      156.865761
9.389                0.866574808      156.548636
9.39                 0.866593162      156.231846
9.391                0.866614174      155.915394
9.392                0.866637834      155.599285
9.393                0.866664133      155.283521
9.394                0.866693062      154.968108
9.395                0.866724609      154.653049
9.396                0.866758766      154.338348
