! TOUCHSTONE file generated by CST DESIGN STUDIO
! Date and time: Tue Feb  4 18:45:15 2025
! Project name: C:\Work\MatlabApps\UnitCellOptimizationMatlab\CST\unitcell.cst
! Tree item: Tasks\Sweep1\SPara1\S-Parameters
! Header version: 2024
! Port assignment regex: !\s*Touchstone port\s*([0-9]+)\s*=\s*(CST MWS port|CST DES external port|CST DES block port)\s*(.+)\s* \(\"(.*)\"\)(\s*mode\s*([0-9]+))?.*
! Touchstone port assignment:
! Touchstone port 1 = CST DES external port 1 ("")
# GHz S MA R 50
9                     0.97276145     -68.3150704
9.001                0.972639727     -68.4235089
9.002                0.972517311     -68.5322139
9.003                  0.9723942     -68.6411861
9.004                0.972270395     -68.7504264
9.005                0.972145893     -68.8599357
9.006                0.972020694     -68.9697146
9.007                0.971894795     -69.0797642
9.008                0.971768197     -69.1900851
9.009                0.971640898     -69.3006782
9.01                 0.971512897     -69.4115443
9.011                0.971384192     -69.5226843
9.012                0.971254782     -69.6340991
9.013                0.971124667     -69.7457894
9.014                0.970993845      -69.857756
9.015                0.970862316          -69.97
9.016                0.970730077      -70.082522
9.017                0.970597127     -70.1953229
9.018                0.970463467     -70.3084037
9.019                0.970329094     -70.4217651
9.02                 0.970194008      -70.535408
9.021                0.970058208     -70.6493333
9.022                0.969921691     -70.7635419
9.023                0.969784459     -70.8780345
9.024                0.969646508     -70.9928122
9.025                0.969507839     -71.1078757
9.026                 0.96936845      -71.223226
9.027                0.969228341     -71.3388638
9.028                 0.96908751     -71.4547902
9.029                0.968945956      -71.571006
9.03                 0.968803678     -71.6875121
9.031                0.968660676     -71.8043093
9.032                0.968516948     -71.9213986
9.033                0.968372494     -72.0387809
9.034                0.968227312      -72.156457
9.035                0.968081401      -72.274428
9.036                0.967934762     -72.3926946
9.037                0.967787392     -72.5112578
9.038                0.967639291     -72.6301186
9.039                0.967490457     -72.7492777
9.04                 0.967340891     -72.8687362
9.041                0.967190591      -72.988495
9.042                0.967039556      -73.108555
9.043                0.966887786     -73.2289171
9.044                 0.96673528     -73.3495823
9.045                0.966582036     -73.4705514
9.046                0.966428054     -73.5918255
9.047                0.966273334     -73.7134055
9.048                0.966117874     -73.8352923
9.049                0.965961673     -73.9574868
9.05                 0.965804732     -74.0799901
9.051                0.965647049      -74.202803
9.052                0.965488623     -74.3259266
9.053                0.965329454     -74.4493617
9.054                 0.96516954     -74.5731094
9.055                0.965008883     -74.6971706
9.056                0.964847479     -74.8215463
9.057                 0.96468533     -74.9462374
9.058                0.964522434     -75.0712449
9.059                 0.96435879     -75.1965699
9.06                 0.964194399     -75.3222132
9.061                0.964029259     -75.4481759
9.062                 0.96386337     -75.5744589
9.063                 0.96369673     -75.7010633
9.064                0.963529341       -75.82799
9.065                  0.9633612     -75.9552401
9.066                0.963192308     -76.0828144
9.067                0.963022664     -76.2107141
9.068                0.962852268     -76.3389401
9.069                0.962681118     -76.4674935
9.07                 0.962509215     -76.5963752
9.071                0.962336558     -76.7255863
9.072                0.962163146     -76.8551277
9.073                 0.96198898     -76.9850006
9.074                0.961814058     -77.1152058
9.075                 0.96163838     -77.2457445
9.076                0.961461946     -77.3766177
9.077                0.961284756     -77.5078264
9.078                0.961106809     -77.6393716
9.079                0.960928104     -77.7712545
9.08                 0.960748642     -77.9034759
9.081                0.960568422     -78.0360369
9.082                0.960387444     -78.1689387
9.083                0.960205707     -78.3021823
9.084                0.960023212     -78.4357686
9.085                0.959839958     -78.5696988
9.086                0.959655945     -78.7039739
9.087                0.959471172      -78.838595
9.088                 0.95928564     -78.9735631
9.089                0.959099347     -79.1088794
9.09                 0.958912295     -79.2445448
9.091                0.958724483     -79.3805604
9.092                0.958535911     -79.5169274
9.093                0.958346579     -79.6536468
9.094                0.958156486     -79.7907197
9.095                0.957965633     -79.9281471
9.096                 0.95777402     -80.0659302
9.097                0.957581646       -80.20407
9.098                0.957388511     -80.3425677
9.099                0.957194616     -80.4814242
9.1                  0.956999961     -80.6206408
9.101                0.956804546     -80.7602185
9.102                 0.95660837     -80.9001585
9.103                0.956411434     -81.0404618
9.104                0.956213738     -81.1811295
9.105                0.956015283     -81.3221627
9.106                0.955816067     -81.4635627
9.107                0.955616092     -81.6053304
9.108                0.955415358      -81.747467
9.109                0.955213865     -81.8899736
9.11                 0.955011613     -82.0328514
9.111                0.954808602     -82.1761014
9.112                0.954604834     -82.3197248
9.113                0.954400307     -82.4637228
9.114                0.954195023     -82.6080964
9.115                0.953988981     -82.7528469
9.116                0.953782183     -82.8979752
9.117                0.953574629     -83.0434827
9.118                0.953366318     -83.1893704
9.119                0.953157253     -83.3356395
9.12                 0.952947432     -83.4822911
9.121                0.952736857     -83.6293263
9.122                0.952525528     -83.7767464
9.123                0.952313445     -83.9245525
9.124                 0.95210061     -84.0727458
9.125                0.951887023     -84.2213273
9.126                0.951672684     -84.3702983
9.127                0.951457595       -84.51966
9.128                0.951241755     -84.6694134
9.129                0.951025166     -84.8195598
9.13                 0.950807828     -84.9701004
9.131                0.950589743     -85.1210363
9.132                0.950370911     -85.2723687
9.133                0.950151332     -85.4240988
9.134                0.949931008     -85.5762277
9.135                 0.94970994     -85.7287567
9.136                0.949488128     -85.8816869
9.137                0.949265573     -86.0350195
9.138                0.949042277     -86.1887557
9.139                0.948818241     -86.3428967
9.14                 0.948593465     -86.4974437
9.141                 0.94836795     -86.6523979
9.142                0.948141698     -86.8077604
9.143                 0.94791471     -86.9635325
9.144                0.947686987     -87.1197154
9.145                 0.94745853     -87.2763103
9.146                 0.94722934     -87.4333184
9.147                0.946999419     -87.5907408
9.148                0.946768768     -87.7485788
9.149                0.946537388     -87.9068337
9.15                  0.94630528     -88.0655065
9.151                0.946072447     -88.2245986
9.152                0.945838888     -88.3841111
9.153                0.945604607     -88.5440452
9.154                0.945369604     -88.7044023
9.155                0.945133881     -88.8651834
9.156                0.944897439     -89.0263898
9.157                 0.94466028     -89.1880227
9.158                0.944422406     -89.3500833
9.159                0.944183818      -89.512573
9.16                 0.943944518     -89.6754928
9.161                0.943704507      -89.838844
9.162                0.943463788     -90.0026278
9.163                0.943222363     -90.1668456
9.164                0.942980232     -90.3314984
9.165                0.942737399     -90.4965875
9.166                0.942493864     -90.6621142
9.167                 0.94224963     -90.8280796
9.168                0.942004699     -90.9944851
9.169                0.941759073     -91.1613318
9.17                 0.941512754     -91.3286209
9.171                0.941265744     -91.4963538
9.172                0.941018045     -91.6645316
9.173                 0.94076966     -91.8331556
9.174                 0.94052059     -92.0022269
9.175                0.940270838      -92.171747
9.176                0.940020406     -92.3417168
9.177                0.939769297     -92.5121378
9.178                0.939517513     -92.6830112
9.179                0.939265056     -92.8543381
9.18                 0.939011929     -93.0261198
9.181                0.938758135     -93.1983575
9.182                0.938503675     -93.3710526
9.183                0.938248553     -93.5442062
9.184                0.937992772     -93.7178195
9.185                0.937736333     -93.8918938
9.186                 0.93747924     -94.0664303
9.187                0.937221495     -94.2414303
9.188                0.936963102     -94.4168949
9.189                0.936704062     -94.5928255
9.19                  0.93644438     -94.7692232
9.191                0.936184058     -94.9460893
9.192                0.935923099      -95.123425
9.193                0.935661506     -95.3012316
9.194                0.935399283     -95.4795102
9.195                0.935136431     -95.6582622
9.196                0.934872956     -95.8374886
9.197                0.934608859     -96.0171908
9.198                0.934344144       -96.19737
9.199                0.934078815     -96.3780274
9.2                  0.933812875     -96.5591642
9.201                0.933546327     -96.7407817
9.202                0.933279175      -96.922881
9.203                0.933011423     -97.1054634
9.204                0.932743073       -97.28853
9.205                0.932474131     -97.4720822
9.206                0.932204598     -97.6561211
9.207                 0.93193448     -97.8406479
9.208                 0.93166378     -98.0256639
9.209                0.931392502     -98.2111702
9.21                 0.931120649      -98.397168
9.211                0.930848226     -98.5836586
9.212                0.930575237     -98.7706431
9.213                0.930301686     -98.9581228
9.214                0.930027577     -99.1460988
9.215                0.929752914     -99.3345723
9.216                0.929477701     -99.5235445
9.217                0.929201943     -99.7130167
9.218                0.928925644     -99.9029898
9.219                0.928648809     -100.093465
9.22                 0.928371442     -100.284444
9.221                0.928093547     -100.475928
9.222                0.927815129     -100.667917
9.223                0.927536193     -100.860413
9.224                0.927256744     -101.053417
9.225                0.926976786     -101.246931
9.226                0.926696324     -101.440955
9.227                0.926415362      -101.63549
9.228                0.926133907     -101.830538
9.229                0.925851963       -102.0261
9.23                 0.925569534     -102.222177
9.231                0.925286627     -102.418771
9.232                0.925003246     -102.615881
9.233                0.924719397      -102.81351
9.234                0.924435084     -103.011658
9.235                0.924150314     -103.210326
9.236                0.923865091     -103.409517
9.237                0.923579422      -103.60923
9.238                0.923293311     -103.809467
9.239                0.923006765     -104.010229
9.24                 0.922719789     -104.211518
9.241                0.922432388     -104.413333
9.242                 0.92214457     -104.615677
9.243                0.921856339      -104.81855
9.244                0.921567701     -105.021953
9.245                0.921278663     -105.225887
9.246                0.920989231     -105.430355
9.247                 0.92069941     -105.635355
9.248                0.920409208      -105.84089
9.249                 0.92011863     -106.046961
9.25                 0.919827683     -106.253569
9.251                0.919536372     -106.460714
9.252                0.919244706     -106.668397
9.253                0.918952689      -106.87662
9.254                 0.91866033     -107.085384
9.255                0.918367634      -107.29469
9.256                0.918074609     -107.504538
9.257                 0.91778126     -107.714929
9.258                0.917487596     -107.925865
9.259                0.917193623     -108.137347
9.26                 0.916899348     -108.349375
9.261                0.916604778      -108.56195
9.262                0.916309921     -108.775074
9.263                0.916014783     -108.988747
9.264                0.915719373      -109.20297
9.265                0.915423697     -109.417743
9.266                0.915127763     -109.633069
9.267                0.914831579     -109.848948
9.268                0.914535152      -110.06538
9.269                 0.91423849     -110.282367
9.27                 0.913941601     -110.499909
9.271                0.913644492     -110.718007
9.272                0.913347172     -110.936662
9.273                0.913049648     -111.155875
9.274                0.912751929     -111.375647
9.275                0.912454023     -111.595978
9.276                0.912155938      -111.81687
9.277                0.911857682     -112.038322
9.278                0.911559264     -112.260336
9.279                0.911260692     -112.482913
9.28                 0.910961974     -112.706053
9.281                 0.91066312     -112.929757
9.282                0.910364138     -113.154026
9.283                0.910065037      -113.37886
9.284                0.909765825      -113.60426
9.285                0.909466512     -113.830227
9.286                0.909167106     -114.056762
9.287                0.908867617     -114.283865
9.288                0.908568053     -114.511536
9.289                0.908268424     -114.739777
9.29                  0.90796874     -114.968587
9.291                0.907669009     -115.197969
9.292                0.907369241     -115.427921
9.293                0.907069445     -115.658445
9.294                0.906769632     -115.889542
9.295                0.906469811     -116.121211
9.296                0.906169991     -116.353454
9.297                0.905870182      -116.58627
9.298                0.905570395     -116.819661
9.299                0.905270639     -117.053627
9.3                  0.904970924     -117.288168
9.301                0.904671261     -117.523285
9.302                 0.90437166     -117.758978
9.303                 0.90407213     -117.995247
9.304                0.903772683     -118.232094
9.305                0.903473329     -118.469517
9.306                0.903174078     -118.707519
9.307                0.902874941     -118.946099
9.308                0.902575928     -119.185257
9.309                0.902277051     -119.424993
9.31                  0.90197832     -119.665309
9.311                0.901679746     -119.906204
9.312                 0.90138134     -120.147679
9.313                0.901083113     -120.389733
9.314                0.900785076     -120.632368
9.315                0.900487241     -120.875582
9.316                0.900189618     -121.119377
9.317                0.899892219     -121.363753
9.318                0.899595056     -121.608709
9.319                0.899298139     -121.854246
9.32                 0.899001481     -122.100364
9.321                0.898705093     -122.347063
9.322                0.898408987     -122.594344
9.323                0.898113174     -122.842205
9.324                0.897817667     -123.090647
9.325                0.897522477     -123.339671
9.326                0.897227616     -123.589275
9.327                0.896933097     -123.839461
9.328                0.896638931     -124.090228
9.329                0.896345131     -124.341575
9.33                 0.896051709     -124.593504
9.331                0.895758678     -124.846013
9.332                0.895466049     -125.099103
9.333                0.895173835     -125.352773
9.334                0.894882049     -125.607023
9.335                0.894590703     -125.861853
9.336                 0.89429981     -126.117263
9.337                0.894009383     -126.373253
9.338                0.893719434     -126.629821
9.339                0.893429977     -126.886968
9.34                 0.893141024     -127.144694
9.341                0.892852589     -127.402998
9.342                0.892564683      -127.66188
9.343                0.892277321     -127.921339
9.344                0.891990516     -128.181375
9.345                0.891704281     -128.441987
9.346                0.891418628     -128.703175
9.347                0.891133572     -128.964938
9.348                0.890849126     -129.227277
9.349                0.890565303      -129.49019
9.35                 0.890282117     -129.753676
9.351                0.889999581     -130.017736
9.352                 0.88971771     -130.282367
9.353                0.889436515     -130.547571
9.354                0.889156013     -130.813346
9.355                0.888876215     -131.079691
9.356                0.888597136     -131.346605
9.357                 0.88831879     -131.614089
9.358                 0.88804119      -131.88214
9.359                0.887764351     -132.150758
9.36                 0.887488287     -132.419943
9.361                0.887213011     -132.689693
9.362                0.886938539     -132.960007
9.363                0.886664882     -133.230885
9.364                0.886392057     -133.502326
9.365                0.886120078     -133.774327
9.366                0.885848957      -134.04689
9.367                 0.88557871     -134.320011
9.368                0.885309352     -134.593691
9.369                0.885040895     -134.867928
9.37                 0.884773356     -135.142721
9.371                0.884506747     -135.418068
9.372                0.884241084     -135.693969
9.373                0.883976382     -135.970422
9.374                0.883712653     -136.247427
9.375                0.883449914     -136.524981
9.376                0.883188178     -136.803083
9.377                0.882927461     -137.081732
9.378                0.882667776     -137.360926
9.379                0.882409138     -137.640665
9.38                 0.882151563     -137.920946
9.381                0.881895064     -138.201769
9.382                0.881639656      -138.48313
9.383                0.881385354      -138.76503
9.384                0.881132172     -139.047466
9.385                0.880880126     -139.330437
9.386                 0.88062923     -139.613941
9.387                0.880379498     -139.897976
9.388                0.880130946     -140.182541
9.389                0.879883587     -140.467633
9.39                 0.879637438     -140.753252
9.391                0.879392511     -141.039395
9.392                0.879148823      -141.32606
9.393                0.878906388     -141.613245
9.394                 0.87866522     -141.900949
9.395                0.878425335     -142.189169
9.396                0.878186746     -142.477904
