! TOUCHSTONE file generated by CST DESIGN STUDIO
! Date and time: Tue Feb  4 18:45:17 2025
! Project name: C:\Work\MatlabApps\UnitCellOptimizationMatlab\CST\unitcell.cst
! Tree item: Tasks\Sweep1\SPara1\S-Parameters
! Header version: 2024
! Port assignment regex: !\s*Touchstone port\s*([0-9]+)\s*=\s*(CST MWS port|CST DES external port|CST DES block port)\s*(.+)\s* \(\"(.*)\"\)(\s*mode\s*([0-9]+))?.*
! Touchstone port assignment:
! Touchstone port 1 = CST DES external port 1 ("")
# GHz S MA R 50
9                    0.973749283     -64.5238192
9.001                0.973639969     -64.6225217
9.002                0.973530051     -64.7214605
9.003                0.973419526     -64.8206365
9.004                0.973308393     -64.9200502
9.005                0.973196651     -65.0197025
9.006                0.973084299      -65.119594
9.007                0.972971337     -65.2197254
9.008                0.972857763     -65.3200976
9.009                0.972743576     -65.4207111
9.01                 0.972628774     -65.5215668
9.011                0.972513358     -65.6226654
9.012                0.972397326     -65.7240076
9.013                0.972280677     -65.8255942
9.014                 0.97216341     -65.9274258
9.015                0.972045524     -66.0295033
9.016                0.971927019     -66.1318274
9.017                0.971807892     -66.2343989
9.018                0.971688143     -66.3372184
9.019                0.971567772     -66.4402868
9.02                 0.971446777     -66.5436049
9.021                0.971325157     -66.6471733
9.022                0.971202911     -66.7509928
9.023                0.971080039     -66.8550643
9.024                0.970956539     -66.9593884
9.025                0.970832411      -67.063966
9.026                0.970707654     -67.1687978
9.027                0.970582266     -67.2738846
9.028                0.970456247     -67.3792273
9.029                0.970329597     -67.4848265
9.03                 0.970202313     -67.5906831
9.031                0.970074395     -67.6967978
9.032                0.969945843     -67.8031715
9.033                0.969816656     -67.9098049
9.034                0.969686832      -68.016699
9.035                0.969556371     -68.1238543
9.036                0.969425271     -68.2312718
9.037                0.969293534     -68.3389523
9.038                0.969161156     -68.4468966
9.039                0.969028138     -68.5551055
9.04                 0.968894479     -68.6635798
9.041                0.968760178     -68.7723203
9.042                0.968625234     -68.8813279
9.043                0.968489646     -68.9906034
9.044                0.968353414     -69.1001476
9.045                0.968216537     -69.2099613
9.046                0.968079014     -69.3200455
9.047                0.967940845     -69.4304008
9.048                0.967802028     -69.5410283
9.049                0.967662563     -69.6519287
9.05                  0.96752245     -69.7631028
9.051                0.967381687     -69.8745516
9.052                0.967240274     -69.9862758
9.053                 0.96709821     -70.0982763
9.054                0.966955495     -70.2105541
9.055                0.966812128     -70.3231099
9.056                0.966668107     -70.4359447
9.057                0.966523434     -70.5490592
9.058                0.966378106     -70.6624544
9.059                0.966232124     -70.7761312
9.06                 0.966085486     -70.8900903
9.061                0.965938192     -71.0043328
9.062                0.965790242     -71.1188595
9.063                0.965641635     -71.2336713
9.064                 0.96549237     -71.3487691
9.065                0.965342446     -71.4641537
9.066                0.965191864     -71.5798261
9.067                0.965040623     -71.6957872
9.068                0.964888722     -71.8120378
9.069                 0.96473616      -71.928579
9.07                 0.964582937     -72.0454115
9.071                0.964429053     -72.1625364
9.072                0.964274507     -72.2799545
9.073                0.964119299     -72.3976668
9.074                0.963963428     -72.5156741
9.075                0.963806893     -72.6339775
9.076                0.963649695     -72.7525778
9.077                0.963491832     -72.8714759
9.078                0.963333305     -72.9906729
9.079                0.963174113     -73.1101696
9.08                 0.963014255     -73.2299671
9.081                0.962853731     -73.3500661
9.082                0.962692541     -73.4704678
9.083                0.962530685      -73.591173
9.084                0.962368161     -73.7121827
9.085                 0.96220497     -73.8334979
9.086                0.962041112     -73.9551195
9.087                0.961876585     -74.0770485
9.088                 0.96171139     -74.1992859
9.089                0.961545527     -74.3218326
9.09                 0.961378995     -74.4446896
9.091                0.961211793     -74.5678579
9.092                0.961043922     -74.6913385
9.093                0.960875382     -74.8151324
9.094                0.960706172     -74.9392405
9.095                0.960536291     -75.0636638
9.096                 0.96036574     -75.1884034
9.097                0.960194519     -75.3134603
9.098                0.960022627     -75.4388354
9.099                0.959850064     -75.5645297
9.1                   0.95967683     -75.6905443
9.101                0.959502924     -75.8168801
9.102                0.959328348     -75.9435382
9.103                  0.9591531     -76.0705197
9.104                 0.95897718     -76.1978254
9.105                0.958800589     -76.3254566
9.106                0.958623326     -76.4534141
9.107                0.958445392      -76.581699
9.108                0.958266786     -76.7103123
9.109                0.958087507     -76.8392551
9.11                 0.957907557     -76.9685285
9.111                0.957726936     -77.0981334
9.112                0.957545642     -77.2280709
9.113                0.957363676     -77.3583421
9.114                0.957181039     -77.4889481
9.115                 0.95699773     -77.6198898
9.116                 0.95681375     -77.7511683
9.117                0.956629098     -77.8827847
9.118                0.956443774     -78.0147401
9.119                0.956257779     -78.1470356
9.12                 0.956071113     -78.2796722
9.121                0.955883776     -78.4126509
9.122                0.955695769     -78.5459729
9.123                 0.95550709     -78.6796393
9.124                0.955317741     -78.8136511
9.125                0.955127722     -78.9480094
9.126                0.954937033     -79.0827153
9.127                0.954745674       -79.21777
9.128                0.954553646     -79.3531745
9.129                0.954360948     -79.4889298
9.13                 0.954167582     -79.6250372
9.131                0.953973547     -79.7614977
9.132                0.953778844     -79.8983125
9.133                0.953583473     -80.0354826
9.134                0.953387434     -80.1730091
9.135                0.953190729     -80.3108933
9.136                0.952993356     -80.4491361
9.137                0.952795318     -80.5877388
9.138                0.952596614     -80.7267024
9.139                0.952397244     -80.8660282
9.14                  0.95219721     -81.0057171
9.141                0.951996511     -81.1457704
9.142                0.951795149     -81.2861893
9.143                0.951593123     -81.4269747
9.144                0.951390435      -81.568128
9.145                0.951187084     -81.7096502
9.146                0.950983072     -81.8515425
9.147                  0.9507784      -81.993806
9.148                0.950573067      -82.136442
9.149                0.950367074     -82.2794515
9.15                 0.950160423     -82.4228358
9.151                0.949953114     -82.5665959
9.152                0.949745147     -82.7107331
9.153                0.949536523     -82.8552486
9.154                0.949327244     -83.0001434
9.155                 0.94911731     -83.1454189
9.156                0.948906721     -83.2910761
9.157                0.948695479     -83.4371163
9.158                0.948483585     -83.5835406
9.159                0.948271039     -83.7303502
9.16                 0.948057842     -83.8775463
9.161                0.947843995     -84.0251302
9.162                  0.9476295     -84.1731029
9.163                0.947414356     -84.3214658
9.164                0.947198566     -84.4702199
9.165                 0.94698213     -84.6193665
9.166                0.946765049     -84.7689069
9.167                0.946547325     -84.9188421
9.168                0.946328958     -85.0691735
9.169                0.946109949     -85.2199023
9.17                   0.9458903     -85.3710295
9.171                0.945670012     -85.5225566
9.172                0.945449086     -85.6744846
9.173                0.945227524     -85.8268148
9.174                0.945005326     -85.9795485
9.175                0.944782494     -86.1326868
9.176                0.944559029     -86.2862311
9.177                0.944334932     -86.4401824
9.178                0.944110205     -86.5945421
9.179                 0.94388485     -86.7493113
9.18                 0.943658867     -86.9044914
9.181                0.943432259     -87.0600835
9.182                0.943205025      -87.216089
9.183                0.942977169     -87.3725089
9.184                0.942748692     -87.5293447
9.185                0.942519595     -87.6865975
9.186                0.942289879     -87.8442685
9.187                0.942059547     -88.0023591
9.188                  0.9418286     -88.1608705
9.189                 0.94159704     -88.3198039
9.19                 0.941364868     -88.4791606
9.191                0.941132086     -88.6389418
9.192                0.940898696     -88.7991488
9.193                  0.9406647     -88.9597829
9.194                0.940430099     -89.1208452
9.195                0.940194896     -89.2823372
9.196                0.939959092       -89.44426
9.197                0.939722689     -89.6066149
9.198                0.939485689     -89.7694032
9.199                0.939248095     -89.9326261
9.2                  0.939009908     -90.0962849
9.201                 0.93877113     -90.2603809
9.202                0.938531763     -90.4249153
9.203                 0.93829181     -90.5898895
9.204                0.938051273     -90.7553046
9.205                0.937810153      -90.921162
9.206                0.937568453     -91.0874629
9.207                0.937326176     -91.2542087
9.208                0.937083323     -91.4214005
9.209                0.936839898     -91.5890397
9.21                 0.936595901     -91.7571275
9.211                0.936351337     -91.9256652
9.212                0.936106206     -92.0946542
9.213                0.935860513     -92.2640956
9.214                0.935614258     -92.4339907
9.215                0.935367445     -92.6043409
9.216                0.935120076     -92.7751474
9.217                0.934872155     -92.9464115
9.218                0.934623683     -93.1181344
9.219                0.934374663     -93.2903175
9.22                 0.934125099      -93.462962
9.221                0.933874992     -93.6360692
9.222                0.933624346     -93.8096404
9.223                0.933373163     -93.9836769
9.224                0.933121447     -94.1581799
9.225                0.932869201     -94.3331507
9.226                0.932616427     -94.5085906
9.227                0.932363128     -94.6845009
9.228                0.932109308     -94.8608829
9.229                0.931854969     -95.0377378
9.23                 0.931600115     -95.2150668
9.231                0.931344749     -95.3928714
9.232                0.931088875     -95.5711527
9.233                0.930832495     -95.7499121
9.234                0.930575612     -95.9291507
9.235                0.930318231     -96.1088699
9.236                0.930060355      -96.289071
9.237                0.929801987     -96.4697551
9.238                 0.92954313     -96.6509237
9.239                0.929283788     -96.8325778
9.24                 0.929023966     -97.0147189
9.241                0.928763665     -97.1973481
9.242                0.928502891     -97.3804668
9.243                0.928241647     -97.5640761
9.244                0.927979936     -97.7481774
9.245                0.927717763     -97.9327719
9.246                0.927455131     -98.1178608
9.247                0.927192044     -98.3034454
9.248                0.926928507      -98.489527
9.249                0.926664523     -98.6761068
9.25                 0.926400096     -98.8631859
9.251                0.926135231     -99.0507658
9.252                0.925869931     -99.2388476
9.253                0.925604202     -99.4274325
9.254                0.925338046     -99.6165218
9.255                0.925071469     -99.8061167
9.256                0.924804475     -99.9962184
9.257                0.924537069     -100.186828
9.258                0.924269254     -100.377947
9.259                0.924001036     -100.569577
9.26                 0.923732418     -100.761718
9.261                0.923463406     -100.954372
9.262                0.923194005     -101.147541
9.263                0.922924218     -101.341224
9.264                0.922654052     -101.535424
9.265                 0.92238351     -101.730142
9.266                0.922112598     -101.925379
9.267                 0.92184132     -102.121136
9.268                0.921569682     -102.317414
9.269                0.921297689     -102.514214
9.27                 0.921025346     -102.711538
9.271                0.920752658     -102.909387
9.272                 0.92047963     -103.107762
9.273                0.920206268     -103.306664
9.274                0.919932577     -103.506094
9.275                0.919658562     -103.706053
9.276                 0.91938423     -103.906543
9.277                0.919109585     -104.107565
9.278                0.918834632     -104.309119
9.279                0.918559379     -104.511207
9.28                  0.91828383      -104.71383
9.281                0.918007992      -104.91699
9.282                0.917731869     -105.120686
9.283                0.917455469     -105.324921
9.284                0.917178797     -105.529696
9.285                0.916901858      -105.73501
9.286                 0.91662466     -105.940867
9.287                0.916347208     -106.147266
9.288                0.916069509     -106.354209
9.289                0.915791568     -106.561696
9.29                 0.915513392     -106.769729
9.291                0.915234988     -106.978309
9.292                0.914956362     -107.187437
9.293                0.914677521     -107.397114
9.294                 0.91439847     -107.607341
9.295                0.914119217     -107.818118
9.296                0.913839769     -108.029448
9.297                0.913560132      -108.24133
9.298                0.913280313     -108.453766
9.299                 0.91300032     -108.666757
9.3                  0.912720158     -108.880304
9.301                0.912439835     -109.094408
9.302                0.912159359     -109.309069
9.303                0.911878736     -109.524289
9.304                0.911597973     -109.740069
9.305                0.911317079     -109.956408
9.306                 0.91103606      -110.17331
9.307                0.910754924     -110.390773
9.308                0.910473678       -110.6088
9.309                0.910192329     -110.827391
9.31                 0.909910887     -111.046547
9.311                0.909629358     -111.266268
9.312                0.909347749     -111.486556
9.313                 0.90906607     -111.707411
9.314                0.908784328     -111.928835
9.315                 0.90850253     -112.150827
9.316                0.908220685     -112.373389
9.317                0.907938802     -112.596522
9.318                0.907656887     -112.820227
9.319                 0.90737495     -113.044503
9.32                 0.907092999     -113.269352
9.321                0.906811042     -113.494775
9.322                0.906529088     -113.720772
9.323                0.906247146     -113.947344
9.324                0.905965223     -114.174492
9.325                0.905683329     -114.402216
9.326                0.905401472     -114.630517
9.327                0.905119661     -114.859396
9.328                0.904837906     -115.088853
9.329                0.904556214     -115.318889
9.33                 0.904274596     -115.549504
9.331                 0.90399306       -115.7807
9.332                0.903711615     -116.012476
9.333                0.903430271     -116.244834
9.334                0.903149037     -116.477773
9.335                0.902867922     -116.711294
9.336                0.902586936     -116.945399
9.337                0.902306089     -117.180086
9.338                0.902025389     -117.415358
9.339                0.901744847     -117.651214
9.34                 0.901464472     -117.887654
9.341                0.901184275      -118.12468
9.342                0.900904264     -118.362291
9.343                0.900624451     -118.600488
9.344                0.900344844     -118.839271
9.345                0.900065455     -119.078641
9.346                0.899786293     -119.318598
9.347                0.899507368     -119.559142
9.348                0.899228691     -119.800274
9.349                0.898950273     -120.041994
9.35                 0.898672122     -120.284302
9.351                0.898394251     -120.527198
9.352                 0.89811667     -120.770683
9.353                0.897839388     -121.014757
9.354                0.897562418      -121.25942
9.355                0.897285769     -121.504672
9.356                0.897009453     -121.750513
9.357                 0.89673348     -121.996944
9.358                0.896457862     -122.243964
9.359                0.896182609     -122.491574
9.36                 0.895907733     -122.739774
9.361                0.895633244     -122.988564
9.362                0.895359155     -123.237943
9.363                0.895085475     -123.487912
9.364                0.894812217     -123.738471
9.365                0.894539392     -123.989619
9.366                0.894267011     -124.241357
9.367                0.893995087     -124.493685
9.368                 0.89372363     -124.746602
9.369                0.893452652     -125.000108
9.37                 0.893182165     -125.254204
9.371                0.892912181     -125.508888
9.372                0.892642711     -125.764161
9.373                0.892373768     -126.020023
9.374                0.892105363     -126.276473
9.375                0.891837509      -126.53351
9.376                0.891570217     -126.791136
9.377                  0.8913035     -127.049348
9.378                 0.89103737     -127.308148
9.379                0.890771838     -127.567534
9.38                 0.890506918     -127.827507
9.381                0.890242622     -128.088065
9.382                0.889978962     -128.349208
9.383                 0.88971595     -128.610936
9.384                  0.8894536     -128.873248
9.385                0.889191923     -129.136144
9.386                0.888930932     -129.399624
9.387                 0.88867064     -129.663685
9.388                 0.88841106     -129.928329
9.389                0.888152203     -130.193554
9.39                 0.887894084     -130.459359
9.391                0.887636715     -130.725745
9.392                0.887380109     -130.992709
9.393                0.887124278     -131.260252
9.394                0.886869235     -131.528373
9.395                0.886614995      -131.79707
9.396                0.886361569     -132.066343
