! TOUCHSTONE file generated by CST DESIGN STUDIO
! Date and time: Tue Feb  4 18:45:11 2025
! Project name: C:\Work\MatlabApps\UnitCellOptimizationMatlab\CST\unitcell.cst
! Tree item: Tasks\Sweep1\SPara1\S-Parameters
! Header version: 2024
! Port assignment regex: !\s*Touchstone port\s*([0-9]+)\s*=\s*(CST MWS port|CST DES external port|CST DES block port)\s*(.+)\s* \(\"(.*)\"\)(\s*mode\s*([0-9]+))?.*
! Touchstone port assignment:
! Touchstone port 1 = CST DES external port 1 ("")
# GHz S MA R 50
9                    0.971260716     -76.4807453
9.001                0.971115779     -76.6116323
9.002                0.970969918     -76.7428607
9.003                 0.97082313     -76.8744317
9.004                0.970675415     -77.0063461
9.005                 0.97052677      -77.138605
9.006                0.970377193     -77.2712094
9.007                0.970226682     -77.4041602
9.008                0.970075236     -77.5374584
9.009                0.969922852      -77.671105
9.01                 0.969769529      -77.805101
9.011                0.969615265     -77.9394475
9.012                0.969460058     -78.0741453
9.013                0.969303907     -78.2091956
9.014                0.969146809     -78.3445992
9.015                0.968988763     -78.4803573
9.016                0.968829768     -78.6164708
9.017                0.968669822     -78.7529407
9.018                0.968508922     -78.8897681
9.019                0.968347068     -79.0269539
9.02                 0.968184257     -79.1644992
9.021                0.968020489      -79.302405
9.022                0.967855762     -79.4406724
9.023                0.967690073     -79.5793022
9.024                0.967523423     -79.7182956
9.025                0.967355808     -79.8576537
9.026                0.967187229     -79.9973773
9.027                0.967017682     -80.1374676
9.028                0.966847168     -80.2779256
9.029                0.966675684     -80.4187523
9.03                 0.966503229     -80.5599488
9.031                0.966329803     -80.7015161
9.032                0.966155402     -80.8434553
9.033                0.965980028     -80.9857673
9.034                0.965803677     -81.1284533
9.035                0.965626349     -81.2715143
9.036                0.965448043     -81.4149513
9.037                0.965268757     -81.5587654
9.038                0.965088491     -81.7029577
9.039                0.964907243     -81.8475292
9.04                 0.964725012     -81.9924809
9.041                0.964541798      -82.137814
9.042                0.964357599     -82.2835295
9.043                0.964172414     -82.4296285
9.044                0.963986242      -82.576112
9.045                0.963799083      -82.722981
9.046                0.963610935     -82.8702368
9.047                0.963421798     -83.0178803
9.048                 0.96323167     -83.1659126
9.049                0.963040551     -83.3143348
9.05                 0.962848441      -83.463148
9.051                0.962655338     -83.6123532
9.052                0.962461242     -83.7619516
9.053                0.962266153     -83.9119442
9.054                0.962070068     -84.0623321
9.055                0.961872989     -84.2131164
9.056                0.961674914     -84.3642982
9.057                0.961475843     -84.5158785
9.058                0.961275775     -84.6678586
9.059                 0.96107471     -84.8202393
9.06                 0.960872648      -84.973022
9.061                0.960669587     -85.1262076
9.062                0.960465529     -85.2797972
9.063                0.960260472     -85.4337921
9.064                0.960054416     -85.5881931
9.065                0.959847361     -85.7430016
9.066                0.959639306     -85.8982185
9.067                0.959430252     -86.0538449
9.068                0.959220199     -86.2098821
9.069                0.959009146      -86.366331
9.07                 0.958797094     -86.5231929
9.071                0.958584041     -86.6804688
9.072                 0.95836999     -86.8381597
9.073                0.958154938      -86.996267
9.074                0.957938887     -87.1547916
9.075                0.957721837     -87.3137346
9.076                0.957503788     -87.4730973
9.077                 0.95728474     -87.6328806
9.078                0.957064693     -87.7930858
9.079                0.956843648      -87.953714
9.08                 0.956621605     -88.1147662
9.081                0.956398565     -88.2762436
9.082                0.956174528     -88.4381474
9.083                0.955949494     -88.6004786
9.084                0.955723464     -88.7632383
9.085                0.955496439     -88.9264278
9.086                0.955268419     -89.0900481
9.087                0.955039406     -89.2541004
9.088                0.954809398     -89.4185857
9.089                0.954578399     -89.5835053
9.09                 0.954346407     -89.7488602
9.091                0.954113425     -89.9146515
9.092                0.953879453     -90.0808805
9.093                0.953644492     -90.2475482
9.094                0.953408542     -90.4146558
9.095                0.953171606     -90.5822045
9.096                0.952933684     -90.7501952
9.097                0.952694778     -90.9186292
9.098                0.952454888     -91.0875076
9.099                0.952214016     -91.2568316
9.1                  0.951972162     -91.4266022
9.101                 0.95172933     -91.5968207
9.102                0.951485519     -91.7674881
9.103                0.951240732     -91.9386055
9.104                0.950994969     -92.1101742
9.105                0.950748233     -92.2821952
9.106                0.950500526     -92.4546697
9.107                0.950251847     -92.6275988
9.108                0.950002201     -92.8009837
9.109                0.949751587     -92.9748254
9.11                 0.949500009     -93.1491251
9.111                0.949247468      -93.323884
9.112                0.948993965     -93.4991032
9.113                0.948739504     -93.6747838
9.114                0.948484086     -93.8509269
9.115                0.948227712     -94.0275336
9.116                0.947970387     -94.2046052
9.117                 0.94771211     -94.3821427
9.118                0.947452886     -94.5601472
9.119                0.947192716     -94.7386199
9.12                 0.946931602      -94.917562
9.121                0.946669548     -95.0969744
9.122                0.946406555     -95.2768584
9.123                0.946142626     -95.4572151
9.124                0.945877764     -95.6380456
9.125                0.945611972     -95.8193509
9.126                0.945345253     -96.0011324
9.127                0.945077608     -96.1833909
9.128                0.944809042     -96.3661277
9.129                0.944539556     -96.5493439
9.13                 0.944269155     -96.7330406
9.131                0.943997841     -96.9172189
9.132                0.943725618     -97.1018798
9.133                0.943452488     -97.2870246
9.134                0.943178455     -97.4726543
9.135                0.942903522       -97.65877
9.136                0.942627693     -97.8453728
9.137                0.942350971     -98.0324638
9.138                 0.94207336     -98.2200442
9.139                0.941794863     -98.4081149
9.14                 0.941515484     -98.5966771
9.141                0.941235227     -98.7857319
9.142                0.940954096     -98.9752803
9.143                0.940672094     -99.1653235
9.144                0.940389225     -99.3558624
9.145                0.940105495     -99.5468983
9.146                0.939820905     -99.7384321
9.147                0.939535462      -99.930465
9.148                0.939249169     -100.122998
9.149                 0.93896203     -100.316032
9.15                 0.938674049     -100.509568
9.151                0.938385232     -100.703608
9.152                0.938095583     -100.898152
9.153                0.937805106     -101.093201
9.154                0.937513807     -101.288757
9.155                0.937221689      -101.48482
9.156                0.936928758     -101.681392
9.157                0.936635018     -101.878473
9.158                0.936340476     -102.076064
9.159                0.936045134     -102.274168
9.16                    0.935749     -102.472784
9.161                0.935452078     -102.671913
9.162                0.935154373     -102.871557
9.163                 0.93485589     -103.071717
9.164                0.934556636     -103.272393
9.165                0.934256616     -103.473587
9.166                0.933955835     -103.675299
9.167                0.933654298     -103.877531
9.168                0.933352013     -104.080284
9.169                0.933048984     -104.283558
9.17                 0.932745218     -104.487354
9.171                 0.93244072     -104.691674
9.172                0.932135497     -104.896519
9.173                0.931829555     -105.101889
9.174                  0.9315229     -105.307785
9.175                0.931215538     -105.514208
9.176                0.930907476     -105.721159
9.177                0.930598721      -105.92864
9.178                0.930289278      -106.13665
9.179                0.929979155     -106.345192
9.18                 0.929668359     -106.554265
9.181                0.929356896     -106.763871
9.182                0.929044772      -106.97401
9.183                0.928731996     -107.184684
9.184                0.928418575     -107.395893
9.185                0.928104514     -107.607638
9.186                0.927789823     -107.819921
9.187                0.927474507     -108.032741
9.188                0.927158575       -108.2461
9.189                0.926842035     -108.459999
9.19                 0.926524892     -108.674438
9.191                0.926207156     -108.889418
9.192                0.925888835     -109.104941
9.193                0.925569935     -109.321006
9.194                0.925250466     -109.537614
9.195                0.924930434     -109.754767
9.196                0.924609849     -109.972465
9.197                0.924288719      -110.19071
9.198                0.923967051       -110.4095
9.199                0.923644854     -110.628838
9.2                  0.923322138     -110.848725
9.201                0.922998909      -111.06916
9.202                0.922675178     -111.290144
9.203                0.922350952     -111.511679
9.204                0.922026242     -111.733765
9.205                0.921701055     -111.956402
9.206                0.921375401     -112.179592
9.207                0.921049288     -112.403335
9.208                0.920722727     -112.627631
9.209                0.920395726     -112.852481
9.21                 0.920068296     -113.077887
9.211                0.919740444     -113.303848
9.212                0.919412182     -113.530364
9.213                0.919083519     -113.757438
9.214                0.918754464     -113.985068
9.215                0.918425027     -114.213257
9.216                0.918095219     -114.442003
9.217                 0.91776505     -114.671309
9.218                0.917434529     -114.901174
9.219                0.917103667     -115.131598
9.22                 0.916772475     -115.362583
9.221                0.916440962     -115.594129
9.222                0.916109139     -115.826237
9.223                0.915777018     -116.058906
9.224                0.915444608     -116.292137
9.225                 0.91511192     -116.525931
9.226                0.914778966     -116.760287
9.227                0.914445757     -116.995208
9.228                0.914112303     -117.230692
9.229                0.913778615      -117.46674
9.23                 0.913444706     -117.703353
9.231                0.913110586      -117.94053
9.232                0.912776267     -118.178273
9.233                 0.91244176     -118.416582
9.234                0.912107078     -118.655456
9.235                0.911772231     -118.894896
9.236                0.911437232     -119.134902
9.237                0.911102092     -119.375475
9.238                0.910766825     -119.616614
9.239                0.910431441     -119.858321
9.24                 0.910095953     -120.100595
9.241                0.909760373     -120.343436
9.242                0.909424714     -120.586844
9.243                0.909088989      -120.83082
9.244                0.908753209     -121.075364
9.245                0.908417387     -121.320475
9.246                0.908081537     -121.566155
9.247                0.907745671     -121.812402
9.248                0.907409801     -122.059217
9.249                0.907073942       -122.3066
9.25                 0.906738106     -122.554551
9.251                0.906402306      -122.80307
9.252                0.906066556     -123.052157
9.253                0.905730869     -123.301812
9.254                0.905395258     -123.552035
9.255                0.905059737     -123.802825
9.256                 0.90472432     -124.054183
9.257                0.904389021     -124.306108
9.258                0.904053852     -124.558601
9.259                0.903718829     -124.811661
9.26                 0.903383964     -125.065287
9.261                0.903049273      -125.31948
9.262                0.902714769      -125.57424
9.263                0.902380466     -125.829566
9.264                0.902046379     -126.085457
9.265                0.901712523     -126.341914
9.266                0.901378911     -126.598936
9.267                0.901045558     -126.856523
9.268                0.900712479     -127.114675
9.269                0.900379688      -127.37339
9.27                 0.900047201     -127.632669
9.271                0.899715031     -127.892512
9.272                0.899383195     -128.152917
9.273                0.899051707     -128.413884
9.274                0.898720582     -128.675413
9.275                0.898389835     -128.937502
9.276                0.898059481     -129.200153
9.277                0.897729537     -129.463363
9.278                0.897400016     -129.727133
9.279                0.897070935     -129.991461
9.28                 0.896742309     -130.256347
9.281                0.896414154      -130.52179
9.282                0.896086485      -130.78779
9.283                0.895759318     -131.054346
9.284                0.895432668     -131.321457
9.285                0.895106553     -131.589122
9.286                0.894780986      -131.85734
9.287                0.894455985     -132.126111
9.288                0.894131565     -132.395434
9.289                0.893807743     -132.665307
9.29                 0.893484534      -132.93573
9.291                0.893161955     -133.206702
9.292                0.892840021     -133.478221
9.293                 0.89251875     -133.750288
9.294                0.892198158       -134.0229
9.295                 0.89187826     -134.296056
9.296                0.891559074     -134.569757
9.297                0.891240615     -134.843999
9.298                0.890922901     -135.118783
9.299                0.890605948     -135.394107
9.3                  0.890289772      -135.66997
9.301                0.889974391      -135.94637
9.302                 0.88965982     -136.223307
9.303                0.889346077     -136.500778
9.304                0.889033178     -136.778783
9.305                 0.88872114     -137.057321
9.306                0.888409981     -137.336389
9.307                0.888099716     -137.615987
9.308                0.887790363     -137.896112
9.309                0.887481939     -138.176764
9.31                  0.88717446     -138.457941
9.311                0.886867944     -138.739642
9.312                0.886562408     -139.021864
9.313                0.886257868     -139.304606
9.314                0.885954342     -139.587867
9.315                0.885651846     -139.871645
9.316                0.885350399     -140.155938
9.317                0.885050017     -140.440744
9.318                0.884750716     -140.726062
9.319                0.884452515      -141.01189
9.32                  0.88415543     -141.298225
9.321                0.883859479     -141.585067
9.322                0.883564678     -141.872413
9.323                0.883271045     -142.160261
9.324                0.882978596      -142.44861
9.325                 0.88268735     -142.737457
9.326                0.882397323       -143.0268
9.327                0.882108532     -143.316637
9.328                0.881820995     -143.606967
9.329                0.881534728     -143.897786
9.33                 0.881249749     -144.189094
9.331                0.880966075     -144.480887
9.332                0.880683723     -144.773163
9.333                0.880402709     -145.065921
9.334                0.880123052     -145.359157
9.335                0.879844767      -145.65287
9.336                0.879567872     -145.947057
9.337                0.879292385     -146.241716
9.338                0.879018321     -146.536844
9.339                0.878745698     -146.832439
9.34                 0.878474533     -147.128498
9.341                0.878204842      -147.42502
9.342                0.877936643     -147.722001
9.343                0.877669952     -148.019438
9.344                0.877404785     -148.317329
9.345                 0.87714116     -148.615672
9.346                0.876879093     -148.914464
9.347                0.876618601     -149.213702
9.348                0.876359701     -149.513383
9.349                0.876102407     -149.813504
9.35                 0.875846738     -150.114064
9.351                 0.87559271     -150.415058
9.352                0.875340338     -150.716484
9.353                 0.87508964     -151.018338
9.354                 0.87484063     -151.320619
9.355                0.874593326     -151.623323
9.356                0.874347743     -151.926447
9.357                0.874103898     -152.229988
9.358                0.873861805     -152.533943
9.359                0.873621482     -152.838308
9.36                 0.873382943     -153.143081
9.361                0.873146205     -153.448259
9.362                0.872911282     -153.753838
9.363                0.872678191     -154.059814
9.364                0.872446947     -154.366186
9.365                0.872217564     -154.672949
9.366                0.871990058     -154.980099
9.367                0.871764445     -155.287635
9.368                0.871540739     -155.595551
9.369                0.871318955     -155.903845
9.37                 0.871099108     -156.212514
9.371                0.870881213     -156.521553
9.372                0.870665283      -156.83096
9.373                0.870451334      -157.14073
9.374                 0.87023938      -157.45086
9.375                0.870029435     -157.761347
9.376                0.869821513     -158.072187
9.377                0.869615629     -158.383376
9.378                0.869411795      -158.69491
9.379                0.869210025     -159.006785
9.38                 0.869010334     -159.318999
9.381                0.868812735     -159.631547
9.382                0.868617241     -159.944424
9.383                0.868423865     -160.257629
9.384                 0.86823262     -160.571155
9.385                0.868043519        -160.885
9.386                0.867856575      -161.19916
9.387                  0.8676718      -161.51363
9.388                0.867489207     -161.828407
9.389                0.867308809     -162.143486
9.39                 0.867130617     -162.458864
9.391                0.866954643     -162.774536
9.392                  0.8667809     -163.090498
9.393                0.866609398     -163.406747
9.394                 0.86644015     -163.723277
9.395                0.866273166     -164.040085
9.396                0.866108458     -164.357167
