! TOUCHSTONE file generated by CST DESIGN STUDIO
! Date and time: Tue Feb  4 18:45:06 2025
! Project name: C:\Work\MatlabApps\UnitCellOptimizationMatlab\CST\unitcell.cst
! Tree item: Tasks\Sweep1\SPara1\S-Parameters
! Header version: 2024
! Port assignment regex: !\s*Touchstone port\s*([0-9]+)\s*=\s*(CST MWS port|CST DES external port|CST DES block port)\s*(.+)\s* \(\"(.*)\"\)(\s*mode\s*([0-9]+))?.*
! Touchstone port assignment:
! Touchstone port 1 = CST DES external port 1 ("")
# GHz S MA R 50
9                    0.970702408     -89.8839251
9.001                0.970522943     -90.0558229
9.002                0.970342121     -90.2281892
9.003                0.970159942     -90.4010251
9.004                0.969976406     -90.5743318
9.005                0.969791509     -90.7481103
9.006                0.969605252     -90.9223618
9.007                0.969417633     -91.0970874
9.008                 0.96922865     -91.2722881
9.009                0.969038304     -91.4479651
9.01                 0.968846592     -91.6241195
9.011                0.968653515     -91.8007524
9.012                 0.96845907     -91.9778648
9.013                0.968263257      -92.155458
9.014                0.968066076     -92.3335329
9.015                0.967867525     -92.5120907
9.016                0.967667604     -92.6911325
9.017                0.967466311     -92.8706594
9.018                0.967263648     -93.0506724
9.019                0.967059612     -93.2311727
9.02                 0.966854203     -93.4121614
9.021                0.966647421     -93.5936395
9.022                0.966439266     -93.7756081
9.023                0.966229737     -93.9580683
9.024                0.966018834     -94.1410212
9.025                0.965806556     -94.3244678
9.026                0.965592904     -94.5084093
9.027                0.965377876     -94.6928468
9.028                0.965161475     -94.8777812
9.029                0.964943698     -95.0632137
9.03                 0.964724546     -95.2491453
9.031                 0.96450402     -95.4355771
9.032                 0.96428212     -95.6225102
9.033                0.964058845     -95.8099456
9.034                0.963834196     -95.9978843
9.035                0.963608174     -96.1863275
9.036                0.963380778     -96.3752762
9.037                 0.96315201     -96.5647314
9.038                 0.96292187     -96.7546941
9.039                0.962690358     -96.9451655
9.04                 0.962457476     -97.1361465
9.041                0.962223224     -97.3276382
9.042                0.961987602     -97.5196416
9.043                0.961750613     -97.7121577
9.044                0.961512256     -97.9051875
9.045                0.961272533     -98.0987322
9.046                0.961031445     -98.2927926
9.047                0.960788993     -98.4873698
9.048                0.960545178     -98.6824648
9.049                0.960300002     -98.8780786
9.05                 0.960053466     -99.0742122
9.051                0.959805572     -99.2708666
9.052                0.959556321     -99.4680427
9.053                0.959305715     -99.6657416
9.054                0.959053756     -99.8639642
9.055                0.958800445     -100.062712
9.056                0.958545785     -100.261985
9.057                0.958289777     -100.461784
9.058                0.958032423     -100.662111
9.059                0.957773725     -100.862967
9.06                 0.957513687     -101.064352
9.061                0.957252309     -101.266268
9.062                0.956989595     -101.468715
9.063                0.956725547     -101.671694
9.064                0.956460168     -101.875206
9.065                0.956193459     -102.079253
9.066                0.955925425     -102.283834
9.067                0.955656067     -102.488952
9.068                0.955385389     -102.694606
9.069                0.955113393     -102.900798
9.07                 0.954840083     -103.107528
9.071                0.954565463     -103.314798
9.072                0.954289534     -103.522609
9.073                0.954012302      -103.73096
9.074                0.953733768     -103.939854
9.075                0.953453937      -104.14929
9.076                0.953172813      -104.35927
9.077                0.952890399     -104.569795
9.078                0.952606699     -104.780864
9.079                0.952321717     -104.992481
9.08                 0.952035457     -105.204644
9.081                0.951747924     -105.417355
9.082                0.951459121     -105.630614
9.083                0.951169053     -105.844423
9.084                0.950877725     -106.058782
9.085                0.950585141     -106.273691
9.086                0.950291305     -106.489153
9.087                0.949996224     -106.705167
9.088                  0.9496999     -106.921733
9.089                 0.94940234     -107.138854
9.09                 0.949103549     -107.356529
9.091                0.948803532      -107.57476
9.092                0.948502294     -107.793546
9.093                 0.94819984     -108.012889
9.094                0.947896177      -108.23279
9.095                0.947591309     -108.453248
9.096                0.947285244     -108.674265
9.097                0.946977986     -108.895841
9.098                0.946669541     -109.117977
9.099                0.946359916     -109.340674
9.1                  0.946049118     -109.563932
9.101                0.945737151     -109.787751
9.102                0.945424024     -110.012133
9.103                0.945109741     -110.237078
9.104                0.944794312     -110.462586
9.105                0.944477741     -110.688658
9.106                0.944160036     -110.915295
9.107                0.943841204     -111.142497
9.108                0.943521252     -111.370264
9.109                0.943200188     -111.598598
9.11                 0.942878018     -111.827498
9.111                0.942554752     -112.056965
9.112                0.942230395        -112.287
9.113                0.941904957     -112.517602
9.114                0.941578444     -112.748773
9.115                0.941250866     -112.980513
9.116                 0.94092223     -113.212823
9.117                0.940592544     -113.445701
9.118                0.940261818      -113.67915
9.119                0.939930059      -113.91317
9.12                 0.939597276      -114.14776
9.121                0.939263478     -114.382921
9.122                0.938928674     -114.618653
9.123                0.938592874     -114.854958
9.124                0.938256086     -115.091834
9.125                0.937918319     -115.329283
9.126                0.937579584     -115.567304
9.127                0.937239889     -115.805898
9.128                0.936899245     -116.045065
9.129                0.936557661     -116.284805
9.13                 0.936215148     -116.525119
9.131                0.935871715     -116.766006
9.132                0.935527373     -117.007467
9.133                0.935182132     -117.249502
9.134                0.934836003     -117.492112
9.135                0.934488996     -117.735295
9.136                0.934141122     -117.979053
9.137                0.933792393     -118.223385
9.138                0.933442819     -118.468291
9.139                0.933092411     -118.713772
9.14                 0.932741181     -118.959828
9.141                 0.93238914     -119.206458
9.142                0.932036299     -119.453663
9.143                0.931682672     -119.701442
9.144                0.931328269     -119.949795
9.145                0.930973102     -120.198723
9.146                0.930617184     -120.448225
9.147                0.930260527     -120.698301
9.148                0.929903144     -120.948952
9.149                0.929545046     -121.200176
9.15                 0.929186247     -121.451974
9.151                 0.92882676     -121.704346
9.152                0.928466597     -121.957291
9.153                0.928105771     -122.210809
9.154                0.927744296       -122.4649
9.155                0.927382186     -122.719563
9.156                0.927019453     -122.974799
9.157                0.926656112     -123.230607
9.158                0.926292175     -123.486987
9.159                0.925927658     -123.743938
9.16                 0.925562574     -124.001459
9.161                0.925196937     -124.259552
9.162                0.924830762     -124.518214
9.163                0.924464063     -124.777447
9.164                0.924096855     -125.037248
9.165                0.923729152     -125.297619
9.166                 0.92336097     -125.558557
9.167                0.922992322     -125.820063
9.168                0.922623226     -126.082137
9.169                0.922253695     -126.344777
9.17                 0.921883744     -126.607983
9.171                0.921513391     -126.871754
9.172                 0.92114265      -127.13609
9.173                0.920771536      -127.40099
9.174                0.920400067     -127.666453
9.175                0.920028258     -127.932479
9.176                0.919656124     -128.199067
9.177                0.919283683     -128.466216
9.178                0.918910951     -128.733925
9.179                0.918537945     -129.002194
9.18                  0.91816468     -129.271021
9.181                0.917791174     -129.540406
9.182                0.917417444     -129.810348
9.183                0.917043506     -130.080845
9.184                0.916669378     -130.351898
9.185                0.916295078     -130.623504
9.186                0.915920622     -130.895664
9.187                0.915546028     -131.168375
9.188                0.915171314     -131.441637
9.189                0.914796497      -131.71545
9.19                 0.914421596      -131.98981
9.191                0.914046628     -132.264718
9.192                0.913671611     -132.540173
9.193                0.913296563     -132.816173
9.194                0.912921504     -133.092716
9.195                0.912546451     -133.369803
9.196                0.912171422     -133.647431
9.197                0.911796437     -133.925598
9.198                0.911421514     -134.204305
9.199                0.911046672     -134.483549
9.2                   0.91067193     -134.763329
9.201                0.910297306     -135.043643
9.202                0.909922821     -135.324491
9.203                0.909548493      -135.60587
9.204                0.909174342      -135.88778
9.205                0.908800387     -136.170218
9.206                0.908426647     -136.453183
9.207                0.908053142     -136.736673
9.208                0.907679893     -137.020687
9.209                0.907306918     -137.305224
9.21                 0.906934237     -137.590281
9.211                0.906561871     -137.875856
9.212                0.906189839     -138.161948
9.213                0.905818162     -138.448556
9.214                 0.90544686     -138.735677
9.215                0.905075953      -139.02331
9.216                0.904705461     -139.311452
9.217                0.904335405     -139.600102
9.218                0.903965805     -139.889258
9.219                0.903596682     -140.178918
9.22                 0.903228057     -140.469079
9.221                 0.90285995     -140.759741
9.222                0.902492381       -141.0509
9.223                0.902125373     -141.342555
9.224                0.901758945     -141.634703
9.225                0.901393118     -141.927343
9.226                0.901027914     -142.220472
9.227                0.900663353     -142.514089
9.228                0.900299457      -142.80819
9.229                0.899936247     -143.102773
9.23                 0.899573743     -143.397837
9.231                0.899211968     -143.693379
9.232                0.898850942     -143.989396
9.233                0.898490686     -144.285886
9.234                0.898131222     -144.582847
9.235                0.897772572     -144.880276
9.236                0.897414756     -145.178171
9.237                0.897057796     -145.476528
9.238                0.896701713     -145.775347
9.239                0.896346529     -146.074623
9.24                 0.895992266     -146.374355
9.241                0.895638945      -146.67454
9.242                0.895286586     -146.975174
9.243                0.894935213     -147.276256
9.244                0.894584846     -147.577782
9.245                0.894235507      -147.87975
9.246                0.893887217     -148.182157
9.247                0.893539998        -148.485
9.248                0.893193871     -148.788277
9.249                0.892848858     -149.091983
9.25                 0.892504981     -149.396117
9.251                 0.89216226     -149.700675
9.252                0.891820718     -150.005654
9.253                0.891480376     -150.311052
9.254                0.891141254     -150.616865
9.255                0.890803376      -150.92309
9.256                0.890466761     -151.229724
9.257                0.890131432     -151.536764
9.258                 0.88979741     -151.844207
9.259                0.889464715     -152.152048
9.26                  0.88913337     -152.460286
9.261                0.888803395     -152.768917
9.262                0.888474812     -153.077937
9.263                0.888147642     -153.387343
9.264                0.887821905     -153.697132
9.265                0.887497623     -154.007301
9.266                0.887174816     -154.317845
9.267                0.886853507     -154.628762
9.268                0.886533714     -154.940047
9.269                 0.88621546     -155.251698
9.27                 0.885898765      -155.56371
9.271                0.885583649     -155.876081
9.272                0.885270133     -156.188807
9.273                0.884958238     -156.501883
9.274                0.884647983     -156.815306
9.275                 0.88433939     -157.129073
9.276                0.884032478      -157.44318
9.277                0.883727267     -157.757622
9.278                0.883423778     -158.072397
9.279                 0.88312203       -158.3875
9.28                 0.882822044     -158.702928
9.281                0.882523838     -159.018676
9.282                0.882227433     -159.334741
9.283                0.881932849     -159.651118
9.284                0.881640103     -159.967804
9.285                0.881349216     -160.284796
9.286                0.881060207     -160.602087
9.287                0.880773095     -160.919676
9.288                0.880487899     -161.237557
9.289                0.880204637     -161.555726
9.29                 0.879923328      -161.87418
9.291                0.879643991     -162.192914
9.292                0.879366644     -162.511925
9.293                0.879091306     -162.831207
9.294                0.878817994     -163.150756
9.295                0.878546726     -163.470569
9.296                 0.87827752     -163.790641
9.297                0.878010394     -164.110968
9.298                0.877745365     -164.431545
9.299                 0.87748245     -164.752368
9.3                  0.877221668     -165.073433
9.301                0.876963034     -165.394736
9.302                0.876706565     -165.716271
9.303                0.876452279     -166.038035
9.304                0.876200191     -166.360022
9.305                0.875950319      -166.68223
9.306                0.875702677     -167.004652
9.307                0.875457283     -167.327285
9.308                0.875214151     -167.650123
9.309                0.874973298     -167.973163
9.31                 0.874734738       -168.2964
9.311                0.874498488     -168.619829
9.312                0.874264562     -168.943446
9.313                0.874032974     -169.267245
9.314                 0.87380374     -169.591223
9.315                0.873576874     -169.915375
9.316                 0.87335239     -170.239695
9.317                0.873130303     -170.564179
9.318                0.872910625     -170.888823
9.319                 0.87269337     -171.213622
9.32                 0.872478553     -171.538571
9.321                0.872266185     -171.863665
9.322                0.872056281     -172.188899
9.323                0.871848852     -172.514269
9.324                0.871643912      -172.83977
9.325                0.871441472     -173.165396
9.326                0.871241545     -173.491144
9.327                0.871044142     -173.817008
9.328                0.870849275     -174.142984
9.329                0.870656956     -174.469065
9.33                 0.870467195     -174.795249
9.331                0.870280004     -175.121529
9.332                0.870095392     -175.447901
9.333                0.869913372      -175.77436
9.334                0.869733952     -176.100901
9.335                0.869557143     -176.427519
9.336                0.869382954     -176.754209
9.337                0.869211396     -177.080967
9.338                0.869042476     -177.407786
9.339                0.868876205     -177.734662
9.34                  0.86871259     -178.061591
9.341                0.868551641     -178.388567
9.342                0.868393365     -178.715585
9.343                0.868237771     -179.042641
9.344                0.868084867     -179.369728
9.345                0.867934659     -179.696843
9.346                0.867787155       179.97602
9.347                0.867642362      179.648866
9.348                0.867500286      179.321699
9.349                0.867360935      178.994526
9.35                 0.867224314       178.66735
9.351                 0.86709043      178.340177
9.352                0.866959287      178.013012
9.353                0.866830892       177.68586
9.354                0.866705249      177.358726
9.355                0.866582363      177.031615
9.356                 0.86646224      176.704532
9.357                0.866344883      176.377482
9.358                0.866230296       176.05047
9.359                0.866118484      175.723501
9.36                  0.86600945      175.396579
9.361                0.865903197      175.069711
9.362                0.865799728      174.742901
9.363                0.865699047      174.416155
9.364                0.865601155      174.089476
9.365                0.865506055       173.76287
9.366                0.865413749      173.436342
9.367                0.865324239      173.109897
9.368                0.865237526       172.78354
9.369                0.865153612      172.457276
9.37                 0.865072496       172.13111
9.371                0.864994181      171.805047
9.372                0.864918666      171.479091
9.373                0.864845952      171.153249
9.374                0.864776039      170.827523
9.375                0.864708925      170.501921
9.376                0.864644612      170.176445
9.377                0.864583097      169.851103
9.378                0.864524379      169.525897
9.379                0.864468458      169.200833
9.38                 0.864415332      168.875916
9.381                0.864364998      168.551151
9.382                0.864317455      168.226543
9.383                0.864272701      167.902095
9.384                0.864230731      167.577814
9.385                0.864191545      167.253704
9.386                0.864155138       166.92977
9.387                0.864121507      166.606016
9.388                0.864090649      166.282447
9.389                0.864062559      165.959068
9.39                 0.864037234      165.635884
9.391                0.864014669      165.312899
9.392                0.863994859      164.990118
9.393                  0.8639778      164.667546
9.394                0.863963487      164.345187
9.395                0.863951913      164.023045
9.396                0.863943075      163.701127
