! TOUCHSTONE file generated by CST DESIGN STUDIO
! Date and time: Tue Feb  4 18:45:18 2025
! Project name: C:\Work\MatlabApps\UnitCellOptimizationMatlab\CST\unitcell.cst
! Tree item: Tasks\Sweep1\SPara1\S-Parameters
! Header version: 2024
! Port assignment regex: !\s*Touchstone port\s*([0-9]+)\s*=\s*(CST MWS port|CST DES external port|CST DES block port)\s*(.+)\s* \(\"(.*)\"\)(\s*mode\s*([0-9]+))?.*
! Touchstone port assignment:
! Touchstone port 1 = CST DES external port 1 ("")
# GHz S MA R 50
9                    0.974850577     -60.9331446
9.001                0.974750227     -61.0231915
9.002                0.974649392     -61.1134467
9.003                0.974548073      -61.203911
9.004                0.974446267      -61.294585
9.005                0.974343975     -61.3854693
9.006                0.974241195     -61.4765646
9.007                0.974137926     -61.5678715
9.008                0.974034167     -61.6593907
9.009                0.973929918     -61.7511229
9.01                 0.973825176     -61.8430687
9.011                0.973719943     -61.9352287
9.012                0.973614215     -62.0276038
9.013                0.973507993     -62.1201945
9.014                0.973401275     -62.2130014
9.015                0.973294061     -62.3060254
9.016                 0.97318635      -62.399267
9.017                 0.97307814      -62.492727
9.018                0.972969431      -62.586406
9.019                0.972860222     -62.6803047
9.02                 0.972750511     -62.7744238
9.021                0.972640299      -62.868764
9.022                0.972529583     -62.9633259
9.023                0.972418364     -63.0581104
9.024                 0.97230664     -63.1531181
9.025                 0.97219441     -63.2483496
9.026                0.972081673     -63.3438057
9.027                0.971968428     -63.4394872
9.028                0.971854676     -63.5353946
9.029                0.971740413     -63.6315287
9.03                 0.971625641     -63.7278903
9.031                0.971510357     -63.8244801
9.032                0.971394561     -63.9212987
9.033                0.971278253     -64.0183469
9.034                 0.97116143     -64.1156255
9.035                0.971044093     -64.2131351
9.036                 0.97092624     -64.3108765
9.037                 0.97080787     -64.4088504
9.038                0.970688983     -64.5070576
9.039                0.970569578     -64.6054987
9.04                 0.970449653     -64.7041746
9.041                0.970329209      -64.803086
9.042                0.970208244     -64.9022337
9.043                0.970086757     -65.0016183
9.044                0.969964747     -65.1012406
9.045                0.969842214     -65.2011015
9.046                0.969719157     -65.3012016
9.047                0.969595575     -65.4015417
9.048                0.969471467     -65.5021226
9.049                0.969346832      -65.602945
9.05                 0.969221669     -65.7040098
9.051                0.969095978     -65.8053176
9.052                0.968969758     -65.9068694
9.053                0.968843008     -66.0086657
9.054                0.968715727     -66.1107075
9.055                0.968587914     -66.2129955
9.056                0.968459568     -66.3155305
9.057                 0.96833069     -66.4183133
9.058                0.968201277     -66.5213447
9.059                 0.96807133     -66.6246255
9.06                 0.967940847     -66.7281565
9.061                0.967809828     -66.8319384
9.062                0.967678271     -66.9359721
9.063                0.967546176     -67.0402585
9.064                0.967413543     -67.1447982
9.065                 0.96728037     -67.2495921
9.066                0.967146657     -67.3546411
9.067                0.967012403      -67.459946
9.068                0.966877608     -67.5655075
9.069                 0.96674227     -67.6713265
9.07                 0.966606389     -67.7774039
9.071                0.966469963     -67.8837404
9.072                0.966332994      -67.990337
9.073                0.966195478     -68.0971944
9.074                0.966057417     -68.2043134
9.075                0.965918809      -68.311695
9.076                0.965779654       -68.41934
9.077                0.965639951     -68.5272491
9.078                0.965499698     -68.6354234
9.079                0.965358896     -68.7438636
9.08                 0.965217544     -68.8525706
9.081                0.965075642     -68.9615452
9.082                0.964933187     -69.0707883
9.083                0.964790181     -69.1803009
9.084                0.964646621     -69.2900836
9.085                0.964502508     -69.4001376
9.086                0.964357842     -69.5104635
9.087                 0.96421262     -69.6210623
9.088                0.964066843     -69.7319349
9.089                 0.96392051     -69.8430821
9.09                 0.963773621     -69.9545049
9.091                0.963626174     -70.0662041
9.092                0.963478169     -70.1781807
9.093                0.963329607     -70.2904355
9.094                0.963180485     -70.4029695
9.095                0.963030804     -70.5157835
9.096                0.962880562     -70.6288785
9.097                 0.96272976     -70.7422553
9.098                0.962578397     -70.8559149
9.099                0.962426472     -70.9698582
9.1                  0.962273985     -71.0840861
9.101                0.962120935     -71.1985996
9.102                0.961967322     -71.3133996
9.103                0.961813145     -71.4284869
9.104                0.961658403     -71.5438626
9.105                0.961503097     -71.6595276
9.106                0.961347225     -71.7754828
9.107                0.961190788     -71.8917291
9.108                0.961033784     -72.0082676
9.109                0.960876214     -72.1250991
9.11                 0.960718076     -72.2422247
9.111                0.960559371     -72.3596452
9.112                0.960400097     -72.4773616
9.113                0.960240256     -72.5953749
9.114                0.960079845     -72.7136861
9.115                0.959918865     -72.8322961
9.116                0.959757315     -72.9512059
9.117                0.959595195     -73.0704165
9.118                0.959432504     -73.1899289
9.119                0.959269243     -73.3097439
9.12                  0.95910541     -73.4298627
9.121                0.958941006     -73.5502863
9.122                 0.95877603     -73.6710155
9.123                0.958610481     -73.7920514
9.124                 0.95844436      -73.913395
9.125                0.958277666     -74.0350474
9.126                0.958110399     -74.1570094
9.127                0.957942558     -74.2792821
9.128                0.957774144     -74.4018666
9.129                0.957605155     -74.5247638
9.13                 0.957435592     -74.6479748
9.131                0.957265455     -74.7715005
9.132                0.957094743     -74.8953421
9.133                0.956923455     -75.0195005
9.134                0.956751593     -75.1439767
9.135                0.956579155     -75.2687719
9.136                0.956406141      -75.393887
9.137                0.956232551     -75.5193231
9.138                0.956058386     -75.6450811
9.139                0.955883644     -75.7711623
9.14                 0.955708326     -75.8975676
9.141                0.955532431      -76.024298
9.142                 0.95535596     -76.1513547
9.143                0.955178912     -76.2787386
9.144                0.955001287      -76.406451
9.145                0.954823086     -76.5344927
9.146                0.954644307     -76.6628649
9.147                0.954464951     -76.7915687
9.148                0.954285019     -76.9206051
9.149                0.954104509     -77.0499753
9.15                 0.953923422     -77.1796802
9.151                0.953741758     -77.3097211
9.152                0.953559517     -77.4400989
9.153                0.953376699     -77.5708147
9.154                0.953193304     -77.7018698
9.155                0.953009332     -77.8332651
9.156                0.952824782     -77.9650017
9.157                0.952639656     -78.0970809
9.158                0.952453953     -78.2295036
9.159                0.952267674      -78.362271
9.16                 0.952080818     -78.4953842
9.161                0.951893385     -78.6288443
9.162                0.951705377     -78.7626525
9.163                0.951516792     -78.8968098
9.164                0.951327631     -79.0313174
9.165                0.951137894     -79.1661765
9.166                0.950947582      -79.301388
9.167                0.950756695     -79.4369533
9.168                0.950565233     -79.5728734
9.169                0.950373195     -79.7091495
9.17                 0.950180584     -79.8457827
9.171                0.949987398     -79.9827742
9.172                0.949793638      -80.120125
9.173                0.949599305     -80.2578365
9.174                0.949404398     -80.3959097
9.175                0.949208919     -80.5343457
9.176                0.949012867     -80.6731458
9.177                0.948816243     -80.8123112
9.178                0.948619048     -80.9518429
9.179                0.948421281     -81.0917421
9.18                 0.948222943     -81.2320101
9.181                0.948024035     -81.3726481
9.182                0.947824558     -81.5136571
9.183                 0.94762451     -81.6550383
9.184                0.947423895     -81.7967931
9.185                0.947222711     -81.9389225
9.186                0.947020959     -82.0814277
9.187                 0.94681864     -82.2243099
9.188                0.946615755     -82.3675704
9.189                0.946412304     -82.5112104
9.19                 0.946208287     -82.6552309
9.191                0.946003707     -82.7996333
9.192                0.945798562     -82.9444188
9.193                0.945592854     -83.0895885
9.194                0.945386584     -83.2351437
9.195                0.945179752     -83.3810856
9.196                0.944972359     -83.5274154
9.197                0.944764406     -83.6741344
9.198                0.944555894     -83.8212436
9.199                0.944346823     -83.9687445
9.2                  0.944137195     -84.1166382
9.201                 0.94392701     -84.2649259
9.202                0.943716269     -84.4136089
9.203                0.943504973     -84.5626885
9.204                0.943293124     -84.7121657
9.205                0.943080721      -84.862042
9.206                0.942867766     -85.0123185
9.207                0.942654261     -85.1629965
9.208                0.942440206     -85.3140772
9.209                0.942225602     -85.4655619
9.21                  0.94201045     -85.6174519
9.211                0.941794751     -85.7697483
9.212                0.941578507     -85.9224525
9.213                0.941361719     -86.0755656
9.214                0.941144388     -86.2290891
9.215                0.940926515     -86.3830241
9.216                0.940708101     -86.5373718
9.217                0.940489148     -86.6921337
9.218                0.940269657     -86.8473108
9.219                0.940049629     -87.0029046
9.22                 0.939829066     -87.1589163
9.221                0.939607969     -87.3153471
9.222                0.939386339     -87.4721983
9.223                0.939164178     -87.6294712
9.224                0.938941488     -87.7871672
9.225                0.938718269     -87.9452874
9.226                0.938494524     -88.1038331
9.227                0.938270254     -88.2628057
9.228                 0.93804546     -88.4222064
9.229                0.937820144     -88.5820365
9.23                 0.937594308     -88.7422974
9.231                0.937367954     -88.9029902
9.232                0.937141083     -89.0641163
9.233                0.936913696      -89.225677
9.234                0.936685796     -89.3876736
9.235                0.936457385     -89.5501073
9.236                0.936228464     -89.7129795
9.237                0.935999035     -89.8762915
9.238                  0.9357691     -90.0400446
9.239                0.935538661       -90.20424
9.24                  0.93530772     -90.3688791
9.241                0.935076278     -90.5339632
9.242                0.934844339     -90.6994935
9.243                0.934611904     -90.8654715
9.244                0.934378974     -91.0318983
9.245                0.934145553     -91.1987753
9.246                0.933911642     -91.3661038
9.247                0.933677244     -91.5338852
9.248                 0.93344236     -91.7021206
9.249                0.933206994     -91.8708115
9.25                 0.932971147     -92.0399591
9.251                0.932734821     -92.2095648
9.252                 0.93249802     -92.3796298
9.253                0.932260745     -92.5501555
9.254                0.932022999     -92.7211431
9.255                0.931784784     -92.8925941
9.256                0.931546103     -93.0645096
9.257                0.931306959      -93.236891
9.258                0.931067353     -93.4097397
9.259                0.930827289     -93.5830569
9.26                  0.93058677     -93.7568439
9.261                0.930345798      -93.931102
9.262                0.930104375     -94.1058326
9.263                0.929862506      -94.281037
9.264                0.929620191     -94.4567164
9.265                0.929377435     -94.6328722
9.266                0.929134241     -94.8095057
9.267                 0.92889061     -94.9866182
9.268                0.928646547     -95.1642109
9.269                0.928402053     -95.3422853
9.27                 0.928157134     -95.5208425
9.271                 0.92791179      -95.699884
9.272                0.927666027      -95.879411
9.273                0.927419846     -96.0594247
9.274                0.927173251     -96.2399266
9.275                0.926926245     -96.4209179
9.276                0.926678833     -96.6023998
9.277                0.926431016     -96.7843738
9.278                0.926182799      -96.966841
9.279                0.925934185     -97.1498028
9.28                 0.925685177     -97.3332604
9.281                 0.92543578     -97.5172152
9.282                0.925185996     -97.7016684
9.283                0.924935829     -97.8866213
9.284                0.924685284     -98.0720752
9.285                0.924434364     -98.2580314
9.286                0.924183072     -98.4444911
9.287                0.923931413     -98.6314556
9.288                 0.92367939     -98.8189262
9.289                0.923427007     -99.0069042
9.29                 0.923174269     -99.1953907
9.291                0.922921179     -99.3843872
9.292                0.922667742     -99.5738947
9.293                0.922413961     -99.7639147
9.294                0.922159841     -99.9544483
9.295                0.921905386     -100.145497
9.296                0.921650601     -100.337061
9.297                0.921395489     -100.529143
9.298                0.921140055     -100.721744
9.299                0.920884304     -100.914864
9.3                   0.92062824     -101.108506
9.301                0.920371867      -101.30267
9.302                0.920115191     -101.497357
9.303                0.919858216     -101.692569
9.304                0.919600946     -101.888307
9.305                0.919343387     -102.084572
9.306                0.919085543     -102.281366
9.307                0.918827419     -102.478689
9.308                 0.91856902     -102.676543
9.309                0.918310351     -102.874928
9.31                 0.918051417     -103.073847
9.311                0.917792224     -103.273301
9.312                0.917532775     -103.473289
9.313                0.917273078     -103.673814
9.314                0.917013136     -103.874877
9.315                0.916752955     -104.076479
9.316                0.916492541     -104.278622
9.317                0.916231898     -104.481305
9.318                0.915971034     -104.684531
9.319                0.915709952       -104.8883
9.32                 0.915448659     -105.092614
9.321                 0.91518716     -105.297473
9.322                0.914925461      -105.50288
9.323                0.914663569     -105.708834
9.324                0.914401488     -105.915337
9.325                0.914139224     -106.122391
9.326                0.913876785     -106.329996
9.327                0.913614175     -106.538153
9.328                  0.9133514     -106.746863
9.329                0.913088468     -106.956128
9.33                 0.912825384     -107.165948
9.331                0.912562154     -107.376325
9.332                0.912298785     -107.587259
9.333                0.912035284     -107.798752
9.334                0.911771656     -108.010804
9.335                0.911507908     -108.223417
9.336                0.911244047     -108.436592
9.337                0.910980079     -108.650329
9.338                0.910716012     -108.864629
9.339                0.910451852     -109.079494
9.34                 0.910187606     -109.294924
9.341                 0.90992328     -109.510921
9.342                0.909658882     -109.727485
9.343                0.909394419     -109.944618
9.344                0.909129898     -110.162319
9.345                0.908865325     -110.380591
9.346                0.908600709     -110.599434
9.347                0.908336057     -110.818848
9.348                0.908071376     -111.038835
9.349                0.907806673     -111.259396
9.35                 0.907541956     -111.480531
9.351                0.907277233     -111.702242
9.352                0.907012511     -111.924528
9.353                0.906747797     -112.147392
9.354                  0.9064831     -112.370833
9.355                0.906218428     -112.594852
9.356                0.905953788     -112.819451
9.357                0.905689188      -113.04463
9.358                0.905424637      -113.27039
9.359                0.905160142     -113.496731
9.36                 0.904895711     -113.723655
9.361                0.904631354     -113.951161
9.362                0.904367077     -114.179251
9.363                 0.90410289     -114.407925
9.364                0.903838801     -114.637185
9.365                0.903574819     -114.867029
9.366                0.903310951     -115.097461
9.367                0.903047207     -115.328479
9.368                0.902783595     -115.560084
9.369                0.902520125     -115.792278
9.37                 0.902256804      -116.02506
9.371                0.901993642     -116.258432
9.372                0.901730649     -116.492393
9.373                0.901467831     -116.726944
9.374                  0.9012052     -116.962087
9.375                0.900942764      -117.19782
9.376                0.900680533     -117.434146
9.377                0.900418515     -117.671063
9.378                 0.90015672     -117.908574
9.379                0.899895158     -118.146677
9.38                 0.899633837     -118.385374
9.381                0.899372768     -118.624664
9.382                0.899111961     -118.864549
9.383                0.898851424     -119.105029
9.384                0.898591168     -119.346103
9.385                0.898331202     -119.587773
9.386                0.898071537     -119.830038
9.387                0.897812182     -120.072899
9.388                0.897553147     -120.316356
9.389                0.897294443     -120.560409
9.39                 0.897036079     -120.805059
9.391                0.896778066     -121.050306
9.392                0.896520415     -121.296149
9.393                0.896263134      -121.54259
9.394                0.896006236     -121.789627
9.395                 0.89574973     -122.037262
9.396                0.895493627     -122.285495
