! TOUCHSTONE file generated by CST DESIGN STUDIO
! Date and time: Tue Feb  4 17:50:52 2025
! Project name: C:\Work\MatlabApps\UnitCellOptimizationMatlab\CST\unitcell.cst
! Tree item: Tasks\Sweep1\SPara1\S-Parameters
! Header version: 2024
! Port assignment regex: !\s*Touchstone port\s*([0-9]+)\s*=\s*(CST MWS port|CST DES external port|CST DES block port)\s*(.+)\s* \(\"(.*)\"\)(\s*mode\s*([0-9]+))?.*
! Touchstone port assignment:
! Touchstone port 1 = CST DES external port 1 ("")
# GHz S MA R 50
9                    0.990407673     -73.2465666
9.001                0.990385866     -73.3536238
9.002                0.990363994     -73.4609372
9.003                0.990342057     -73.5685075
9.004                0.990320054     -73.6763355
9.005                0.990297985     -73.7844219
9.006                 0.99027585     -73.8927675
9.007                0.990253649     -74.0013731
9.008                0.990231382     -74.1102394
9.009                0.990209049     -74.2193672
9.01                 0.990186648     -74.3287573
9.011                0.990164182     -74.4384104
9.012                0.990141648     -74.5483274
9.013                0.990119047     -74.6585089
9.014                0.990096379     -74.7689558
9.015                0.990073644     -74.8796688
9.016                0.990050841     -74.9906488
9.017                0.990027971     -75.1018965
9.018                0.990005033     -75.2134127
9.019                0.989982027     -75.3251982
9.02                 0.989958953     -75.4372538
9.021                0.989935811     -75.5495802
9.022                  0.9899126     -75.6621783
9.023                0.989889321     -75.7750489
9.024                0.989865973     -75.8881927
9.025                0.989842556     -76.0016106
9.026                0.989819071     -76.1153033
9.027                0.989795516     -76.2292717
9.028                0.989771892     -76.3435166
9.029                0.989748199     -76.4580387
9.03                 0.989724436      -76.572839
9.031                0.989700603     -76.6879181
9.032                0.989676701     -76.8032769
9.033                0.989652728     -76.9189162
9.034                0.989628686     -77.0348369
9.035                0.989604573     -77.1510397
9.036                 0.98958039     -77.2675254
9.037                0.989556136      -77.384295
9.038                0.989531812     -77.5013492
9.039                0.989507417     -77.6186888
9.04                 0.989482951     -77.7363147
9.041                0.989458414     -77.8542277
9.042                0.989433805     -77.9724286
9.043                0.989409126     -78.0909182
9.044                0.989384375     -78.2096974
9.045                0.989359552     -78.3287671
9.046                0.989334657      -78.448128
9.047                0.989309691      -78.567781
9.048                0.989284652     -78.6877269
9.049                0.989259542     -78.8079667
9.05                 0.989234359      -78.928501
9.051                0.989209104     -79.0493308
9.052                0.989183776      -79.170457
9.053                0.989158376     -79.2918802
9.054                0.989132903     -79.4136015
9.055                0.989107357     -79.5356217
9.056                0.989081737     -79.6579416
9.057                0.989056045     -79.7805621
9.058                 0.98903028     -79.9034839
9.059                0.989004441     -80.0267081
9.06                 0.988978529     -80.1502354
9.061                0.988952543     -80.2740668
9.062                0.988926483      -80.398203
9.063                0.988900349     -80.5226449
9.064                0.988874142     -80.6473935
9.065                 0.98884786     -80.7724495
9.066                0.988821504     -80.8978138
9.067                0.988795074     -81.0234874
9.068                 0.98876857      -81.149471
9.069                0.988741991     -81.2757656
9.07                 0.988715337     -81.4023721
9.071                0.988688609     -81.5292912
9.072                0.988661806     -81.6565239
9.073                0.988634928     -81.7840711
9.074                0.988607975     -81.9119336
9.075                0.988580946     -82.0401124
9.076                0.988553843     -82.1686082
9.077                0.988526664     -82.2974221
9.078                 0.98849941     -82.4265548
9.079                 0.98847208     -82.5560073
9.08                 0.988444675     -82.6857804
9.081                0.988417194     -82.8158751
9.082                0.988389637     -82.9462922
9.083                0.988362004     -83.0770327
9.084                0.988334296     -83.2080974
9.085                0.988306511     -83.3394871
9.086                 0.98827865     -83.4712029
9.087                0.988250713     -83.6032456
9.088                  0.9882227     -83.7356161
9.089                 0.98819461     -83.8683153
9.09                 0.988166444     -84.0013442
9.091                0.988138202     -84.1347035
9.092                0.988109883     -84.2683942
9.093                0.988081487     -84.4024173
9.094                0.988053014     -84.5367735
9.095                0.988024465     -84.6714639
9.096                0.987995839     -84.8064893
9.097                0.987967136     -84.9418507
9.098                0.987938356     -85.0775488
9.099                0.987909499     -85.2135848
9.1                  0.987880565     -85.3499594
9.101                0.987851554     -85.4866736
9.102                0.987822465     -85.6237282
9.103                  0.9877933     -85.7611243
9.104                0.987764057     -85.8988627
9.105                0.987734737     -86.0369443
9.106                0.987705339     -86.1753701
9.107                0.987675864     -86.3141409
9.108                0.987646312     -86.4532576
9.109                0.987616682     -86.5927213
9.11                 0.987586975     -86.7325328
9.111                 0.98755719      -86.872693
9.112                0.987527328     -87.0132028
9.113                0.987497388     -87.1540633
9.114                 0.98746737     -87.2952752
9.115                0.987437275     -87.4368395
9.116                0.987407102     -87.5787571
9.117                0.987376852      -87.721029
9.118                0.987346523      -87.863656
9.119                0.987316118     -88.0066392
9.12                 0.987285634     -88.1499793
9.121                0.987255073     -88.2936774
9.122                0.987224434     -88.4377343
9.123                0.987193717     -88.5821511
9.124                0.987162923     -88.7269285
9.125                0.987132051     -88.8720676
9.126                0.987101101     -89.0175692
9.127                0.987070074     -89.1634343
9.128                0.987038969     -89.3096638
9.129                0.987007787     -89.4562586
9.13                 0.986976527     -89.6032196
9.131                0.986945189     -89.7505479
9.132                0.986913774     -89.8982442
9.133                0.986882281     -90.0463096
9.134                0.986850711     -90.1947449
9.135                0.986819063     -90.3435511
9.136                0.986787339      -90.492729
9.137                0.986755536     -90.6422797
9.138                0.986723657      -90.792204
9.139                  0.9866917     -90.9425029
9.14                 0.986659666     -91.0931772
9.141                0.986627555      -91.244228
9.142                0.986595367     -91.3956561
9.143                0.986563101     -91.5474624
9.144                0.986530759     -91.6996479
9.145                 0.98649834     -91.8522135
9.146                0.986465845     -92.0051601
9.147                0.986433272     -92.1584886
9.148                0.986400624        -92.3122
9.149                0.986367898     -92.4662951
9.15                 0.986335096     -92.6207749
9.151                0.986302218     -92.7756403
9.152                0.986269264     -92.9308922
9.153                0.986236233     -93.0865315
9.154                0.986203127     -93.2425591
9.155                0.986169944      -93.398976
9.156                0.986136686      -93.555783
9.157                0.986103352     -93.7129811
9.158                0.986069943     -93.8705712
9.159                0.986036458     -94.0285541
9.16                 0.986002898     -94.1869309
9.161                0.985969263     -94.3457023
9.162                0.985935553     -94.5048693
9.163                0.985901768     -94.6644328
9.164                0.985867909     -94.8243937
9.165                0.985833975     -94.9847529
9.166                0.985799967     -95.1455113
9.167                0.985765884     -95.3066698
9.168                0.985731728     -95.4682292
9.169                0.985697497     -95.6301906
9.17                 0.985663193     -95.7925546
9.171                0.985628816     -95.9553224
9.172                0.985594365     -96.1184946
9.173                0.985559841     -96.2820723
9.174                0.985525244     -96.4460563
9.175                0.985490575     -96.6104475
9.176                0.985455833     -96.7752468
9.177                0.985421019      -96.940455
9.178                0.985386133      -97.106073
9.179                0.985351175     -97.2721017
9.18                 0.985316146     -97.4385419
9.181                0.985281045     -97.6053946
9.182                0.985245874     -97.7726606
9.183                0.985210631     -97.9403407
9.184                0.985175318     -98.1084358
9.185                0.985139934     -98.2769468
9.186                0.985104481     -98.4458745
9.187                0.985068957     -98.6152197
9.188                0.985033365     -98.7849834
9.189                0.984997703     -98.9551664
9.19                 0.984961972     -99.1257694
9.191                0.984926172     -99.2967934
9.192                0.984890304     -99.4682392
9.193                0.984854368     -99.6401076
9.194                0.984818365     -99.8123994
9.195                0.984782294     -99.9851155
9.196                0.984746156     -100.158257
9.197                0.984709951     -100.331824
9.198                 0.98467368     -100.505818
9.199                0.984637342     -100.680239
9.2                  0.984600939     -100.855089
9.201                0.984564471     -101.030368
9.202                0.984527938     -101.206076
9.203                 0.98449134     -101.382216
9.204                0.984454678     -101.558787
9.205                0.984417952      -101.73579
9.206                0.984381162     -101.913227
9.207                 0.98434431     -102.091097
9.208                0.984307394     -102.269402
9.209                0.984270417     -102.448143
9.21                 0.984233378      -102.62732
9.211                0.984196277     -102.806933
9.212                0.984159115     -102.986985
9.213                0.984121893     -103.167475
9.214                 0.98408461     -103.348404
9.215                0.984047268     -103.529773
9.216                0.984009867     -103.711583
9.217                0.983972407     -103.893834
9.218                0.983934888     -104.076527
9.219                0.983897312     -104.259663
9.22                 0.983859679     -104.443243
9.221                0.983821989     -104.627267
9.222                0.983784242     -104.811737
9.223                 0.98374644     -104.996652
9.224                0.983708582     -105.182013
9.225                 0.98367067     -105.367821
9.226                0.983632704     -105.554078
9.227                0.983594683     -105.740782
9.228                 0.98355661     -105.927936
9.229                0.983518484      -106.11554
9.23                 0.983480306     -106.303594
9.231                0.983442077     -106.492099
9.232                0.983403797     -106.681056
9.233                0.983365466     -106.870466
9.234                0.983327086     -107.060328
9.235                0.983288657     -107.250644
9.236                 0.98325018     -107.441414
9.237                0.983211654      -107.63264
9.238                0.983173082     -107.824321
9.239                0.983134462     -108.016457
9.24                 0.983095797     -108.209051
9.241                0.983057087     -108.402102
9.242                0.983018332      -108.59561
9.243                0.982979533     -108.789577
9.244                0.982940691     -108.984004
9.245                0.982901806     -109.178889
9.246                 0.98286288     -109.374235
9.247                0.982823912     -109.570041
9.248                0.982784904     -109.766309
9.249                0.982745856     -109.963038
9.25                 0.982706769     -110.160229
9.251                0.982667644     -110.357883
9.252                0.982628482        -110.556
9.253                0.982589282     -110.754581
9.254                0.982550047     -110.953626
9.255                0.982510776     -111.153136
9.256                0.982471472      -111.35311
9.257                0.982432133      -111.55355
9.258                0.982392762     -111.754457
9.259                0.982353359     -111.955829
9.26                 0.982313924     -112.157669
9.261                0.982274459     -112.359976
9.262                0.982234965      -112.56275
9.263                0.982195442     -112.765993
9.264                0.982155891     -112.969704
9.265                0.982116314     -113.173883
9.266                 0.98207671     -113.378532
9.267                0.982037081     -113.583651
9.268                0.981997428     -113.789239
9.269                0.981957752     -113.995298
9.27                 0.981918053     -114.201827
9.271                0.981878333     -114.408827
9.272                0.981838592     -114.616299
9.273                0.981798831     -114.824242
9.274                0.981759052     -115.032656
9.275                0.981719255     -115.241543
9.276                0.981679442     -115.450902
9.277                0.981639612     -115.660733
9.278                0.981599768     -115.871038
9.279                 0.98155991     -116.081815
9.28                  0.98152004     -116.293066
9.281                0.981480157      -116.50479
9.282                0.981440264     -116.716987
9.283                0.981400362     -116.929659
9.284                 0.98136045     -117.142804
9.285                0.981320532     -117.356424
9.286                0.981280607     -117.570518
9.287                0.981240676     -117.785086
9.288                0.981200741     -118.000129
9.289                0.981160803     -118.215647
9.29                 0.981120863     -118.431639
9.291                0.981080922     -118.648106
9.292                0.981040981     -118.865048
9.293                0.981001042     -119.082465
9.294                0.980961104     -119.300357
9.295                0.980921171     -119.518724
9.296                0.980881242     -119.737566
9.297                 0.98084132     -119.956884
9.298                0.980801404     -120.176676
9.299                0.980761497     -120.396943
9.3                    0.9807216     -120.617685
9.301                0.980681713     -120.838902
9.302                0.980641839     -121.060594
9.303                0.980601977      -121.28276
9.304                 0.98056213     -121.505402
9.305                0.980522299     -121.728518
9.306                0.980482485     -121.952108
9.307                 0.98044269     -122.176172
9.308                0.980402914     -122.400711
9.309                0.980363159     -122.625724
9.31                 0.980323426      -122.85121
9.311                0.980283717      -123.07717
9.312                0.980244032     -123.303604
9.313                0.980204374      -123.53051
9.314                0.980164743      -123.75789
9.315                0.980125141     -123.985742
9.316                 0.98008557     -124.214066
9.317                 0.98004603     -124.442863
9.318                0.980006523     -124.672131
9.319                0.979967051      -124.90187
9.32                 0.979927614     -125.132081
9.321                0.979888215     -125.362763
9.322                0.979848855     -125.593914
9.323                0.979809534     -125.825536
9.324                0.979770255     -126.057627
9.325                0.979731019     -126.290187
9.326                0.979691828     -126.523216
9.327                0.979652682     -126.756714
9.328                0.979613584     -126.990679
9.329                0.979574534     -127.225111
9.33                 0.979535535      -127.46001
9.331                0.979496588     -127.695375
9.332                0.979457695     -127.931205
9.333                0.979418856     -128.167501
9.334                0.979380073     -128.404261
9.335                0.979341349     -128.641486
9.336                0.979302684     -128.879173
9.337                 0.97926408     -129.117323
9.338                0.979225539     -129.355935
9.339                0.979187062     -129.595009
9.34                 0.979148651     -129.834543
9.341                0.979110307     -130.074537
9.342                0.979072032      -130.31499
9.343                0.979033828     -130.555901
9.344                0.978995695      -130.79727
9.345                0.978957637     -131.039096
9.346                0.978919654     -131.281379
9.347                0.978881748     -131.524116
9.348                0.978843921     -131.767308
9.349                0.978806174     -132.010953
9.35                 0.978768509     -132.255051
9.351                0.978730928     -132.499601
9.352                0.978693432     -132.744602
9.353                0.978656023     -132.990052
9.354                0.978618703     -133.235952
9.355                0.978581473     -133.482299
9.356                0.978544335     -133.729094
9.357                0.978507291     -133.976334
9.358                0.978470342     -134.224019
9.359                 0.97843349     -134.472148
9.36                 0.978396738      -134.72072
9.361                0.978360086     -134.969733
9.362                0.978323536     -135.219187
9.363                0.978287091     -135.469081
9.364                0.978250751     -135.719413
9.365                0.978214519     -135.970181
9.366                0.978178396     -136.221386
9.367                0.978142384     -136.473025
9.368                0.978106485     -136.725097
9.369                0.978070701     -136.977602
9.37                 0.978035033     -137.230537
9.371                0.977999484     -137.483902
9.372                0.977964054     -137.737696
9.373                0.977928746     -137.991916
9.374                0.977893561     -138.246561
9.375                0.977858502      -138.50163
9.376                 0.97782357     -138.757123
9.377                0.977788766     -139.013036
9.378                0.977754094     -139.269369
9.379                0.977719554      -139.52612
9.38                 0.977685148     -139.783289
9.381                0.977650878     -140.040872
9.382                0.977616746     -140.298869
9.383                0.977582754     -140.557279
9.384                0.977548904     -140.816098
9.385                0.977515197     -141.075327
9.386                0.977481635     -141.334963
9.387                 0.97744822     -141.595005
9.388                0.977414954     -141.855451
9.389                0.977381839     -142.116299
9.39                 0.977348876     -142.377548
9.391                0.977316067     -142.639196
9.392                0.977283414     -142.901241
9.393                 0.97725092     -143.163681
9.394                0.977218585     -143.426514
9.395                0.977186412     -143.689739
9.396                0.977154403     -143.953354
