! TOUCHSTONE file generated by CST DESIGN STUDIO
! Date and time: Tue Feb  4 17:50:54 2025
! Project name: C:\Work\MatlabApps\UnitCellOptimizationMatlab\CST\unitcell.cst
! Tree item: Tasks\Sweep1\SPara1\S-Parameters
! Header version: 2024
! Port assignment regex: !\s*Touchstone port\s*([0-9]+)\s*=\s*(CST MWS port|CST DES external port|CST DES block port)\s*(.+)\s* \(\"(.*)\"\)(\s*mode\s*([0-9]+))?.*
! Touchstone port assignment:
! Touchstone port 1 = CST DES external port 1 ("")
# GHz S MA R 50
9                    0.990579225     -72.3785911
9.001                0.990558139     -72.4837778
9.002                 0.99053699     -72.5892153
9.003                0.990515777     -72.6949045
9.004                  0.9904945     -72.8008459
9.005                0.990473159     -72.9070405
9.006                0.990451753     -73.0134889
9.007                0.990430284     -73.1201918
9.008                 0.99040875     -73.2271501
9.009                0.990387151     -73.3343645
9.01                 0.990365488     -73.4418358
9.011                 0.99034376     -73.5495646
9.012                0.990321966     -73.6575519
9.013                0.990300107     -73.7657982
9.014                0.990278183     -73.8743045
9.015                0.990256194     -73.9830714
9.016                0.990234138     -74.0920998
9.017                0.990212017     -74.2013904
9.018                 0.99018983      -74.310944
9.019                0.990167577     -74.4207614
9.02                 0.990145257     -74.5308433
9.021                0.990122871     -74.6411905
9.022                0.990100419     -74.7518038
9.023                0.990077899      -74.862684
9.024                0.990055313     -74.9738319
9.025                 0.99003266     -75.0852482
9.026                0.990009939     -75.1969338
9.027                0.989987152     -75.3088894
9.028                0.989964296     -75.4211158
9.029                0.989941374     -75.5336139
9.03                 0.989918383     -75.6463844
9.031                0.989895324     -75.7594281
9.032                0.989872198     -75.8727459
9.033                0.989849003     -75.9863384
9.034                 0.98982574     -76.1002066
9.035                0.989802409     -76.2143513
9.036                0.989779008     -76.3287731
9.037                0.989755539     -76.4434731
9.038                0.989732002     -76.5584519
9.039                0.989708395     -76.6737104
9.04                 0.989684719     -76.7892493
9.041                0.989660974     -76.9050696
9.042                0.989637159      -77.021172
9.043                0.989613274     -77.1375574
9.044                 0.98958932     -77.2542265
9.045                0.989565296     -77.3711803
9.046                0.989541203     -77.4884194
9.047                0.989517038     -77.6059448
9.048                0.989492804     -77.7237573
9.049                  0.9894685     -77.8418577
9.05                 0.989444124     -77.9602469
9.051                0.989419678     -78.0789256
9.052                0.989395162     -78.1978948
9.053                0.989370574     -78.3171552
9.054                0.989345916     -78.4367077
9.055                0.989321186     -78.5565532
9.056                0.989296385     -78.6766924
9.057                0.989271512     -78.7971263
9.058                0.989246568     -78.9178556
9.059                0.989221553     -79.0388813
9.06                 0.989196465     -79.1602041
9.061                0.989171306      -79.281825
9.062                0.989146075     -79.4037448
9.063                0.989120771     -79.5259643
9.064                0.989095395     -79.6484844
9.065                0.989069947     -79.7713059
9.066                0.989044426     -79.8944297
9.067                0.989018833     -80.0178568
9.068                0.988993167     -80.1415878
9.069                0.988967428     -80.2656238
9.07                 0.988941616     -80.3899655
9.071                0.988915731     -80.5146139
9.072                0.988889773     -80.6395698
9.073                0.988863742     -80.7648341
9.074                0.988837637     -80.8904076
9.075                0.988811459     -81.0162912
9.076                0.988785207     -81.1424859
9.077                0.988758881     -81.2689924
9.078                0.988732482     -81.3958116
9.079                0.988706008     -81.5229446
9.08                 0.988679461      -81.650392
9.081                 0.98865284     -81.7781548
9.082                0.988626144     -81.9062339
9.083                0.988599374     -82.0346302
9.084                 0.98857253     -82.1633446
9.085                0.988545611     -82.2923778
9.086                0.988518618      -82.421731
9.087                 0.98849155     -82.5514048
9.088                0.988464407     -82.6814003
9.089                0.988437189     -82.8117183
9.09                 0.988409897     -82.9423596
9.091                0.988382529     -83.0733253
9.092                0.988355087     -83.2046162
9.093                0.988327569     -83.3362332
9.094                0.988299976     -83.4681772
9.095                0.988272307     -83.6004491
9.096                0.988244564     -83.7330498
9.097                0.988216745     -83.8659801
9.098                 0.98818885     -83.9992411
9.099                 0.98816088     -84.1328336
9.1                  0.988132834     -84.2667586
9.101                0.988104712     -84.4010168
9.102                0.988076515     -84.5356093
9.103                0.988048241     -84.6705369
9.104                0.988019892     -84.8058006
9.105                0.987991467     -84.9414012
9.106                0.987962966     -85.0773398
9.107                0.987934389     -85.2136171
9.108                0.987905735     -85.3502341
9.109                0.987877006     -85.4871917
9.11                   0.9878482     -85.6244909
9.111                0.987819318     -85.7621325
9.112                 0.98779036     -85.9001175
9.113                0.987761325     -86.0384468
9.114                0.987732214     -86.1771213
9.115                0.987703027     -86.3161419
9.116                0.987673763     -86.4555095
9.117                0.987644423     -86.5952251
9.118                0.987615006     -86.7352896
9.119                0.987585513      -86.875704
9.12                 0.987555943      -87.016469
9.121                0.987526296     -87.1575857
9.122                0.987496573      -87.299055
9.123                0.987466774     -87.4408778
9.124                0.987436897      -87.583055
9.125                0.987406945     -87.7255875
9.126                0.987376915     -87.8684764
9.127                0.987346809     -88.0117224
9.128                0.987316626     -88.1553266
9.129                0.987286367     -88.2992898
9.13                 0.987256031      -88.443613
9.131                0.987225618     -88.5882972
9.132                0.987195129     -88.7333431
9.133                0.987164563     -88.8787518
9.134                0.987133921     -89.0245243
9.135                0.987103202     -89.1706613
9.136                0.987072407     -89.3171639
9.137                0.987041535      -89.464033
9.138                0.987010586     -89.6112694
9.139                0.986979562     -89.7588742
9.14                  0.98694846     -89.9068483
9.141                0.986917283     -90.0551925
9.142                0.986886029     -90.2039079
9.143                0.986854698     -90.3529953
9.144                0.986823292     -90.5024557
9.145                0.986791809       -90.65229
9.146                 0.98676025     -90.8024991
9.147                0.986728615     -90.9530839
9.148                0.986696904     -91.1040454
9.149                0.986665117     -91.2553845
9.15                 0.986633255     -91.4071022
9.151                0.986601316     -91.5591993
9.152                0.986569302     -91.7116767
9.153                0.986537212     -91.8645355
9.154                0.986505046     -92.0177765
9.155                0.986472805     -92.1714006
9.156                0.986440489     -92.3254088
9.157                0.986408097     -92.4798019
9.158                 0.98637563      -92.634581
9.159                0.986343088     -92.7897469
9.16                 0.986310471     -92.9453005
9.161                0.986277779     -93.1012428
9.162                0.986245013     -93.2575747
9.163                0.986212171      -93.414297
9.164                0.986179256     -93.5714108
9.165                0.986146265     -93.7289169
9.166                0.986113201     -93.8868162
9.167                0.986080062     -94.0451096
9.168                 0.98604685     -94.2037981
9.169                0.986013564     -94.3628825
9.17                 0.985980204     -94.5223638
9.171                 0.98594677     -94.6822429
9.172                0.985913263     -94.8425206
9.173                0.985879683     -95.0031979
9.174                 0.98584603     -95.1642757
9.175                0.985812304     -95.3257549
9.176                0.985778505     -95.4876363
9.177                0.985744634     -95.6499209
9.178                0.985710691     -95.8126095
9.179                0.985676675     -95.9757031
9.18                 0.985642587     -96.1392026
9.181                0.985608428     -96.3031088
9.182                0.985574197     -96.4674225
9.183                0.985539895     -96.6321448
9.184                0.985505522     -96.7972765
9.185                0.985471078     -96.9628184
9.186                0.985436563     -97.1287714
9.187                0.985401978     -97.2951365
9.188                0.985367323     -97.4619144
9.189                0.985332598     -97.6291061
9.19                 0.985297803     -97.7967124
9.191                0.985262939     -97.9647342
9.192                0.985228005     -98.1331724
9.193                0.985193003     -98.3020277
9.194                0.985157932     -98.4713011
9.195                0.985122793     -98.6409934
9.196                0.985087585     -98.8111055
9.197                 0.98505231     -98.9816382
9.198                0.985016967     -99.1525924
9.199                0.984981558     -99.3239688
9.2                  0.984946081     -99.4957684
9.201                0.984910538      -99.667992
9.202                0.984874928     -99.8406404
9.203                0.984839253     -100.013714
9.204                0.984803512     -100.187215
9.205                0.984767706     -100.361143
9.206                0.984731835     -100.535498
9.207                0.984695899     -100.710283
9.208                0.984659899     -100.885498
9.209                0.984623835     -101.061143
9.21                 0.984587708     -101.237219
9.211                0.984551518     -101.413728
9.212                0.984515265     -101.590669
9.213                 0.98447895     -101.768044
9.214                0.984442572     -101.945854
9.215                0.984406134     -102.124099
9.216                0.984369634      -102.30278
9.217                0.984333073     -102.481897
9.218                0.984296452     -102.661453
9.219                0.984259771     -102.841446
9.22                 0.984223031     -103.021879
9.221                0.984186232     -103.202752
9.222                0.984149374     -103.384066
9.223                0.984112459      -103.56582
9.224                0.984075485     -103.748017
9.225                0.984038455     -103.930657
9.226                0.984001368      -104.11374
9.227                0.983964224     -104.297268
9.228                0.983927025      -104.48124
9.229                0.983889771     -104.665659
9.23                 0.983852462     -104.850524
9.231                0.983815099     -105.035835
9.232                0.983777682     -105.221595
9.233                0.983740213     -105.407803
9.234                 0.98370269     -105.594461
9.235                0.983665116     -105.781568
9.236                 0.98362749     -105.969126
9.237                0.983589813     -106.157135
9.238                0.983552086     -106.345597
9.239                0.983514309      -106.53451
9.24                 0.983476483     -106.723877
9.241                0.983438609     -106.913697
9.242                0.983400686     -107.103973
9.243                0.983362716     -107.294703
9.244                  0.9833247     -107.485888
9.245                0.983286637     -107.677531
9.246                0.983248529      -107.86963
9.247                0.983210376     -108.062186
9.248                0.983172178     -108.255201
9.249                0.983133937     -108.448674
9.25                 0.983095654     -108.642607
9.251                0.983057328        -108.837
9.252                0.983018961     -109.031853
9.253                0.982980552     -109.227167
9.254                0.982942104     -109.422942
9.255                0.982903616     -109.619179
9.256                 0.98286509     -109.815879
9.257                0.982826526     -110.013042
9.258                0.982787924     -110.210669
9.259                0.982749286      -110.40876
9.26                 0.982710612     -110.607315
9.261                0.982671903     -110.806336
9.262                0.982633161     -111.005822
9.263                0.982594384     -111.205774
9.264                0.982555575     -111.406193
9.265                0.982516735     -111.607078
9.266                0.982477863     -111.808431
9.267                0.982438961     -112.010252
9.268                 0.98240003     -112.212541
9.269                 0.98236107     -112.415299
9.27                 0.982322083     -112.618526
9.271                0.982283069     -112.822222
9.272                0.982244028     -113.026388
9.273                0.982204963     -113.231024
9.274                0.982165874     -113.436131
9.275                0.982126761     -113.641709
9.276                0.982087626     -113.847759
9.277                0.982048469     -114.054279
9.278                0.982009292     -114.261272
9.279                0.981970095     -114.468737
9.28                 0.981930879     -114.676675
9.281                0.981891646     -114.885085
9.282                0.981852395     -115.093969
9.283                0.981813129     -115.303326
9.284                0.981773848     -115.513157
9.285                0.981734554     -115.723462
9.286                0.981695246      -115.93424
9.287                0.981655926     -116.145494
9.288                0.981616596     -116.357221
9.289                0.981577256     -116.569424
9.29                 0.981537907     -116.782102
9.291                 0.98149855     -116.995255
9.292                0.981459187     -117.208883
9.293                0.981419818     -117.422986
9.294                0.981380444     -117.637565
9.295                0.981341067      -117.85262
9.296                0.981301687     -118.068151
9.297                0.981262307     -118.284158
9.298                0.981222926     -118.500641
9.299                0.981183546       -118.7176
9.3                  0.981144168     -118.935035
9.301                0.981104793     -119.152947
9.302                0.981065423     -119.371334
9.303                0.981026059     -119.590198
9.304                0.980986701     -119.809539
9.305                0.980947351     -120.029356
9.306                 0.98090801     -120.249649
9.307                0.980868679     -120.470418
9.308                 0.98082936     -120.691663
9.309                0.980790054     -120.913385
9.31                 0.980750761     -121.135583
9.311                0.980711484     -121.358257
9.312                0.980672223     -121.581406
9.313                 0.98063298     -121.805032
9.314                0.980593756     -122.029133
9.315                0.980554552     -122.253709
9.316                 0.98051537     -122.478761
9.317                0.980476211     -122.704288
9.318                0.980437075     -122.930291
9.319                0.980397965     -123.156767
9.32                 0.980358882     -123.383719
9.321                0.980319828     -123.611145
9.322                0.980280802     -123.839044
9.323                0.980241808     -124.067418
9.324                0.980202845     -124.296265
9.325                0.980163917     -124.525585
9.326                0.980125023     -124.755378
9.327                0.980086165     -124.985644
9.328                0.980047346     -125.216381
9.329                0.980008565     -125.447591
9.33                 0.979969825     -125.679272
9.331                0.979931127     -125.911424
9.332                0.979892473     -126.144047
9.333                0.979853863      -126.37714
9.334                  0.9798153     -126.610702
9.335                0.979776784     -126.844734
9.336                0.979738318     -127.079235
9.337                0.979699903     -127.314203
9.338                 0.97966154      -127.54964
9.339                 0.97962323     -127.785544
9.34                 0.979584976     -128.021914
9.341                0.979546779     -128.258751
9.342                 0.97950864     -128.496053
9.343                0.979470561     -128.733819
9.344                0.979432543      -128.97205
9.345                0.979394588     -129.210745
9.346                0.979356698     -129.449903
9.347                0.979318874     -129.689522
9.348                0.979281117     -129.929604
9.349                 0.97924343     -130.170146
9.35                 0.979205813     -130.411148
9.351                0.979168269     -130.652609
9.352                0.979130799     -130.894529
9.353                0.979093404     -131.136907
9.354                0.979056087     -131.379742
9.355                0.979018849     -131.623033
9.356                0.978981691     -131.866779
9.357                0.978944615     -132.110979
9.358                0.978907623     -132.355633
9.359                0.978870716     -132.600739
9.36                 0.978833897     -132.846297
9.361                0.978797166     -133.092305
9.362                0.978760526     -133.338763
9.363                0.978723978      -133.58567
9.364                0.978687523     -133.833025
9.365                0.978651164     -134.080826
9.366                0.978614903     -134.329073
9.367                 0.97857874     -134.577764
9.368                0.978542678     -134.826898
9.369                0.978506718     -135.076475
9.37                 0.978470863     -135.326493
9.371                0.978435113     -135.576951
9.372                 0.97839947     -135.827848
9.373                0.978363937     -136.079183
9.374                0.978328515     -136.330954
9.375                0.978293206      -136.58316
9.376                0.978258011       -136.8358
9.377                0.978222932     -137.088872
9.378                0.978187971     -137.342376
9.379                0.978153131      -137.59631
9.38                 0.978118411     -137.850673
9.381                0.978083815     -138.105462
9.382                0.978049344     -138.360678
9.383                   0.978015     -138.616318
9.384                0.977980785     -138.872381
9.385                  0.9779467     -139.128866
9.386                0.977912747     -139.385771
9.387                0.977878928     -139.643095
9.388                0.977845245     -139.900835
9.389                  0.9778117     -140.158991
9.39                 0.977778294     -140.417562
9.391                 0.97774503     -140.676544
9.392                0.977711908     -140.935938
9.393                0.977678931      -141.19574
9.394                0.977646101     -141.455951
9.395                0.977613419     -141.716567
9.396                0.977580887     -141.977587
