! TOUCHSTONE file generated by CST DESIGN STUDIO
! Date and time: Tue Feb  4 17:50:50 2025
! Project name: C:\Work\MatlabApps\UnitCellOptimizationMatlab\CST\unitcell.cst
! Tree item: Tasks\Sweep1\SPara1\S-Parameters
! Header version: 2024
! Port assignment regex: !\s*Touchstone port\s*([0-9]+)\s*=\s*(CST MWS port|CST DES external port|CST DES block port)\s*(.+)\s* \(\"(.*)\"\)(\s*mode\s*([0-9]+))?.*
! Touchstone port assignment:
! Touchstone port 1 = CST DES external port 1 ("")
# GHz S MA R 50
9                    0.990234352     -74.1098086
9.001                0.990211872     -74.2187622
9.002                0.990189324     -74.3279773
9.003                0.990166709     -74.4374547
9.004                0.990144025     -74.5471951
9.005                0.990121274     -74.6571994
9.006                0.990098454     -74.7674682
9.007                0.990075566     -74.8780024
9.008                 0.99005261     -74.9888027
9.009                0.990029585       -75.09987
9.01                 0.990006491      -75.211205
9.011                0.989983328     -75.3228085
9.012                0.989960096     -75.4346813
9.013                0.989936794     -75.5468241
9.014                0.989913423     -75.6592379
9.015                0.989889983     -75.7719232
9.016                0.989866473      -75.884881
9.017                0.989842893     -75.9981121
9.018                0.989819242     -76.1116172
9.019                0.989795522     -76.2253971
9.02                 0.989771731     -76.3394527
9.021                 0.98974787     -76.4537848
9.022                0.989723938     -76.5683941
9.023                0.989699936     -76.6832814
9.024                0.989675862     -76.7984476
9.025                0.989651717     -76.9138935
9.026                0.989627502     -77.0296199
9.027                0.989603214     -77.1456275
9.028                0.989578856     -77.2619173
9.029                0.989554425     -77.3784901
9.03                 0.989529923     -77.4953466
9.031                0.989505349     -77.6124876
9.032                0.989480703     -77.7299141
9.033                0.989455984     -77.8476268
9.034                0.989431193     -77.9656265
9.035                 0.98940633     -78.0839142
9.036                0.989381394     -78.2024905
9.037                0.989356385     -78.3213564
9.038                0.989331304     -78.4405126
9.039                0.989306149     -78.5599601
9.04                 0.989280921     -78.6796996
9.041                 0.98925562      -78.799732
9.042                0.989230245     -78.9200581
9.043                0.989204797     -79.0406788
9.044                0.989179275     -79.1615949
9.045                0.989153679     -79.2828072
9.046                 0.98912801     -79.4043167
9.047                0.989102266     -79.5261241
9.048                0.989076448     -79.6482303
9.049                0.989050555     -79.7706361
9.05                 0.989024589     -79.8933425
9.051                0.988998547     -80.0163502
9.052                0.988972431     -80.1396601
9.053                 0.98894624     -80.2632731
9.054                0.988919974       -80.38719
9.055                0.988893633     -80.5114117
9.056                0.988867217     -80.6359391
9.057                0.988840725      -80.760773
9.058                0.988814158     -80.8859143
9.059                0.988787516     -81.0113638
9.06                 0.988760798     -81.1371225
9.061                0.988734004     -81.2631912
9.062                0.988707134     -81.3895707
9.063                0.988680188     -81.5162619
9.064                0.988653166     -81.6432658
9.065                0.988626068     -81.7705831
9.066                0.988598894     -81.8982148
9.067                0.988571643     -82.0261617
9.068                0.988544316     -82.1544248
9.069                0.988516912     -82.2830048
9.07                 0.988489431     -82.4119028
9.071                0.988461874     -82.5411195
9.072                0.988434239     -82.6706558
9.073                0.988406528     -82.8005127
9.074                 0.98837874      -82.930691
9.075                0.988350874     -83.0611916
9.076                0.988322931     -83.1920154
9.077                0.988294911     -83.3231634
9.078                0.988266813     -83.4546362
9.079                0.988238638      -83.586435
9.08                 0.988210385     -83.7185606
9.081                0.988182055     -83.8510138
9.082                0.988153647     -83.9837956
9.083                 0.98812516     -84.1169068
9.084                0.988096596     -84.2503484
9.085                0.988067954     -84.3841213
9.086                0.988039234     -84.5182263
9.087                0.988010436     -84.6526644
9.088                 0.98798156     -84.7874364
9.089                0.987952605     -84.9225434
9.09                 0.987923572     -85.0579861
9.091                 0.98789446     -85.1937655
9.092                 0.98786527     -85.3298824
9.093                0.987836002     -85.4663379
9.094                0.987806655     -85.6031328
9.095                0.987777229     -85.7402679
9.096                0.987747725     -85.8777443
9.097                0.987718142     -86.0155629
9.098                 0.98768848     -86.1537244
9.099                 0.98765874       -86.29223
9.1                   0.98762892     -86.4310804
9.101                0.987599022     -86.5702766
9.102                0.987569045     -86.7098194
9.103                0.987538988     -86.8497099
9.104                0.987508853     -86.9899489
9.105                0.987478639     -87.1305374
9.106                0.987448346     -87.2714762
9.107                0.987417973     -87.4127663
9.108                0.987387522     -87.5544086
9.109                0.987356991      -87.696404
9.11                 0.987326381     -87.8387534
9.111                0.987295692     -87.9814578
9.112                0.987264924      -88.124518
9.113                0.987234077      -88.267935
9.114                0.987203151     -88.4117097
9.115                0.987172145     -88.5558431
9.116                 0.98714106     -88.7003359
9.117                0.987109897     -88.8451893
9.118                0.987078653      -88.990404
9.119                0.987047331     -89.1359811
9.12                  0.98701593     -89.2819213
9.121                0.986984449     -89.4282257
9.122                 0.98695289     -89.5748952
9.123                0.986921251     -89.7219307
9.124                0.986889533     -89.8693331
9.125                0.986857736     -90.0171033
9.126                0.986825861     -90.1652422
9.127                0.986793906     -90.3137508
9.128                0.986761872       -90.46263
9.129                0.986729759     -90.6118807
9.13                 0.986697568     -90.7615039
9.131                0.986665298     -90.9115004
9.132                0.986632949     -91.0618711
9.133                0.986600521     -91.2126171
9.134                0.986568015     -91.3637391
9.135                 0.98653543     -91.5152382
9.136                0.986502766     -91.6671152
9.137                0.986470024      -91.819371
9.138                0.986437204     -91.9720066
9.139                0.986404306     -92.1250229
9.14                 0.986371329     -92.2784209
9.141                0.986338274     -92.4322013
9.142                0.986305141     -92.5863651
9.143                 0.98627193     -92.7409133
9.144                0.986238642     -92.8958467
9.145                0.986205275     -93.0511663
9.146                0.986171831      -93.206873
9.147                 0.98613831     -93.3629677
9.148                0.986104711     -93.5194512
9.149                0.986071034     -93.6763245
9.15                 0.986037281     -93.8335885
9.151                 0.98600345     -93.9912442
9.152                0.985969543     -94.1492923
9.153                0.985935559     -94.3077338
9.154                0.985901498     -94.4665697
9.155                0.985867361     -94.6258007
9.156                0.985833147     -94.7854279
9.157                0.985798857     -94.9454521
9.158                0.985764491     -95.1058741
9.159                0.985730049      -95.266695
9.16                 0.985695532     -95.4279155
9.161                0.985660939     -95.5895366
9.162                 0.98562627     -95.7515591
9.163                0.985591527      -95.913984
9.164                0.985556708     -96.0768121
9.165                0.985521815     -96.2400443
9.166                0.985486847     -96.4036815
9.167                0.985451804     -96.5677246
9.168                0.985416687     -96.7321744
9.169                0.985381497     -96.8970318
9.17                 0.985346232     -97.0622978
9.171                0.985310894      -97.227973
9.172                0.985275483     -97.3940585
9.173                0.985239999     -97.5605551
9.174                0.985204442     -97.7274637
9.175                0.985168812      -97.894785
9.176                 0.98513311       -98.06252
9.177                0.985097335     -98.2306696
9.178                0.985061489     -98.3992345
9.179                0.985025572     -98.5682156
9.18                 0.984989583     -98.7376138
9.181                0.984953523     -98.9074299
9.182                0.984917392     -99.0776648
9.183                0.984881191     -99.2483192
9.184                0.984844919     -99.4193941
9.185                0.984808578     -99.5908902
9.186                0.984772168     -99.7628084
9.187                0.984735688     -99.9351495
9.188                0.984699139     -100.107914
9.189                0.984662521     -100.281104
9.19                 0.984625836     -100.454718
9.191                0.984589082     -100.628759
9.192                0.984552261     -100.803227
9.193                0.984515372     -100.978123
9.194                0.984478417     -101.153447
9.195                0.984441395     -101.329201
9.196                0.984404307     -101.505385
9.197                0.984367154     -101.681999
9.198                0.984329935     -101.859046
9.199                0.984292651     -102.036525
9.2                  0.984255302     -102.214437
9.201                 0.98421789     -102.392783
9.202                0.984180413     -102.571564
9.203                0.984142873     -102.750781
9.204                0.984105271     -102.930434
9.205                0.984067605     -103.110524
9.206                0.984029878     -103.291052
9.207                0.983992089     -103.472019
9.208                 0.98395424     -103.653424
9.209                0.983916329      -103.83527
9.21                 0.983878358     -104.017557
9.211                0.983840327     -104.200285
9.212                0.983802238     -104.383456
9.213                0.983764089     -104.567069
9.214                0.983725882     -104.751126
9.215                0.983687618     -104.935627
9.216                0.983649296     -105.120573
9.217                0.983610917     -105.305965
9.218                0.983572483     -105.491804
9.219                0.983533992     -105.678089
9.22                 0.983495447     -105.864823
9.221                0.983456847     -106.052004
9.222                0.983418193     -106.239635
9.223                0.983379485     -106.427715
9.224                0.983340725     -106.616246
9.225                0.983301912     -106.805228
9.226                0.983263048     -106.994661
9.227                0.983224133     -107.184547
9.228                0.983185167     -107.374886
9.229                0.983146151     -107.565678
9.23                 0.983107086     -107.756924
9.231                0.983067973     -107.948625
9.232                0.983028811     -108.140781
9.233                0.982989603     -108.333394
9.234                0.982950347     -108.526462
9.235                0.982911046     -108.719988
9.236                0.982871699     -108.913971
9.237                0.982832308     -109.108412
9.238                0.982792873     -109.303312
9.239                0.982753395     -109.498672
9.24                 0.982713874     -109.694491
9.241                0.982674311      -109.89077
9.242                0.982634708     -110.087511
9.243                0.982595064     -110.284712
9.244                 0.98255538     -110.482375
9.245                0.982515658     -110.680501
9.246                0.982475898      -110.87909
9.247                  0.9824361     -111.078141
9.248                0.982396266     -111.277657
9.249                0.982356396     -111.477636
9.25                 0.982316491     -111.678081
9.251                0.982276553      -111.87899
9.252                0.982236581     -112.080365
9.253                0.982196576     -112.282205
9.254                 0.98215654     -112.484513
9.255                0.982116473     -112.687286
9.256                0.982076377     -112.890527
9.257                0.982036251     -113.094236
9.258                0.981996097     -113.298412
9.259                0.981955916     -113.503056
9.26                 0.981915709      -113.70817
9.261                0.981875476     -113.913752
9.262                0.981835218     -114.119803
9.263                0.981794937     -114.326324
9.264                0.981754633     -114.533315
9.265                0.981714308     -114.740775
9.266                0.981673961     -114.948707
9.267                0.981633595     -115.157109
9.268                 0.98159321     -115.365982
9.269                0.981552808     -115.575327
9.27                 0.981512388     -115.785143
9.271                0.981471952      -115.99543
9.272                0.981431502      -116.20619
9.273                0.981391038     -116.417422
9.274                 0.98135056     -116.629126
9.275                0.981310072     -116.841303
9.276                0.981269572     -117.053952
9.277                0.981229063     -117.267075
9.278                0.981188545      -117.48067
9.279                 0.98114802     -117.694739
9.28                 0.981107488     -117.909281
9.281                0.981066951     -118.124296
9.282                 0.98102641     -118.339785
9.283                0.980985865     -118.555748
9.284                0.980945319     -118.772184
9.285                0.980904772     -118.989094
9.286                0.980864225     -119.206478
9.287                 0.98082368     -119.424336
9.288                0.980783138     -119.642667
9.289                0.980742599     -119.861473
9.29                 0.980702065     -120.080752
9.291                0.980661538     -120.300505
9.292                0.980621018     -120.520732
9.293                0.980580507     -120.741433
9.294                0.980540006     -120.962607
9.295                0.980499516     -121.184255
9.296                0.980459038     -121.406377
9.297                0.980418574     -121.628972
9.298                0.980378125      -121.85204
9.299                0.980337692     -122.075582
9.3                  0.980297277     -122.299596
9.301                 0.98025688     -122.524084
9.302                0.980216504     -122.749044
9.303                0.980176149     -122.974477
9.304                0.980135816     -123.200382
9.305                0.980095508     -123.426759
9.306                0.980055226     -123.653608
9.307                 0.98001497     -123.880929
9.308                0.979974742      -124.10872
9.309                0.979934544     -124.336983
9.31                 0.979894377     -124.565717
9.311                0.979854242     -124.794921
9.312                0.979814142     -125.024595
9.313                0.979774076     -125.254739
9.314                0.979734047     -125.485353
9.315                0.979694055     -125.716435
9.316                0.979654104     -125.947986
9.317                0.979614193     -126.180005
9.318                0.979574325     -126.412492
9.319                  0.9795345     -126.645446
9.32                 0.979494721     -126.878867
9.321                0.979454989     -127.112755
9.322                0.979415305     -127.347108
9.323                0.979375671     -127.581926
9.324                0.979336088      -127.81721
9.325                0.979296558     -128.052957
9.326                0.979257083     -128.289169
9.327                0.979217664     -128.525843
9.328                0.979178302      -128.76298
9.329                0.979138999     -129.000578
9.33                 0.979099757     -129.238638
9.331                0.979060577     -129.477159
9.332                0.979021461     -129.716139
9.333                 0.97898241     -129.955579
9.334                0.978943426     -130.195477
9.335                0.978904511     -130.435832
9.336                0.978865667     -130.676645
9.337                0.978826894     -130.917914
9.338                0.978788194     -131.159638
9.339                 0.97874957     -131.401817
9.34                 0.978711022     -131.644449
9.341                0.978672553     -131.887535
9.342                0.978634164     -132.131073
9.343                0.978595857     -132.375061
9.344                0.978557634       -132.6195
9.345                0.978519495     -132.864389
9.346                0.978481443     -133.109726
9.347                 0.97844348      -133.35551
9.348                0.978405607      -133.60174
9.349                0.978367826     -133.848416
9.35                 0.978330139     -134.095537
9.351                0.978292547     -134.343101
9.352                0.978255052     -134.591107
9.353                0.978217656     -134.839554
9.354                0.978180361     -135.088442
9.355                0.978143168     -135.337768
9.356                0.978106079     -135.587532
9.357                0.978069096     -135.837733
9.358                 0.97803222      -136.08837
9.359                0.977995454      -136.33944
9.36                 0.977958799     -136.590944
9.361                0.977922257      -136.84288
9.362                 0.97788583     -137.095246
9.363                 0.97784952     -137.348041
9.364                0.977813327     -137.601264
9.365                0.977777255     -137.854914
9.366                0.977741305     -138.108989
9.367                0.977705478     -138.363488
9.368                0.977669777     -138.618409
9.369                0.977634203     -138.873752
9.37                 0.977598759     -139.129514
9.371                0.977563445     -139.385694
9.372                0.977528265     -139.642291
9.373                0.977493218     -139.899303
9.374                0.977458309     -140.156729
9.375                0.977423537     -140.414566
9.376                0.977388906     -140.672815
9.377                0.977354417     -140.931472
9.378                0.977320071     -141.190537
9.379                0.977285872     -141.450007
9.38                 0.977251819     -141.709881
9.381                0.977217916     -141.970158
9.382                0.977184164     -142.230835
9.383                0.977150565     -142.491912
9.384                0.977117121     -142.753385
9.385                0.977083834     -143.015254
9.386                0.977050705     -143.277517
9.387                0.977017737     -143.540171
9.388                0.976984931     -143.803216
9.389                0.976952289     -144.066649
9.39                 0.976919813     -144.330468
9.391                0.976887504     -144.594671
9.392                0.976855366     -144.859258
9.393                0.976823398     -145.124224
9.394                0.976791604      -145.38957
9.395                0.976759986     -145.655292
9.396                0.976728544     -145.921388
