! TOUCHSTONE file generated by CST DESIGN STUDIO
! Date and time: Tue Feb  4 17:50:46 2025
! Project name: C:\Work\MatlabApps\UnitCellOptimizationMatlab\CST\unitcell.cst
! Tree item: Tasks\Sweep1\SPara1\S-Parameters
! Header version: 2024
! Port assignment regex: !\s*Touchstone port\s*([0-9]+)\s*=\s*(CST MWS port|CST DES external port|CST DES block port)\s*(.+)\s* \(\"(.*)\"\)(\s*mode\s*([0-9]+))?.*
! Touchstone port assignment:
! Touchstone port 1 = CST DES external port 1 ("")
# GHz S MA R 50
9                    0.989886289     -75.8050605
9.001                0.989862379     -75.9178115
9.002                0.989838397     -76.0308346
9.003                0.989814344     -76.1441309
9.004                0.989790219     -76.2577009
9.005                0.989766022     -76.3715456
9.006                0.989741753     -76.4856657
9.007                0.989717411      -76.600062
9.008                0.989692998     -76.7147354
9.009                0.989668511     -76.8296865
9.01                 0.989643952     -76.9449163
9.011                 0.98961932     -77.0604256
9.012                0.989594614     -77.1762151
9.013                0.989569836     -77.2922857
9.014                0.989544984     -77.4086381
9.015                0.989520059     -77.5252733
9.016                 0.98949506     -77.6421919
9.017                0.989469987     -77.7593949
9.018                 0.98944484      -77.876883
9.019                0.989419619     -77.9946571
9.02                 0.989394324      -78.112718
9.021                0.989368955     -78.2310665
9.022                0.989343511     -78.3497034
9.023                0.989317992     -78.4686296
9.024                0.989292398     -78.5878459
9.025                 0.98926673     -78.7073532
9.026                0.989240986     -78.8271522
9.027                0.989215167     -78.9472438
9.028                0.989189273     -79.0676289
9.029                0.989163303     -79.1883082
9.03                 0.989137257     -79.3092827
9.031                0.989111136     -79.4305531
9.032                0.989084939     -79.5521203
9.033                0.989058666     -79.6739851
9.034                0.989032316     -79.7961485
9.035                 0.98900589     -79.9186112
9.036                0.988979388     -80.0413741
9.037                0.988952809      -80.164438
9.038                0.988926153     -80.2878038
9.039                0.988899421     -80.4114724
9.04                 0.988872611     -80.5354446
9.041                0.988845725     -80.6597213
9.042                0.988818761     -80.7843032
9.043                0.988791719     -80.9091914
9.044                0.988764601     -81.0343866
9.045                0.988737404     -81.1598897
9.046                 0.98871013     -81.2857016
9.047                0.988682778     -81.4118231
9.048                0.988655349     -81.5382551
9.049                0.988627841     -81.6649985
9.05                 0.988600254     -81.7920542
9.051                 0.98857259     -81.9194229
9.052                0.988544847     -82.0471057
9.053                0.988517026     -82.1751033
9.054                0.988489126     -82.3034167
9.055                0.988461147     -82.4320467
9.056                0.988433089     -82.5609941
9.057                0.988404953       -82.69026
9.058                0.988376737     -82.8198451
9.059                0.988348442     -82.9497503
9.06                 0.988320068     -83.0799766
9.061                0.988291615     -83.2105248
9.062                0.988263082     -83.3413958
9.063                0.988234469     -83.4725904
9.064                0.988205777     -83.6041096
9.065                0.988177005     -83.7359543
9.066                0.988148154     -83.8681253
9.067                0.988119222     -84.0006236
9.068                 0.98809021     -84.1334499
9.069                0.988061119     -84.2666054
9.07                 0.988031947     -84.4000907
9.071                0.988002695     -84.5339068
9.072                0.987973362     -84.6680547
9.073                 0.98794395     -84.8025351
9.074                0.987914456     -84.9373491
9.075                0.987884883     -85.0724975
9.076                0.987855228     -85.2079811
9.077                0.987825493      -85.343801
9.078                0.987795677      -85.479958
9.079                 0.98776578      -85.616453
9.08                 0.987735803     -85.7532869
9.081                0.987705744     -85.8904607
9.082                0.987675605     -86.0279751
9.083                0.987645384     -86.1658312
9.084                0.987615083     -86.3040299
9.085                  0.9875847     -86.4425719
9.086                0.987554236     -86.5814584
9.087                 0.98752369     -86.7206901
9.088                0.987493064     -86.8602679
9.089                0.987462356     -87.0001929
9.09                 0.987431567     -87.1404658
9.091                0.987400696     -87.2810877
9.092                0.987369744     -87.4220593
9.093                 0.98733871     -87.5633817
9.094                0.987307595     -87.7050557
9.095                0.987276398     -87.8470823
9.096                 0.98724512     -87.9894623
9.097                 0.98721376     -88.1321967
9.098                0.987182319     -88.2752864
9.099                0.987150796     -88.4187323
9.1                  0.987119191     -88.5625354
9.101                0.987087505     -88.7066964
9.102                0.987055737     -88.8512164
9.103                0.987023887     -88.9960963
9.104                0.986991956      -89.141337
9.105                0.986959944     -89.2869393
9.106                0.986927849     -89.4329043
9.107                0.986895673     -89.5792327
9.108                0.986863415     -89.7259256
9.109                0.986831076     -89.8729839
9.11                 0.986798655     -90.0204085
9.111                0.986766153     -90.1682002
9.112                0.986733569       -90.31636
9.113                0.986700904     -90.4648889
9.114                0.986668157     -90.6137876
9.115                0.986635329     -90.7630572
9.116                0.986602419     -90.9126986
9.117                0.986569428     -91.0627127
9.118                0.986536356     -91.2131003
9.119                0.986503202     -91.3638624
9.12                 0.986469967     -91.5149999
9.121                0.986436651     -91.6665138
9.122                0.986403254     -91.8184049
9.123                0.986369776     -91.9706741
9.124                0.986336217     -92.1233224
9.125                0.986302577     -92.2763506
9.126                0.986268856     -92.4297597
9.127                0.986235055     -92.5835506
9.128                0.986201173     -92.7377242
9.129                 0.98616721     -92.8922814
9.13                 0.986133167      -93.047223
9.131                0.986099044     -93.2025501
9.132                 0.98606484     -93.3582635
9.133                0.986030556      -93.514364
9.134                0.985996192     -93.6708527
9.135                0.985961748     -93.8277304
9.136                0.985927224      -93.984998
9.137                0.985892621     -94.1426564
9.138                0.985857938     -94.3007066
9.139                0.985823175     -94.4591493
9.14                 0.985788334     -94.6179855
9.141                0.985753413     -94.7772161
9.142                0.985718412     -94.9368419
9.143                0.985683334      -95.096864
9.144                0.985648176     -95.2572831
9.145                 0.98561294     -95.4181001
9.146                0.985577625     -95.5793159
9.147                0.985542232     -95.7409315
9.148                0.985506761     -95.9029477
9.149                0.985471212     -96.0653653
9.15                 0.985435585     -96.2281852
9.151                0.985399881     -96.3914084
9.152                  0.9853641     -96.5550357
9.153                0.985328241     -96.7190679
9.154                0.985292306      -96.883506
9.155                0.985256293     -97.0483508
9.156                0.985220205     -97.2136031
9.157                0.985184039     -97.3792639
9.158                0.985147798     -97.5453339
9.159                0.985111481     -97.7118142
9.16                 0.985075089     -97.8787054
9.161                0.985038621     -98.0460084
9.162                0.985002077     -98.2137242
9.163                0.984965459     -98.3818535
9.164                0.984928767     -98.5503972
9.165                   0.984892     -98.7193562
9.166                0.984855159     -98.8887312
9.167                0.984818244     -99.0585232
9.168                0.984781256     -99.2287329
9.169                0.984744194     -99.3993611
9.17                 0.984707059     -99.5704088
9.171                0.984669852     -99.7418767
9.172                0.984632573     -99.9137656
9.173                0.984595221     -100.086076
9.174                0.984557798      -100.25881
9.175                0.984520303     -100.431967
9.176                0.984482737     -100.605548
9.177                0.984445101     -100.779555
9.178                0.984407394     -100.953987
9.179                0.984369617     -101.128846
9.18                  0.98433177     -101.304132
9.181                0.984293855     -101.479847
9.182                 0.98425587     -101.655991
9.183                0.984217816     -101.832564
9.184                0.984179695     -102.009568
9.185                0.984141506     -102.187004
9.186                0.984103249     -102.364872
9.187                0.984064925     -102.543172
9.188                0.984026535     -102.721907
9.189                0.983988078     -102.901075
9.19                 0.983949556     -103.080679
9.191                0.983910968     -103.260719
9.192                0.983872316     -103.441195
9.193                0.983833599     -103.622109
9.194                0.983794818     -103.803461
9.195                0.983755974     -103.985252
9.196                0.983717067     -104.167482
9.197                0.983678097     -104.350153
9.198                0.983639065     -104.533265
9.199                0.983599971     -104.716818
9.2                  0.983560817     -104.900814
9.201                0.983521601     -105.085252
9.202                0.983482326     -105.270135
9.203                0.983442991     -105.455462
9.204                0.983403597     -105.641234
9.205                0.983364145     -105.827452
9.206                0.983324635     -106.014116
9.207                0.983285067     -106.201227
9.208                0.983245442     -106.388787
9.209                0.983205762     -106.576794
9.21                 0.983166025     -106.765251
9.211                0.983126234     -106.954157
9.212                0.983086388     -107.143514
9.213                0.983046488     -107.333321
9.214                0.983006535      -107.52358
9.215                0.982966529     -107.714292
9.216                0.982926471     -107.905456
9.217                0.982886362     -108.097073
9.218                0.982846202     -108.289144
9.219                0.982805992      -108.48167
9.22                 0.982765732      -108.67465
9.221                0.982725424     -108.868087
9.222                0.982685068     -109.061979
9.223                0.982644664     -109.256329
9.224                0.982604214     -109.451135
9.225                0.982563717     -109.646399
9.226                0.982523176     -109.842122
9.227                0.982482589     -110.038303
9.228                0.982441959     -110.234944
9.229                0.982401286     -110.432045
9.23                 0.982360571     -110.629606
9.231                0.982319814     -110.827627
9.232                0.982279016     -111.026111
9.233                0.982238178     -111.225055
9.234                0.982197301     -111.424462
9.235                0.982156386     -111.624332
9.236                0.982115433     -111.824665
9.237                0.982074443     -112.025461
9.238                0.982033417     -112.226721
9.239                0.981992356     -112.428446
9.24                 0.981951261     -112.630635
9.241                0.981910132      -112.83329
9.242                0.981868971      -113.03641
9.243                0.981827778     -113.239996
9.244                0.981786554     -113.444048
9.245                  0.9817453     -113.648567
9.246                0.981704018     -113.853552
9.247                0.981662707     -114.059006
9.248                0.981621369     -114.264926
9.249                0.981580004     -114.471315
9.25                 0.981538615     -114.678172
9.251                0.981497201     -114.885497
9.252                0.981455764     -115.093291
9.253                0.981414304     -115.301555
9.254                0.981372823     -115.510287
9.255                0.981331321     -115.719489
9.256                  0.9812898     -115.929161
9.257                 0.98124826     -116.139304
9.258                0.981206703     -116.349916
9.259                 0.98116513     -116.560999
9.26                 0.981123541     -116.772552
9.261                0.981081938     -116.984576
9.262                0.981040322     -117.197072
9.263                0.980998693     -117.410038
9.264                0.980957054     -117.623476
9.265                0.980915404     -117.837385
9.266                0.980873746     -118.051765
9.267                 0.98083208     -118.266618
9.268                0.980790407     -118.481942
9.269                0.980748729     -118.697738
9.27                 0.980707046     -118.914005
9.271                0.980665361     -119.130745
9.272                0.980623673     -119.347957
9.273                0.980581984      -119.56564
9.274                0.980540295     -119.783796
9.275                0.980498608     -120.002424
9.276                0.980456924     -120.221524
9.277                0.980415244     -120.441095
9.278                0.980373569     -120.661139
9.279                  0.9803319     -120.881655
9.28                 0.980290239     -121.102642
9.281                0.980248586     -121.324101
9.282                0.980206944     -121.546032
9.283                0.980165313     -121.768435
9.284                0.980123695     -121.991308
9.285                0.980082091     -122.214653
9.286                0.980040503      -122.43847
9.287                0.979998931     -122.662757
9.288                0.979957377     -122.887515
9.289                0.979915842     -123.112743
9.29                 0.979874328     -123.338442
9.291                0.979832835     -123.564611
9.292                0.979791367      -123.79125
9.293                0.979749922     -124.018359
9.294                0.979708504     -124.245937
9.295                0.979667114     -124.473984
9.296                0.979625753     -124.702499
9.297                0.979584421     -124.931484
9.298                0.979543122     -125.160936
9.299                0.979501856     -125.390856
9.3                  0.979460624     -125.621243
9.301                0.979419429     -125.852098
9.302                0.979378271     -126.083419
9.303                0.979337152     -126.315206
9.304                0.979296074     -126.547459
9.305                0.979255037     -126.780177
9.306                0.979214045      -127.01336
9.307                0.979173097     -127.247007
9.308                0.979132196     -127.481118
9.309                0.979091342     -127.715692
9.31                 0.979050539     -127.950729
9.311                0.979009786     -128.186228
9.312                0.978969087     -128.422189
9.313                0.978928441     -128.658611
9.314                0.978887852     -128.895493
9.315                 0.97884732     -129.132835
9.316                0.978806847     -129.370636
9.317                0.978766434     -129.608896
9.318                0.978726084     -129.847613
9.319                0.978685798     -130.086788
9.32                 0.978645577     -130.326419
9.321                0.978605424     -130.566505
9.322                0.978565339     -130.807046
9.323                0.978525324     -131.048042
9.324                0.978485382      -131.28949
9.325                0.978445513     -131.531391
9.326                 0.97840572     -131.773744
9.327                0.978366004     -132.016548
9.328                0.978326366     -132.259801
9.329                0.978286809     -132.503503
9.33                 0.978247335     -132.747654
9.331                0.978207944     -132.992252
9.332                0.978168639     -133.237296
9.333                0.978129421     -133.482785
9.334                0.978090292     -133.728719
9.335                0.978051254     -133.975095
9.336                0.978012308     -134.221915
9.337                0.977973457     -134.469175
9.338                0.977934702     -134.716875
9.339                0.977896045     -134.965015
9.34                 0.977857487     -135.213592
9.341                0.977819031     -135.462606
9.342                0.977780678     -135.712056
9.343                 0.97774243     -135.961941
9.344                0.977704289     -136.212259
9.345                0.977666256     -136.463008
9.346                0.977628333     -136.714189
9.347                0.977590523     -136.965799
9.348                0.977552827     -137.217838
9.349                0.977515246     -137.470304
9.35                 0.977477783     -137.723195
9.351                 0.97744044     -137.976511
9.352                0.977403217      -138.23025
9.353                0.977366118     -138.484411
9.354                0.977329144     -138.738992
9.355                0.977292297     -138.993991
9.356                0.977255578     -139.249409
9.357                 0.97721899     -139.505242
9.358                0.977182534     -139.761489
9.359                0.977146213      -140.01815
9.36                 0.977110027     -140.275222
9.361                 0.97707398     -140.532704
9.362                0.977038072     -140.790595
9.363                0.977002306     -141.048892
9.364                0.976966684     -141.307594
9.365                0.976931207       -141.5667
9.366                0.976895877     -141.826208
9.367                0.976860697     -142.086116
9.368                0.976825667     -142.346423
9.369                0.976790791     -142.607126
9.37                 0.976756069     -142.868224
9.371                0.976721504     -143.129716
9.372                0.976687098     -143.391599
9.373                0.976652852     -143.653872
9.374                0.976618768     -143.916533
9.375                0.976584849      -144.17958
9.376                0.976551096     -144.443011
9.377                0.976517511     -144.706824
9.378                0.976484096     -144.971018
9.379                0.976450852      -145.23559
9.38                 0.976417782     -145.500539
9.381                0.976384888     -145.765862
9.382                0.976352171     -146.031558
9.383                0.976319633     -146.297625
9.384                0.976287277     -146.564059
9.385                0.976255104     -146.830861
9.386                0.976223115     -147.098026
9.387                0.976191313     -147.365554
9.388                  0.9761597     -147.633442
9.389                0.976128277     -147.901688
9.39                 0.976097047      -148.17029
9.391                0.976066011     -148.439246
9.392                0.976035171     -148.708552
9.393                0.976004529     -148.978208
9.394                0.975974086     -149.248211
9.395                0.975943845     -149.518559
9.396                0.975913808     -149.789249
