! TOUCHSTONE file generated by CST DESIGN STUDIO
! Date and time: Tue Feb  4 15:56:14 2025
! Project name: C:\Work\MatlabApps\UnitCellOptimizationMatlab\CST\unitcell.cst
! Tree item: Tasks\Sweep1\SPara1\S-Parameters
! Header version: 2024
! Port assignment regex: !\s*Touchstone port\s*([0-9]+)\s*=\s*(CST MWS port|CST DES external port|CST DES block port)\s*(.+)\s* \(\"(.*)\"\)(\s*mode\s*([0-9]+))?.*
! Touchstone port assignment:
! Touchstone port 1 = CST DES external port 1 ("")
# GHz S MA R 50
9                    0.988780896     -76.5249086
9.001                0.988754012     -76.6399219
9.002                0.988727048     -76.7552154
9.003                0.988700003     -76.8707897
9.004                0.988672877     -76.9866456
9.005                 0.98864567     -77.1027841
9.006                0.988618381     -77.2192059
9.007                0.988591011     -77.3359119
9.008                0.988563559     -77.4529028
9.009                0.988536025     -77.5701795
9.01                 0.988508409     -77.6877429
9.011                0.988480711     -77.8055938
9.012                 0.98845293     -77.9237329
9.013                0.988425067     -78.0421612
9.014                0.988397121     -78.1608794
9.015                0.988369092     -78.2798885
9.016                0.988340981     -78.3991892
9.017                0.988312786     -78.5187825
9.018                0.988284507      -78.638669
9.019                0.988256145     -78.7588498
9.02                 0.988227699     -78.8793256
9.021                 0.98819917     -79.0000972
9.022                0.988170556     -79.1211656
9.023                0.988141858     -79.2425316
9.024                0.988113076     -79.3641961
9.025                 0.98808421     -79.4861598
9.026                0.988055258     -79.6084237
9.027                0.988026222     -79.7309885
9.028                0.987997101     -79.8538553
9.029                0.987967895     -79.9770248
9.03                 0.987938603     -80.1004979
9.031                0.987909226     -80.2242755
9.032                0.987879764     -80.3483584
9.033                0.987850216     -80.4727475
9.034                0.987820582     -80.5974437
9.035                0.987790861     -80.7224478
9.036                0.987761055     -80.8477607
9.037                0.987731163     -80.9733833
9.038                0.987701184     -81.0993165
9.039                0.987671118     -81.2255612
9.04                 0.987640966     -81.3521181
9.041                0.987610727     -81.4789883
9.042                0.987580401     -81.6061726
9.043                0.987549988     -81.7336718
9.044                0.987519488     -81.8614869
9.045                  0.9874889     -81.9896187
9.046                0.987458225     -82.1180682
9.047                0.987427462     -82.2468362
9.048                0.987396611     -82.3759236
9.049                0.987365673     -82.5053313
9.05                 0.987334646     -82.6350602
9.051                0.987303532     -82.7651112
9.052                0.987272329     -82.8954852
9.053                0.987241037      -83.026183
9.054                0.987209658     -83.1572057
9.055                 0.98717819      -83.288554
9.056                0.987146633     -83.4202289
9.057                0.987114987     -83.5522313
9.058                0.987083252     -83.6845621
9.059                0.987051428     -83.8172221
9.06                 0.987019516     -83.9502124
9.061                0.986987514     -84.0835338
9.062                0.986955422     -84.2171872
9.063                0.986923241     -84.3511735
9.064                0.986890971     -84.4854936
9.065                0.986858611     -84.6201485
9.066                0.986826162      -84.755139
9.067                0.986793622     -84.8904661
9.068                0.986760993     -85.0261306
9.069                0.986728274     -85.1621336
9.07                 0.986695465     -85.2984759
9.071                0.986662565     -85.4351584
9.072                0.986629576      -85.572182
9.073                0.986596496     -85.7095477
9.074                0.986563325     -85.8472564
9.075                0.986530065      -85.985309
9.076                0.986496714     -86.1237064
9.077                0.986463272     -86.2624495
9.078                 0.98642974     -86.4015393
9.079                0.986396117     -86.5409767
9.08                 0.986362403     -86.6807626
9.081                0.986328598     -86.8208979
9.082                0.986294703     -86.9613836
9.083                0.986260717     -87.1022206
9.084                 0.98622664     -87.2434098
9.085                0.986192472     -87.3849521
9.086                0.986158212     -87.5268485
9.087                0.986123862     -87.6690998
9.088                0.986089421     -87.8117071
9.089                0.986054888     -87.9546713
9.09                 0.986020265     -88.0979932
9.091                 0.98598555     -88.2416738
9.092                0.985950744      -88.385714
9.093                0.985915847     -88.5301148
9.094                0.985880858     -88.6748771
9.095                0.985845778     -88.8200018
9.096                0.985810607     -88.9654899
9.097                0.985775345     -89.1113422
9.098                0.985739991     -89.2575598
9.099                0.985704547     -89.4041435
9.1                   0.98566901     -89.5510943
9.101                0.985633383     -89.6984131
9.102                0.985597664     -89.8461008
9.103                0.985561855     -89.9941584
9.104                0.985525953     -90.1425867
9.105                0.985489961     -90.2913868
9.106                0.985453878     -90.4405596
9.107                0.985417703     -90.5901059
9.108                0.985381437     -90.7400268
9.109                 0.98534508     -90.8903231
9.11                 0.985308632     -91.0409957
9.111                0.985272093     -91.1920457
9.112                0.985235464     -91.3434739
9.113                0.985198743     -91.4952812
9.114                0.985161931     -91.6474687
9.115                0.985125029     -91.8000371
9.116                0.985088036     -91.9529875
9.117                0.985050952     -92.1063208
9.118                0.985013778     -92.2600378
9.119                0.984976513     -92.4141395
9.12                 0.984939157     -92.5686269
9.121                0.984901712     -92.7235009
9.122                0.984864176     -92.8787623
9.123                 0.98482655     -93.0344121
9.124                0.984788834     -93.1904513
9.125                0.984751028     -93.3468806
9.126                0.984713132     -93.5037012
9.127                0.984675147     -93.6609138
9.128                0.984637071     -93.8185194
9.129                0.984598907     -93.9765189
9.13                 0.984560653     -94.1349132
9.131                 0.98452231     -94.2937033
9.132                0.984483877       -94.45289
9.133                0.984445356     -94.6124742
9.134                0.984406746     -94.7724569
9.135                0.984368047      -94.932839
9.136                 0.98432926     -95.0936213
9.137                0.984290385     -95.2548048
9.138                0.984251421     -95.4163904
9.139                 0.98421237      -95.578379
9.14                  0.98417323     -95.7407714
9.141                0.984134003     -95.9035686
9.142                0.984094689     -96.0667715
9.143                0.984055287     -96.2303809
9.144                0.984015799     -96.3943978
9.145                0.983976223      -96.558823
9.146                0.983936561     -96.7236574
9.147                0.983896813     -96.8889019
9.148                0.983856978     -97.0545574
9.149                0.983817057     -97.2206248
9.15                 0.983777051      -97.387105
9.151                 0.98373696     -97.5539987
9.152                0.983696783      -97.721307
9.153                0.983656521     -97.8890306
9.154                0.983616174     -98.0571704
9.155                0.983575743     -98.2257274
9.156                0.983535228     -98.3947022
9.157                0.983494629      -98.564096
9.158                0.983453947     -98.7339093
9.159                0.983413181     -98.9041433
9.16                 0.983372333     -99.0747986
9.161                0.983331401     -99.2458761
9.162                0.983290387     -99.4173767
9.163                0.983249292     -99.5893012
9.164                0.983208114     -99.7616504
9.165                0.983166855     -99.9344252
9.166                0.983125515     -100.107626
9.167                0.983084095     -100.281255
9.168                0.983042594     -100.455312
9.169                0.983001013     -100.629797
9.17                 0.982959352     -100.804712
9.171                0.982917612     -100.980058
9.172                0.982875794     -101.155835
9.173                0.982833897     -101.332044
9.174                0.982791921     -101.508686
9.175                0.982749869     -101.685762
9.176                0.982707739     -101.863272
9.177                0.982665532     -102.041218
9.178                0.982623249     -102.219599
9.179                0.982580889     -102.398418
9.18                 0.982538455     -102.577674
9.181                0.982495945     -102.757369
9.182                0.982453361     -102.937503
9.183                0.982410702     -103.118077
9.184                 0.98236797     -103.299091
9.185                0.982325165     -103.480547
9.186                0.982282287     -103.662445
9.187                0.982239336     -103.844786
9.188                0.982196315     -104.027571
9.189                0.982153222       -104.2108
9.19                 0.982110058     -104.394475
9.191                0.982066824     -104.578595
9.192                0.982023521     -104.763162
9.193                0.981980149     -104.948176
9.194                0.981936708     -105.133638
9.195                0.981893199     -105.319549
9.196                0.981849623     -105.505909
9.197                0.981805981     -105.692719
9.198                0.981762272      -105.87998
9.199                0.981718498     -106.067693
9.2                  0.981674659     -106.255857
9.201                0.981630755     -106.444474
9.202                0.981586788     -106.633545
9.203                0.981542758      -106.82307
9.204                0.981498666     -107.013049
9.205                0.981454511     -107.203484
9.206                0.981410296     -107.394375
9.207                0.981366021     -107.585722
9.208                0.981321685     -107.777527
9.209                0.981277291     -107.969789
9.21                 0.981232839      -108.16251
9.211                0.981188329      -108.35569
9.212                0.981143762     -108.549329
9.213                0.981099139     -108.743428
9.214                 0.98105446     -108.937989
9.215                0.981009727      -109.13301
9.216                0.980964941     -109.328494
9.217                0.980920101      -109.52444
9.218                0.980875209     -109.720848
9.219                0.980830265     -109.917721
9.22                 0.980785271     -110.115057
9.221                0.980740227     -110.312858
9.222                0.980695133     -110.511123
9.223                0.980649992     -110.709855
9.224                0.980604803     -110.909052
9.225                0.980559568     -111.108716
9.226                0.980514287     -111.308847
9.227                0.980468961     -111.509445
9.228                0.980423592     -111.710511
9.229                0.980378179     -111.912045
9.23                 0.980332725     -112.114049
9.231                0.980287229     -112.316521
9.232                0.980241693     -112.519463
9.233                0.980196118     -112.722875
9.234                0.980150504     -112.926757
9.235                0.980104853      -113.13111
9.236                0.980059166     -113.335935
9.237                0.980013443     -113.541231
9.238                0.979967686     -113.746998
9.239                0.979921895     -113.953238
9.24                 0.979876072     -114.159951
9.241                0.979830218     -114.367136
9.242                0.979784333     -114.574795
9.243                0.979738419     -114.782927
9.244                0.979692477     -114.991533
9.245                0.979646507     -115.200613
9.246                0.979600512     -115.410168
9.247                0.979554491     -115.620197
9.248                0.979508447     -115.830701
9.249                 0.97946238      -116.04168
9.25                 0.979416291     -116.253135
9.251                0.979370182     -116.465065
9.252                0.979324054      -116.67747
9.253                0.979277907     -116.890352
9.254                0.979231743      -117.10371
9.255                0.979185564     -117.317544
9.256                0.979139369     -117.531854
9.257                0.979093162     -117.746641
9.258                0.979046942     -117.961905
9.259                0.979000711     -118.177646
9.26                 0.978954471     -118.393863
9.261                0.978908222     -118.610558
9.262                0.978861965      -118.82773
9.263                0.978815703     -119.045378
9.264                0.978769437     -119.263505
9.265                0.978723166     -119.482108
9.266                0.978676894     -119.701188
9.267                0.978630621     -119.920746
9.268                0.978584349     -120.140781
9.269                0.978538079     -120.361294
9.27                 0.978491812     -120.582283
9.271                 0.97844555      -120.80375
9.272                0.978399293     -121.025694
9.273                0.978353045     -121.248115
9.274                0.978306805     -121.471013
9.275                0.978260575     -121.694388
9.276                0.978214357     -121.918239
9.277                0.978168152     -122.142567
9.278                0.978121962     -122.367372
9.279                0.978075788     -122.592653
9.28                 0.978029631      -122.81841
9.281                0.977983493     -123.044643
9.282                0.977937376     -123.271351
9.283                0.977891281     -123.498535
9.284                0.977845209     -123.726195
9.285                0.977799163     -123.954329
9.286                0.977753143     -124.182938
9.287                0.977707151     -124.412022
9.288                0.977661189     -124.641579
9.289                0.977615258     -124.871611
9.29                 0.977569359     -125.102116
9.291                0.977523496     -125.333094
9.292                0.977477668     -125.564545
9.293                0.977431878     -125.796468
9.294                0.977386127     -126.028863
9.295                0.977340418     -126.261729
9.296                 0.97729475     -126.495067
9.297                0.977249127     -126.728876
9.298                 0.97720355     -126.963154
9.299                0.977158021     -127.197903
9.3                   0.97711254      -127.43312
9.301                0.977067111     -127.668806
9.302                0.977021734      -127.90496
9.303                0.976976412     -128.141582
9.304                0.976931146     -128.378671
9.305                0.976885938     -128.616226
9.306                0.976840789     -128.854247
9.307                0.976795702     -129.092733
9.308                0.976750678     -129.331684
9.309                0.976705719     -129.571098
9.31                 0.976660827     -129.810976
9.311                0.976616003     -130.051316
9.312                0.976571249     -130.292117
9.313                0.976526568      -130.53338
9.314                0.976481961     -130.775102
9.315                0.976437429     -131.017285
9.316                0.976392975     -131.259925
9.317                0.976348601     -131.503024
9.318                0.976304308     -131.746579
9.319                0.976260099     -131.990591
9.32                 0.976215974     -132.235058
9.321                0.976171937     -132.479979
9.322                0.976127988     -132.725353
9.323                0.976084131      -132.97118
9.324                0.976040366     -133.217459
9.325                0.975996696     -133.464188
9.326                0.975953122     -133.711366
9.327                0.975909647     -133.958993
9.328                0.975866273     -134.207067
9.329                0.975823001     -134.455588
9.33                 0.975779833     -134.704554
9.331                0.975736772     -134.953965
9.332                0.975693819     -135.203818
9.333                0.975650977     -135.454113
9.334                0.975608247      -135.70485
9.335                0.975565631     -135.956025
9.336                0.975523132      -136.20764
9.337                0.975480751     -136.459691
9.338                 0.97543849     -136.712178
9.339                0.975396352       -136.9651
9.34                 0.975354338     -137.218456
9.341                 0.97531245     -137.472243
9.342                0.975270692     -137.726461
9.343                0.975229063     -137.981109
9.344                0.975187567     -138.236184
9.345                0.975146206     -138.491687
9.346                0.975104982     -138.747614
9.347                0.975063896     -139.003965
9.348                0.975022951     -139.260739
9.349                0.974982149     -139.517933
9.35                 0.974941492     -139.775547
9.351                0.974900982     -140.033578
9.352                0.974860621     -140.292026
9.353                0.974820411     -140.550889
9.354                0.974780355     -140.810164
9.355                0.974740454     -141.069851
9.356                 0.97470071     -141.329948
9.357                0.974661126     -141.590453
9.358                0.974621704     -141.851365
9.359                0.974582446     -142.112681
9.36                 0.974543353     -142.374401
9.361                0.974504428     -142.636522
9.362                0.974465674     -142.899043
9.363                0.974427091     -143.161961
9.364                0.974388683     -143.425276
9.365                0.974350451     -143.688984
9.366                0.974312398     -143.953085
9.367                0.974274526     -144.217577
9.368                0.974236836     -144.482456
9.369                0.974199331     -144.747723
9.37                 0.974162013     -145.013374
9.371                0.974124884     -145.279408
9.372                0.974087946     -145.545823
9.373                0.974051201     -145.812617
9.374                0.974014652     -146.079787
9.375                  0.9739783     -146.347332
9.376                0.973942148      -146.61525
9.377                0.973906197     -146.883538
9.378                 0.97387045     -147.152194
9.379                0.973834909     -147.421217
9.38                 0.973799576     -147.690604
9.381                0.973764453     -147.960352
9.382                0.973729542     -148.230461
9.383                0.973694845     -148.500927
9.384                0.973660364     -148.771748
9.385                0.973626101     -149.042922
9.386                0.973592059     -149.314447
9.387                 0.97355824      -149.58632
9.388                0.973524645     -149.858539
9.389                0.973491276     -150.131102
9.39                 0.973458136     -150.404006
9.391                0.973425226     -150.677249
9.392                0.973392549     -150.950829
9.393                0.973360107     -151.224743
9.394                0.973327901     -151.498988
9.395                0.973295934     -151.773562
9.396                0.973264208     -152.048463
