! TOUCHSTONE file generated by CST DESIGN STUDIO
! Date and time: Tue Feb  4 15:56:16 2025
! Project name: C:\Work\MatlabApps\UnitCellOptimizationMatlab\CST\unitcell.cst
! Tree item: Tasks\Sweep1\SPara1\S-Parameters
! Header version: 2024
! Port assignment regex: !\s*Touchstone port\s*([0-9]+)\s*=\s*(CST MWS port|CST DES external port|CST DES block port)\s*(.+)\s* \(\"(.*)\"\)(\s*mode\s*([0-9]+))?.*
! Touchstone port assignment:
! Touchstone port 1 = CST DES external port 1 ("")
# GHz S MA R 50
9                    0.988980469     -75.5885485
9.001                 0.98895441      -75.701419
9.002                0.988928273     -75.8145634
9.003                0.988902057     -75.9279826
9.004                0.988875762     -76.0416774
9.005                0.988849389     -76.1556485
9.006                0.988822936     -76.2698969
9.007                0.988796404     -76.3844232
9.008                0.988769793     -76.4992284
9.009                0.988743102     -76.6143131
9.01                 0.988716332     -76.7296783
9.011                0.988689481     -76.8453248
9.012                 0.98866255     -76.9612534
9.013                0.988635539     -77.0774648
9.014                0.988608447       -77.19396
9.015                0.988581275     -77.3107398
9.016                0.988554022     -77.4278049
9.017                0.988526688     -77.5451563
9.018                0.988499273     -77.6627947
9.019                0.988471777     -77.7807209
9.02                 0.988444199      -77.898936
9.021                0.988416539     -78.0174405
9.022                0.988388798     -78.1362355
9.023                0.988360975     -78.2553216
9.024                 0.98833307     -78.3746999
9.025                0.988305082     -78.4943711
9.026                0.988277012     -78.6143361
9.027                0.988248859     -78.7345956
9.028                0.988220624     -78.8551507
9.029                0.988192306      -78.976002
9.03                 0.988163904     -79.0971505
9.031                 0.98813542     -79.2185971
9.032                0.988106852     -79.3403425
9.033                0.988078201     -79.4623877
9.034                0.988049466     -79.5847334
9.035                0.988020647     -79.7073807
9.036                0.987991744     -79.8303302
9.037                0.987962757     -79.9535829
9.038                0.987933686     -80.0771397
9.039                 0.98790453     -80.2010014
9.04                  0.98787529     -80.3251689
9.041                0.987845965     -80.4496431
9.042                0.987816555     -80.5744248
9.043                0.987787061     -80.6995149
9.044                0.987757481     -80.8249143
9.045                0.987727816     -80.9506238
9.046                0.987698065     -81.0766444
9.047                0.987668229     -81.2029769
9.048                0.987638308     -81.3296222
9.049                0.987608301     -81.4565812
9.05                 0.987578207     -81.5838547
9.051                0.987548028     -81.7114437
9.052                0.987517763     -81.8393491
9.053                0.987487411     -81.9675717
9.054                0.987456973     -82.0961123
9.055                0.987426448      -82.224972
9.056                0.987395837     -82.3541517
9.057                0.987365138     -82.4836521
9.058                0.987334353     -82.6134742
9.059                0.987303481     -82.7436189
9.06                 0.987272522      -82.874087
9.061                0.987241476     -83.0048796
9.062                0.987210342     -83.1359975
9.063                0.987179121     -83.2674415
9.064                0.987147812     -83.3992126
9.065                0.987116415     -83.5313118
9.066                0.987084931     -83.6637398
9.067                0.987053359     -83.7964977
9.068                0.987021699     -83.9295862
9.069                0.986989951     -84.0630064
9.07                 0.986958115     -84.1967591
9.071                 0.98692619     -84.3308453
9.072                0.986894177     -84.4652658
9.073                0.986862076     -84.6000216
9.074                0.986829886     -84.7351136
9.075                0.986797607     -84.8705427
9.076                 0.98676524     -85.0063098
9.077                0.986732784     -85.1424159
9.078                0.986700239     -85.2788618
9.079                0.986667606     -85.4156484
9.08                 0.986634883     -85.5527768
9.081                0.986602071     -85.6902477
9.082                 0.98656917     -85.8280622
9.083                 0.98653618     -85.9662212
9.084                0.986503101     -86.1047255
9.085                0.986469932     -86.2435761
9.086                0.986436674      -86.382774
9.087                0.986403327       -86.52232
9.088                 0.98636989     -86.6622151
9.089                0.986336363     -86.8024602
9.09                 0.986302747     -86.9430562
9.091                0.986269041     -87.0840041
9.092                0.986235246     -87.2253047
9.093                0.986201361     -87.3669591
9.094                0.986167386     -87.5089681
9.095                0.986133321     -87.6513327
9.096                0.986099166     -87.7940538
9.097                0.986064922     -87.9371324
9.098                0.986030588     -88.0805693
9.099                0.985996164     -88.2243655
9.1                   0.98596165     -88.3685219
9.101                0.985927046     -88.5130395
9.102                0.985892352     -88.6579191
9.103                0.985857568     -88.8031618
9.104                0.985822695     -88.9487685
9.105                0.985787731     -89.0947401
9.106                0.985752677     -89.2410774
9.107                0.985717534     -89.3877815
9.108                  0.9856823     -89.5348534
9.109                0.985646977     -89.6822938
9.11                 0.985611564     -89.8301038
9.111                0.985576061     -89.9782843
9.112                0.985540468     -90.1268362
9.113                0.985504785     -90.2757604
9.114                0.985469012      -90.425058
9.115                 0.98543315     -90.5747297
9.116                0.985397197     -90.7247766
9.117                0.985361155     -90.8751996
9.118                0.985325024     -91.0259996
9.119                0.985288803     -91.1771775
9.12                 0.985252492     -91.3287344
9.121                0.985216092      -91.480671
9.122                0.985179602     -91.6329883
9.123                0.985143023     -91.7856874
9.124                0.985106355      -91.938769
9.125                0.985069598     -92.0922341
9.126                0.985032751     -92.2460837
9.127                0.984995815     -92.4003186
9.128                0.984958791     -92.5549399
9.129                0.984921677     -92.7099484
9.13                 0.984884475      -92.865345
9.131                0.984847184     -93.0211307
9.132                0.984809804     -93.1773064
9.133                0.984772336      -93.333873
9.134                 0.98473478     -93.4908315
9.135                0.984697135     -93.6481827
9.136                0.984659402     -93.8059276
9.137                0.984621581      -93.964067
9.138                0.984583673      -94.122602
9.139                0.984545676     -94.2815334
9.14                 0.984507593     -94.4408621
9.141                0.984469421     -94.6005891
9.142                0.984431162     -94.7607153
9.143                0.984392817     -94.9212415
9.144                0.984354384     -95.0821686
9.145                0.984315865     -95.2434977
9.146                0.984277258     -95.4052295
9.147                0.984238566     -95.5673651
9.148                0.984199787     -95.7299052
9.149                0.984160922     -95.8928508
9.15                 0.984121971     -96.0562027
9.151                0.984082935      -96.219962
9.152                0.984043813     -96.3841294
9.153                0.984004606     -96.5487059
9.154                0.983965314     -96.7136923
9.155                0.983925937     -96.8790896
9.156                0.983886476     -97.0448986
9.157                 0.98384693     -97.2111201
9.158                  0.9838073     -97.3777552
9.159                0.983767586     -97.5448046
9.16                 0.983727789     -97.7122693
9.161                0.983687908     -97.8801501
9.162                0.983647944     -98.0484478
9.163                0.983607898     -98.2171634
9.164                0.983567769     -98.3862977
9.165                0.983527558     -98.5558515
9.166                0.983487264     -98.7258258
9.167                0.983446889     -98.8962214
9.168                0.983406433     -99.0670391
9.169                0.983365896     -99.2382798
9.17                 0.983325278     -99.4099443
9.171                 0.98328458     -99.5820336
9.172                0.983243801     -99.7545483
9.173                0.983202943     -99.9274893
9.174                0.983162006     -100.100858
9.175                0.983120989     -100.274654
9.176                0.983079894     -100.448879
9.177                0.983038721     -100.623534
9.178                 0.98299747     -100.798619
9.179                0.982956141     -100.974136
9.18                 0.982914735     -101.150084
9.181                0.982873252     -101.326466
9.182                0.982831693     -101.503281
9.183                0.982790058     -101.680531
9.184                0.982748347     -101.858216
9.185                0.982706562     -102.036337
9.186                0.982664701     -102.214896
9.187                0.982622767     -102.393891
9.188                0.982580758     -102.573326
9.189                0.982538677     -102.753199
9.19                 0.982496522     -102.933513
9.191                0.982454295     -103.114267
9.192                0.982411996     -103.295462
9.193                0.982369626       -103.4771
9.194                0.982327185     -103.659182
9.195                0.982284673     -103.841706
9.196                0.982242092     -104.024676
9.197                0.982199441      -104.20809
9.198                0.982156721     -104.391951
9.199                0.982113933     -104.576258
9.2                  0.982071078     -104.761012
9.201                0.982028155     -104.946215
9.202                0.981985165     -105.131866
9.203                0.981942109     -105.317967
9.204                0.981898988     -105.504519
9.205                0.981855802     -105.691521
9.206                0.981812551     -105.878974
9.207                0.981769237      -106.06688
9.208                 0.98172586     -106.255239
9.209                 0.98168242     -106.444052
9.21                 0.981638918     -106.633318
9.211                0.981595356      -106.82304
9.212                0.981551732     -107.013217
9.213                0.981508049      -107.20385
9.214                0.981464307      -107.39494
9.215                0.981420506     -107.586488
9.216                0.981376647     -107.778493
9.217                0.981332731     -107.970958
9.218                0.981288759     -108.163881
9.219                0.981244731     -108.357264
9.22                 0.981200648     -108.551108
9.221                 0.98115651     -108.745413
9.222                 0.98111232     -108.940179
9.223                0.981068076     -109.135408
9.224                 0.98102378     -109.331099
9.225                0.980979434     -109.527254
9.226                0.980935037     -109.723872
9.227                 0.98089059     -109.920954
9.228                0.980846094     -110.118502
9.229                0.980801551     -110.316515
9.23                  0.98075696     -110.514993
9.231                0.980712323     -110.713939
9.232                0.980667641      -110.91335
9.233                0.980622914      -111.11323
9.234                0.980578143     -111.313577
9.235                0.980533329     -111.514392
9.236                0.980488473     -111.715676
9.237                0.980443576      -111.91743
9.238                0.980398639     -112.119653
9.239                0.980353663     -112.322346
9.24                 0.980308649     -112.525509
9.241                0.980263597     -112.729143
9.242                0.980218508     -112.933249
9.243                0.980173384     -113.137826
9.244                0.980128226     -113.342875
9.245                0.980083034     -113.548397
9.246                 0.98003781     -113.754391
9.247                0.979992554     -113.960859
9.248                0.979947267       -114.1678
9.249                0.979901951     -114.375214
9.25                 0.979856607     -114.583103
9.251                0.979811235     -114.791466
9.252                0.979765837     -115.000304
9.253                0.979720414     -115.209617
9.254                0.979674967     -115.419405
9.255                0.979629496     -115.629668
9.256                0.979584004     -115.840407
9.257                 0.97953849     -116.051622
9.258                0.979492957     -116.263314
9.259                0.979447406     -116.475481
9.26                 0.979401837     -116.688126
9.261                0.979356251     -116.901247
9.262                0.979310651     -117.114845
9.263                0.979265037      -117.32892
9.264                 0.97921941     -117.543473
9.265                0.979173771     -117.758503
9.266                0.979128122      -117.97401
9.267                0.979082464     -118.189995
9.268                0.979036799     -118.406458
9.269                0.978991126     -118.623399
9.27                 0.978945449     -118.840818
9.271                0.978899767     -119.058714
9.272                0.978854083     -119.277089
9.273                0.978808397     -119.495942
9.274                0.978762711     -119.715273
9.275                0.978717026     -119.935082
9.276                0.978671344     -120.155369
9.277                0.978625666     -120.376135
9.278                0.978579993     -120.597378
9.279                0.978534326     -120.819099
9.28                 0.978488667     -121.041299
9.281                0.978443018     -121.263976
9.282                0.978397379     -121.487131
9.283                0.978351753     -121.710763
9.284                 0.97830614     -121.934874
9.285                0.978260542     -122.159461
9.286                0.978214961     -122.384526
9.287                0.978169398     -122.610068
9.288                0.978123854     -122.836087
9.289                 0.97807833     -123.062583
9.29                  0.97803283     -123.289555
9.291                0.977987353     -123.517003
9.292                0.977941901     -123.744928
9.293                0.977896476     -123.973328
9.294                 0.97785108     -124.202204
9.295                0.977805714     -124.431555
9.296                0.977760379     -124.661381
9.297                0.977715077     -124.891681
9.298                 0.97766981     -125.122456
9.299                0.977624579     -125.353705
9.3                  0.977579386     -125.585427
9.301                0.977534233     -125.817622
9.302                 0.97748912      -126.05029
9.303                0.977444051     -126.283431
9.304                0.977399025     -126.517043
9.305                0.977354046     -126.751127
9.306                0.977309115     -126.985681
9.307                0.977264232     -127.220706
9.308                0.977219401     -127.456201
9.309                0.977174623     -127.692165
9.31                 0.977129899     -127.928599
9.311                0.977085231       -128.1655
9.312                0.977040621     -128.402869
9.313                 0.97699607     -128.640705
9.314                0.976951581     -128.879008
9.315                0.976907156     -129.117777
9.316                0.976862795     -129.357011
9.317                  0.9768185     -129.596709
9.318                0.976774274     -129.836871
9.319                0.976730119     -130.077496
9.32                 0.976686035     -130.318584
9.321                0.976642025     -130.560133
9.322                0.976598091     -130.802143
9.323                0.976554234     -131.044614
9.324                0.976510457     -131.287543
9.325                0.976466761     -131.530931
9.326                0.976423148     -131.774777
9.327                 0.97637962     -132.019079
9.328                0.976336178     -132.263837
9.329                0.976292825      -132.50905
9.33                 0.976249563     -132.754717
9.331                0.976206393     -133.000837
9.332                0.976163318      -133.24741
9.333                0.976120339     -133.494433
9.334                0.976077458     -133.741907
9.335                0.976034677     -133.989829
9.336                0.975991998       -134.2382
9.337                0.975949423     -134.487018
9.338                0.975906954     -134.736281
9.339                0.975864593      -134.98599
9.34                 0.975822342     -135.236142
9.341                0.975780203     -135.486737
9.342                0.975738177     -135.737772
9.343                0.975696267     -135.989249
9.344                0.975654475     -136.241164
9.345                0.975612803     -136.493517
9.346                0.975571253     -136.746306
9.347                0.975529826      -136.99953
9.348                0.975488526     -137.253189
9.349                0.975447353      -137.50728
9.35                  0.97540631     -137.761802
9.351                0.975365398     -138.016754
9.352                0.975324621     -138.272134
9.353                 0.97528398     -138.527942
9.354                0.975243477     -138.784176
9.355                0.975203113     -139.040833
9.356                0.975162892     -139.297914
9.357                0.975122815     -139.555415
9.358                0.975082884     -139.813337
9.359                0.975043102     -140.071676
9.36                 0.975003469     -140.330433
9.361                 0.97496399     -140.589604
9.362                0.974924664     -140.849189
9.363                0.974885495     -141.109186
9.364                0.974846485     -141.369593
9.365                0.974807636     -141.630409
9.366                0.974768949     -141.891632
9.367                0.974730427      -142.15326
9.368                0.974692073     -142.415291
9.369                0.974653887     -142.677724
9.37                 0.974615872     -142.940557
9.371                0.974578031     -143.203788
9.372                0.974540364     -143.467415
9.373                0.974502876     -143.731437
9.374                0.974465566     -143.995852
9.375                0.974428439     -144.260657
9.376                0.974391495     -144.525852
9.377                0.974354736     -144.791433
9.378                0.974318166     -145.057399
9.379                0.974281785     -145.323748
9.38                 0.974245597     -145.590478
9.381                0.974209602     -145.857587
9.382                0.974173804     -146.125073
9.383                0.974138204     -146.392934
9.384                0.974102805     -146.661167
9.385                0.974067607     -146.929772
9.386                0.974032614     -147.198745
9.387                0.973997828     -147.468084
9.388                0.973963251     -147.737788
9.389                0.973928884     -148.007853
9.39                 0.973894729     -148.278279
9.391                 0.97386079     -148.549062
9.392                0.973827067       -148.8202
9.393                0.973793563     -149.091692
9.394                0.973760281     -149.363534
9.395                0.973727221     -149.635725
9.396                0.973694386     -149.908262
