! TOUCHSTONE file generated by CST DESIGN STUDIO
! Date and time: Tue Feb  4 15:56:22 2025
! Project name: C:\Work\MatlabApps\UnitCellOptimizationMatlab\CST\unitcell.cst
! Tree item: Tasks\Sweep1\SPara1\S-Parameters
! Header version: 2024
! Port assignment regex: !\s*Touchstone port\s*([0-9]+)\s*=\s*(CST MWS port|CST DES external port|CST DES block port)\s*(.+)\s* \(\"(.*)\"\)(\s*mode\s*([0-9]+))?.*
! Touchstone port assignment:
! Touchstone port 1 = CST DES external port 1 ("")
# GHz S MA R 50
9                    0.989772159      -71.743765
9.001                0.989749333     -71.8481561
9.002                0.989726438      -71.952797
9.003                0.989703474     -72.0576885
9.004                 0.98968044     -72.1628313
9.005                0.989657337     -72.2682261
9.006                0.989634164     -72.3738738
9.007                0.989610922      -72.479775
9.008                0.989587609     -72.5859306
9.009                0.989564226     -72.6923413
9.01                 0.989540773     -72.7990078
9.011                0.989517249     -72.9059309
9.012                0.989493655     -73.0131115
9.013                0.989469989     -73.1205501
9.014                0.989446253     -73.2282478
9.015                0.989422445     -73.3362051
9.016                0.989398566     -73.4444228
9.017                0.989374616     -73.5529019
9.018                0.989350594     -73.6616429
9.019                0.989326499     -73.7706468
9.02                 0.989302333     -73.8799142
9.021                0.989278095     -73.9894461
9.022                0.989253784      -74.099243
9.023                  0.9892294      -74.209306
9.024                0.989204944     -74.3196357
9.025                0.989180415     -74.4302329
9.026                0.989155813     -74.5410984
9.027                0.989131137     -74.6522331
9.028                0.989106389     -74.7636377
9.029                0.989081566      -74.875313
9.03                  0.98905667     -74.9872598
9.031                  0.9890317      -75.099479
9.032                0.989006656     -75.2119713
9.033                0.988981538     -75.3247376
9.034                0.988956345     -75.4377786
9.035                0.988931078     -75.5510951
9.036                0.988905736     -75.6646881
9.037                0.988880319     -75.7785582
9.038                0.988854827     -75.8927064
9.039                 0.98882926     -76.0071334
9.04                 0.988803618     -76.1218401
9.041                  0.9887779     -76.2368272
9.042                0.988752106     -76.3520957
9.043                0.988726237     -76.4676462
9.044                0.988700292     -76.5834798
9.045                 0.98867427     -76.6995971
9.046                0.988648173     -76.8159991
9.047                0.988621998     -76.9326865
9.048                0.988595748     -77.0496603
9.049                 0.98856942     -77.1669211
9.05                 0.988543016       -77.28447
9.051                0.988516534     -77.4023077
9.052                0.988489975      -77.520435
9.053                0.988463339     -77.6388529
9.054                0.988436626     -77.7575621
9.055                0.988409835     -77.8765635
9.056                0.988382966      -77.995858
9.057                0.988356019     -78.1154464
9.058                0.988328994     -78.2353296
9.059                0.988301891     -78.3555084
9.06                 0.988274709     -78.4759837
9.061                0.988247449     -78.5967564
9.062                 0.98822011     -78.7178273
9.063                0.988192693     -78.8391972
9.064                0.988165196     -78.9608671
9.065                0.988137621     -79.0828378
9.066                0.988109966     -79.2051102
9.067                0.988082232     -79.3276851
9.068                0.988054418     -79.4505634
9.069                0.988026525     -79.5737461
9.07                 0.987998552     -79.6972339
9.071                0.987970499     -79.8210277
9.072                0.987942366     -79.9451285
9.073                0.987914153     -80.0695371
9.074                 0.98788586     -80.1942544
9.075                0.987857487     -80.3192813
9.076                0.987829033     -80.4446187
9.077                0.987800498     -80.5702673
9.078                0.987771882     -80.6962283
9.079                0.987743186     -80.8225023
9.08                 0.987714409     -80.9490904
9.081                 0.98768555     -81.0759934
9.082                0.987656611     -81.2032123
9.083                 0.98762759     -81.3307478
9.084                0.987598487     -81.4586009
9.085                0.987569303     -81.5867726
9.086                0.987540037     -81.7152636
9.087                 0.98751069      -81.844075
9.088                 0.98748126     -81.9732075
9.089                0.987451749     -82.1026622
9.09                 0.987422156       -82.23244
9.091                 0.98739248     -82.3625416
9.092                0.987362722     -82.4929681
9.093                0.987332882     -82.6237204
9.094                0.987302959     -82.7547993
9.095                0.987272953     -82.8862058
9.096                0.987242865     -83.0179408
9.097                0.987212694     -83.1500052
9.098                 0.98718244     -83.2823999
9.099                0.987152104     -83.4151259
9.1                  0.987121684      -83.548184
9.101                0.987091181     -83.6815753
9.102                0.987060595     -83.8153005
9.103                0.987029926     -83.9493607
9.104                0.986999173     -84.0837567
9.105                0.986968337     -84.2184896
9.106                0.986937417     -84.3535601
9.107                0.986906414     -84.4889693
9.108                0.986875327      -84.624718
9.109                0.986844156     -84.7608072
9.11                 0.986812902     -84.8972379
9.111                0.986781564     -85.0340109
9.112                0.986750142     -85.1711272
9.113                0.986718636     -85.3085877
9.114                0.986687046     -85.4463934
9.115                0.986655372     -85.5845452
9.116                0.986623614      -85.723044
9.117                0.986591771     -85.8618907
9.118                0.986559845     -86.0010864
9.119                0.986527834     -86.1406319
9.12                 0.986495739     -86.2805282
9.121                 0.98646356     -86.4207762
9.122                0.986431296     -86.5613769
9.123                0.986398948     -86.7023312
9.124                0.986366516       -86.84364
9.125                0.986333999     -86.9853043
9.126                0.986301397      -87.127325
9.127                0.986268711     -87.2697032
9.128                0.986235941     -87.4124396
9.129                0.986203086     -87.5555353
9.13                 0.986170147     -87.6989912
9.131                0.986137123     -87.8428083
9.132                0.986104015     -87.9869874
9.133                0.986070822     -88.1315296
9.134                0.986037544     -88.2764358
9.135                0.986004182      -88.421707
9.136                0.985970736      -88.567344
9.137                0.985937204     -88.7133479
9.138                0.985903589     -88.8597195
9.139                0.985869889     -89.0064599
9.14                 0.985836104     -89.1535699
9.141                0.985802236     -89.3010506
9.142                0.985768282     -89.4489028
9.143                0.985734244     -89.5971276
9.144                0.985700122     -89.7457258
9.145                0.985665916     -89.8946985
9.146                0.985631625     -90.0440465
9.147                0.985597251     -90.1937708
9.148                0.985562792     -90.3438724
9.149                0.985528249     -90.4943522
9.15                 0.985493621     -90.6452112
9.151                 0.98545891     -90.7964502
9.152                0.985424115     -90.9480703
9.153                0.985389236     -91.1000724
9.154                0.985354274     -91.2524575
9.155                0.985319227     -91.4052264
9.156                0.985284097     -91.5583801
9.157                0.985248883     -91.7119196
9.158                0.985213586     -91.8658459
9.159                0.985178206     -92.0201598
9.16                 0.985142742     -92.1748623
9.161                0.985107195     -92.3299543
9.162                0.985071565     -92.4854369
9.163                0.985035852     -92.6413108
9.164                0.985000057     -92.7975771
9.165                0.984964178     -92.9542368
9.166                0.984928217     -93.1112906
9.167                0.984892174     -93.2687397
9.168                0.984856048     -93.4265848
9.169                 0.98481984      -93.584827
9.17                  0.98478355     -93.7434672
9.171                0.984747178     -93.9025062
9.172                0.984710724     -94.0619451
9.173                0.984674189     -94.2217848
9.174                0.984637572     -94.3820262
9.175                0.984600875     -94.5426702
9.176                0.984564096     -94.7037177
9.177                0.984527236     -94.8651698
9.178                0.984490295     -95.0270272
9.179                0.984453274     -95.1892909
9.18                 0.984416172     -95.3519618
9.181                0.984378991     -95.5150409
9.182                0.984341729     -95.6785291
9.183                0.984304388     -95.8424272
9.184                0.984266967     -96.0067363
9.185                0.984229467     -96.1714571
9.186                0.984191887     -96.3365906
9.187                0.984154229     -96.5021377
9.188                0.984116493     -96.6680993
9.189                0.984078678     -96.8344764
9.19                 0.984040784     -97.0012697
9.191                0.984002814     -97.1684803
9.192                0.983964765     -97.3361089
9.193                0.983926639     -97.5041566
9.194                0.983888436     -97.6726241
9.195                0.983850156     -97.8415124
9.196                  0.9838118     -98.0108223
9.197                0.983773368     -98.1805548
9.198                 0.98373486     -98.3507106
9.199                0.983696276     -98.5212908
9.2                  0.983657617      -98.692296
9.201                0.983618883     -98.8637273
9.202                0.983580074     -99.0355855
9.203                0.983541191     -99.2078715
9.204                0.983502234      -99.380586
9.205                0.983463203       -99.55373
9.206                0.983424099     -99.7273043
9.207                0.983384923     -99.9013098
9.208                0.983345673     -100.075747
9.209                0.983306352     -100.250618
9.21                 0.983266958     -100.425922
9.211                0.983227493      -100.60166
9.212                0.983187958     -100.777834
9.213                0.983148351     -100.954444
9.214                0.983108674     -101.131491
9.215                0.983068928     -101.308976
9.216                0.983029112       -101.4869
9.217                0.982989227     -101.665263
9.218                0.982949274     -101.844066
9.219                0.982909252      -102.02331
9.22                 0.982869163     -102.202997
9.221                0.982829007     -102.383125
9.222                0.982788784     -102.563698
9.223                0.982748495     -102.744714
9.224                 0.98270814     -102.926176
9.225                0.982667719     -103.108083
9.226                0.982627234     -103.290437
9.227                0.982586685     -103.473238
9.228                0.982546072     -103.656487
9.229                0.982505396     -103.840185
9.23                 0.982464657     -104.024332
9.231                0.982423856      -104.20893
9.232                0.982382993     -104.393979
9.233                0.982342069      -104.57948
9.234                0.982301085     -104.765433
9.235                 0.98226004     -104.951839
9.236                0.982218937       -105.1387
9.237                0.982177774     -105.326015
9.238                0.982136554     -105.513785
9.239                0.982095276     -105.702011
9.24                 0.982053941     -105.890694
9.241                0.982012549     -106.079835
9.242                0.981971102     -106.269434
9.243                  0.9819296     -106.459491
9.244                0.981888043     -106.650008
9.245                0.981846433     -106.840985
9.246                 0.98180477     -107.032422
9.247                0.981763054     -107.224321
9.248                0.981721287     -107.416682
9.249                0.981679468     -107.609506
9.25                 0.981637599     -107.802793
9.251                0.981595681     -107.996544
9.252                0.981553713     -108.190759
9.253                0.981511698     -108.385439
9.254                0.981469635     -108.580586
9.255                0.981427525     -108.776198
9.256                 0.98138537     -108.972277
9.257                0.981343169     -109.168824
9.258                0.981300924     -109.365838
9.259                0.981258636     -109.563321
9.26                 0.981216305     -109.761274
9.261                0.981173931     -109.959695
9.262                0.981131517     -110.158587
9.263                0.981089062      -110.35795
9.264                0.981046568     -110.557784
9.265                0.981004035     -110.758089
9.266                0.980961465     -110.958867
9.267                0.980918857     -111.160117
9.268                0.980876214      -111.36184
9.269                0.980833535     -111.564037
9.27                 0.980790823     -111.766708
9.271                0.980748076     -111.969853
9.272                0.980705298     -112.173474
9.273                0.980662488     -112.377569
9.274                0.980619647     -112.582141
9.275                0.980576777     -112.787189
9.276                0.980533878     -112.992713
9.277                0.980490952     -113.198714
9.278                0.980447999     -113.405192
9.279                 0.98040502     -113.612148
9.28                 0.980362017     -113.819583
9.281                 0.98031899     -114.027495
9.282                 0.98027594     -114.235886
9.283                0.980232869     -114.444757
9.284                0.980189777     -114.654107
9.285                0.980146665     -114.863936
9.286                0.980103536     -115.074245
9.287                0.980060389     -115.285035
9.288                0.980017225     -115.496305
9.289                0.979974047     -115.708056
9.29                 0.979930854     -115.920287
9.291                0.979887648     -116.133001
9.292                0.979844431     -116.346195
9.293                0.979801203     -116.559871
9.294                0.979757965     -116.774029
9.295                0.979714719     -116.988669
9.296                0.979671466     -117.203791
9.297                0.979628207     -117.419396
9.298                0.979584943     -117.635483
9.299                0.979541676     -117.852053
9.3                  0.979498406     -118.069105
9.301                0.979455135      -118.28664
9.302                0.979411864     -118.504659
9.303                0.979368595      -118.72316
9.304                0.979325328     -118.942144
9.305                0.979282065     -119.161612
9.306                0.979238807     -119.381563
9.307                0.979195556     -119.601997
9.308                0.979152312     -119.822914
9.309                0.979109078     -120.044314
9.31                 0.979065854     -120.266198
9.311                0.979022641     -120.488565
9.312                0.978979442     -120.711415
9.313                0.978936258     -120.934748
9.314                0.978893089     -121.158564
9.315                0.978849937     -121.382863
9.316                0.978806804     -121.607644
9.317                0.978763691     -121.832909
9.318                  0.9787206     -122.058655
9.319                0.978677531     -122.284885
9.32                 0.978634487     -122.511596
9.321                0.978591469      -122.73879
9.322                0.978548477     -122.966465
9.323                0.978505515     -123.194622
9.324                0.978462582     -123.423261
9.325                0.978419682      -123.65238
9.326                0.978376814     -123.881981
9.327                0.978333981     -124.112062
9.328                0.978291184     -124.342623
9.329                0.978248425     -124.573664
9.33                 0.978205706     -124.805186
9.331                0.978163027     -125.037186
9.332                 0.97812039     -125.269665
9.333                0.978077798     -125.502623
9.334                0.978035251      -125.73606
9.335                0.977992751     -125.969974
9.336                  0.9779503     -126.204365
9.337                0.977907899     -126.439233
9.338                 0.97786555     -126.674578
9.339                0.977823255     -126.910398
9.34                 0.977781015     -127.146695
9.341                0.977738832     -127.383466
9.342                0.977696708     -127.620711
9.343                0.977654644      -127.85843
9.344                0.977612642     -128.096623
9.345                0.977570703     -128.335288
9.346                 0.97752883     -128.574425
9.347                0.977487024     -128.814034
9.348                0.977445286     -129.054114
9.349                 0.97740362     -129.294663
9.35                 0.977362025     -129.535683
9.351                0.977320504      -129.77717
9.352                0.977279059     -130.019126
9.353                0.977237692     -130.261549
9.354                0.977196404     -130.504439
9.355                0.977155197     -130.747794
9.356                0.977114073     -130.991615
9.357                0.977073033     -131.235899
9.358                 0.97703208     -131.480647
9.359                0.976991215     -131.725857
9.36                 0.976950441     -131.971528
9.361                0.976909758     -132.217661
9.362                0.976869169     -132.464252
9.363                0.976828676     -132.711303
9.364                 0.97678828     -132.958811
9.365                0.976747983     -133.206777
9.366                0.976707788     -133.455198
9.367                0.976667696     -133.704073
9.368                0.976627708     -133.953403
9.369                0.976587828     -134.203185
9.37                 0.976548056     -134.453419
9.371                0.976508395     -134.704103
9.372                0.976468847     -134.955237
9.373                0.976429413     -135.206818
9.374                0.976390095     -135.458847
9.375                0.976350896     -135.711322
9.376                0.976311817     -135.964241
9.377                 0.97627286     -136.217604
9.378                0.976234028     -136.471408
9.379                0.976195321     -136.725654
9.38                 0.976156742     -136.980339
9.381                0.976118294     -137.235463
9.382                0.976079977     -137.491023
9.383                0.976041795     -137.747019
9.384                0.976003748     -138.003449
9.385                0.975965839     -138.260311
9.386                 0.97592807     -138.517605
9.387                0.975890443     -138.775329
9.388                 0.97585296     -139.033482
9.389                0.975815622     -139.292061
9.39                 0.975778432     -139.551065
9.391                0.975741393     -139.810493
9.392                0.975704504     -140.070344
9.393                 0.97566777     -140.330615
9.394                0.975631192     -140.591305
9.395                0.975594771     -140.852413
9.396                0.975558511     -141.113937
