! TOUCHSTONE file generated by CST DESIGN STUDIO
! Date and time: Tue Feb  4 13:39:59 2025
! Project name: C:\Work\MatlabApps\UnitCellOptimizationMatlab\CST\unitcell.cst
! Tree item: Tasks\Sweep1\SPara1\S-Parameters
! Header version: 2024
! Port assignment regex: !\s*Touchstone port\s*([0-9]+)\s*=\s*(CST MWS port|CST DES external port|CST DES block port)\s*(.+)\s* \(\"(.*)\"\)(\s*mode\s*([0-9]+))?.*
! Touchstone port assignment:
! Touchstone port 1 = CST DES external port 1 ("")
# GHz S MA R 50
9                    0.987554453     -78.6753789
9.001                0.987523648      -78.795313
9.002                0.987492753     -78.9155411
9.003                0.987461769     -79.0360641
9.004                0.987430694     -79.1568828
9.005                0.987399529      -79.277998
9.006                0.987368273     -79.3994106
9.007                0.987336927     -79.5211214
9.008                 0.98730549     -79.6431313
9.009                0.987273962     -79.7654412
9.01                 0.987242343     -79.8880519
9.011                0.987210633     -80.0109642
9.012                0.987178831      -80.134179
9.013                0.987146937     -80.2576973
9.014                0.987114952     -80.3815198
9.015                0.987082874     -80.5056473
9.016                0.987050705     -80.6300809
9.017                0.987018443     -80.7548213
9.018                0.986986089     -80.8798694
9.019                0.986953642      -81.005226
9.02                 0.986921102     -81.1308922
9.021                0.986888469     -81.2568686
9.022                0.986855743     -81.3831563
9.023                0.986822924      -81.509756
9.024                0.986790011     -81.6366686
9.025                0.986757005     -81.7638951
9.026                0.986723905     -81.8914363
9.027                0.986690711     -82.0192931
9.028                0.986657423     -82.1474663
9.029                0.986624041      -82.275957
9.03                 0.986590565     -82.4047658
9.031                0.986556994     -82.5338938
9.032                0.986523329     -82.6633418
9.033                0.986489568     -82.7931107
9.034                0.986455713     -82.9232014
9.035                0.986421763     -83.0536148
9.036                0.986387718     -83.1843517
9.037                0.986353577     -83.3154132
9.038                0.986319342        -83.4468
9.039                 0.98628501     -83.5785131
9.04                 0.986250583     -83.7105534
9.041                 0.98621606     -83.8429217
9.042                0.986181441      -83.975619
9.043                0.986146726     -84.1086461
9.044                0.986111915      -84.242004
9.045                0.986077008     -84.3756936
9.046                0.986042005     -84.5097158
9.047                0.986006904     -84.6440715
9.048                0.985971708     -84.7787615
9.049                0.985936414     -84.9137869
9.05                 0.985901024     -85.0491484
9.051                0.985865537     -85.1848471
9.052                0.985829953     -85.3208838
9.053                0.985794272     -85.4572594
9.054                0.985758494     -85.5939749
9.055                0.985722618     -85.7310311
9.056                0.985686645      -85.868429
9.057                0.985650574     -86.0061695
9.058                0.985614406     -86.1442536
9.059                0.985578141      -86.282682
9.06                 0.985541777     -86.4214558
9.061                0.985505316     -86.5605758
9.062                0.985468757      -86.700043
9.063                  0.9854321     -86.8398583
9.064                0.985395345     -86.9800226
9.065                0.985358492     -87.1205368
9.066                0.985321541     -87.2614019
9.067                0.985284492     -87.4026188
9.068                0.985247345     -87.5441884
9.069                0.985210099     -87.6861115
9.07                 0.985172755     -87.8283893
9.071                0.985135312     -87.9710224
9.072                0.985097771      -88.114012
9.073                0.985060132     -88.2573589
9.074                0.985022394      -88.401064
9.075                0.984984558     -88.5451283
9.076                0.984946623     -88.6895526
9.077                0.984908589      -88.834338
9.078                0.984870457     -88.9794853
9.079                0.984832226     -89.1249954
9.08                 0.984793897     -89.2708693
9.081                0.984755469      -89.417108
9.082                0.984716942     -89.5637122
9.083                0.984678317     -89.7106831
9.084                0.984639593     -89.8580214
9.085                 0.98460077     -90.0057281
9.086                0.984561848     -90.1538041
9.087                0.984522828     -90.3022504
9.088                0.984483709     -90.4510679
9.089                0.984444492     -90.6002575
9.09                 0.984405176     -90.7498201
9.091                0.984365761     -90.8997567
9.092                0.984326248     -91.0500682
9.093                0.984286637     -91.2007554
9.094                0.984246927     -91.3518194
9.095                0.984207118     -91.5032611
9.096                0.984167211     -91.6550813
9.097                0.984127206      -91.807281
9.098                0.984087102     -91.9598611
9.099                  0.9840469     -92.1128225
9.1                    0.9840066     -92.2661662
9.101                0.983966202     -92.4198931
9.102                0.983925706     -92.5740041
9.103                0.983885112        -92.7285
9.104                 0.98384442     -92.8833819
9.105                0.983803631     -93.0386507
9.106                0.983762743     -93.1943071
9.107                0.983721758     -93.3503523
9.108                0.983680676      -93.506787
9.109                0.983639496     -93.6636123
9.11                 0.983598219     -93.8208289
9.111                0.983556845     -93.9784379
9.112                0.983515374     -94.1364401
9.113                0.983473806     -94.2948364
9.114                0.983432141     -94.4536277
9.115                 0.98339038      -94.612815
9.116                0.983348522     -94.7723991
9.117                0.983306568      -94.932381
9.118                0.983264517     -95.0927615
9.119                0.983222371     -95.2535416
9.12                 0.983180129     -95.4147221
9.121                0.983137791     -95.5763039
9.122                0.983095357     -95.7382879
9.123                0.983052828     -95.9006751
9.124                0.983010205     -96.0634663
9.125                0.982967486     -96.2266624
9.126                0.982924672     -96.3902643
9.127                0.982881764     -96.5542728
9.128                0.982838762     -96.7186889
9.129                0.982795666     -96.8835135
9.13                 0.982752475     -97.0487473
9.131                0.982709191     -97.2143913
9.132                0.982665814     -97.3804464
9.133                0.982622344     -97.5469134
9.134                 0.98257878     -97.7137932
9.135                0.982535124     -97.8810866
9.136                0.982491376     -98.0487946
9.137                0.982447535      -98.216918
9.138                0.982403603     -98.3854576
9.139                0.982359579     -98.5544143
9.14                 0.982315464     -98.7237889
9.141                0.982271258     -98.8935824
9.142                0.982226961     -99.0637955
9.143                0.982182574     -99.2344291
9.144                0.982138097      -99.405484
9.145                 0.98209353     -99.5769611
9.146                0.982048874     -99.7488611
9.147                0.982004129      -99.921185
9.148                0.981959295     -100.093934
9.149                0.981914373     -100.267108
9.15                 0.981869363     -100.440708
9.151                0.981824265     -100.614735
9.152                0.981779081     -100.789191
9.153                0.981733809     -100.964075
9.154                0.981688451     -101.139389
9.155                0.981643007     -101.315133
9.156                0.981597477     -101.491308
9.157                0.981551862     -101.667915
9.158                0.981506162     -101.844955
9.159                0.981460378     -102.022428
9.16                  0.98141451     -102.200336
9.161                0.981368559     -102.378679
9.162                0.981322524     -102.557457
9.163                0.981276407     -102.736672
9.164                0.981230209     -102.916325
9.165                0.981183928     -103.096416
9.166                0.981137566     -103.276945
9.167                0.981091124     -103.457915
9.168                0.981044602     -103.639324
9.169                   0.980998     -103.821175
9.17                 0.980951319     -104.003467
9.171                 0.98090456     -104.186203
9.172                0.980857723     -104.369381
9.173                0.980810808     -104.553004
9.174                0.980763817     -104.737071
9.175                0.980716749     -104.921583
9.176                0.980669606     -105.106542
9.177                0.980622387     -105.291948
9.178                0.980575095     -105.477801
9.179                0.980527728     -105.664103
9.18                 0.980480288     -105.850853
9.181                0.980432775     -106.038053
9.182                 0.98038519     -106.225703
9.183                0.980337534     -106.413804
9.184                0.980289808     -106.602357
9.185                0.980242011     -106.791361
9.186                0.980194145     -106.980819
9.187                 0.98014621      -107.17073
9.188                0.980098208     -107.361095
9.189                0.980050138     -107.551915
9.19                 0.980002002      -107.74319
9.191                0.979953799     -107.934921
9.192                0.979905532     -108.127109
9.193                  0.9798572     -108.319754
9.194                0.979808805     -108.512856
9.195                0.979760347     -108.706417
9.196                0.979711827     -108.900437
9.197                0.979663246     -109.094916
9.198                0.979614604     -109.289855
9.199                0.979565903     -109.485255
9.2                  0.979517143     -109.681116
9.201                0.979468325     -109.877438
9.202                 0.97941945     -110.074222
9.203                0.979370518     -110.271469
9.204                0.979321532     -110.469179
9.205                 0.97927249     -110.667353
9.206                0.979223395     -110.865991
9.207                0.979174247     -111.065094
9.208                0.979125048     -111.264662
9.209                0.979075797     -111.464695
9.21                 0.979026497     -111.665194
9.211                0.978977147      -111.86616
9.212                0.978927749     -112.067592
9.213                0.978878305     -112.269492
9.214                0.978828814     -112.471859
9.215                0.978779278     -112.674695
9.216                0.978729697     -112.877999
9.217                0.978680074     -113.081773
9.218                0.978630408     -113.286015
9.219                0.978580702     -113.490727
9.22                 0.978530955     -113.695909
9.221                0.978481169     -113.901562
9.222                0.978431345     -114.107685
9.223                0.978381485     -114.314279
9.224                0.978331589     -114.521345
9.225                0.978281658     -114.728882
9.226                0.978231693     -114.936891
9.227                0.978181696     -115.145373
9.228                0.978131668     -115.354327
9.229                 0.97808161     -115.563754
9.23                 0.978031523     -115.773653
9.231                0.977981408     -115.984026
9.232                0.977931267     -116.194873
9.233                  0.9778811     -116.406193
9.234                0.977830909     -116.617988
9.235                0.977780695     -116.830256
9.236                0.977730459     -117.042998
9.237                0.977680203     -117.256216
9.238                0.977629927     -117.469907
9.239                0.977579634     -117.684074
9.24                 0.977529324     -117.898715
9.241                0.977478999     -118.113832
9.242                 0.97742866     -118.329423
9.243                0.977378308      -118.54549
9.244                0.977327945     -118.762032
9.245                0.977277572     -118.979049
9.246                 0.97722719     -119.196542
9.247                0.977176801     -119.414511
9.248                0.977126406     -119.632954
9.249                0.977076006     -119.851874
9.25                 0.977025603     -120.071269
9.251                0.976975199     -120.291139
9.252                0.976924795     -120.511485
9.253                0.976874391     -120.732306
9.254                0.976823991     -120.953603
9.255                0.976773595     -121.175375
9.256                0.976723204     -121.397622
9.257                 0.97667282     -121.620345
9.258                0.976622445     -121.843542
9.259                0.976572081     -122.067215
9.26                 0.976521728     -122.291362
9.261                0.976471388     -122.515983
9.262                0.976421063      -122.74108
9.263                0.976370754      -122.96665
9.264                0.976320464     -123.192695
9.265                0.976270193     -123.419213
9.266                0.976219943     -123.646205
9.267                0.976169716      -123.87367
9.268                0.976119513     -124.101609
9.269                0.976069337      -124.33002
9.27                 0.976019188     -124.558904
9.271                0.975969069      -124.78826
9.272                 0.97591898     -125.018088
9.273                0.975868925     -125.248387
9.274                0.975818904     -125.479158
9.275                0.975768919     -125.710399
9.276                0.975718972     -125.942111
9.277                0.975669065     -126.174293
9.278                0.975619199     -126.406944
9.279                0.975569376     -126.640064
9.28                 0.975519599     -126.873654
9.281                0.975469868     -127.107711
9.282                0.975420185     -127.342236
9.283                0.975370553     -127.577228
9.284                0.975320973     -127.812687
9.285                0.975271448     -128.048612
9.286                0.975221978     -128.285003
9.287                0.975172565     -128.521858
9.288                0.975123212     -128.759178
9.289                0.975073921     -128.996962
9.29                 0.975024693     -129.235209
9.291                 0.97497553     -129.473918
9.292                0.974926435     -129.713089
9.293                0.974877408     -129.952721
9.294                0.974828452     -130.192813
9.295                0.974779569     -130.433365
9.296                0.974730762     -130.674376
9.297                0.974682031     -130.915845
9.298                0.974633378     -131.157771
9.299                0.974584807     -131.400154
9.3                  0.974536318     -131.642992
9.301                0.974487914     -131.886286
9.302                0.974439597     -132.130033
9.303                0.974391368     -132.374234
9.304                0.974343231     -132.618886
9.305                0.974295186      -132.86399
9.306                0.974247236     -133.109544
9.307                0.974199383     -133.355548
9.308                0.974151629        -133.602
9.309                0.974103976     -133.848899
9.31                 0.974056427     -134.096245
9.311                0.974008982     -134.344036
9.312                0.973961645     -134.592272
9.313                0.973914417      -134.84095
9.314                0.973867301     -135.090071
9.315                0.973820299     -135.339632
9.316                0.973773412     -135.589634
9.317                0.973726644     -135.840074
9.318                0.973679995     -136.090951
9.319                0.973633469     -136.342265
9.32                 0.973587067     -136.594013
9.321                0.973540791     -136.846196
9.322                0.973494645     -137.098811
9.323                0.973448629     -137.351857
9.324                0.973402746     -137.605333
9.325                0.973356999     -137.859238
9.326                0.973311389      -138.11357
9.327                0.973265919     -138.368327
9.328                 0.97322059     -138.623509
9.329                0.973175406     -138.879115
9.33                 0.973130368     -139.135141
9.331                0.973085478     -139.391588
9.332                0.973040739     -139.648454
9.333                0.972996153     -139.905737
9.334                0.972951723     -140.163435
9.335                0.972907449     -140.421547
9.336                0.972863336     -140.680072
9.337                0.972819384     -140.939008
9.338                0.972775597     -141.198353
9.339                0.972731976     -141.458106
9.34                 0.972688523     -141.718265
9.341                0.972645242     -141.978828
9.342                0.972602133     -142.239794
9.343                  0.9725592     -142.501161
9.344                0.972516445     -142.762926
9.345                 0.97247387      -143.02509
9.346                0.972431477     -143.287649
9.347                0.972389269     -143.550602
9.348                0.972347247     -143.813947
9.349                0.972305414     -144.077682
9.35                 0.972263773     -144.341805
9.351                0.972222325     -144.606315
9.352                0.972181073     -144.871209
9.353                0.972140019     -145.136485
9.354                0.972099165     -145.402143
9.355                0.972058515     -145.668179
9.356                0.972018069     -145.934591
9.357                 0.97197783     -146.201378
9.358                  0.9719378     -146.468538
9.359                0.971897983     -146.736068
9.36                 0.971858379     -147.003966
9.361                0.971818991      -147.27223
9.362                0.971779822     -147.540859
9.363                0.971740874      -147.80985
9.364                0.971702148       -148.0792
9.365                0.971663648     -148.348908
9.366                0.971625375     -148.618972
9.367                0.971587332     -148.889388
9.368                 0.97154952     -149.160155
9.369                0.971511943     -149.431271
9.37                 0.971474602     -149.702733
9.371                  0.9714375      -149.97454
9.372                0.971400638     -150.246687
9.373                0.971364019     -150.519174
9.374                0.971327646     -150.791998
9.375                 0.97129152     -151.065156
9.376                0.971255643     -151.338646
9.377                0.971220018     -151.612466
9.378                0.971184647     -151.886613
9.379                0.971149532     -152.161084
9.38                 0.971114675     -152.435877
9.381                0.971080078      -152.71099
9.382                0.971045744      -152.98642
9.383                0.971011675     -153.262164
9.384                0.970977872      -153.53822
9.385                0.970944338     -153.814585
9.386                0.970911075     -154.091256
9.387                0.970878084     -154.368232
9.388                0.970845369     -154.645508
9.389                0.970812931     -154.923083
9.39                 0.970780772     -155.200954
9.391                0.970748895     -155.479118
9.392                  0.9707173     -155.757572
9.393                0.970685991     -156.036314
9.394                0.970654969      -156.31534
9.395                0.970624237     -156.594648
9.396                0.970593796     -156.874236
