! TOUCHSTONE file generated by CST DESIGN STUDIO
! Date and time: Tue Feb  4 13:40:10 2025
! Project name: C:\Work\MatlabApps\UnitCellOptimizationMatlab\CST\unitcell.cst
! Tree item: Tasks\Sweep1\SPara1\S-Parameters
! Header version: 2024
! Port assignment regex: !\s*Touchstone port\s*([0-9]+)\s*=\s*(CST MWS port|CST DES external port|CST DES block port)\s*(.+)\s* \(\"(.*)\"\)(\s*mode\s*([0-9]+))?.*
! Touchstone port assignment:
! Touchstone port 1 = CST DES external port 1 ("")
# GHz S MA R 50
9                    0.988753493     -71.8116087
9.001                0.988728322     -71.9160064
9.002                0.988703076     -72.0206537
9.003                0.988677755     -72.1255514
9.004                0.988652358     -72.2307003
9.005                0.988626885     -72.3361011
9.006                0.988601336     -72.4417546
9.007                0.988575711     -72.5476614
9.008                 0.98855001     -72.6538224
9.009                0.988524232     -72.7602384
9.01                 0.988498377       -72.86691
9.011                0.988472445     -72.9738381
9.012                0.988446436     -73.0810234
9.013                 0.98842035     -73.1884667
9.014                0.988394186     -73.2961688
9.015                0.988367945     -73.4041304
9.016                0.988341625     -73.5123522
9.017                0.988315228     -73.6208352
9.018                0.988288752     -73.7295799
9.019                0.988262198     -73.8385873
9.02                 0.988235565     -73.9478582
9.021                0.988208854     -74.0573932
9.022                0.988182063     -74.1671932
9.023                0.988155193     -74.2772589
9.024                0.988128244     -74.3875912
9.025                0.988101216     -74.4981908
9.026                0.988074107     -74.6090586
9.027                0.988046919     -74.7201953
9.028                0.988019651     -74.8316018
9.029                0.987992302     -74.9432787
9.03                 0.987964873      -75.055227
9.031                0.987937364     -75.1674474
9.032                0.987909773     -75.2799408
9.033                0.987882102     -75.3927079
9.034                0.987854349     -75.5057495
9.035                0.987826515     -75.6190665
9.036                  0.9877986     -75.7326597
9.037                0.987770603     -75.8465299
9.038                0.987742524     -75.9606778
9.039                0.987714363     -76.0751044
9.04                  0.98768612     -76.1898105
9.041                0.987657794     -76.3047967
9.042                0.987629386     -76.4200641
9.043                0.987600895     -76.5356134
9.044                0.987572322     -76.6514454
9.045                0.987543665      -76.767561
9.046                0.987514925      -76.883961
9.047                0.987486101     -77.0006463
9.048                0.987457194     -77.1176176
9.049                0.987428204     -77.2348758
9.05                 0.987399129     -77.3524218
9.051                0.987369971     -77.4702563
9.052                0.987340728     -77.5883803
9.053                  0.9873114     -77.7067945
9.054                0.987281989     -77.8254999
9.055                0.987252492     -77.9444973
9.056                0.987222911     -78.0637874
9.057                0.987193244     -78.1833712
9.058                0.987163493     -78.3032496
9.059                0.987133656     -78.4234233
9.06                 0.987103733     -78.5438933
9.061                0.987073725     -78.6646603
9.062                0.987043631     -78.7857253
9.063                0.987013452     -78.9070891
9.064                0.986983186     -79.0287526
9.065                0.986952834     -79.1507167
9.066                0.986922395     -79.2729822
9.067                 0.98689187     -79.3955499
9.068                0.986861258     -79.5184208
9.069                0.986830559     -79.6415957
9.07                 0.986799774     -79.7650755
9.071                0.986768901     -79.8888611
9.072                0.986737941     -80.0129533
9.073                0.986706893     -80.1373531
9.074                0.986675758     -80.2620613
9.075                0.986644535     -80.3870788
9.076                0.986613225     -80.5124064
9.077                0.986581826     -80.6380451
9.078                 0.98655034     -80.7639958
9.079                0.986518765     -80.8902593
9.08                 0.986487102     -81.0168365
9.081                 0.98645535     -81.1437284
9.082                 0.98642351     -81.2709357
9.083                0.986391581     -81.3984595
9.084                0.986359563     -81.5263005
9.085                0.986327457     -81.6544598
9.086                0.986295261     -81.7829382
9.087                0.986262976     -81.9117365
9.088                0.986230601     -82.0408558
9.089                0.986198138     -82.1702968
9.09                 0.986165584     -82.3000606
9.091                0.986132941      -82.430148
9.092                0.986100208     -82.5605599
9.093                0.986067386     -82.6912972
9.094                0.986034473     -82.8223608
9.095                0.986001471     -82.9537518
9.096                0.985968378     -83.0854708
9.097                0.985935195      -83.217519
9.098                0.985901921     -83.3498971
9.099                0.985868557     -83.4826062
9.1                  0.985835103      -83.615647
9.101                0.985801558     -83.7490206
9.102                0.985767922     -83.8827279
9.103                0.985734195     -84.0167697
9.104                0.985700377     -84.1511471
9.105                0.985666469     -84.2858609
9.106                0.985632469      -84.420912
9.107                0.985598379     -84.5563014
9.108                0.985564197       -84.69203
9.109                0.985529923     -84.8280987
9.11                 0.985495559     -84.9645085
9.111                0.985461103     -85.1012603
9.112                0.985426555      -85.238355
9.113                0.985391916     -85.3757935
9.114                0.985357186     -85.5135768
9.115                0.985322363     -85.6517058
9.116                0.985287449     -85.7901815
9.117                0.985252444     -85.9290047
9.118                0.985217346     -86.0681765
9.119                0.985182157     -86.2076977
9.12                 0.985146876     -86.3475693
9.121                0.985111502     -86.4877922
9.122                0.985076037     -86.6283673
9.123                 0.98504048     -86.7692957
9.124                0.985004831     -86.9105782
9.125                 0.98496909     -87.0522158
9.126                0.984933257     -87.1942094
9.127                0.984897331     -87.3365599
9.128                0.984861314     -87.4792684
9.129                0.984825204     -87.6223357
9.13                 0.984789002     -87.7657628
9.131                0.984752709     -87.9095506
9.132                0.984716323        -88.0537
9.133                0.984679844     -88.1982121
9.134                0.984643274     -88.3430878
9.135                0.984606612     -88.4883279
9.136                0.984569857     -88.6339335
9.137                 0.98453301     -88.7799055
9.138                0.984496072     -88.9262448
9.139                0.984459041     -89.0729523
9.14                 0.984421918     -89.2200291
9.141                0.984384703     -89.3674761
9.142                0.984347396     -89.5152942
9.143                0.984309997     -89.6634844
9.144                0.984272506     -89.8120475
9.145                0.984234924     -89.9609846
9.146                0.984197249     -90.1102966
9.147                0.984159483     -90.2599844
9.148                0.984121625      -90.410049
9.149                0.984083676     -90.5604913
9.15                 0.984045634     -90.7113123
9.151                0.984007502     -90.8625129
9.152                0.983969277     -91.0140941
9.153                0.983930962     -91.1660568
9.154                0.983892555     -91.3184019
9.155                0.983854057     -91.4711304
9.156                0.983815468     -91.6242432
9.157                0.983776788     -91.7777413
9.158                0.983738016     -91.9316256
9.159                0.983699155      -92.085897
9.16                 0.983660202     -92.2405565
9.161                0.983621159     -92.3956051
9.162                0.983582025     -92.5510436
9.163                0.983542801      -92.706873
9.164                0.983503487     -92.8630942
9.165                0.983464082     -93.0197082
9.166                0.983424588     -93.1767159
9.167                0.983385004     -93.3341183
9.168                 0.98334533     -93.4919162
9.169                0.983305567     -93.6501106
9.17                 0.983265714     -93.8087024
9.171                0.983225772     -93.9676926
9.172                0.983185741      -94.127082
9.173                0.983145621     -94.2868717
9.174                0.983105413     -94.4470625
9.175                0.983065116     -94.6076554
9.176                0.983024731     -94.7686512
9.177                0.982984257     -94.9300509
9.178                0.982943696     -95.0918555
9.179                0.982903047     -95.2540658
9.18                 0.982862311     -95.4166827
9.181                0.982821488     -95.5797072
9.182                0.982780577     -95.7431401
9.183                 0.98273958     -95.9069824
9.184                0.982698496      -96.071235
9.185                0.982657325     -96.2358989
9.186                0.982616069     -96.4009748
9.187                0.982574727     -96.5664637
9.188                0.982533299     -96.7323665
9.189                0.982491786      -96.898684
9.19                 0.982450188     -97.0654173
9.191                0.982408506     -97.2325672
9.192                0.982366738     -97.4001345
9.193                0.982324887     -97.5681202
9.194                0.982282952     -97.7365251
9.195                0.982240934     -97.9053502
9.196                0.982198832     -98.0745962
9.197                0.982156647     -98.2442642
9.198                 0.98211438     -98.4143549
9.199                 0.98207203     -98.5848692
9.2                  0.982029599      -98.755808
9.201                0.981987086     -98.9271722
9.202                0.981944492     -99.0989625
9.203                0.981901817       -99.27118
9.204                0.981859061     -99.4438254
9.205                0.981816226     -99.6168996
9.206                0.981773311     -99.7904034
9.207                0.981730316     -99.9643378
9.208                0.981687243     -100.138703
9.209                0.981644091     -100.313501
9.21                 0.981600861     -100.488732
9.211                0.981557554     -100.664397
9.212                0.981514169     -100.840496
9.213                0.981470707     -101.017031
9.214                0.981427169     -101.194002
9.215                0.981383556      -101.37141
9.216                0.981339866     -101.549256
9.217                0.981296102     -101.727541
9.218                0.981252264     -101.906265
9.219                0.981208351      -102.08543
9.22                 0.981164365     -102.265036
9.221                0.981120306     -102.445083
9.222                0.981076174     -102.625574
9.223                0.981031971     -102.806508
9.224                0.980987696     -102.987886
9.225                 0.98094335     -103.169709
9.226                0.980898934     -103.351978
9.227                0.980854448     -103.534693
9.228                0.980809893     -103.717856
9.229                0.980765269     -103.901467
9.23                 0.980720577     -104.085527
9.231                0.980675818     -104.270036
9.232                0.980630992     -104.454995
9.233                0.980586099     -104.640406
9.234                0.980541141     -104.826268
9.235                0.980496118     -105.012583
9.236                 0.98045103      -105.19935
9.237                0.980405879     -105.386572
9.238                0.980360665     -105.574248
9.239                0.980315388      -105.76238
9.24                 0.980270049     -105.950967
9.241                0.980224649     -106.140011
9.242                0.980179189     -106.329512
9.243                0.980133669     -106.519471
9.244                0.980088091     -106.709889
9.245                0.980042454     -106.900766
9.246                0.979996759     -107.092103
9.247                0.979951008       -107.2839
9.248                0.979905201     -107.476159
9.249                0.979859338      -107.66888
9.25                 0.979813421     -107.862063
9.251                 0.97976745     -108.055709
9.252                0.979721427     -108.249818
9.253                0.979675351     -108.444392
9.254                0.979629224     -108.639431
9.255                0.979583046     -108.834935
9.256                0.979536819     -109.030905
9.257                0.979490543     -109.227341
9.258                0.979444219     -109.424245
9.259                0.979397848     -109.621616
9.26                  0.97935143     -109.819456
9.261                0.979304968     -110.017764
9.262                0.979258461     -110.216542
9.263                 0.97921191     -110.415789
9.264                0.979165317     -110.615507
9.265                0.979118682     -110.815695
9.266                0.979072006     -111.016355
9.267                0.979025291     -111.217486
9.268                0.978978537     -111.419089
9.269                0.978931745     -111.621166
9.27                 0.978884916     -111.823715
9.271                0.978838051     -112.026738
9.272                0.978791151     -112.230235
9.273                0.978744218     -112.434206
9.274                0.978697251     -112.638652
9.275                0.978650253     -112.843573
9.276                0.978603224      -113.04897
9.277                0.978556166     -113.254843
9.278                0.978509079     -113.461193
9.279                0.978461964     -113.668019
9.28                 0.978414823     -113.875322
9.281                0.978367657     -114.083103
9.282                0.978320467     -114.291361
9.283                0.978273253     -114.500098
9.284                0.978226018     -114.709313
9.285                0.978178762     -114.919007
9.286                0.978131486     -115.129179
9.287                0.978084192     -115.339831
9.288                 0.97803688     -115.550963
9.289                0.977989553     -115.762574
9.29                 0.977942211     -115.974665
9.291                0.977894855     -116.187236
9.292                0.977847487     -116.400288
9.293                0.977800108     -116.613821
9.294                0.977752719     -116.827834
9.295                0.977705322     -117.042329
9.296                0.977657917     -117.257305
9.297                0.977610506     -117.472762
9.298                0.977563091       -117.6887
9.299                0.977515673      -117.90512
9.3                  0.977468252     -118.122022
9.301                0.977420831     -118.339406
9.302                 0.97737341     -118.557272
9.303                0.977325991      -118.77562
9.304                0.977278576     -118.994449
9.305                0.977231166     -119.213761
9.306                0.977183762     -119.433556
9.307                0.977136366     -119.653832
9.308                0.977088979      -119.87459
9.309                0.977041602     -120.095831
9.31                 0.976994237     -120.317554
9.311                0.976946886     -120.539759
9.312                 0.97689955     -120.762446
9.313                 0.97685223     -120.985615
9.314                0.976804928     -121.209266
9.315                0.976757646     -121.433399
9.316                0.976710384     -121.658014
9.317                0.976663145      -121.88311
9.318                 0.97661593     -122.108688
9.319                 0.97656874     -122.334747
9.32                 0.976521578     -122.561288
9.321                0.976474445     -122.788309
9.322                0.976427341     -123.015811
9.323                 0.97638027     -123.243794
9.324                0.976333232     -123.472257
9.325                 0.97628623       -123.7012
9.326                0.976239264     -123.930623
9.327                0.976192337     -124.160525
9.328                 0.97614545     -124.390907
9.329                0.976098605     -124.621768
9.33                 0.976051803     -124.853107
9.331                0.976005047     -125.084925
9.332                0.975958337      -125.31722
9.333                0.975911676     -125.549993
9.334                0.975865066     -125.783243
9.335                0.975818507      -126.01697
9.336                0.975772003     -126.251173
9.337                0.975725554     -126.485852
9.338                0.975679162     -126.721006
9.339                 0.97563283     -126.956635
9.34                 0.975586558     -127.192739
9.341                 0.97554035     -127.429316
9.342                0.975494206     -127.666367
9.343                0.975448128      -127.90389
9.344                0.975402119     -128.141886
9.345                 0.97535618     -128.380353
9.346                0.975310313     -128.619292
9.347                0.975264519       -128.8587
9.348                0.975218802     -129.098579
9.349                0.975173162     -129.338926
9.35                 0.975127601     -129.579742
9.351                0.975082122     -129.821025
9.352                0.975036726     -130.062775
9.353                0.974991416     -130.304992
9.354                0.974946193     -130.547674
9.355                0.974901059      -130.79082
9.356                0.974856016      -131.03443
9.357                0.974811066     -131.278504
9.358                0.974766211     -131.523039
9.359                0.974721453     -131.768036
9.36                 0.974676794     -132.013493
9.361                0.974632237      -132.25941
9.362                0.974587782     -132.505785
9.363                0.974543432     -132.752619
9.364                 0.97449919     -132.999908
9.365                0.974455056     -133.247654
9.366                0.974411034     -133.495854
9.367                0.974367124     -133.744508
9.368                 0.97432333     -133.993614
9.369                0.974279654     -134.243173
9.37                 0.974236096     -134.493181
9.371                 0.97419266     -134.743639
9.372                0.974149348     -134.994545
9.373                0.974106161     -135.245899
9.374                0.974063102     -135.497698
9.375                0.974020173     -135.749942
9.376                0.973977376      -136.00263
9.377                0.973934713      -136.25576
9.378                0.973892186     -136.509331
9.379                0.973849797     -136.763342
9.38                 0.973807548     -137.017791
9.381                0.973765443     -137.272678
9.382                0.973723482        -137.528
9.383                0.973681667     -137.783757
9.384                0.973640002     -138.039947
9.385                0.973598488     -138.296569
9.386                0.973557127     -138.553621
9.387                0.973515922     -138.811101
9.388                0.973474874     -139.069009
9.389                0.973433986     -139.327343
9.39                 0.973393261     -139.586101
9.391                0.973352699     -139.845282
9.392                0.973312304     -140.104884
9.393                0.973272077     -140.364906
9.394                0.973232021     -140.625346
9.395                0.973192138     -140.886202
9.396                 0.97315243     -141.147473
