! TOUCHSTONE file generated by CST DESIGN STUDIO
! Date and time: Tue Feb  4 14:13:20 2025
! Project name: C:\Work\MatlabApps\UnitCellOptimizationMatlab\CST\unitcell.cst
! Tree item: Tasks\Sweep1\SPara1\S-Parameters
! Header version: 2024
! Port assignment regex: !\s*Touchstone port\s*([0-9]+)\s*=\s*(CST MWS port|CST DES external port|CST DES block port)\s*(.+)\s* \(\"(.*)\"\)(\s*mode\s*([0-9]+))?.*
! Touchstone port assignment:
! Touchstone port 1 = CST DES external port 1 ("")
# GHz S MA R 50
9                    0.975305844     -78.1739942
9.001                0.975243299     -78.2959469
9.002                0.975180565     -78.4182075
9.003                0.975117644     -78.5407769
9.004                0.975054533     -78.6636561
9.005                0.974991233      -78.786846
9.006                0.974927744     -78.9103475
9.007                0.974864064     -79.0341615
9.008                0.974800195      -79.158289
9.009                0.974736134     -79.2827309
9.01                 0.974671882     -79.4074881
9.011                0.974607439     -79.5325616
9.012                0.974542804     -79.6579524
9.013                0.974477976     -79.7836612
9.014                0.974412956     -79.9096892
9.015                0.974347742     -80.0360372
9.016                0.974282336     -80.1627061
9.017                0.974216735      -80.289697
9.018                 0.97415094     -80.4170107
9.019                0.974084951     -80.5446483
9.02                 0.974018767     -80.6726107
9.021                0.973952388     -80.8008987
9.022                0.973885813     -80.9295135
9.023                0.973819043     -81.0584559
9.024                0.973752076     -81.1877268
9.025                0.973684912     -81.3173274
9.026                0.973617552     -81.4472585
9.027                0.973549994      -81.577521
9.028                0.973482239      -81.708116
9.029                0.973414286     -81.8390444
9.03                 0.973346135     -81.9703072
9.031                0.973277785     -82.1019054
9.032                0.973209236     -82.2338399
9.033                0.973140488     -82.3661117
9.034                 0.97307154     -82.4987218
9.035                0.973002393     -82.6316712
9.036                0.972933046     -82.7649607
9.037                0.972863498     -82.8985915
9.038                0.972793749     -83.0325645
9.039                  0.9727238     -83.1668807
9.04                 0.972653649     -83.3015411
9.041                0.972583297     -83.4365465
9.042                0.972512743     -83.5718982
9.043                0.972441987     -83.7075969
9.044                0.972371028     -83.8436438
9.045                0.972299867     -83.9800398
9.046                0.972228503     -84.1167859
9.047                0.972156936     -84.2538831
9.048                0.972085166     -84.3913324
9.049                0.972013192     -84.5291348
9.05                 0.971941014     -84.6672912
9.051                0.971868632     -84.8058028
9.052                0.971796046     -84.9446704
9.053                0.971723255     -85.0838951
9.054                0.971650259      -85.223478
9.055                0.971577059     -85.3634199
9.056                0.971503653     -85.5037219
9.057                0.971430042      -85.644385
9.058                0.971356225     -85.7854102
9.059                0.971282203     -85.9267986
9.06                 0.971207975     -86.0685511
9.061                 0.97113354     -86.2106687
9.062                0.971058899     -86.3531524
9.063                0.970984052     -86.4960034
9.064                0.970908998     -86.6392225
9.065                0.970833738     -86.7828108
9.066                 0.97075827     -86.9267693
9.067                0.970682596      -87.071099
9.068                0.970606714     -87.2158009
9.069                0.970530625     -87.3608761
9.07                 0.970454329     -87.5063256
9.071                0.970377825     -87.6521503
9.072                0.970301113     -87.7983514
9.073                0.970224193     -87.9449297
9.074                0.970147066     -88.0918864
9.075                0.970069731     -88.2392225
9.076                0.969992188     -88.3869389
9.077                0.969914436     -88.5350368
9.078                0.969836477     -88.6835171
9.079                0.969758309     -88.8323808
9.08                 0.969679933     -88.9816289
9.081                0.969601349     -89.1312626
9.082                0.969522556     -89.2812828
9.083                0.969443555     -89.4316905
9.084                0.969364346     -89.5824867
9.085                0.969284928     -89.7336726
9.086                0.969205302      -89.885249
9.087                0.969125467     -90.0372171
9.088                0.969045424     -90.1895778
9.089                0.968965173     -90.3423321
9.09                 0.968884713     -90.4954812
9.091                0.968804046      -90.649026
9.092                 0.96872317     -90.8029675
9.093                0.968642085     -90.9573068
9.094                0.968560793     -91.1120448
9.095                0.968479293     -91.2671827
9.096                0.968397585     -91.4227214
9.097                0.968315669     -91.5786619
9.098                0.968233545     -91.7350053
9.099                0.968151213     -91.8917526
9.1                  0.968068675     -92.0489048
9.101                0.967985928     -92.2064629
9.102                0.967902975     -92.3644279
9.103                0.967819815     -92.5228009
9.104                0.967736448     -92.6815829
9.105                0.967652874     -92.8407749
9.106                0.967569093     -93.0003779
9.107                0.967485106     -93.1603929
9.108                0.967400914     -93.3208209
9.109                0.967316515      -93.481663
9.11                 0.967231911     -93.6429202
9.111                0.967147101     -93.8045934
9.112                0.967062086     -93.9666837
9.113                0.966976866      -94.129192
9.114                0.966891442     -94.2921195
9.115                0.966805813     -94.4554671
9.116                0.966719981     -94.6192357
9.117                0.966633944     -94.7834265
9.118                0.966547705     -94.9480403
9.119                0.966461262     -95.1130783
9.12                 0.966374617     -95.2785414
9.121                0.966287769     -95.4444305
9.122                0.966200719     -95.6107468
9.123                0.966113468     -95.7774911
9.124                0.966026016     -95.9446645
9.125                0.965938363      -96.112268
9.126                0.965850509     -96.2803025
9.127                0.965762456      -96.448769
9.128                0.965674203     -96.6176685
9.129                0.965585752     -96.7870021
9.13                 0.965497101     -96.9567705
9.131                0.965408253      -97.126975
9.132                0.965319208     -97.2976163
9.133                0.965229965     -97.4686956
9.134                0.965140526     -97.6402137
9.135                0.965050892     -97.8121716
9.136                0.964961061     -97.9845703
9.137                0.964871037     -98.1574107
9.138                0.964780818     -98.3306938
9.139                0.964690405     -98.5044206
9.14                   0.9645998     -98.6785919
9.141                0.964509003     -98.8532089
9.142                0.964418014     -99.0282723
9.143                0.964326834     -99.2037831
9.144                0.964235464     -99.3797423
9.145                0.964143904     -99.5561508
9.146                0.964052156     -99.7330095
9.147                0.963960219     -99.9103194
9.148                0.963868095     -100.088081
9.149                0.963775785     -100.266296
9.15                 0.963683289     -100.444965
9.151                0.963590608     -100.624089
9.152                0.963497743     -100.803669
9.153                0.963404694     -100.983705
9.154                0.963311464     -101.164198
9.155                0.963218051      -101.34515
9.156                0.963124458     -101.526562
9.157                0.963030685     -101.708433
9.158                0.962936734     -101.890766
9.159                0.962842604     -102.073561
9.16                 0.962748298     -102.256819
9.161                0.962653815      -102.44054
9.162                0.962559158     -102.624726
9.163                0.962464327     -102.809377
9.164                0.962369322     -102.994495
9.165                0.962274146     -103.180079
9.166                  0.9621788     -103.366132
9.167                0.962083283     -103.552654
9.168                0.961987598     -103.739645
9.169                0.961891745     -103.927106
9.17                 0.961795727     -104.115039
9.171                0.961699543     -104.303445
9.172                0.961603195     -104.492323
9.173                0.961506684     -104.681674
9.174                0.961410012     -104.871501
9.175                 0.96131318     -105.061802
9.176                0.961216188      -105.25258
9.177                0.961119039     -105.443834
9.178                0.961021734     -105.635567
9.179                0.960924274     -105.827777
9.18                  0.96082666     -106.020467
9.181                0.960728893     -106.213637
9.182                0.960630976     -106.407287
9.183                0.960532909     -106.601419
9.184                0.960434695     -106.796033
9.185                0.960336333      -106.99113
9.186                0.960237827      -107.18671
9.187                0.960139177     -107.382775
9.188                0.960040385     -107.579324
9.189                0.959941452      -107.77636
9.19                 0.959842381     -107.973881
9.191                0.959743172      -108.17189
9.192                0.959643828     -108.370387
9.193                0.959544349     -108.569371
9.194                0.959444738     -108.768845
9.195                0.959344996     -108.968809
9.196                0.959245126     -109.169263
9.197                0.959145128     -109.370208
9.198                0.959045004     -109.571644
9.199                0.958944757     -109.773572
9.2                  0.958844388     -109.975994
9.201                0.958743899     -110.178908
9.202                0.958643291     -110.382317
9.203                0.958542568      -110.58622
9.204                0.958441729     -110.790618
9.205                0.958340779     -110.995512
9.206                0.958239717     -111.200902
9.207                0.958138548     -111.406789
9.208                0.958037271     -111.613173
9.209                 0.95793589     -111.820055
9.21                 0.957834407     -112.027435
9.211                0.957732823     -112.235314
9.212                0.957631141     -112.443692
9.213                0.957529362      -112.65257
9.214                 0.95742749     -112.861948
9.215                0.957325526     -113.071826
9.216                0.957223472     -113.282206
9.217                 0.95712133     -113.493087
9.218                0.957019104      -113.70447
9.219                0.956916795     -113.916356
9.22                 0.956814405     -114.128744
9.221                0.956711937     -114.341635
9.222                0.956609393      -114.55503
9.223                0.956506775     -114.768928
9.224                0.956404087     -114.983331
9.225                0.956301329     -115.198238
9.226                0.956198506      -115.41365
9.227                0.956095619     -115.629568
9.228                0.955992671      -115.84599
9.229                0.955889665     -116.062919
9.23                 0.955786602     -116.280353
9.231                0.955683486     -116.498294
9.232                0.955580319     -116.716741
9.233                0.955477104     -116.935695
9.234                0.955373844     -117.155156
9.235                0.955270541     -117.375125
9.236                0.955167198       -117.5956
9.237                0.955063818     -117.816583
9.238                0.954960403     -118.038074
9.239                0.954856957     -118.260073
9.24                 0.954753482     -118.482579
9.241                0.954649981     -118.705594
9.242                0.954546457     -118.929117
9.243                0.954442913     -119.153148
9.244                0.954339352     -119.377688
9.245                0.954235777     -119.602736
9.246                0.954132191     -119.828293
9.247                0.954028596     -120.054358
9.248                0.953924997     -120.280932
9.249                0.953821396     -120.508014
9.25                 0.953717796     -120.735605
9.251                0.953614201     -120.963705
9.252                0.953510613     -121.192313
9.253                0.953407036     -121.421429
9.254                0.953303472     -121.651053
9.255                0.953199927     -121.881186
9.256                0.953096401     -122.111827
9.257                  0.9529929     -122.342976
9.258                0.952889425     -122.574633
9.259                0.952785982     -122.806797
9.26                 0.952682572     -123.039469
9.261                  0.9525792     -123.272648
9.262                0.952475868     -123.506334
9.263                0.952372581     -123.740528
9.264                0.952269341     -123.975227
9.265                0.952166153     -124.210433
9.266                 0.95206302     -124.446146
9.267                0.951959946     -124.682363
9.268                0.951856933     -124.919087
9.269                0.951753987     -125.156315
9.27                 0.951651109     -125.394048
9.271                0.951548305     -125.632285
9.272                0.951445578     -125.871027
9.273                0.951342931     -126.110272
9.274                0.951240368      -126.35002
9.275                0.951137894      -126.59027
9.276                0.951035512     -126.831023
9.277                0.950933225     -127.072278
9.278                0.950831038     -127.314033
9.279                0.950728955      -127.55629
9.28                 0.950626979     -127.799046
9.281                0.950525114     -128.042302
9.282                0.950423365     -128.286057
9.283                0.950321735      -128.53031
9.284                0.950220229      -128.77506
9.285                 0.95011885     -129.020308
9.286                0.950017603     -129.266052
9.287                0.949916491     -129.512292
9.288                0.949815519     -129.759027
9.289                0.949714691     -130.006256
9.29                 0.949614011     -130.253978
9.291                0.949513484     -130.502193
9.292                0.949413112       -130.7509
9.293                0.949312902     -131.000098
9.294                0.949212856     -131.249786
9.295                0.949112979     -131.499963
9.296                0.949013276     -131.750629
9.297                0.948913751     -132.001783
9.298                0.948814408     -132.253423
9.299                0.948715251     -132.505548
9.3                  0.948616285     -132.758159
9.301                0.948517515     -133.011253
9.302                0.948418944     -133.264829
9.303                0.948320577     -133.518888
9.304                0.948222419     -133.773427
9.305                0.948124474     -134.028445
9.306                0.948026747     -134.283942
9.307                0.947929241     -134.539915
9.308                0.947831962     -134.796365
9.309                0.947734915      -135.05329
9.31                 0.947638103     -135.310688
9.311                0.947541532     -135.568559
9.312                0.947445205     -135.826901
9.313                0.947349128     -136.085713
9.314                0.947253305     -136.344994
9.315                0.947157741     -136.604742
9.316                 0.94706244     -136.864956
9.317                0.946967408     -137.125634
9.318                0.946872649     -137.386776
9.319                0.946778167     -137.648379
9.32                 0.946683967     -137.910443
9.321                0.946590054     -138.172966
9.322                0.946496433     -138.435946
9.323                0.946403109     -138.699381
9.324                0.946310086     -138.963271
9.325                0.946217369     -139.227614
9.326                0.946124963     -139.492408
9.327                0.946032872     -139.757652
9.328                0.945941102     -140.023343
9.329                0.945849657     -140.289481
9.33                 0.945758543     -140.556064
9.331                0.945667763     -140.823089
9.332                0.945577323     -141.090555
9.333                0.945487228     -141.358461
9.334                0.945397482     -141.626804
9.335                0.945308091     -141.895583
9.336                0.945219059     -142.164796
9.337                0.945130391     -142.434441
9.338                0.945042092     -142.704516
9.339                0.944954167      -142.97502
9.34                  0.94486662      -143.24595
9.341                0.944779458     -143.517304
9.342                0.944692684      -143.78908
9.343                0.944606303     -144.061277
9.344                0.944520321     -144.333893
9.345                0.944434741     -144.606924
9.346                0.944349571      -144.88037
9.347                0.944264813     -145.154228
9.348                0.944180473     -145.428496
9.349                0.944096556     -145.703172
9.35                 0.944013066     -145.978253
9.351                0.943930009     -146.253738
9.352                 0.94384739     -146.529624
9.353                0.943765213     -146.805908
9.354                0.943683483      -147.08259
9.355                0.943602206     -147.359665
9.356                0.943521385     -147.637133
9.357                0.943441026      -147.91499
9.358                0.943361134     -148.193235
9.359                0.943281713     -148.471864
9.36                 0.943202769     -148.750876
9.361                0.943124306     -149.030267
9.362                0.943046329     -149.310036
9.363                0.942968843      -149.59018
9.364                0.942891852     -149.870696
9.365                0.942815362     -150.151582
9.366                0.942739377     -150.432836
9.367                0.942663902     -150.714454
9.368                0.942588941     -150.996434
9.369                  0.9425145     -151.278773
9.37                 0.942440583     -151.561469
9.371                0.942367194     -151.844519
9.372                0.942294339     -152.127921
9.373                0.942222023      -152.41167
9.374                0.942150248     -152.695766
9.375                0.942079022     -152.980204
9.376                0.942008347     -153.264983
9.377                0.941938229     -153.550098
9.378                0.941868672     -153.835548
9.379                 0.94179968      -154.12133
9.38                 0.941731259      -154.40744
9.381                0.941663413     -154.693876
9.382                0.941596145     -154.980634
9.383                0.941529462     -155.267712
9.384                0.941463366     -155.555107
9.385                0.941397863     -155.842815
9.386                0.941332956     -156.130834
9.387                0.941268651     -156.419161
9.388                0.941204951     -156.707792
9.389                0.941141861     -156.996724
9.39                 0.941079385     -157.285954
9.391                0.941017527      -157.57548
9.392                0.940956292     -157.865297
9.393                0.940895683     -158.155403
9.394                0.940835705     -158.445794
9.395                0.940776362     -158.736467
9.396                0.940717657     -159.027419
