! TOUCHSTONE file generated by CST DESIGN STUDIO
! Date and time: Tue Feb  4 14:13:28 2025
! Project name: C:\Work\MatlabApps\UnitCellOptimizationMatlab\CST\unitcell.cst
! Tree item: Tasks\Sweep1\SPara1\S-Parameters
! Header version: 2024
! Port assignment regex: !\s*Touchstone port\s*([0-9]+)\s*=\s*(CST MWS port|CST DES external port|CST DES block port)\s*(.+)\s* \(\"(.*)\"\)(\s*mode\s*([0-9]+))?.*
! Touchstone port assignment:
! Touchstone port 1 = CST DES external port 1 ("")
# GHz S MA R 50
9                    0.977036649     -67.4474672
9.001                0.976985376      -67.544692
9.002                0.976933945     -67.6421505
9.003                0.976882357     -67.7398435
9.004                 0.97683061     -67.8377718
9.005                0.976778704     -67.9359361
9.006                0.976726639      -68.034337
9.007                0.976674415     -68.1329754
9.008                 0.97662203      -68.231852
9.009                0.976569485     -68.3309675
9.01                 0.976516779     -68.4303226
9.011                0.976463911     -68.5299182
9.012                0.976410881      -68.629755
9.013                0.976357689     -68.7298337
9.014                0.976304334      -68.830155
9.015                0.976250815     -68.9307198
9.016                0.976197133     -69.0315288
9.017                0.976143286     -69.1325828
9.018                0.976089275     -69.2338824
9.019                0.976035098     -69.3354286
9.02                 0.975980756      -69.437222
9.021                0.975926247     -69.5392634
9.022                0.975871572     -69.6415537
9.023                 0.97581673     -69.7440935
9.024                 0.97576172     -69.8468837
9.025                0.975706543      -69.949925
9.026                0.975651196     -70.0532182
9.027                0.975595681     -70.1567641
9.028                0.975539997     -70.2605635
9.029                0.975484143     -70.3646172
9.03                 0.975428118     -70.4689259
9.031                0.975371922     -70.5734905
9.032                0.975315556     -70.6783118
9.033                0.975259017     -70.7833905
9.034                0.975202307     -70.8887275
9.035                0.975145423     -70.9943236
9.036                0.975088367     -71.1001795
9.037                0.975031137     -71.2062961
9.038                0.974973733     -71.3126742
9.039                0.974916155     -71.4193146
9.04                 0.974858401     -71.5262181
9.041                0.974800473     -71.6333856
9.042                0.974742368     -71.7408178
9.043                0.974684087     -71.8485155
9.044                0.974625629     -71.9564797
9.045                0.974566994     -72.0647112
9.046                0.974508182     -72.1732106
9.047                0.974449191      -72.281979
9.048                0.974390021     -72.3910171
9.049                0.974330672     -72.5003258
9.05                 0.974271144     -72.6099058
9.051                0.974211436     -72.7197581
9.052                0.974151548     -72.8298835
9.053                0.974091478     -72.9402828
9.054                0.974031227     -73.0509569
9.055                0.973970795     -73.1619066
9.056                 0.97391018     -73.2731328
9.057                0.973849382     -73.3846364
9.058                0.973788401     -73.4964181
9.059                0.973727237     -73.6084789
9.06                 0.973665888     -73.7208196
9.061                0.973604355     -73.8334411
9.062                0.973542638     -73.9463443
9.063                0.973480734       -74.05953
9.064                0.973418645      -74.172999
9.065                 0.97335637     -74.2867523
9.066                0.973293907     -74.4007908
9.067                0.973231258     -74.5151152
9.068                0.973168421     -74.6297266
9.069                0.973105396     -74.7446257
9.07                 0.973042183     -74.8598136
9.071                 0.97297878     -74.9752909
9.072                0.972915189     -75.0910587
9.073                0.972851407     -75.2071179
9.074                0.972787435     -75.3234692
9.075                0.972723273     -75.4401137
9.076                 0.97265892     -75.5570522
9.077                0.972594375     -75.6742857
9.078                0.972529638      -75.791815
9.079                0.972464708      -75.909641
9.08                 0.972399586     -76.0277646
9.081                0.972334271     -76.1461868
9.082                0.972268763     -76.2649085
9.083                 0.97220306     -76.3839305
9.084                0.972137162     -76.5032538
9.085                 0.97207107     -76.6228794
9.086                0.972004783     -76.7428081
9.087                  0.9719383     -76.8630408
9.088                0.971871621     -76.9835785
9.089                0.971804745     -77.1044222
9.09                 0.971737673     -77.2255726
9.091                0.971670403     -77.3470309
9.092                0.971602936     -77.4687978
9.093                0.971535271     -77.5908744
9.094                0.971467407     -77.7132616
9.095                0.971399344     -77.8359603
9.096                0.971331082     -77.9589714
9.097                 0.97126262      -78.082296
9.098                0.971193959     -78.2059349
9.099                0.971125097     -78.3298892
9.1                  0.971056034     -78.4541596
9.101                 0.97098677     -78.5787473
9.102                0.970917305     -78.7036532
9.103                0.970847638     -78.8288782
9.104                0.970777768     -78.9544232
9.105                0.970707696     -79.0802893
9.106                0.970637421     -79.2064774
9.107                0.970566943     -79.3329885
9.108                0.970496261     -79.4598235
9.109                0.970425375     -79.5869834
9.11                 0.970354285     -79.7144691
9.111                 0.97028299     -79.8422818
9.112                 0.97021149     -79.9704222
9.113                0.970139784     -80.0988915
9.114                0.970067873     -80.2276905
9.115                0.969995756     -80.3568203
9.116                0.969923432     -80.4862818
9.117                0.969850902     -80.6160761
9.118                0.969778165     -80.7462041
9.119                 0.96970522     -80.8766667
9.12                 0.969632068     -81.0074651
9.121                0.969558708     -81.1386001
9.122                 0.96948514     -81.2700729
9.123                0.969411363     -81.4018843
9.124                0.969337378     -81.5340353
9.125                0.969263183      -81.666527
9.126                0.969188779     -81.7993604
9.127                0.969114165     -81.9325365
9.128                0.969039341     -82.0660562
9.129                0.968964308     -82.1999206
9.13                 0.968889063     -82.3341307
9.131                0.968813608     -82.4686875
9.132                0.968737942      -82.603592
9.133                0.968662065     -82.7388452
9.134                0.968585976     -82.8744481
9.135                0.968509676     -83.0104018
9.136                0.968433163     -83.1467072
9.137                0.968356439     -83.2833654
9.138                0.968279502     -83.4203774
9.139                0.968202352     -83.5577442
9.14                 0.968124989     -83.6954669
9.141                0.968047414     -83.8335464
9.142                0.967969625     -83.9719838
9.143                0.967891623     -84.1107801
9.144                0.967813407     -84.2499364
9.145                0.967734977     -84.3894536
9.146                0.967656334     -84.5293328
9.147                0.967577476     -84.6695751
9.148                0.967498403     -84.8101814
9.149                0.967419117     -84.9511529
9.15                 0.967339615     -85.0924904
9.151                0.967259899     -85.2341951
9.152                0.967179968     -85.3762681
9.153                0.967099822     -85.5187102
9.154                0.967019461     -85.6615227
9.155                0.966938884     -85.8047065
9.156                0.966858092     -85.9482626
9.157                0.966777084     -86.0921922
9.158                0.966695861     -86.2364962
9.159                0.966614422     -86.3811757
9.16                 0.966532767     -86.5262317
9.161                0.966450896     -86.6716653
9.162                 0.96636881     -86.8174776
9.163                0.966286507     -86.9636695
9.164                0.966203988     -87.1102422
9.165                0.966121254     -87.2571966
9.166                0.966038303     -87.4045339
9.167                0.965955135     -87.5522551
9.168                0.965871752     -87.7003611
9.169                0.965788152     -87.8488532
9.17                 0.965704337     -87.9977323
9.171                0.965620305     -88.1469994
9.172                0.965536056     -88.2966557
9.173                0.965451592     -88.4467022
9.174                0.965366912     -88.5971399
9.175                0.965282015       -88.74797
9.176                0.965196902     -88.8991933
9.177                0.965111574     -89.0508111
9.178                0.965026029     -89.2028244
9.179                0.964940269     -89.3552341
9.18                 0.964854292     -89.5080415
9.181                0.964768101     -89.6612474
9.182                0.964681693      -89.814853
9.183                 0.96459507     -89.9688594
9.184                0.964508232     -90.1232676
9.185                0.964421179     -90.2780786
9.186                 0.96433391     -90.4332935
9.187                0.964246427     -90.5889133
9.188                0.964158729     -90.7449392
9.189                0.964070817     -90.9013721
9.19                  0.96398269     -91.0582132
9.191                0.963894349     -91.2154634
9.192                0.963805794     -91.3731238
9.193                0.963717025     -91.5311955
9.194                0.963628043     -91.6896796
9.195                0.963538848      -91.848577
9.196                 0.96344944     -92.0078888
9.197                0.963359819     -92.1676162
9.198                0.963269986       -92.32776
9.199                 0.96317994     -92.4883215
9.2                  0.963089683     -92.6493015
9.201                0.962999214     -92.8107013
9.202                0.962908534     -92.9725217
9.203                0.962817643     -93.1347639
9.204                0.962726542      -93.297429
9.205                0.962635231     -93.4605178
9.206                 0.96254371     -93.6240316
9.207                0.962451979     -93.7879713
9.208                 0.96236004      -93.952338
9.209                0.962267892     -94.1171327
9.21                 0.962175537     -94.2823564
9.211                0.962082973     -94.4480102
9.212                0.961990202     -94.6140951
9.213                0.961897225     -94.7806122
9.214                0.961804042     -94.9475625
9.215                0.961710653     -95.1149469
9.216                0.961617058     -95.2827666
9.217                0.961523259     -95.4510225
9.218                0.961429256     -95.6197157
9.219                 0.96133505     -95.7888472
9.22                 0.961240641      -95.958418
9.221                0.961146029     -96.1284292
9.222                0.961051215     -96.2988817
9.223                0.960956201     -96.4697766
9.224                0.960860986     -96.6411148
9.225                0.960765571     -96.8128974
9.226                0.960669957     -96.9851254
9.227                0.960574144     -97.1577997
9.228                0.960478134     -97.3309215
9.229                0.960381927     -97.5044916
9.23                 0.960285523     -97.6785111
9.231                0.960188924      -97.852981
9.232                 0.96009213     -98.0279022
9.233                0.959995143     -98.2032757
9.234                0.959897962     -98.3791026
9.235                0.959800588     -98.5553837
9.236                0.959703024     -98.7321202
9.237                0.959605268     -98.9093128
9.238                0.959507323     -99.0869627
9.239                0.959409189     -99.2650708
9.24                 0.959310867      -99.443638
9.241                0.959212358     -99.6226653
9.242                0.959113662     -99.8021536
9.243                0.959014782      -99.982104
9.244                0.958915718     -100.162517
9.245                 0.95881647     -100.343394
9.246                 0.95871704     -100.524736
9.247                 0.95861743     -100.706544
9.248                0.958517639     -100.888819
9.249                0.958417669     -101.071561
9.25                 0.958317522     -101.254771
9.251                0.958217197     -101.438451
9.252                0.958116698     -101.622602
9.253                0.958016024     -101.807224
9.254                0.957915176     -101.992318
9.255                0.957814157     -102.177884
9.256                0.957712967     -102.363925
9.257                0.957611607     -102.550441
9.258                0.957510079     -102.737433
9.259                0.957408385     -102.924901
9.26                 0.957306524     -103.112846
9.261                0.957204499      -103.30127
9.262                0.957102311     -103.490173
9.263                0.956999962     -103.679556
9.264                0.956897452      -103.86942
9.265                0.956794784     -104.059766
9.266                0.956691958     -104.250595
9.267                0.956588976     -104.441906
9.268                 0.95648584     -104.633702
9.269                0.956382551     -104.825984
9.27                 0.956279111      -105.01875
9.271                0.956175521     -105.212004
9.272                0.956071783     -105.405745
9.273                0.955967898     -105.599974
9.274                0.955863868     -105.794693
9.275                0.955759694     -105.989901
9.276                0.955655379       -106.1856
9.277                0.955550924      -106.38179
9.278                0.955446331     -106.578472
9.279                0.955341601     -106.775647
9.28                 0.955236737     -106.973315
9.281                0.955131739     -107.171478
9.282                0.955026611     -107.370136
9.283                0.954921353      -107.56929
9.284                0.954815967      -107.76894
9.285                0.954710457     -107.969087
9.286                0.954604822     -108.169732
9.287                0.954499066     -108.370875
9.288                 0.95439319     -108.572518
9.289                0.954287197     -108.774661
9.29                 0.954181088     -108.977304
9.291                0.954074865     -109.180448
9.292                0.953968531     -109.384095
9.293                0.953862087     -109.588243
9.294                0.953755537     -109.792895
9.295                 0.95364888      -109.99805
9.296                0.953542121      -110.20371
9.297                0.953435262     -110.409874
9.298                0.953328303     -110.616544
9.299                0.953221249      -110.82372
9.3                    0.9531141     -111.031402
9.301                 0.95300686     -111.239591
9.302                0.952899531     -111.448288
9.303                0.952792114     -111.657494
9.304                0.952684614     -111.867208
9.305                0.952577031     -112.077431
9.306                0.952469368     -112.288164
9.307                0.952361628     -112.499407
9.308                0.952253814     -112.711161
9.309                0.952145927     -112.923426
9.31                 0.952037971     -113.136202
9.311                0.951929948      -113.34949
9.312                0.951821861     -113.563291
9.313                0.951713712     -113.777605
9.314                0.951605504     -113.992432
9.315                 0.95149724     -114.207773
9.316                0.951388922     -114.423627
9.317                0.951280554     -114.639996
9.318                0.951172138      -114.85688
9.319                0.951063676     -115.074279
9.32                 0.950955172     -115.292193
9.321                0.950846629     -115.510623
9.322                 0.95073805     -115.729569
9.323                0.950629436     -115.949032
9.324                0.950520793     -116.169011
9.325                0.950412122     -116.389507
9.326                0.950303426      -116.61052
9.327                0.950194709      -116.83205
9.328                0.950085973     -117.054098
9.329                0.949977223     -117.276664
9.33                  0.94986846     -117.499747
9.331                0.949759688     -117.723349
9.332                0.949650911     -117.947469
9.333                0.949542131     -118.172107
9.334                0.949433352     -118.397264
9.335                0.949324577      -118.62294
9.336                 0.94921581     -118.849134
9.337                0.949107053     -119.075848
9.338                0.948998311      -119.30308
9.339                0.948889586     -119.530831
9.34                 0.948780883     -119.759102
9.341                0.948672203     -119.987891
9.342                0.948563552       -120.2172
9.343                0.948454933     -120.447027
9.344                0.948346349     -120.677374
9.345                0.948237803     -120.908239
9.346                  0.9481293     -121.139624
9.347                0.948020843     -121.371527
9.348                0.947912435     -121.603949
9.349                0.947804081      -121.83689
9.35                 0.947695784     -122.070349
9.351                0.947587549     -122.304327
9.352                0.947479377     -122.538822
9.353                0.947371275     -122.773836
9.354                0.947263245     -123.009368
9.355                0.947155291     -123.245417
9.356                0.947047418     -123.481984
9.357                0.946939628     -123.719068
9.358                0.946831927     -123.956668
9.359                0.946724318     -124.194785
9.36                 0.946616805     -124.433419
9.361                0.946509393     -124.672568
9.362                0.946402085     -124.912233
9.363                0.946294885     -125.152413
9.364                0.946187798     -125.393108
9.365                0.946080828     -125.634317
9.366                0.945973978      -125.87604
9.367                0.945867254     -126.118277
9.368                 0.94576066     -126.361027
9.369                0.945654199     -126.604289
9.37                 0.945547876     -126.848063
9.371                0.945441695     -127.092349
9.372                0.945335662     -127.337146
9.373                0.945229779     -127.582454
9.374                0.945124052     -127.828271
9.375                0.945018485     -128.074597
9.376                0.944913082     -128.321432
9.377                0.944807849     -128.568775
9.378                0.944702788     -128.816625
9.379                0.944597906     -129.064982
9.38                 0.944493206     -129.313845
9.381                0.944388694     -129.563212
9.382                0.944284373     -129.813084
9.383                0.944180249      -130.06346
9.384                0.944076325     -130.314338
9.385                0.943972608     -130.565719
9.386                  0.9438691       -130.8176
9.387                0.943765808     -131.069981
9.388                0.943662736     -131.322862
9.389                0.943559889     -131.576241
9.39                 0.943457271     -131.830118
9.391                0.943354887     -132.084491
9.392                0.943252742      -132.33936
9.393                0.943150842     -132.594723
9.394                 0.94304919     -132.850579
9.395                0.942947792     -133.106928
9.396                0.942846653     -133.363769
