! TOUCHSTONE file generated by CST DESIGN STUDIO
! Date and time: Tue Feb  4 14:13:19 2025
! Project name: C:\Work\MatlabApps\UnitCellOptimizationMatlab\CST\unitcell.cst
! Tree item: Tasks\Sweep1\SPara1\S-Parameters
! Header version: 2024
! Port assignment regex: !\s*Touchstone port\s*([0-9]+)\s*=\s*(CST MWS port|CST DES external port|CST DES block port)\s*(.+)\s* \(\"(.*)\"\)(\s*mode\s*([0-9]+))?.*
! Touchstone port assignment:
! Touchstone port 1 = CST DES external port 1 ("")
# GHz S MA R 50
9                    0.975012941     -80.1269881
9.001                0.974948513     -80.2537807
9.002                0.974883893     -80.3808954
9.003                0.974819081     -80.5083333
9.004                0.974754076     -80.6360952
9.005                0.974688877     -80.7641822
9.006                0.974623485     -80.8925951
9.007                  0.9745579     -81.0213349
9.008                 0.97449212     -81.1504027
9.009                0.974426145     -81.2797993
9.01                 0.974359976     -81.4095257
9.011                0.974293611     -81.5395829
9.012                0.974227051     -81.6699718
9.013                0.974160295     -81.8006934
9.014                0.974093343     -81.9317487
9.015                0.974026194     -82.0631386
9.016                0.973958848     -82.1948641
9.017                0.973891306     -82.3269262
9.018                0.973823565     -82.4593259
9.019                0.973755627     -82.5920641
9.02                  0.97368749     -82.7251418
9.021                0.973619155     -82.8585599
9.022                0.973550622     -82.9923196
9.023                0.973481889     -83.1264216
9.024                0.973412957     -83.2608671
9.025                0.973343825      -83.395657
9.026                0.973274494     -83.5307923
9.027                0.973204962      -83.666274
9.028                 0.97313523     -83.8021031
9.029                0.973065297     -83.9382805
9.03                 0.972995163     -84.0748073
9.031                0.972924827     -84.2116844
9.032                 0.97285429     -84.3489128
9.033                0.972783552     -84.4864936
9.034                0.972712611     -84.6244277
9.035                0.972641468     -84.7627162
9.036                0.972570122     -84.9013599
9.037                0.972498574       -85.04036
9.038                0.972426823     -85.1797174
9.039                0.972354868     -85.3194332
9.04                  0.97228271     -85.4595082
9.041                0.972210349     -85.5999436
9.042                0.972137783     -85.7407404
9.043                0.972065014     -85.8818994
9.044                 0.97199204     -86.0234219
9.045                0.971918862     -86.1653087
9.046                0.971845479     -86.3075608
9.047                0.971771891     -86.4501794
9.048                0.971698099     -86.5931653
9.049                0.971624101     -86.7365197
9.05                 0.971549898     -86.8802434
9.051                0.971475489     -87.0243376
9.052                0.971400875     -87.1688032
9.053                0.971326055     -87.3136413
9.054                0.971251029     -87.4588529
9.055                0.971175797     -87.6044389
9.056                0.971100359     -87.7504004
9.057                0.971024715     -87.8967385
9.058                0.970948864     -88.0434541
9.059                0.970872807     -88.1905483
9.06                 0.970796543      -88.338022
9.061                0.970720073     -88.4858764
9.062                0.970643396     -88.6341123
9.063                0.970566512     -88.7827309
9.064                0.970489421     -88.9317331
9.065                0.970412123       -89.08112
9.066                0.970334618     -89.2308927
9.067                0.970256906      -89.381052
9.068                0.970178987     -89.5315991
9.069                0.970100861     -89.6825349
9.07                 0.970022528     -89.8338605
9.071                0.969943988     -89.9855769
9.072                 0.96986524     -90.1376852
9.073                0.969786285     -90.2901863
9.074                0.969707123     -90.4430812
9.075                0.969627755     -90.5963711
9.076                0.969548179     -90.7500568
9.077                0.969468395     -90.9041395
9.078                0.969388405     -91.0586202
9.079                0.969308208     -91.2134998
9.08                 0.969227805     -91.3687794
9.081                0.969147194       -91.52446
9.082                0.969066377     -91.6805427
9.083                0.968985353     -91.8370284
9.084                0.968904122     -91.9939181
9.085                0.968822685      -92.151213
9.086                0.968741042      -92.308914
9.087                0.968659193     -92.4670221
9.088                0.968577137     -92.6255383
9.089                0.968494876     -92.7844637
9.09                 0.968412409     -92.9437992
9.091                0.968329737      -93.103546
9.092                0.968246859     -93.2637049
9.093                0.968163776      -93.424277
9.094                0.968080488     -93.5852633
9.095                0.967996996     -93.7466649
9.096                0.967913299     -93.9084827
9.097                0.967829398     -94.0707177
9.098                0.967745292      -94.233371
9.099                0.967660984     -94.3964435
9.1                  0.967576471     -94.5599362
9.101                0.967491755     -94.7238503
9.102                0.967406837     -94.8881865
9.103                0.967321716     -95.0529461
9.104                0.967236393     -95.2181298
9.105                0.967150867     -95.3837388
9.106                0.967065141     -95.5497741
9.107                0.966979212     -95.7162366
9.108                0.966893084     -95.8831272
9.109                0.966806754     -96.0504471
9.11                 0.966720225     -96.2181972
9.111                0.966633496     -96.3863785
9.112                0.966546567     -96.5549919
9.113                 0.96645944     -96.7240385
9.114                0.966372115     -96.8935191
9.115                0.966284591     -97.0634349
9.116                 0.96619687     -97.2337867
9.117                0.966108953     -97.4045756
9.118                0.966020839     -97.5758024
9.119                0.965932528     -97.7474682
9.12                 0.965844023     -97.9195739
9.121                0.965755323     -98.0921206
9.122                0.965666428      -98.265109
9.123                 0.96557734     -98.4385403
9.124                0.965488058     -98.6124153
9.125                0.965398584     -98.7867349
9.126                0.965308919     -98.9615003
9.127                0.965219062     -99.1367122
9.128                0.965129014     -99.3123716
9.129                0.965038776     -99.4884795
9.13                 0.964948349     -99.6650367
9.131                0.964857734     -99.8420443
9.132                0.964766931     -100.019503
9.133                 0.96467594     -100.197414
9.134                0.964584764     -100.375778
9.135                0.964493401     -100.554596
9.136                0.964401854     -100.733869
9.137                0.964310123     -100.913598
9.138                0.964218209     -101.093783
9.139                0.964126112     -101.274426
9.14                 0.964033834     -101.455527
9.141                0.963941374     -101.637088
9.142                0.963848736     -101.819109
9.143                0.963755918     -102.001592
9.144                0.963662922     -102.184536
9.145                0.963569749     -102.367943
9.146                0.963476401     -102.551814
9.147                0.963382877     -102.736149
9.148                0.963289178      -102.92095
9.149                0.963195307     -103.106217
9.15                 0.963101264     -103.291952
9.151                0.963007049     -103.478154
9.152                0.962912665     -103.664825
9.153                0.962818112     -103.851966
9.154                 0.96272339     -104.039578
9.155                0.962628503      -104.22766
9.156                0.962533449     -104.416215
9.157                0.962438231     -104.605242
9.158                 0.96234285     -104.794744
9.159                0.962247307      -104.98472
9.16                 0.962151604     -105.175171
9.161                 0.96205574     -105.366098
9.162                0.961959719     -105.557502
9.163                 0.96186354     -105.749384
9.164                0.961767206     -105.941744
9.165                0.961670717     -106.134583
9.166                0.961574075     -106.327902
9.167                0.961477282     -106.521701
9.168                0.961380338     -106.715982
9.169                0.961283245     -106.910745
9.17                 0.961186005     -107.105991
9.171                0.961088619      -107.30172
9.172                0.960991088     -107.497934
9.173                0.960893415     -107.694632
9.174                  0.9607956     -107.891816
9.175                0.960697645     -108.089487
9.176                0.960599551     -108.287644
9.177                0.960501321     -108.486289
9.178                0.960402955     -108.685422
9.179                0.960304456     -108.885044
9.18                 0.960205825     -109.085156
9.181                0.960107064     -109.285757
9.182                0.960008174      -109.48685
9.183                0.959909157     -109.688434
9.184                0.959810015      -109.89051
9.185                 0.95971075     -110.093079
9.186                0.959611364     -110.296141
9.187                0.959511857     -110.499696
9.188                0.959412233     -110.703746
9.189                0.959312493     -110.908291
9.19                 0.959212639     -111.113332
9.191                0.959112672     -111.318868
9.192                0.959012595     -111.524901
9.193                 0.95891241     -111.731431
9.194                0.958812119     -111.938459
9.195                0.958711723     -112.145984
9.196                0.958611225     -112.354009
9.197                0.958510627     -112.562532
9.198                0.958409931     -112.771555
9.199                0.958309138     -112.981077
9.2                  0.958208252       -113.1911
9.201                0.958107274     -113.401624
9.202                0.958006207      -113.61265
9.203                0.957905052     -113.824177
9.204                0.957803813     -114.036206
9.205                 0.95770249     -114.248737
9.206                0.957601087     -114.461771
9.207                0.957499606     -114.675309
9.208                0.957398049      -114.88935
9.209                0.957296419     -115.103895
9.21                 0.957194717     -115.318944
9.211                0.957092947     -115.534498
9.212                0.956991111     -115.750556
9.213                0.956889211      -115.96712
9.214                 0.95678725     -116.184189
9.215                 0.95668523     -116.401764
9.216                0.956583154     -116.619845
9.217                0.956481024     -116.838432
9.218                0.956378844     -117.057525
9.219                0.956276615     -117.277125
9.22                 0.956174341     -117.497232
9.221                0.956072023     -117.717846
9.222                0.955969666     -117.938967
9.223                 0.95586727     -118.160596
9.224                0.955764841     -118.382731
9.225                0.955662379     -118.605375
9.226                0.955559888     -118.828526
9.227                0.955457371     -119.052185
9.228                0.955354831     -119.276352
9.229                 0.95525227     -119.501027
9.23                 0.955149691      -119.72621
9.231                0.955047099     -119.951901
9.232                0.954944494       -120.1781
9.233                0.954841881     -120.404807
9.234                0.954739262     -120.632023
9.235                0.954636641     -120.859746
9.236                0.954534021     -121.087978
9.237                0.954431405     -121.316717
9.238                0.954328795     -121.545965
9.239                0.954226196      -121.77572
9.24                 0.954123609     -122.005983
9.241                 0.95402104     -122.236753
9.242                 0.95391849     -122.468031
9.243                0.953815963     -122.699817
9.244                0.953713463     -122.932109
9.245                0.953610992     -123.164909
9.246                0.953508555     -123.398215
9.247                0.953406154     -123.632028
9.248                0.953303793     -123.866347
9.249                0.953201476     -124.101172
9.25                 0.953099205     -124.336503
9.251                0.952996985     -124.572339
9.252                0.952894818      -124.80868
9.253                0.952792709     -125.045527
9.254                0.952690661     -125.282878
9.255                0.952588678     -125.520732
9.256                0.952486763     -125.759091
9.257                 0.95238492     -125.997953
9.258                0.952283152     -126.237318
9.259                0.952181464     -126.477185
9.26                 0.952079859     -126.717554
9.261                0.951978341     -126.958425
9.262                0.951876913     -127.199797
9.263                 0.95177558     -127.441669
9.264                0.951674345     -127.684042
9.265                0.951573212     -127.926913
9.266                0.951472185     -128.170284
9.267                0.951371268     -128.414152
9.268                0.951270465     -128.658519
9.269                 0.95116978     -128.903382
9.27                 0.951069217     -129.148741
9.271                0.950968779     -129.394596
9.272                0.950868471     -129.640946
9.273                0.950768297     -129.887791
9.274                0.950668261     -130.135128
9.275                0.950568367     -130.382958
9.276                 0.95046862     -130.631281
9.277                0.950369022     -130.880094
9.278                0.950269579     -131.129397
9.279                0.950170295      -131.37919
9.28                 0.950071174     -131.629472
9.281                 0.94997222     -131.880241
9.282                0.949873437     -132.131496
9.283                 0.94977483     -132.383238
9.284                0.949676403     -132.635464
9.285                 0.94957816     -132.888174
9.286                0.949480106     -133.141367
9.287                0.949382245     -133.395042
9.288                0.949284581     -133.649197
9.289                0.949187119     -133.903832
9.29                 0.949089863     -134.158946
9.291                0.948992818     -134.414537
9.292                0.948895988     -134.670604
9.293                0.948799377     -134.927147
9.294                0.948702991     -135.184163
9.295                0.948606832     -135.441652
9.296                0.948510907     -135.699613
9.297                 0.94841522     -135.958044
9.298                0.948319774     -136.216944
9.299                0.948224576     -136.476311
9.3                  0.948129628     -136.736145
9.301                0.948034937     -136.996444
9.302                0.947940506     -137.257206
9.303                 0.94784634     -137.518431
9.304                0.947752444     -137.780116
9.305                0.947658822     -138.042261
9.306                0.947565479     -138.304863
9.307                0.947472421     -138.567922
9.308                 0.94737965     -138.831435
9.309                0.947287173     -139.095402
9.31                 0.947194994     -139.359821
9.311                0.947103117     -139.624689
9.312                0.947011548     -139.890006
9.313                0.946920291      -140.15577
9.314                0.946829351     -140.421979
9.315                0.946738732     -140.688632
9.316                 0.94664844     -140.955726
9.317                0.946558479     -141.223261
9.318                0.946468854     -141.491233
9.319                 0.94637957     -141.759642
9.32                 0.946290631     -142.028486
9.321                0.946202042     -142.297762
9.322                0.946113809     -142.567469
9.323                0.946025936     -142.837605
9.324                0.945938428     -143.108169
9.325                0.945851289     -143.379157
9.326                0.945764525     -143.650569
9.327                0.945678141     -143.922402
9.328                 0.94559214     -144.194654
9.329                0.945506528     -144.467323
9.33                  0.94542131     -144.740408
9.331                0.945336491     -145.013905
9.332                0.945252076     -145.287813
9.333                0.945168068      -145.56213
9.334                0.945084474     -145.836853
9.335                0.945001298     -146.111981
9.336                0.944918545     -146.387511
9.337                0.944836219     -146.663441
9.338                0.944754326     -146.939768
9.339                0.944672871     -147.216491
9.34                 0.944591857     -147.493607
9.341                 0.94451129     -147.771113
9.342                0.944431175     -148.049008
9.343                0.944351516     -148.327288
9.344                0.944272319     -148.605953
9.345                0.944193588     -148.884998
9.346                0.944115328     -149.164421
9.347                0.944037543     -149.444221
9.348                0.943960239     -149.724395
9.349                0.943883419     -150.004939
9.35                  0.94380709     -150.285852
9.351                0.943731255     -150.567131
9.352                0.943655919     -150.848773
9.353                0.943581087     -151.130776
9.354                0.943506764     -151.413136
9.355                0.943432954     -151.695852
9.356                0.943359662     -151.978921
9.357                0.943286893     -152.262339
9.358                 0.94321465     -152.546104
9.359                 0.94314294     -152.830214
9.36                 0.943071765     -153.114665
9.361                0.943001132     -153.399455
9.362                0.942931044     -153.684581
9.363                0.942861505      -153.97004
9.364                0.942792522     -154.255828
9.365                0.942724097     -154.541944
9.366                0.942656235     -154.828384
9.367                0.942588941     -155.115145
9.368                0.942522219     -155.402225
9.369                0.942456074     -155.689619
9.37                  0.94239051     -155.977326
9.371                0.942325531     -156.265342
9.372                0.942261141     -156.553664
9.373                0.942197345     -156.842289
9.374                0.942134147     -157.131214
9.375                0.942071552     -157.420435
9.376                0.942009563      -157.70995
9.377                0.941948184     -157.999755
9.378                 0.94188742     -158.289847
9.379                0.941827276     -158.580223
9.38                 0.941767753      -158.87088
9.381                0.941708858     -159.161814
9.382                0.941650594     -159.453022
9.383                0.941592965     -159.744501
9.384                0.941535974     -160.036248
9.385                0.941479627     -160.328258
9.386                0.941423925     -160.620529
9.387                0.941368875     -160.913058
9.388                0.941314478      -161.20584
9.389                0.941260739     -161.498873
9.39                 0.941207662     -161.792152
9.391                0.941155251     -162.085676
9.392                0.941103508     -162.379439
9.393                0.941052438     -162.673439
9.394                0.941002044     -162.967672
9.395                0.940952329     -163.262134
9.396                0.940903298     -163.556823
