! TOUCHSTONE file generated by CST DESIGN STUDIO
! Date and time: Tue Feb  4 14:13:32 2025
! Project name: C:\Work\MatlabApps\UnitCellOptimizationMatlab\CST\unitcell.cst
! Tree item: Tasks\Sweep1\SPara1\S-Parameters
! Header version: 2024
! Port assignment regex: !\s*Touchstone port\s*([0-9]+)\s*=\s*(CST MWS port|CST DES external port|CST DES block port)\s*(.+)\s* \(\"(.*)\"\)(\s*mode\s*([0-9]+))?.*
! Touchstone port assignment:
! Touchstone port 1 = CST DES external port 1 ("")
# GHz S MA R 50
9                    0.977809154     -62.9791127
9.001                0.977762837     -63.0671145
9.002                0.977716378     -63.1553219
9.003                0.977669777     -63.2437358
9.004                0.977623033     -63.3323568
9.005                0.977576145     -63.4211854
9.006                0.977529114     -63.5102224
9.007                0.977481938     -63.5994684
9.008                0.977434618      -63.688924
9.009                0.977387152     -63.7785899
9.01                 0.977339541     -63.8684669
9.011                0.977291784     -63.9585554
9.012                 0.97724388     -64.0488563
9.013                 0.97719583     -64.1393701
9.014                0.977147632     -64.2300975
9.015                0.977099286     -64.3210393
9.016                0.977050792      -64.412196
9.017                0.977002149     -64.5035684
9.018                0.976953357     -64.5951572
9.019                0.976904415     -64.6869629
9.02                 0.976855324     -64.7789863
9.021                0.976806081     -64.8712281
9.022                0.976756688      -64.963689
9.023                0.976707143     -65.0563696
9.024                0.976657447     -65.1492707
9.025                0.976607598     -65.2423929
9.026                0.976557596      -65.335737
9.027                0.976507441     -65.4293035
9.028                0.976457132     -65.5230933
9.029                0.976406669     -65.6171071
9.03                 0.976356051     -65.7113454
9.031                0.976305278     -65.8058092
9.032                 0.97625435     -65.9004989
9.033                0.976203265     -65.9954155
9.034                0.976152025     -66.0905595
9.035                0.976100627     -66.1859317
9.036                0.976049071     -66.2815328
9.037                0.975997358     -66.3773636
9.038                0.975945486     -66.4734247
9.039                0.975893456     -66.5697169
9.04                 0.975841266      -66.666241
9.041                0.975788917     -66.7629975
9.042                0.975736407     -66.8599874
9.043                0.975683737     -66.9572112
9.044                0.975630905     -67.0546698
9.045                0.975577912     -67.1523639
9.046                0.975524757     -67.2502942
9.047                0.975471439     -67.3484615
9.048                0.975417959     -67.4468664
9.049                0.975364314     -67.5455099
9.05                 0.975310506     -67.6443926
9.051                0.975256534     -67.7435152
9.052                0.975202396     -67.8428786
9.053                0.975148093     -67.9424835
9.054                0.975093625     -68.0423306
9.055                0.975038989     -68.1424207
9.056                0.974984188     -68.2427546
9.057                0.974929219     -68.3433331
9.058                0.974874082     -68.4441568
9.059                0.974818777     -68.5452267
9.06                 0.974763303     -68.6465434
9.061                0.974707661     -68.7481077
9.062                0.974651848     -68.8499205
9.063                0.974595866     -68.9519824
9.064                0.974539713     -69.0542944
9.065                0.974483389     -69.1568571
9.066                0.974426893     -69.2596714
9.067                0.974370226      -69.362738
9.068                0.974313386     -69.4660578
9.069                0.974256373     -69.5696315
9.07                 0.974199187       -69.67346
9.071                0.974141827      -69.777544
9.072                0.974084293     -69.8818843
9.073                0.974026584     -69.9864819
9.074                0.973968699     -70.0913373
9.075                0.973910639     -70.1964516
9.076                0.973852403     -70.3018254
9.077                 0.97379399     -70.4074597
9.078                  0.9737354     -70.5133552
9.079                0.973676632     -70.6195127
9.08                 0.973617686      -70.725933
9.081                0.973558562     -70.8326171
9.082                0.973499259     -70.9395657
9.083                0.973439776     -71.0467797
9.084                0.973380113     -71.1542598
9.085                 0.97332027     -71.2620069
9.086                0.973260246     -71.3700219
9.087                0.973200041     -71.4783056
9.088                0.973139653     -71.5868589
9.089                0.973079084     -71.6956825
9.09                 0.973018332     -71.8047774
9.091                0.972957396     -71.9141443
9.092                0.972896277     -72.0237842
9.093                0.972834974     -72.1336979
9.094                0.972773486     -72.2438862
9.095                0.972711813       -72.35435
9.096                0.972649955     -72.4650902
9.097                 0.97258791     -72.5761076
9.098                0.972525679     -72.6874031
9.099                0.972463262     -72.7989776
9.1                  0.972400657      -72.910832
9.101                0.972337864      -73.022967
9.102                0.972274883     -73.1353836
9.103                0.972211713     -73.2480827
9.104                0.972148354     -73.3610652
9.105                0.972084805     -73.4743319
9.106                0.972021067     -73.5878837
9.107                0.971957137     -73.7017215
9.108                0.971893017     -73.8158463
9.109                0.971828706     -73.9302588
9.11                 0.971764203       -74.04496
9.111                0.971699507     -74.1599508
9.112                0.971634619     -74.2752321
9.113                0.971569537     -74.3908048
9.114                0.971504262     -74.5066698
9.115                0.971438793     -74.6228279
9.116                0.971373129     -74.7392802
9.117                 0.97130727     -74.8560276
9.118                0.971241216     -74.9730708
9.119                0.971174967      -75.090411
9.12                 0.971108521     -75.2080489
9.121                0.971041878     -75.3259855
9.122                0.970975038     -75.4442217
9.123                0.970908001     -75.5627585
9.124                0.970840766     -75.6815967
9.125                0.970773333     -75.8007374
9.126                0.970705701     -75.9201814
9.127                0.970637869     -76.0399297
9.128                0.970569839     -76.1599831
9.129                0.970501608     -76.2803428
9.13                 0.970433176     -76.4010096
9.131                0.970364544     -76.5219844
9.132                0.970295711     -76.6432681
9.133                0.970226676     -76.7648619
9.134                0.970157439     -76.8867665
9.135                   0.970088      -77.008983
9.136                0.970018358     -77.1315122
9.137                0.969948513     -77.2543553
9.138                0.969878464      -77.377513
9.139                0.969808211     -77.5009864
9.14                 0.969737754     -77.6247765
9.141                0.969667092     -77.7488842
9.142                0.969596225     -77.8733105
9.143                0.969525152     -77.9980563
9.144                0.969453874     -78.1231227
9.145                0.969382389     -78.2485106
9.146                0.969310698     -78.3742209
9.147                0.969238799     -78.5002547
9.148                0.969166694      -78.626613
9.149                0.969094381     -78.7532967
9.15                 0.969021859     -78.8803068
9.151                 0.96894913     -79.0076443
9.152                0.968876192     -79.1353102
9.153                0.968803044     -79.2633055
9.154                0.968729687     -79.3916312
9.155                0.968656121     -79.5202882
9.156                0.968582344     -79.6492777
9.157                0.968508357     -79.7786005
9.158                0.968434159     -79.9082576
9.159                0.968359751     -80.0382502
9.16                  0.96828513     -80.1685792
9.161                0.968210299     -80.2992455
9.162                0.968135255     -80.4302503
9.163                0.968059999     -80.5615945
9.164                 0.96798453     -80.6932791
9.165                0.967908848     -80.8253052
9.166                0.967832954     -80.9576737
9.167                0.967756846     -81.0903858
9.168                0.967680524     -81.2234423
9.169                0.967603988     -81.3568444
9.17                 0.967527238      -81.490593
9.171                0.967450273     -81.6246893
9.172                0.967373093     -81.7591341
9.173                0.967295699     -81.8939286
9.174                0.967218089     -82.0290738
9.175                0.967140263     -82.1645706
9.176                0.967062222     -82.3004202
9.177                0.966983965     -82.4366237
9.178                0.966905491     -82.5731819
9.179                0.966826801      -82.710096
9.18                 0.966747894      -82.847367
9.181                0.966668771     -82.9849959
9.182                 0.96658943     -83.1229838
9.183                0.966509872     -83.2613318
9.184                0.966430096     -83.4000409
9.185                0.966350103     -83.5391121
9.186                0.966269892     -83.6785465
9.187                0.966189462     -83.8183451
9.188                0.966108815      -83.958509
9.189                0.966027949     -84.0990393
9.19                 0.965946864     -84.2399369
9.191                0.965865561     -84.3812031
9.192                0.965784039     -84.5228387
9.193                0.965702298      -84.664845
9.194                0.965620337     -84.8072229
9.195                0.965538158     -84.9499734
9.196                0.965455759     -85.0930978
9.197                0.965373141      -85.236597
9.198                0.965290303     -85.3804721
9.199                0.965207245     -85.5247241
9.2                  0.965123968     -85.6693542
9.201                0.965040471     -85.8143634
9.202                0.964956754     -85.9597528
9.203                0.964872817     -86.1055234
9.204                 0.96478866     -86.2516764
9.205                0.964704282     -86.3982127
9.206                0.964619685     -86.5451335
9.207                0.964534868     -86.6924398
9.208                 0.96444983     -86.8401328
9.209                0.964364572     -86.9882134
9.21                 0.964279094     -87.1366829
9.211                0.964193396     -87.2855421
9.212                0.964107478     -87.4347923
9.213                 0.96402134     -87.5844345
9.214                0.963934981     -87.7344698
9.215                0.963848402     -87.8848992
9.216                0.963761604     -88.0357239
9.217                0.963674585     -88.1869449
9.218                0.963587347     -88.3385633
9.219                0.963499888     -88.4905802
9.22                  0.96341221     -88.6429966
9.221                0.963324312     -88.7958137
9.222                0.963236195     -88.9490326
9.223                0.963147858     -89.1026542
9.224                0.963059303     -89.2566798
9.225                0.962970527     -89.4111103
9.226                0.962881533     -89.5659469
9.227                 0.96279232     -89.7211907
9.228                0.962702889     -89.8768427
9.229                0.962613239      -90.032904
9.23                  0.96252337     -90.1893757
9.231                0.962433284     -90.3462588
9.232                0.962342979     -90.5035546
9.233                0.962252457     -90.6612639
9.234                0.962161718      -90.819388
9.235                0.962070761      -90.977928
9.236                0.961979588     -91.1368847
9.237                0.961888198     -91.2962595
9.238                0.961796591     -91.4560533
9.239                0.961704769     -91.6162673
9.24                 0.961612731     -91.7769024
9.241                0.961520477     -91.9379598
9.242                0.961428008     -92.0994406
9.243                0.961335325     -92.2613459
9.244                0.961242427     -92.4236766
9.245                0.961149315      -92.586434
9.246                 0.96105599      -92.749619
9.247                0.960962452     -92.9132327
9.248                  0.9608687     -93.0772763
9.249                0.960774737     -93.2417507
9.25                 0.960680561     -93.4066571
9.251                0.960586174     -93.5719964
9.252                0.960491576     -93.7377699
9.253                0.960396768     -93.9039785
9.254                0.960301749     -94.0706234
9.255                0.960206521     -94.2377055
9.256                0.960111085     -94.4052259
9.257                0.960015439     -94.5731858
9.258                0.959919586     -94.7415861
9.259                0.959823526     -94.9104279
9.26                 0.959727259     -95.0797122
9.261                0.959630786     -95.2494402
9.262                0.959534107     -95.4196129
9.263                0.959437224     -95.5902312
9.264                0.959340137     -95.7612963
9.265                0.959242846     -95.9328093
9.266                0.959145352      -96.104771
9.267                0.959047656     -96.2771827
9.268                0.958949759     -96.4500452
9.269                0.958851661     -96.6233597
9.27                 0.958753364     -96.7971272
9.271                0.958654867     -96.9713487
9.272                0.958556172     -97.1460253
9.273                0.958457279     -97.3211579
9.274                 0.95835819     -97.4967476
9.275                0.958258905     -97.6727953
9.276                0.958159425     -97.8493022
9.277                0.958059751     -98.0262693
9.278                0.957959883     -98.2036974
9.279                0.957859824     -98.3815877
9.28                 0.957759573     -98.5599411
9.281                0.957659131     -98.7387587
9.282                  0.9575585     -98.9180414
9.283                0.957457681     -99.0977902
9.284                0.957356674     -99.2780061
9.285                0.957255481     -99.4586901
9.286                0.957154103     -99.6398432
9.287                 0.95705254     -99.8214663
9.288                0.956950794      -100.00356
9.289                0.956848866     -100.186127
9.29                 0.956746757     -100.369166
9.291                0.956644468     -100.552679
9.292                   0.956542     -100.736666
9.293                0.956439356      -100.92113
9.294                0.956336534      -101.10607
9.295                0.956233538     -101.291488
9.296                0.956130369     -101.477385
9.297                0.956027026     -101.663761
9.298                0.955923513     -101.850618
9.299                0.955819829     -102.037956
9.3                  0.955715978     -102.225777
9.301                0.955611959      -102.41408
9.302                0.955507774     -102.602868
9.303                0.955403425     -102.792141
9.304                0.955298913     -102.981899
9.305                 0.95519424     -103.172145
9.306                0.955089406     -103.362878
9.307                0.954984415       -103.5541
9.308                0.954879266     -103.745811
9.309                0.954773962     -103.938013
9.31                 0.954668504     -104.130705
9.311                0.954562894      -104.32389
9.312                0.954457133     -104.517567
9.313                0.954351224     -104.711738
9.314                0.954245167     -104.906404
9.315                0.954138964     -105.101565
9.316                0.954032618     -105.297222
9.317                0.953926129     -105.493376
9.318                0.953819501     -105.690028
9.319                0.953712733     -105.887178
9.32                 0.953605829     -106.084827
9.321                 0.95349879     -106.282977
9.322                0.953391618     -106.481628
9.323                0.953284315      -106.68078
9.324                0.953176883     -106.880435
9.325                0.953069323     -107.080592
9.326                0.952961638     -107.281254
9.327                 0.95285383      -107.48242
9.328                0.952745901     -107.684092
9.329                0.952637852      -107.88627
9.33                 0.952529687     -108.088954
9.331                0.952421406     -108.292146
9.332                0.952313012     -108.495846
9.333                0.952204508     -108.700055
9.334                0.952095896     -108.904773
9.335                0.951987177     -109.110002
9.336                0.951878354     -109.315741
9.337                0.951769429     -109.521991
9.338                0.951660405     -109.728754
9.339                0.951551284      -109.93603
9.34                 0.951442067     -110.143818
9.341                0.951332759     -110.352121
9.342                0.951223361     -110.560938
9.343                0.951113875      -110.77027
9.344                0.951004304     -110.980118
9.345                 0.95089465     -111.190482
9.346                0.950784917     -111.401363
9.347                0.950675106     -111.612761
9.348                 0.95056522     -111.824677
9.349                0.950455262     -112.037111
9.35                 0.950345234     -112.250064
9.351                 0.95023514     -112.463536
9.352                0.950124981     -112.677528
9.353                0.950014761      -112.89204
9.354                0.949904482     -113.107073
9.355                0.949794147     -113.322627
9.356                0.949683759     -113.538703
9.357                0.949573321     -113.755301
9.358                0.949462836     -113.972421
9.359                0.949352306     -114.190064
9.36                 0.949241735      -114.40823
9.361                0.949131125     -114.626919
9.362                 0.94902048     -114.846133
9.363                0.948909802      -115.06587
9.364                0.948799095     -115.286133
9.365                0.948688362      -115.50692
9.366                0.948577605     -115.728232
9.367                0.948466829      -115.95007
9.368                0.948356036     -116.172434
9.369                0.948245229     -116.395323
9.37                 0.948134412     -116.618739
9.371                0.948023588     -116.842681
9.372                0.947912761      -117.06715
9.373                0.947801933     -117.292146
9.374                0.947691108     -117.517669
9.375                0.947580289     -117.743719
9.376                0.947469481     -117.970296
9.377                0.947358686     -118.197401
9.378                0.947247907     -118.425034
9.379                0.947137149     -118.653194
9.38                 0.947026415     -118.881882
9.381                0.946915709     -119.111098
9.382                0.946805034     -119.340842
9.383                0.946694394     -119.571114
9.384                0.946583792     -119.801914
9.385                0.946473232     -120.033243
9.386                0.946362719     -120.265099
9.387                0.946252255     -120.497483
9.388                0.946141845     -120.730395
9.389                0.946031492     -120.963835
9.39                 0.945921201     -121.197803
9.391                0.945810975     -121.432298
9.392                0.945700818     -121.667321
9.393                0.945590734     -121.902872
9.394                0.945480727      -122.13895
9.395                0.945370802     -122.375555
9.396                0.945260961     -122.612687
