! TOUCHSTONE file generated by CST DESIGN STUDIO
! Date and time: Tue Feb  4 17:47:18 2025
! Project name: C:\Work\MatlabApps\UnitCellOptimizationMatlab\CST\unitcell.cst
! Tree item: Tasks\Sweep1\SPara1\S-Parameters
! Header version: 2024
! Port assignment regex: !\s*Touchstone port\s*([0-9]+)\s*=\s*(CST MWS port|CST DES external port|CST DES block port)\s*(.+)\s* \(\"(.*)\"\)(\s*mode\s*([0-9]+))?.*
! Touchstone port assignment:
! Touchstone port 1 = CST DES external port 1 ("")
# GHz S MA R 50
9                    0.928433502     -76.1701046
9.001                0.928267948     -76.2908166
9.002                0.928102224     -76.4118697
9.003                0.927936328     -76.5332653
9.004                0.927770259     -76.6550045
9.005                0.927604018     -76.7770885
9.006                0.927437601     -76.8995187
9.007                 0.92727101     -77.0222963
9.008                0.927104241     -77.1454225
9.009                0.926937296     -77.2688986
9.01                 0.926770171     -77.3927258
9.011                0.926602867     -77.5169055
9.012                0.926435382     -77.6414388
9.013                0.926267716     -77.7663271
9.014                0.926099867     -77.8915717
9.015                0.925931834     -78.0171737
9.016                0.925763617     -78.1431346
9.017                0.925595214     -78.2694555
9.018                0.925426624     -78.3961378
9.019                0.925257847     -78.5231828
9.02                 0.925088881     -78.6505917
9.021                0.924919725     -78.7783659
9.022                0.924750379     -78.9065067
9.023                0.924580841     -79.0350153
9.024                 0.92441111     -79.1638932
9.025                0.924241186     -79.2931416
9.026                0.924071067     -79.4227617
9.027                0.923900753     -79.5527551
9.028                0.923730242     -79.6831229
9.029                0.923559534     -79.8138665
9.03                 0.923388627     -79.9449872
9.031                0.923217521     -80.0764864
9.032                0.923046215     -80.2083655
9.033                0.922874708     -80.3406256
9.034                0.922702999     -80.4732683
9.035                0.922531086     -80.6062949
9.036                 0.92235897     -80.7397066
9.037                0.922186648     -80.8735049
9.038                0.922014121     -81.0076912
9.039                0.921841388     -81.1422667
9.04                 0.921668446     -81.2772329
9.041                0.921495297     -81.4125911
9.042                0.921321938     -81.5483427
9.043                0.921148369     -81.6844891
9.044                0.920974588     -81.8210316
9.045                0.920800596     -81.9579717
9.046                0.920626391     -82.0953108
9.047                0.920451973     -82.2330501
9.048                 0.92027734     -82.3711911
9.049                0.920102492     -82.5097353
9.05                 0.919927428      -82.648684
9.051                0.919752147     -82.7880385
9.052                0.919576648     -82.9278004
9.053                0.919400931     -83.0679711
9.054                0.919224995     -83.2085518
9.055                0.919048838     -83.3495441
9.056                0.918872461     -83.4909494
9.057                0.918695863     -83.6327691
9.058                0.918519042     -83.7750046
9.059                0.918341998     -83.9176574
9.06                 0.918164731     -84.0607288
9.061                0.917987239     -84.2042204
9.062                0.917809522     -84.3481335
9.063                0.917631579     -84.4924696
9.064                 0.91745341     -84.6372301
9.065                0.917275014     -84.7824164
9.066                0.917096389     -84.9280302
9.067                0.916917537     -85.0740726
9.068                0.916738455     -85.2205453
9.069                0.916559144     -85.3674497
9.07                 0.916379602     -85.5147872
9.071                 0.91619983     -85.6625593
9.072                0.916019826     -85.8107675
9.073                 0.91583959     -85.9594132
9.074                0.915659121     -86.1084979
9.075                0.915478419     -86.2580231
9.076                0.915297484     -86.4079902
9.077                0.915116314     -86.5584007
9.078                 0.91493491     -86.7092561
9.079                0.914753271     -86.8605579
9.08                 0.914571396     -87.0123076
9.081                0.914389285     -87.1645066
9.082                0.914206937     -87.3171564
9.083                0.914024353     -87.4702585
9.084                0.913841531     -87.6238145
9.085                0.913658471     -87.7778257
9.086                0.913475173     -87.9322938
9.087                0.913291637     -88.0872201
9.088                0.913107862     -88.2426063
9.089                0.912923848     -88.3984537
9.09                 0.912739595      -88.554764
9.091                0.912555101     -88.7115386
9.092                0.912370368     -88.8687789
9.093                0.912185394     -89.0264866
9.094                 0.91200018     -89.1846631
9.095                0.911814726       -89.34331
9.096                 0.91162903     -89.5024287
9.097                0.911443093     -89.6620208
9.098                0.911256915     -89.8220878
9.099                0.911070496     -89.9826312
9.1                  0.910883835     -90.1436525
9.101                0.910696932     -90.3051532
9.102                0.910509788     -90.4671349
9.103                0.910322402     -90.6295991
9.104                0.910134775     -90.7925473
9.105                0.909946905      -90.955981
9.106                0.909758794     -91.1199018
9.107                0.909570441     -91.2843112
9.108                0.909381847     -91.4492107
9.109                0.909193011     -91.6146018
9.11                 0.909003933     -91.7804861
9.111                0.908814614     -91.9468651
9.112                0.908625054     -92.1137403
9.113                0.908435252     -92.2811132
9.114                 0.90824521     -92.4489855
9.115                0.908054927     -92.6173585
9.116                0.907864404     -92.7862339
9.117                0.907673641     -92.9556132
9.118                0.907482638     -93.1254979
9.119                0.907291395     -93.2958895
9.12                 0.907099914     -93.4667896
9.121                0.906908193     -93.6381997
9.122                0.906716234     -93.8101213
9.123                0.906524038      -93.982556
9.124                0.906331604     -94.1555053
9.125                0.906138933     -94.3289706
9.126                0.905946025     -94.5029537
9.127                0.905752882     -94.6774559
9.128                0.905559503     -94.8524788
9.129                 0.90536589     -95.0280239
9.13                 0.905172043     -95.2040928
9.131                0.904977962      -95.380687
9.132                0.904783648      -95.557808
9.133                0.904589103     -95.7354573
9.134                0.904394327     -95.9136364
9.135                 0.90419932     -96.0923469
9.136                0.904004083     -96.2715903
9.137                0.903808618     -96.4513681
9.138                0.903612925     -96.6316818
9.139                0.903417006     -96.8125329
9.14                  0.90322086      -96.993923
9.141                 0.90302449     -97.1758535
9.142                0.902827895     -97.3583259
9.143                0.902631078     -97.5413418
9.144                0.902434039     -97.7249027
9.145                 0.90223678       -97.90901
9.146                0.902039301     -98.0936653
9.147                0.901841604       -98.27887
9.148                 0.90164369     -98.4646257
9.149                0.901445561     -98.6509337
9.15                 0.901247217     -98.8377957
9.151                0.901048661     -99.0252131
9.152                0.900849892     -99.2131874
9.153                0.900650914       -99.40172
9.154                0.900451727     -99.5908124
9.155                0.900252334     -99.7804662
9.156                0.900052734     -99.9706826
9.157                0.899852931     -100.161463
9.158                0.899652926      -100.35281
9.159                 0.89945272     -100.544723
9.16                 0.899252315     -100.737205
9.161                0.899051713     -100.930257
9.162                0.898850916     -101.123881
9.163                0.898649925     -101.318077
9.164                0.898448743     -101.512848
9.165                0.898247372     -101.708194
9.166                0.898045813     -101.904118
9.167                0.897844068      -102.10062
9.168                0.897642141     -102.297702
9.169                0.897440032     -102.495366
9.17                 0.897237743     -102.693612
9.171                0.897035278     -102.892443
9.172                0.896832639     -103.091859
9.173                0.896629827     -103.291861
9.174                0.896426845     -103.492453
9.175                0.896223696     -103.693634
9.176                0.896020382     -103.895406
9.177                0.895816905      -104.09777
9.178                0.895613268     -104.300728
9.179                0.895409474     -104.504281
9.18                 0.895205526      -104.70843
9.181                0.895001425     -104.913178
9.182                0.894797176     -105.118524
9.183                 0.89459278      -105.32447
9.184                0.894388241     -105.531019
9.185                0.894183561      -105.73817
9.186                0.893978743     -105.945925
9.187                0.893773791     -106.154286
9.188                0.893568708     -106.363253
9.189                0.893363496     -106.572829
9.19                  0.89315816     -106.783013
9.191                0.892952701     -106.993809
9.192                0.892747124     -107.205215
9.193                0.892541432     -107.417235
9.194                0.892335628     -107.629869
9.195                0.892129717     -107.843118
9.196                  0.8919237     -108.056984
9.197                0.891717582     -108.271468
9.198                0.891511367      -108.48657
9.199                0.891305058     -108.702292
9.2                  0.891098659     -108.918636
9.201                0.890892175     -109.135601
9.202                0.890685608     -109.353191
9.203                0.890478962     -109.571404
9.204                0.890272243     -109.790243
9.205                0.890065453     -110.009709
9.206                0.889858597     -110.229803
9.207                 0.88965168     -110.450526
9.208                0.889444705     -110.671878
9.209                0.889237676     -110.893861
9.21                 0.889030599     -111.116477
9.211                0.888823478     -111.339725
9.212                0.888616316     -111.563607
9.213                 0.88840912     -111.788124
9.214                0.888201892     -112.013277
9.215                0.887994639     -112.239066
9.216                0.887787364     -112.465494
9.217                0.887580074      -112.69256
9.218                0.887372771     -112.920266
9.219                0.887165463     -113.148612
9.22                 0.886958152     -113.377599
9.221                0.886750846     -113.607229
9.222                0.886543548     -113.837502
9.223                0.886336265     -114.068419
9.224                   0.886129      -114.29998
9.225                0.885921761     -114.532187
9.226                0.885714551      -114.76504
9.227                0.885507378      -114.99854
9.228                0.885300245     -115.232688
9.229                 0.88509316     -115.467484
9.23                 0.884886127      -115.70293
9.231                0.884679153     -115.939025
9.232                0.884472242     -116.175771
9.233                0.884265402     -116.413168
9.234                0.884058638     -116.651217
9.235                0.883851957     -116.889918
9.236                0.883645363     -117.129273
9.237                0.883438865     -117.369281
9.238                0.883232467     -117.609943
9.239                0.883026176      -117.85126
9.24                 0.882819998     -118.093232
9.241                0.882613941      -118.33586
9.242                 0.88240801     -118.579144
9.243                0.882202213     -118.823084
9.244                0.881996555     -119.067682
9.245                0.881791044     -119.312937
9.246                0.881585687      -119.55885
9.247                 0.88138049     -119.805421
9.248                 0.88117546      -120.05265
9.249                0.880970605     -120.300539
9.25                 0.880765931     -120.549086
9.251                0.880561446     -120.798293
9.252                0.880357157      -121.04816
9.253                0.880153072     -121.298686
9.254                0.879949197     -121.549873
9.255                 0.87974554     -121.801719
9.256                0.879542109     -122.054226
9.257                0.879338911     -122.307394
9.258                0.879135955     -122.561222
9.259                0.878933247     -122.815711
9.26                 0.878730796      -123.07086
9.261                 0.87852861     -123.326671
9.262                0.878326696     -123.583141
9.263                0.878125062     -123.840273
9.264                0.877923717     -124.098065
9.265                0.877722669     -124.356518
9.266                0.877521926     -124.615631
9.267                0.877321497     -124.875404
9.268                0.877121389     -125.135838
9.269                0.876921611     -125.396931
9.27                 0.876722173     -125.658684
9.271                0.876523081     -125.921096
9.272                0.876324346     -126.184167
9.273                0.876125975     -126.447898
9.274                0.875927978     -126.712286
9.275                0.875730363     -126.977333
9.276                0.875533139     -127.243037
9.277                0.875336316     -127.509398
9.278                0.875139902     -127.776416
9.279                0.874943906     -128.044091
9.28                 0.874748339     -128.312421
9.281                0.874553208     -128.581406
9.282                0.874358523     -128.851045
9.283                0.874164294     -129.121339
9.284                0.873970529     -129.392286
9.285                 0.87377724     -129.663885
9.286                0.873584434     -129.936136
9.287                0.873392122     -130.209038
9.288                0.873200313      -130.48259
9.289                0.873009018     -130.756792
9.29                 0.872818245     -131.031642
9.291                0.872628005      -131.30714
9.292                0.872438308     -131.583285
9.293                0.872249163     -131.860075
9.294                0.872060581      -132.13751
9.295                0.871872572     -132.415589
9.296                0.871685145      -132.69431
9.297                0.871498312     -132.973673
9.298                0.871312081     -133.253677
9.299                0.871126464     -133.534319
9.3                  0.870941472       -133.8156
9.301                0.870757113     -134.097517
9.302                0.870573399     -134.380069
9.303                 0.87039034     -134.663256
9.304                0.870207947     -134.947075
9.305                 0.87002623     -135.231526
9.306                  0.8698452     -135.516607
9.307                0.869664867     -135.802316
9.308                0.869485243     -136.088652
9.309                0.869306338     -136.375613
9.31                 0.869128162     -136.663198
9.311                0.868950727     -136.951405
9.312                0.868774043     -137.240233
9.313                0.868598122     -137.529679
9.314                0.868422974     -137.819743
9.315                 0.86824861     -138.110421
9.316                0.868075041     -138.401713
9.317                0.867902279     -138.693616
9.318                0.867730334     -138.986129
9.319                0.867559217     -139.279249
9.32                  0.86738894     -139.572975
9.321                0.867219513     -139.867305
9.322                0.867050948     -140.162236
9.323                0.866883256     -140.457767
9.324                0.866716448     -140.753895
9.325                0.866550535     -141.050618
9.326                 0.86638553     -141.347933
9.327                0.866221442      -141.64584
9.328                0.866058283     -141.944334
9.329                0.865896064     -142.243414
9.33                 0.865734798     -142.543078
9.331                0.865574494     -142.843323
9.332                0.865415165     -143.144146
9.333                0.865256822     -143.445546
9.334                0.865099475     -143.747518
9.335                0.864943137     -144.050062
9.336                0.864787819     -144.353174
9.337                0.864633532     -144.656851
9.338                0.864480287     -144.961091
9.339                0.864328096     -145.265891
9.34                 0.864176971     -145.571248
9.341                0.864026921     -145.877159
9.342                0.863877959     -146.183622
9.343                0.863730097     -146.490633
9.344                0.863583345     -146.798189
9.345                0.863437714     -147.106288
9.346                0.863293216     -147.414926
9.347                0.863149863       -147.7241
9.348                0.863007665     -148.033808
9.349                0.862866633     -148.344045
9.35                  0.86272678     -148.654808
9.351                0.862588115     -148.966095
9.352                 0.86245065     -149.277902
9.353                0.862314397     -149.590225
9.354                0.862179366     -149.903061
9.355                0.862045568     -150.216407
9.356                0.861913015      -150.53026
9.357                0.861781716     -150.844614
9.358                0.861651685     -151.159468
9.359                 0.86152293     -151.474817
9.36                 0.861395463     -151.790658
9.361                0.861269295     -152.106987
9.362                0.861144437       -152.4238
9.363                0.861020899     -152.741094
9.364                0.860898691     -153.058864
9.365                0.860777826     -153.377107
9.366                0.860658312     -153.695819
9.367                0.860540161     -154.014995
9.368                0.860423383     -154.334633
9.369                0.860307988     -154.654727
9.37                 0.860193987     -154.975274
9.371                0.860081389     -155.296269
9.372                0.859970206     -155.617709
9.373                0.859860447     -155.939589
9.374                0.859752122     -156.261905
9.375                0.859645242     -156.584653
9.376                0.859539815     -156.907828
9.377                0.859435852     -157.231426
9.378                0.859333363     -157.555443
9.379                0.859232357     -157.879874
9.38                 0.859132843     -158.204715
9.381                0.859034832      -158.52996
9.382                0.858938332     -158.855607
9.383                0.858843353     -159.181649
9.384                0.858749905     -159.508083
9.385                0.858657995     -159.834903
9.386                0.858567633     -160.162106
9.387                0.858478829     -160.489686
9.388                 0.85839159     -160.817638
9.389                0.858305926     -161.145958
9.39                 0.858221845     -161.474641
9.391                0.858139355     -161.803682
9.392                0.858058466     -162.133076
9.393                0.857979184     -162.462818
9.394                0.857901519     -162.792903
9.395                0.857825479     -163.123326
9.396                0.857751071     -163.454082
