! TOUCHSTONE file generated by CST DESIGN STUDIO
! Date and time: Tue Feb  4 17:47:14 2025
! Project name: C:\Work\MatlabApps\UnitCellOptimizationMatlab\CST\unitcell.cst
! Tree item: Tasks\Sweep1\SPara1\S-Parameters
! Header version: 2024
! Port assignment regex: !\s*Touchstone port\s*([0-9]+)\s*=\s*(CST MWS port|CST DES external port|CST DES block port)\s*(.+)\s* \(\"(.*)\"\)(\s*mode\s*([0-9]+))?.*
! Touchstone port assignment:
! Touchstone port 1 = CST DES external port 1 ("")
# GHz S MA R 50
9                    0.913827562      -87.291959
9.001                0.913589639     -87.4420409
9.002                0.913351659     -87.5925678
9.003                0.913113624     -87.7435411
9.004                0.912875531     -87.8949623
9.005                0.912637382     -88.0468329
9.006                0.912399176     -88.1991546
9.007                0.912160912     -88.3519287
9.008                0.911922591     -88.5051568
9.009                0.911684213     -88.6588404
9.01                 0.911445776      -88.812981
9.011                0.911207283     -88.9675802
9.012                0.910968731     -89.1226394
9.013                0.910730121     -89.2781602
9.014                0.910491453     -89.4341441
9.015                0.910252728     -89.5905927
9.016                0.910013944     -89.7475075
9.017                0.909775103       -89.90489
9.018                0.909536204     -90.0627417
9.019                0.909297247     -90.2210642
9.02                 0.909058232      -90.379859
9.021                 0.90881916     -90.5391277
9.022                0.908580031     -90.6988718
9.023                0.908340844     -90.8590928
9.024                0.908101601     -91.0197923
9.025                  0.9078623     -91.1809718
9.026                0.907622944     -91.3426329
9.027                0.907383531     -91.5047771
9.028                0.907144062      -91.667406
9.029                0.906904538     -91.8305211
9.03                 0.906664959      -91.994124
9.031                0.906425325     -92.1582162
9.032                0.906185637     -92.3227992
9.033                0.905945895     -92.4878747
9.034                0.905706099     -92.6534442
9.035                0.905466251     -92.8195092
9.036                 0.90522635     -92.9860713
9.037                0.904986398     -93.1531321
9.038                0.904746394     -93.3206931
9.039                 0.90450634     -93.4887558
9.04                 0.904266236     -93.6573219
9.041                0.904026083     -93.8263928
9.042                0.903785882     -93.9959701
9.043                0.903545632     -94.1660555
9.044                0.903305336     -94.3366504
9.045                0.903064994     -94.5077564
9.046                0.902824607     -94.6793751
9.047                0.902584175     -94.8515081
9.048                  0.9023437     -95.0241568
9.049                0.902103182     -95.1973228
9.05                 0.901862623     -95.3710078
9.051                0.901622023     -95.5452132
9.052                0.901381384     -95.7199407
9.053                0.901140706     -95.8951917
9.054                0.900899992     -96.0709678
9.055                0.900659241     -96.2472706
9.056                0.900418456     -96.4241016
9.057                0.900177637     -96.6014624
9.058                0.899936785     -96.7793546
9.059                0.899695903     -96.9577796
9.06                 0.899454991     -97.1367391
9.061                 0.89921405     -97.3162345
9.062                0.898973083     -97.4962675
9.063                0.898732091     -97.6768396
9.064                0.898491074     -97.8579522
9.065                0.898250035      -98.039607
9.066                0.898008976     -98.2218055
9.067                0.897767897     -98.4045492
9.068                0.897526801     -98.5878396
9.069                0.897285689     -98.7716784
9.07                 0.897044564     -98.9560669
9.071                0.896803426     -99.1410068
9.072                0.896562277     -99.3264996
9.073                0.896321121     -99.5125467
9.074                0.896079957     -99.6991498
9.075                0.895838789     -99.8863103
9.076                0.895597619      -100.07403
9.077                0.895356448      -100.26231
9.078                0.895115278     -100.451151
9.079                0.894874112     -100.640557
9.08                 0.894632953     -100.830527
9.081                0.894391801     -101.021063
9.082                 0.89415066     -101.212168
9.083                0.893909531     -101.403842
9.084                0.893668418     -101.596087
9.085                0.893427322     -101.788904
9.086                0.893186247     -101.982295
9.087                0.892945194     -102.176262
9.088                0.892704166     -102.370805
9.089                0.892463166     -102.565926
9.09                 0.892222196     -102.761628
9.091                 0.89198126      -102.95791
9.092                0.891740359     -103.154775
9.093                0.891499497     -103.352224
9.094                0.891258677     -103.550258
9.095                0.891017902      -103.74888
9.096                0.890777174     -103.948089
9.097                0.890536497     -104.147889
9.098                0.890295873     -104.348279
9.099                0.890055306     -104.549262
9.1                    0.8898148     -104.750839
9.101                0.889574356     -104.953011
9.102                 0.88933398      -105.15578
9.103                0.889093673     -105.359148
9.104                0.888853439     -105.563114
9.105                0.888613283     -105.767682
9.106                0.888373206     -105.972851
9.107                0.888133214     -106.178624
9.108                0.887893309     -106.385002
9.109                0.887653496     -106.591986
9.11                 0.887413777     -106.799578
9.111                0.887174158     -107.007778
9.112                0.886934641     -107.216589
9.113                0.886695231     -107.426011
9.114                0.886455932     -107.636045
9.115                0.886216747     -107.846694
9.116                0.885977681     -108.057958
9.117                0.885738738     -108.269838
9.118                0.885499923     -108.482337
9.119                0.885261239     -108.695454
9.12                  0.88502269     -108.909191
9.121                0.884784283      -109.12355
9.122                0.884546019     -109.338531
9.123                0.884307906     -109.554137
9.124                0.884069946     -109.770367
9.125                0.883832145     -109.987224
9.126                0.883594507     -110.204707
9.127                0.883357037      -110.42282
9.128                 0.88311974     -110.641562
9.129                0.882882621     -110.860935
9.13                 0.882645685      -111.08094
9.131                0.882408938     -111.301577
9.132                0.882172383     -111.522849
9.133                0.881936026     -111.744756
9.134                0.881699873     -111.967299
9.135                0.881463929      -112.19048
9.136                0.881228198     -112.414299
9.137                0.880992688     -112.638757
9.138                0.880757403     -112.863855
9.139                0.880522348     -113.089595
9.14                  0.88028753     -113.315977
9.141                0.880052954     -113.543003
9.142                0.879818626     -113.770672
9.143                0.879584552     -113.998987
9.144                0.879350737     -114.227948
9.145                0.879117189     -114.457556
9.146                0.878883911     -114.687812
9.147                0.878650912     -114.918716
9.148                0.878418197      -115.15027
9.149                0.878185772     -115.382475
9.15                 0.877953644     -115.615331
9.151                0.877721819     -115.848839
9.152                0.877490303     -116.082999
9.153                0.877259103     -116.317814
9.154                0.877028226     -116.553283
9.155                0.876797679     -116.789406
9.156                0.876567467     -117.026186
9.157                0.876337599     -117.263622
9.158                 0.87610808     -117.501716
9.159                0.875878918     -117.740467
9.16                  0.87565012     -117.979876
9.161                0.875421693     -118.219945
9.162                0.875193644     -118.460674
9.163                0.874965981     -118.702062
9.164                 0.87473871     -118.944112
9.165                0.874511839     -119.186823
9.166                0.874285375     -119.430196
9.167                0.874059327     -119.674231
9.168                0.873833701     -119.918929
9.169                0.873608505      -120.16429
9.17                 0.873383747     -120.410315
9.171                0.873159435     -120.657004
9.172                0.872935577     -120.904357
9.173                 0.87271218     -121.152376
9.174                0.872489253     -121.401059
9.175                0.872266804     -121.650408
9.176                 0.87204484     -121.900423
9.177                0.871823371     -122.151104
9.178                0.871602403     -122.402451
9.179                0.871381947     -122.654465
9.18                 0.871162009     -122.907145
9.181                0.870942599     -123.160492
9.182                0.870723725     -123.414507
9.183                0.870505396     -123.669188
9.184                 0.87028762     -123.924536
9.185                0.870070407     -124.180552
9.186                0.869853764     -124.437235
9.187                0.869637702     -124.694585
9.188                0.869422228     -124.952602
9.189                0.869207352     -125.211287
9.19                 0.868993083     -125.470639
9.191                 0.86877943     -125.730657
9.192                0.868566402     -125.991343
9.193                0.868354009     -126.252695
9.194                 0.86814226     -126.514714
9.195                0.867931164     -126.777399
9.196                0.867720731      -127.04075
9.197                 0.86751097     -127.304767
9.198                0.867301891     -127.569449
9.199                0.867093503     -127.834797
9.2                  0.866885817     -128.100809
9.201                0.866678841     -128.367485
9.202                0.866472586     -128.634825
9.203                0.866267062     -128.902829
9.204                0.866062278     -129.171496
9.205                0.865858245     -129.440825
9.206                0.865654973     -129.710816
9.207                0.865452471     -129.981468
9.208                 0.86525075      -130.25278
9.209                 0.86504982     -130.524753
9.21                 0.864849691     -130.797385
9.211                0.864650374     -131.070675
9.212                0.864451878     -131.344623
9.213                0.864254215     -131.619228
9.214                0.864057395     -131.894489
9.215                0.863861428     -132.170405
9.216                0.863666324     -132.446975
9.217                0.863472095     -132.724199
9.218                0.863278752     -133.002076
9.219                0.863086303     -133.280603
9.22                 0.862894762     -133.559782
9.221                0.862704137     -133.839609
9.222                 0.86251444     -134.120084
9.223                0.862325682     -134.401207
9.224                0.862137874     -134.682975
9.225                0.861951027     -134.965388
9.226                0.861765151     -135.248444
9.227                0.861580257     -135.532142
9.228                0.861396357     -135.816481
9.229                0.861213462     -136.101459
9.23                 0.861031582     -136.387075
9.231                0.860850729     -136.673327
9.232                0.860670914     -136.960214
9.233                0.860492148     -137.247735
9.234                0.860314443     -137.535887
9.235                0.860137808     -137.824669
9.236                0.859962257      -138.11408
9.237                0.859787799     -138.404117
9.238                0.859614447      -138.69478
9.239                0.859442211     -138.986066
9.24                 0.859271103     -139.277973
9.241                0.859101134       -139.5705
9.242                0.858932315     -139.863645
9.243                0.858764659     -140.157405
9.244                0.858598175      -140.45178
9.245                0.858432876     -140.746766
9.246                0.858268773     -141.042361
9.247                0.858105877     -141.338564
9.248                  0.8579442     -141.635373
9.249                0.857783753     -141.932785
9.25                 0.857624547     -142.230798
9.251                0.857466594     -142.529409
9.252                0.857309905     -142.828617
9.253                0.857154492     -143.128419
9.254                0.857000365     -143.428813
9.255                0.856847537     -143.729796
9.256                0.856696018     -144.031365
9.257                0.856545821     -144.333519
9.258                0.856396955     -144.636254
9.259                0.856249433     -144.939569
9.26                 0.856103265      -145.24346
9.261                0.855958464     -145.547924
9.262                 0.85581504     -145.852959
9.263                0.855673004     -146.158562
9.264                0.855532368     -146.464731
9.265                0.855393143     -146.771462
9.266                 0.85525534     -147.078752
9.267                 0.85511897     -147.386599
9.268                0.854984043     -147.694999
9.269                0.854850572      -148.00395
9.27                 0.854718567     -148.313448
9.271                0.854588039     -148.623491
9.272                0.854458999     -148.934074
9.273                0.854331457     -149.245195
9.274                0.854205426     -149.556851
9.275                0.854080914     -149.869038
9.276                0.853957933     -150.181753
9.277                0.853836495     -150.494992
9.278                0.853716608     -150.808752
9.279                0.853598284      -151.12303
9.28                 0.853481533     -151.437821
9.281                0.853366366     -151.753123
9.282                0.853252793     -152.068932
9.283                0.853140825     -152.385244
9.284                0.853030471     -152.702056
9.285                0.852921741     -153.019363
9.286                0.852814646     -153.337162
9.287                0.852709196     -153.655449
9.288                0.852605401     -153.974221
9.289                 0.85250327     -154.293472
9.29                 0.852402813       -154.6132
9.291                 0.85230404     -154.933401
9.292                0.852206961     -155.254069
9.293                0.852111585     -155.575202
9.294                0.852017921     -155.896795
9.295                0.851925978     -156.218844
9.296                0.851835767     -156.541344
9.297                0.851747295     -156.864292
9.298                0.851660573     -157.187683
9.299                0.851575608     -157.511513
9.3                  0.851492411     -157.835777
9.301                0.851410988     -158.160472
9.302                 0.85133135     -158.485592
9.303                0.851253504     -158.811133
9.304                0.851177459     -159.137091
9.305                0.851103224      -159.46346
9.306                0.851030805     -159.790237
9.307                0.850960212     -160.117417
9.308                0.850891453     -160.444995
9.309                0.850824534     -160.772966
9.31                 0.850759464     -161.101326
9.311                 0.85069625      -161.43007
9.312                  0.8506349     -161.759192
9.313                 0.85057542     -162.088689
9.314                0.850517819     -162.418555
9.315                0.850462102     -162.748785
9.316                0.850408278     -163.079375
9.317                0.850356352     -163.410318
9.318                0.850306331     -163.741611
9.319                0.850258221     -164.073248
9.32                  0.85021203     -164.405224
9.321                0.850167763     -164.737534
9.322                0.850125425     -165.070172
9.323                0.850085024     -165.403134
9.324                0.850046564     -165.736414
9.325                0.850010051     -166.070007
9.326                 0.84997549     -166.403908
9.327                0.849942888     -166.738111
9.328                0.849912248     -167.072611
9.329                0.849883576     -167.407402
9.33                 0.849856876      -167.74248
9.331                0.849832153     -168.077838
9.332                0.849809412     -168.413471
9.333                0.849788657     -168.749374
9.334                0.849769891      -169.08554
9.335                0.849753119     -169.421966
9.336                0.849738345     -169.758644
9.337                0.849725571      -170.09557
9.338                0.849714802     -170.432737
9.339                0.849706041      -170.77014
9.34                 0.849699291     -171.107773
9.341                0.849694554     -171.445631
9.342                0.849691833     -171.783708
9.343                0.849691131     -172.121997
9.344                0.849692451     -172.460494
9.345                0.849695794     -172.799193
9.346                0.849701162     -173.138087
9.347                0.849708557      -173.47717
9.348                0.849717981     -173.816438
9.349                0.849729435     -174.155883
9.35                  0.84974292     -174.495501
9.351                0.849758438     -174.835284
9.352                0.849775989     -175.175228
9.353                0.849795574     -175.515326
9.354                0.849817194     -175.855573
9.355                0.849840849     -176.195961
9.356                0.849866538     -176.536486
9.357                0.849894262     -176.877141
9.358                0.849924021      -177.21792
9.359                0.849955813     -177.558818
9.36                 0.849989639     -177.899827
9.361                0.850025498     -178.240943
9.362                0.850063389     -178.582158
9.363                0.850103309     -178.923467
9.364                0.850145259     -179.264864
9.365                0.850189236     -179.606343
9.366                0.850235238     -179.947897
9.367                0.850283264      179.710479
9.368                0.850333311      179.368793
9.369                0.850385378      179.027049
9.37                  0.85043946      178.685254
9.371                0.850495557      178.343414
9.372                0.850553664      178.001536
9.373                0.850613778      177.659625
9.374                0.850675897      177.317688
9.375                0.850740017      176.975731
9.376                0.850806133       176.63376
9.377                0.850874243      176.291781
9.378                0.850944342        175.9498
9.379                0.851016425      175.607824
9.38                 0.851090489      175.265858
9.381                0.851166528      174.923909
9.382                0.851244538      174.581983
9.383                0.851324513      174.240087
9.384                 0.85140645      173.898225
9.385                0.851490341      173.556405
9.386                0.851576182      173.214633
9.387                0.851663967      172.872914
9.388                0.851753689      172.531256
9.389                0.851845344      172.189663
9.39                 0.851938923      171.848142
9.391                0.852034422        171.5067
9.392                0.852131833      171.165341
9.393                 0.85223115      170.824074
9.394                0.852332365      170.482902
9.395                0.852435471      170.141833
9.396                0.852540462      169.800873
