! TOUCHSTONE file generated by CST DESIGN STUDIO
! Date and time: Tue Feb  4 16:45:49 2025
! Project name: C:\Work\MatlabApps\UnitCellOptimizationMatlab\CST\unitcell.cst
! Tree item: Tasks\Sweep1\SPara1\S-Parameters
! Header version: 2024
! Port assignment regex: !\s*Touchstone port\s*([0-9]+)\s*=\s*(CST MWS port|CST DES external port|CST DES block port)\s*(.+)\s* \(\"(.*)\"\)(\s*mode\s*([0-9]+))?.*
! Touchstone port assignment:
! Touchstone port 1 = CST DES external port 1 ("")
# GHz S MA R 50
9                    0.966795596     -90.2760619
9.001                 0.96672058     -90.4385121
9.002                0.966645121     -90.6014128
9.003                0.966569217     -90.7647652
9.004                0.966492866     -90.9285704
9.005                0.966416069     -91.0928297
9.006                0.966338824     -91.2575443
9.007                0.966261129     -91.4227154
9.008                0.966182983     -91.5883441
9.009                0.966104386     -91.7544317
9.01                 0.966025335     -91.9209795
9.011                0.965945831     -92.0879885
9.012                0.965865872       -92.25546
9.013                0.965785456     -92.4233952
9.014                0.965704584     -92.5917953
9.015                0.965623253     -92.7606615
9.016                0.965541462      -92.929995
9.017                0.965459212      -93.099797
9.018                0.965376499     -93.2700686
9.019                0.965293325     -93.4408111
9.02                 0.965209686     -93.6120257
9.021                0.965125584     -93.7837136
9.022                0.965041016     -93.9558758
9.023                0.964955981     -94.1285137
9.024                 0.96487048     -94.3016284
9.025                 0.96478451     -94.4752211
9.026                0.964698071      -94.649293
9.027                0.964611161     -94.8238452
9.028                0.964523781     -94.9988789
9.029                0.964435929     -95.1743954
9.03                 0.964347605     -95.3503957
9.031                0.964258806      -95.526881
9.032                0.964169534     -95.7038526
9.033                0.964079786     -95.8813115
9.034                0.963989562      -96.059259
9.035                0.963898862     -96.2376962
9.036                0.963807684     -96.4166242
9.037                0.963716028     -96.5960442
9.038                0.963623893     -96.7759573
9.039                0.963531279     -96.9563648
9.04                 0.963438184     -97.1372677
9.041                0.963344608     -97.3186672
9.042                0.963250551     -97.5005644
9.043                0.963156012     -97.6829604
9.044                0.963060989     -97.8658565
9.045                0.962965484     -98.0492536
9.046                0.962869494      -98.233153
9.047                 0.96277302     -98.4175558
9.048                0.962676061      -98.602463
9.049                0.962578616     -98.7878758
9.05                 0.962480686     -98.9737953
9.051                0.962382269     -99.1602225
9.052                0.962283365     -99.3471587
9.053                0.962183974     -99.5346048
9.054                0.962084095     -99.7225621
9.055                0.961983728     -99.9110314
9.056                0.961882873     -100.100014
9.057                 0.96178153     -100.289511
9.058                0.961679697     -100.479523
9.059                0.961577376     -100.670052
9.06                 0.961474564     -100.861098
9.061                0.961371264     -101.052663
9.062                0.961267473     -101.244747
9.063                0.961163192     -101.437352
9.064                0.961058422     -101.630479
9.065                0.960953161     -101.824129
9.066                 0.96084741     -102.018302
9.067                0.960741168        -102.213
9.068                0.960634437     -102.408223
9.069                0.960527214     -102.603974
9.07                 0.960419502     -102.800252
9.071                0.960311299     -102.997059
9.072                0.960202606     -103.194396
9.073                0.960093423     -103.392264
9.074                0.959983751     -103.590663
9.075                0.959873588     -103.789595
9.076                0.959762936      -103.98906
9.077                0.959651795     -104.189061
9.078                0.959540165     -104.389596
9.079                0.959428047     -104.590668
9.08                  0.95931544     -104.792278
9.081                0.959202345     -104.994426
9.082                0.959088762     -105.197113
9.083                0.958974693      -105.40034
9.084                0.958860137     -105.604109
9.085                0.958745095     -105.808419
9.086                0.958629567     -106.013272
9.087                0.958513555     -106.218668
9.088                0.958397058      -106.42461
9.089                0.958280077     -106.631096
9.09                 0.958162614     -106.838129
9.091                0.958044668     -107.045709
9.092                0.957926241     -107.253837
9.093                0.957807333     -107.462513
9.094                0.957687945     -107.671739
9.095                0.957568078     -107.881515
9.096                0.957447734     -108.091843
9.097                0.957326912     -108.302722
9.098                0.957205614     -108.514154
9.099                0.957083841     -108.726139
9.1                  0.956961594     -108.938678
9.101                0.956838874     -109.151772
9.102                0.956715682     -109.365422
9.103                 0.95659202     -109.579628
9.104                0.956467888     -109.794391
9.105                0.956343289     -110.009712
9.106                0.956218222     -110.225591
9.107                0.956092691     -110.442029
9.108                0.955966695     -110.659026
9.109                0.955840237     -110.876584
9.11                 0.955713318     -111.094703
9.111                 0.95558594     -111.313384
9.112                0.955458104     -111.532626
9.113                0.955329811     -111.752431
9.114                0.955201064       -111.9728
9.115                0.955071864     -112.193732
9.116                0.954942213     -112.415229
9.117                0.954812113     -112.637291
9.118                0.954681566     -112.859918
9.119                0.954550573     -113.083112
9.12                 0.954419136     -113.306871
9.121                0.954287258     -113.531198
9.122                0.954154941     -113.756092
9.123                0.954022186     -113.981554
9.124                0.953888996     -114.207584
9.125                0.953755373     -114.434183
9.126                0.953621319     -114.661352
9.127                0.953486837     -114.889089
9.128                0.953351929     -115.117397
9.129                0.953216597     -115.346275
9.13                 0.953080843     -115.575723
9.131                0.952944671     -115.805743
9.132                0.952808083     -116.036333
9.133                0.952671082     -116.267495
9.134                0.952533669     -116.499229
9.135                0.952395848     -116.731536
9.136                0.952257622     -116.964414
9.137                0.952118993     -117.197865
9.138                0.951979965     -117.431889
9.139                0.951840539     -117.666485
9.14                  0.95170072     -117.901655
9.141                 0.95156051     -118.137398
9.142                0.951419913     -118.373715
9.143                0.951278931     -118.610605
9.144                0.951137567     -118.848069
9.145                0.950995826     -119.086106
9.146                 0.95085371     -119.324718
9.147                0.950711222     -119.563903
9.148                0.950568367     -119.803662
9.149                0.950425147     -120.043995
9.15                 0.950281567     -120.284901
9.151                0.950137629     -120.526382
9.152                0.949993337     -120.768437
9.153                0.949848695     -121.011065
9.154                0.949703708     -121.254267
9.155                0.949558378     -121.498042
9.156                 0.94941271     -121.742391
9.157                0.949266707     -121.987313
9.158                0.949120374     -122.232808
9.159                0.948973714     -122.478876
9.16                 0.948826733     -122.725516
9.161                0.948679433     -122.972729
9.162                0.948531819     -123.220514
9.163                0.948383896     -123.468871
9.164                0.948235668       -123.7178
9.165                 0.94808714     -123.967299
9.166                0.947938315      -124.21737
9.167                0.947789198     -124.468011
9.168                0.947639795     -124.719222
9.169                0.947490109     -124.971003
9.17                 0.947340146     -125.223353
9.171                0.947189909     -125.476272
9.172                0.947039405      -125.72976
9.173                0.946888638     -125.983815
9.174                0.946737613     -126.238437
9.175                0.946586334     -126.493626
9.176                0.946434808     -126.749381
9.177                0.946283039     -127.005702
9.178                0.946131033     -127.262587
9.179                0.945978794     -127.520037
9.18                 0.945826328      -127.77805
9.181                0.945673641     -128.036626
9.182                0.945520738     -128.295764
9.183                0.945367625     -128.555464
9.184                0.945214306     -128.815724
9.185                0.945060788     -129.076543
9.186                0.944907077     -129.337922
9.187                0.944753178     -129.599858
9.188                0.944599097     -129.862352
9.189                0.944444839     -130.125402
9.19                 0.944290412     -130.389007
9.191                0.944135821     -130.653166
9.192                0.943981072     -130.917879
9.193                 0.94382617     -131.183144
9.194                0.943671123      -131.44896
9.195                0.943515937     -131.715326
9.196                0.943360618     -131.982242
9.197                0.943205171     -132.249705
9.198                0.943049605     -132.517715
9.199                0.942893924      -132.78627
9.2                  0.942738137      -133.05537
9.201                0.942582248     -133.325013
9.202                0.942426266     -133.595198
9.203                0.942270196     -133.865923
9.204                0.942114046     -134.137187
9.205                0.941957822     -134.408989
9.206                0.941801532     -134.681328
9.207                0.941645181     -134.954201
9.208                0.941488778     -135.227608
9.209                0.941332329     -135.501547
9.21                 0.941175841     -135.776017
9.211                0.941019322     -136.051015
9.212                0.940862779     -136.326541
9.213                0.940706218     -136.602593
9.214                0.940549648     -136.879169
9.215                0.940393076     -137.156268
9.216                0.940236508     -137.433887
9.217                0.940079954     -137.712026
9.218                0.939923419     -137.990682
9.219                0.939766913     -138.269853
9.22                 0.939610442     -138.549539
9.221                0.939454013     -138.829736
9.222                0.939297636     -139.110443
9.223                0.939141318     -139.391659
9.224                0.938985065     -139.673381
9.225                0.938828888     -139.955607
9.226                0.938672792     -140.238336
9.227                0.938516787     -140.521564
9.228                 0.93836088     -140.805292
9.229                0.938205079     -141.089515
9.23                 0.938049393     -141.374232
9.231                0.937893829     -141.659441
9.232                0.937738396      -141.94514
9.233                0.937583102     -142.231326
9.234                0.937427955     -142.517997
9.235                0.937272964     -142.805152
9.236                0.937118137     -143.092787
9.237                0.936963482       -143.3809
9.238                0.936809008     -143.669489
9.239                0.936654724     -143.958552
9.24                 0.936500637     -144.248086
9.241                0.936346756     -144.538089
9.242                 0.93619309     -144.828557
9.243                0.936039648      -145.11949
9.244                0.935886437     -145.410883
9.245                0.935733467     -145.702735
9.246                0.935580747     -145.995043
9.247                0.935428285     -146.287804
9.248                 0.93527609     -146.581015
9.249                0.935124171     -146.874675
9.25                 0.934972536     -147.168779
9.251                0.934821194     -147.463326
9.252                0.934670155     -147.758312
9.253                0.934519426     -148.053734
9.254                0.934369018     -148.349591
9.255                0.934218939     -148.645878
9.256                0.934069197     -148.942594
9.257                0.933919802     -149.239734
9.258                0.933770763     -149.537296
9.259                0.933622089     -149.835277
9.26                 0.933473788     -150.133674
9.261                 0.93332587     -150.432484
9.262                0.933178344     -150.731703
9.263                0.933031219     -151.031329
9.264                0.932884504     -151.331359
9.265                0.932738208     -151.631788
9.266                 0.93259234     -151.932614
9.267                0.932446909     -152.233834
9.268                0.932301924     -152.535445
9.269                0.932157395     -152.837442
9.27                  0.93201333     -153.139823
9.271                0.931869739     -153.442584
9.272                 0.93172663     -153.745722
9.273                0.931584013     -154.049233
9.274                0.931441897     -154.353114
9.275                 0.93130029     -154.657362
9.276                0.931159203     -154.961973
9.277                0.931018643     -155.266942
9.278                0.930878621     -155.572268
9.279                0.930739145     -155.877946
9.28                 0.930600224     -156.183972
9.281                0.930461868     -156.490342
9.282                0.930324084     -156.797054
9.283                0.930186883     -157.104104
9.284                0.930050274     -157.411486
9.285                0.929914264     -157.719199
9.286                0.929778864     -158.027237
9.287                0.929644082     -158.335598
9.288                0.929509928     -158.644277
9.289                0.929376409      -158.95327
9.29                 0.929243535     -159.262574
9.291                0.929111315     -159.572184
9.292                0.928979758     -159.882097
9.293                0.928848871     -160.192309
9.294                0.928718665     -160.502815
9.295                0.928589148     -160.813611
9.296                0.928460329     -161.124694
9.297                0.928332215     -161.436059
9.298                0.928204817     -161.747703
9.299                0.928078142      -162.05962
9.3                  0.927952199     -162.371808
9.301                0.927826997     -162.684261
9.302                0.927702543     -162.996976
9.303                0.927578847     -163.309948
9.304                0.927455917     -163.623173
9.305                0.927333761     -163.936647
9.306                0.927212388     -164.250365
9.307                0.927091805     -164.564323
9.308                0.926972021     -164.878518
9.309                0.926853045     -165.192943
9.31                 0.926734883     -165.507596
9.311                0.926617545     -165.822472
9.312                0.926501039     -166.137565
9.313                0.926385371     -166.452873
9.314                 0.92627055      -166.76839
9.315                0.926156585     -167.084112
9.316                0.926043482     -167.400034
9.317                0.925931249     -167.716152
9.318                0.925819895     -168.032462
9.319                0.925709426     -168.348958
9.32                  0.92559985     -168.665637
9.321                0.925491174     -168.982493
9.322                0.925383407     -169.299522
9.323                0.925276555      -169.61672
9.324                0.925170625     -169.934082
9.325                0.925065625     -170.251603
9.326                0.924961561     -170.569279
9.327                0.924858442     -170.887104
9.328                0.924756273     -171.205075
9.329                0.924655062     -171.523186
9.33                 0.924554814     -171.841433
9.331                0.924455538     -172.159811
9.332                 0.92435724     -172.478315
9.333                0.924259926     -172.796941
9.334                0.924163603     -173.115684
9.335                0.924068277     -173.434539
9.336                0.923973954     -173.753502
9.337                0.923880641     -174.072567
9.338                0.923788343     -174.391729
9.339                0.923697068     -174.710985
9.34                  0.92360682     -175.030329
9.341                0.923517606     -175.349756
9.342                0.923429431     -175.669262
9.343                0.923342301     -175.988841
9.344                0.923256223     -176.308489
9.345                  0.9231712     -176.628201
9.346                0.923087239     -176.947973
9.347                0.923004344     -177.267798
9.348                0.922922522     -177.587673
9.349                0.922841778     -177.907593
9.35                 0.922762115     -178.227552
9.351                 0.92268354     -178.547546
9.352                0.922606057      -178.86757
9.353                 0.92252967     -179.187619
9.354                0.922454385     -179.507688
9.355                0.922380206     -179.827772
9.356                0.922307137      179.852133
9.357                0.922235183      179.532033
9.358                0.922164348      179.211932
9.359                0.922094636      178.891835
9.36                 0.922026051      178.571748
9.361                0.921958597      178.251674
9.362                0.921892278       177.93162
9.363                0.921827097      177.611589
9.364                0.921763058      177.291587
9.365                0.921700165      176.971618
9.366                0.921638421      176.651688
9.367                0.921577829      176.331802
9.368                0.921518392      176.011963
9.369                0.921460114      175.692178
9.37                 0.921402997       175.37245
9.371                0.921347044      175.052786
9.372                0.921292259      174.733189
9.373                0.921238642      174.413664
9.374                0.921186198      174.094216
9.375                0.921134929      173.774851
9.376                0.921084836      173.455573
9.377                0.921035922      173.136386
9.378                0.920988189      172.817296
9.379                 0.92094164      172.498307
9.38                 0.920896275      172.179424
9.381                0.920852096      171.860653
9.382                0.920809106      171.541997
9.383                0.920767306      171.223461
9.384                0.920726696       170.90505
9.385                 0.92068728       170.58677
9.386                0.920649056      170.268624
9.387                0.920612028      169.950617
9.388                0.920576195      169.632754
9.389                0.920541559       169.31504
9.39                  0.92050812      168.997479
9.391                0.920475879      168.680076
9.392                0.920444836      168.362836
9.393                0.920414992      168.045763
9.394                0.920386348      167.728862
9.395                0.920358902      167.412138
9.396                0.920332656      167.095595
