! TOUCHSTONE file generated by CST DESIGN STUDIO
! Date and time: Tue Feb  4 16:45:53 2025
! Project name: C:\Work\MatlabApps\UnitCellOptimizationMatlab\CST\unitcell.cst
! Tree item: Tasks\Sweep1\SPara1\S-Parameters
! Header version: 2024
! Port assignment regex: !\s*Touchstone port\s*([0-9]+)\s*=\s*(CST MWS port|CST DES external port|CST DES block port)\s*(.+)\s* \(\"(.*)\"\)(\s*mode\s*([0-9]+))?.*
! Touchstone port assignment:
! Touchstone port 1 = CST DES external port 1 ("")
# GHz S MA R 50
9                    0.968761775     -84.4676914
9.001                0.968687254     -84.6137578
9.002                0.968612291     -84.7602221
9.003                0.968536886     -84.9070854
9.004                0.968461037     -85.0543488
9.005                0.968384744     -85.2020136
9.006                0.968308004     -85.3500809
9.007                0.968230817     -85.4985518
9.008                0.968153182     -85.6474276
9.009                0.968075097     -85.7967093
9.01                 0.967996562     -85.9463982
9.011                0.967917576     -86.0964954
9.012                0.967838137     -86.2470021
9.013                0.967758243     -86.3979194
9.014                0.967677896     -86.5492485
9.015                0.967597092     -86.7009906
9.016                0.967515831     -86.8531469
9.017                0.967434112     -87.0057185
9.018                0.967351934     -87.1587066
9.019                0.967269296     -87.3121124
9.02                 0.967186197      -87.465937
9.021                0.967102636     -87.6201816
9.022                0.967018611     -87.7748475
9.023                0.966934122     -87.9299357
9.024                0.966849168     -88.0854475
9.025                0.966763748     -88.2413839
9.026                0.966677861     -88.3977463
9.027                0.966591505     -88.5545358
9.028                0.966504681     -88.7117535
9.029                0.966417386     -88.8694007
9.03                  0.96632962     -89.0274785
9.031                0.966241382     -89.1859881
9.032                0.966152672     -89.3449306
9.033                0.966063488     -89.5043073
9.034                0.965973829     -89.6641194
9.035                0.965883694     -89.8243679
9.036                0.965793084     -89.9850542
9.037                0.965701995     -90.1461793
9.038                0.965610429     -90.3077445
9.039                0.965518384     -90.4697509
9.04                 0.965425859     -90.6321997
9.041                0.965332853      -90.795092
9.042                0.965239366     -90.9584292
9.043                0.965145397     -91.1222123
9.044                0.965050945     -91.2864425
9.045                0.964956009      -91.451121
9.046                0.964860588      -91.616249
9.047                0.964764682     -91.7818276
9.048                0.964668291     -91.9478581
9.049                0.964571413     -92.1143415
9.05                 0.964474047     -92.2812791
9.051                0.964376193     -92.4486721
9.052                0.964277851     -92.6165215
9.053                0.964179019     -92.7848286
9.054                0.964079697     -92.9535946
9.055                0.963979885     -93.1228206
9.056                0.963879582     -93.2925078
9.057                0.963778786     -93.4626573
9.058                0.963677499     -93.6332703
9.059                0.963575719      -93.804348
9.06                 0.963473445     -93.9758916
9.061                0.963370677     -94.1479021
9.062                0.963267415     -94.3203808
9.063                0.963163658     -94.4933287
9.064                0.963059405     -94.6667471
9.065                0.962954657     -94.8406372
9.066                0.962849412         -95.015
9.067                0.962743671     -95.1898367
9.068                0.962637433     -95.3651484
9.069                0.962530697     -95.5409363
9.07                 0.962423464     -95.7172016
9.071                0.962315733     -95.8939453
9.072                0.962207503     -96.0711687
9.073                0.962098774     -96.2488727
9.074                0.961989547     -96.4270587
9.075                0.961879821     -96.6057276
9.076                0.961769595     -96.7848807
9.077                0.961658869      -96.964519
9.078                0.961547644     -97.1446437
9.079                0.961435919     -97.3252559
9.08                 0.961323694     -97.5063566
9.081                0.961210968     -97.6879471
9.082                0.961097743     -97.8700283
9.083                0.960984017     -98.0526015
9.084                 0.96086979     -98.2356677
9.085                0.960755064     -98.4192279
9.086                0.960639837     -98.6032834
9.087                0.960524109     -98.7878352
9.088                0.960407882     -98.9728843
9.089                0.960291154     -99.1584318
9.09                 0.960173926     -99.3444789
9.091                0.960056199     -99.5310266
9.092                0.959937971      -99.718076
9.093                0.959819244      -99.905628
9.094                0.959700018     -100.093684
9.095                0.959580293     -100.282245
9.096                0.959460069     -100.471311
9.097                0.959339346     -100.660885
9.098                0.959218125     -100.850966
9.099                0.959096406     -101.041556
9.1                   0.95897419     -101.232657
9.101                0.958851477     -101.424268
9.102                0.958728268     -101.616392
9.103                0.958604562     -101.809029
9.104                0.958480361     -102.002179
9.105                0.958355665     -102.195845
9.106                0.958230475     -102.390027
9.107                 0.95810479     -102.584726
9.108                0.957978613     -102.779943
9.109                0.957851943     -102.975679
9.11                 0.957724781     -103.171935
9.111                0.957597128     -103.368712
9.112                0.957468985     -103.566011
9.113                0.957340352     -103.763832
9.114                0.957211231     -103.962178
9.115                0.957081622     -104.161048
9.116                0.956951526     -104.360444
9.117                0.956820944     -104.560367
9.118                0.956689878     -104.760817
9.119                0.956558327     -104.961795
9.12                 0.956426294     -105.163303
9.121                0.956293778     -105.365341
9.122                0.956160782      -105.56791
9.123                0.956027307      -105.77101
9.124                0.955893353     -105.974644
9.125                0.955758923     -106.178812
9.126                0.955624016     -106.383514
9.127                0.955488635     -106.588751
9.128                0.955352781     -106.794524
9.129                0.955216456     -107.000835
9.13                  0.95507966     -107.207683
9.131                0.954942395      -107.41507
9.132                0.954804663     -107.622997
9.133                0.954666465     -107.831463
9.134                0.954527804     -108.040471
9.135                 0.95438868      -108.25002
9.136                0.954249095     -108.460112
9.137                0.954109051     -108.670747
9.138                0.953968549     -108.881927
9.139                0.953827593      -109.09365
9.14                 0.953686183      -109.30592
9.141                0.953544321     -109.518735
9.142                0.953402009     -109.732098
9.143                 0.95325925     -109.946008
9.144                0.953116045     -110.160466
9.145                0.952972396     -110.375473
9.146                0.952828306     -110.591029
9.147                0.952683776     -110.807136
9.148                 0.95253881     -111.023793
9.149                0.952393408     -111.241002
9.15                 0.952247575     -111.458762
9.151                 0.95210131     -111.677076
9.152                0.951954619     -111.895942
9.153                0.951807502     -112.115362
9.154                0.951659962     -112.335336
9.155                0.951512002     -112.555866
9.156                0.951363624      -112.77695
9.157                0.951214832      -112.99859
9.158                0.951065627     -113.220787
9.159                0.950916013     -113.443541
9.16                 0.950765992     -113.666851
9.161                0.950615567      -113.89072
9.162                0.950464742     -114.115147
9.163                0.950313518     -114.340132
9.164                  0.9501619     -114.565676
9.165                0.950009889      -114.79178
9.166                 0.94985749     -115.018444
9.167                0.949704706     -115.245668
9.168                0.949551539     -115.473452
9.169                0.949397993     -115.701797
9.17                 0.949244071     -115.930704
9.171                0.949089777     -116.160172
9.172                0.948935114     -116.390201
9.173                0.948780085     -116.620793
9.174                0.948624695     -116.851947
9.175                0.948468947     -117.083664
9.176                0.948312844     -117.315944
9.177                 0.94815639     -117.548786
9.178                0.947999589     -117.782192
9.179                0.947842444     -118.016161
9.18                  0.94768496     -118.250694
9.181                0.947527141      -118.48579
9.182                 0.94736899      -118.72145
9.183                0.947210512     -118.957675
9.184                0.947051711     -119.194463
9.185                 0.94689259     -119.431815
9.186                0.946733155     -119.669731
9.187                0.946573409     -119.908212
9.188                0.946413356     -120.147256
9.189                0.946253002     -120.386865
9.19                  0.94609235     -120.627038
9.191                0.945931406     -120.867775
9.192                0.945770173     -121.109076
9.193                0.945608656     -121.350941
9.194                0.945446861      -121.59337
9.195                0.945284791     -121.836363
9.196                0.945122452     -122.079919
9.197                0.944959848     -122.324039
9.198                0.944796984     -122.568722
9.199                0.944633866     -122.813967
9.2                  0.944470498     -123.059776
9.201                0.944306886     -123.306147
9.202                0.944143034     -123.553081
9.203                0.943978949     -123.800576
9.204                0.943814634     -124.048634
9.205                0.943650096     -124.297252
9.206                 0.94348534     -124.546432
9.207                0.943320371     -124.796172
9.208                0.943155196     -125.046472
9.209                0.942989818     -125.297333
9.21                 0.942824245     -125.548752
9.211                0.942658482     -125.800731
9.212                0.942492535     -126.053268
9.213                0.942326409     -126.306362
9.214                 0.94216011     -126.560014
9.215                0.941993644     -126.814223
9.216                0.941827018     -127.068988
9.217                0.941660238     -127.324309
9.218                0.941493308     -127.580185
9.219                0.941326237     -127.836615
9.22                 0.941159029     -128.093598
9.221                0.940991692     -128.351135
9.222                0.940824231     -128.609223
9.223                0.940656654     -128.867863
9.224                0.940488965     -129.127054
9.225                0.940321173     -129.386795
9.226                0.940153284     -129.647084
9.227                0.939985303     -129.907922
9.228                0.939817239     -130.169307
9.229                0.939649098     -130.431238
9.23                 0.939480886     -130.693715
9.231                 0.93931261     -130.956736
9.232                0.939144278     -131.220301
9.233                0.938975897     -131.484408
9.234                0.938807473     -131.749056
9.235                0.938639013     -132.014245
9.236                0.938470526     -132.279974
9.237                0.938302017      -132.54624
9.238                0.938133495     -132.813043
9.239                0.937964966     -133.080382
9.24                 0.937796438     -133.348256
9.241                0.937627919     -133.616663
9.242                0.937459415     -133.885602
9.243                0.937290935     -134.155072
9.244                0.937122486     -134.425072
9.245                0.936954076     -134.695599
9.246                0.936785712     -134.966654
9.247                0.936617402     -135.238234
9.248                0.936449155     -135.510338
9.249                0.936280977     -135.782964
9.25                 0.936112877     -136.056111
9.251                0.935944862     -136.329778
9.252                0.935776942     -136.603963
9.253                0.935609123     -136.878665
9.254                0.935441413     -137.153881
9.255                0.935273822      -137.42961
9.256                0.935106357     -137.705851
9.257                0.934939027     -137.982601
9.258                0.934771839      -138.25986
9.259                0.934604802     -138.537625
9.26                 0.934437925     -138.815895
9.261                0.934271215     -139.094667
9.262                0.934104682      -139.37394
9.263                0.933938333     -139.653712
9.264                0.933772178     -139.933982
9.265                0.933606225     -140.214747
9.266                0.933440482     -140.496005
9.267                0.933274958     -140.777754
9.268                0.933109662     -141.059992
9.269                0.932944602     -141.342718
9.27                 0.932779788     -141.625929
9.271                0.932615228     -141.909623
9.272                0.932450931     -142.193798
9.273                0.932286906     -142.478451
9.274                0.932123161     -142.763581
9.275                0.931959707     -143.049185
9.276                 0.93179655     -143.335262
9.277                0.931633701     -143.621808
9.278                0.931471169     -143.908821
9.279                0.931308963       -144.1963
9.28                 0.931147091     -144.484241
9.281                0.930985563     -144.772642
9.282                0.930824388     -145.061501
9.283                0.930663575     -145.350816
9.284                0.930503134     -145.640583
9.285                0.930343073     -145.930801
9.286                0.930183401     -146.221466
9.287                0.930024128     -146.512576
9.288                0.929865264     -146.804129
9.289                0.929706817     -147.096122
9.29                 0.929548796     -147.388552
9.291                0.929391212     -147.681416
9.292                0.929234073     -147.974712
9.293                0.929077388     -148.268436
9.294                0.928921168     -148.562587
9.295                 0.92876542     -148.857161
9.296                0.928610156     -149.152156
9.297                0.928455383     -149.447567
9.298                0.928301112     -149.743394
9.299                0.928147351     -150.039631
9.3                  0.927994111     -150.336278
9.301                  0.9278414      -150.63333
9.302                0.927689228     -150.930784
9.303                0.927537604     -151.228638
9.304                0.927386538     -151.526888
9.305                0.927236039     -151.825531
9.306                0.927086116     -152.124564
9.307                0.926936779     -152.423983
9.308                0.926788037     -152.723787
9.309                  0.9266399      -153.02397
9.31                 0.926492376     -153.324531
9.311                0.926345476     -153.625465
9.312                0.926199208      -153.92677
9.313                0.926053582     -154.228441
9.314                0.925908607     -154.530476
9.315                0.925764292     -154.832871
9.316                0.925620647     -155.135623
9.317                0.925477681     -155.438728
9.318                0.925335403     -155.742182
9.319                0.925193822     -156.045983
9.32                 0.925052948     -156.350126
9.321                 0.92491279     -156.654608
9.322                0.924773356     -156.959425
9.323                0.924634657     -157.264574
9.324                  0.9244967     -157.570051
9.325                0.924359495     -157.875853
9.326                0.924223052     -158.181975
9.327                0.924087378     -158.488413
9.328                0.923952484     -158.795165
9.329                0.923818377     -159.102226
9.33                 0.923685067     -159.409592
9.331                0.923552563      -159.71726
9.332                0.923420874     -160.025225
9.333                0.923290007     -160.333484
9.334                0.923159973     -160.642033
9.335                0.923030779     -160.950868
9.336                0.922902434     -161.259984
9.337                0.922774947     -161.569379
9.338                0.922648327     -161.879047
9.339                0.922522581     -162.188985
9.34                 0.922397719     -162.499189
9.341                0.922273748     -162.809654
9.342                0.922150678     -163.120377
9.343                0.922028515     -163.431353
9.344                0.921907269     -163.742578
9.345                0.921786948     -164.054049
9.346                 0.92166756      -164.36576
9.347                0.921549112     -164.677708
9.348                0.921431613     -164.989888
9.349                0.921315071     -165.302296
9.35                 0.921199494     -165.614928
9.351                0.921084888      -165.92778
9.352                0.920971263     -166.240846
9.353                0.920858626     -166.554124
9.354                0.920746983     -166.867608
9.355                0.920636344     -167.181294
9.356                0.920526715     -167.495178
9.357                0.920418103     -167.809255
9.358                0.920310517     -168.123521
9.359                0.920203962     -168.437971
9.36                 0.920098447     -168.752601
9.361                0.919993978     -169.067407
9.362                0.919890562     -169.382384
9.363                0.919788206     -169.697527
9.364                0.919686918     -170.012832
9.365                0.919586703     -170.328294
9.366                0.919487568      -170.64391
9.367                 0.91938952     -170.959673
9.368                0.919292566     -171.275581
9.369                0.919196712     -171.591627
9.37                 0.919101963     -171.907808
9.371                0.919008327     -172.224119
9.372                0.918915809     -172.540555
9.373                0.918824416     -172.857111
9.374                0.918734153     -173.173784
9.375                0.918645026     -173.490568
9.376                0.918557041     -173.807458
9.377                0.918470204     -174.124451
9.378                 0.91838452     -174.441541
9.379                0.918299994     -174.758723
9.38                 0.918216632     -175.075993
9.381                0.918134439     -175.393346
9.382                0.918053421     -175.710778
9.383                0.917973582     -176.028283
9.384                0.917894927     -176.345857
9.385                0.917817462     -176.663496
9.386                 0.91774119     -176.981193
9.387                0.917666117     -177.298946
9.388                0.917592247     -177.616748
9.389                0.917519584     -177.934596
9.39                 0.917448133     -178.252484
9.391                0.917377898     -178.570407
9.392                0.917308884     -178.888362
9.393                0.917241093     -179.206342
9.394                 0.91717453     -179.524344
9.395                0.917109199     -179.842362
9.396                0.917045103      179.839608
