! TOUCHSTONE file generated by CST DESIGN STUDIO
! Date and time: Tue Feb  4 16:46:09 2025
! Project name: C:\Work\MatlabApps\UnitCellOptimizationMatlab\CST\unitcell.cst
! Tree item: Tasks\Sweep1\SPara1\S-Parameters
! Header version: 2024
! Port assignment regex: !\s*Touchstone port\s*([0-9]+)\s*=\s*(CST MWS port|CST DES external port|CST DES block port)\s*(.+)\s* \(\"(.*)\"\)(\s*mode\s*([0-9]+))?.*
! Touchstone port assignment:
! Touchstone port 1 = CST DES external port 1 ("")
# GHz S MA R 50
9                    0.975621377     -63.4621171
9.001                0.975555467     -63.5546727
9.002                0.975489304     -63.6474511
9.003                0.975422886     -63.7404529
9.004                0.975356214     -63.8336788
9.005                0.975289286     -63.9271297
9.006                0.975222102     -64.0208062
9.007                 0.97515466      -64.114709
9.008                0.975086961      -64.208839
9.009                0.975019003     -64.3031967
9.01                 0.974950786      -64.397783
9.011                0.974882308     -64.4925986
9.012                0.974813569     -64.5876442
9.013                0.974744569     -64.6829206
9.014                0.974675306     -64.7784285
9.015                 0.97460578     -64.8741687
9.016                 0.97453599     -64.9701419
9.017                0.974465935     -65.0663489
9.018                0.974395615     -65.1627905
9.019                0.974325028     -65.2594673
9.02                 0.974254174     -65.3563802
9.021                0.974183052     -65.4535299
9.022                0.974111661     -65.5509172
9.023                0.974040001     -65.6485429
9.024                 0.97396807     -65.7464077
9.025                0.973895868     -65.8445124
9.026                0.973823395     -65.9428578
9.027                0.973750648     -66.0414447
9.028                0.973677628     -66.1402738
9.029                0.973604334      -66.239346
9.03                 0.973530765     -66.3386619
9.031                 0.97345692     -66.4382225
9.032                0.973382799     -66.5380285
9.033                  0.9733084     -66.6380808
9.034                0.973233723       -66.73838
9.035                0.973158766      -66.838927
9.036                 0.97308353     -66.9397226
9.037                0.973008014     -67.0407677
9.038                0.972932215      -67.142063
9.039                0.972856135     -67.2436093
9.04                 0.972779772     -67.3454075
9.041                0.972703124     -67.4474583
9.042                0.972626193     -67.5497627
9.043                0.972548975     -67.6523213
9.044                0.972471472     -67.7551351
9.045                0.972393681     -67.8582049
9.046                0.972315603     -67.9615315
9.047                0.972237236     -68.0651157
9.048                 0.97215858     -68.1689584
9.049                0.972079633     -68.2730604
9.05                 0.972000395     -68.3774225
9.051                0.971920865     -68.4820457
9.052                0.971841043     -68.5869307
9.053                0.971760927     -68.6920784
9.054                0.971680517     -68.7974897
9.055                0.971599812     -68.9031653
9.056                0.971518811     -69.0091062
9.057                0.971437513     -69.1153133
9.058                0.971355917     -69.2217873
9.059                0.971274023     -69.3285292
9.06                 0.971191831     -69.4355399
9.061                0.971109338     -69.5428201
9.062                0.971026544     -69.6503708
9.063                0.970943449     -69.7581929
9.064                0.970860051     -69.8662871
9.065                 0.97077635     -69.9746546
9.066                0.970692345      -70.083296
9.067                0.970608036     -70.1922123
9.068                 0.97052342     -70.3014044
9.069                0.970438499     -70.4108731
9.07                  0.97035327     -70.5206195
9.071                0.970267733     -70.6306443
9.072                0.970181887     -70.7409485
9.073                0.970095731      -70.851533
9.074                0.970009265     -70.9623987
9.075                0.969922488     -71.0735465
9.076                0.969835398     -71.1849773
9.077                0.969747996     -71.2966921
9.078                 0.96966028     -71.4086917
9.079                0.969572249     -71.5209771
9.08                 0.969483903     -71.6335491
9.081                0.969395241     -71.7464089
9.082                0.969306262     -71.8595572
9.083                0.969216966     -71.9729949
9.084                0.969127351     -72.0867232
9.085                0.969037416     -72.2007427
9.086                0.968947162     -72.3150546
9.087                0.968856586     -72.4296598
9.088                0.968765689     -72.5445592
9.089                 0.96867447     -72.6597537
9.09                 0.968582927     -72.7752443
9.091                 0.96849106     -72.8910321
9.092                0.968398868     -73.0071178
9.093                0.968306351     -73.1235025
9.094                0.968213507     -73.2401872
9.095                0.968120335     -73.3571728
9.096                0.968026836     -73.4744602
9.097                0.967933008     -73.5920506
9.098                0.967838851     -73.7099447
9.099                0.967744363     -73.8281437
9.1                  0.967649544     -73.9466485
9.101                0.967554393     -74.0654601
9.102                 0.96745891     -74.1845794
9.103                0.967363093     -74.3040075
9.104                0.967266941     -74.4237453
9.105                0.967170455     -74.5437939
9.106                0.967073633     -74.6641542
9.107                0.966976475     -74.7848273
9.108                0.966878979      -74.905814
9.109                0.966781146     -75.0271156
9.11                 0.966682973     -75.1487329
9.111                0.966584461     -75.2706669
9.112                0.966485609     -75.3929188
9.113                0.966386416     -75.5154894
9.114                0.966286881     -75.6383799
9.115                0.966187003     -75.7615912
9.116                0.966086783     -75.8851243
9.117                0.965986218     -76.0089804
9.118                0.965885309     -76.1331604
9.119                0.965784054     -76.2576653
9.12                 0.965682453     -76.3824962
9.121                0.965580506     -76.5076541
9.122                 0.96547821     -76.6331402
9.123                0.965375567     -76.7589553
9.124                0.965272574     -76.8851005
9.125                0.965169232      -77.011577
9.126                 0.96506554     -77.1383858
9.127                0.964961496     -77.2655278
9.128                0.964857101     -77.3930042
9.129                0.964752353      -77.520816
9.13                 0.964647252     -77.6489644
9.131                0.964541797     -77.7774502
9.132                0.964435988     -77.9062747
9.133                0.964329823     -78.0354389
9.134                0.964223303     -78.1649438
9.135                0.964116426     -78.2947906
9.136                0.964009192     -78.4249802
9.137                0.963901601     -78.5555139
9.138                0.963793651     -78.6863926
9.139                0.963685341     -78.8176175
9.14                 0.963576673     -78.9491896
9.141                0.963467643       -79.08111
9.142                0.963358253     -79.2133799
9.143                0.963248502     -79.3460002
9.144                0.963138388     -79.4789722
9.145                0.963027911     -79.6122969
9.146                0.962917071     -79.7459754
9.147                0.962805867     -79.8800088
9.148                0.962694298     -80.0143982
9.149                0.962582364     -80.1491447
9.15                 0.962470065     -80.2842495
9.151                0.962357399     -80.4197136
9.152                0.962244367     -80.5555382
9.153                0.962130967     -80.6917244
9.154                0.962017199     -80.8282733
9.155                0.961903062      -80.965186
9.156                0.961788557     -81.1024636
9.157                0.961673682     -81.2401073
9.158                0.961558437     -81.3781182
9.159                0.961442822     -81.5164974
9.16                 0.961326835     -81.6552461
9.161                0.961210477     -81.7943654
9.162                0.961093747     -81.9338564
9.163                0.960976644     -82.0737203
9.164                0.960859169     -82.2139582
9.165                 0.96074132     -82.3545712
9.166                0.960623097     -82.4955605
9.167                0.960504499     -82.6369273
9.168                0.960385527     -82.7786727
9.169                 0.96026618     -82.9207978
9.17                 0.960146457     -83.0633038
9.171                0.960026359     -83.2061918
9.172                0.959905883     -83.3494631
9.173                0.959785031     -83.4931187
9.174                0.959663802     -83.6371598
9.175                0.959542196     -83.7815876
9.176                0.959420211     -83.9264033
9.177                0.959297848     -84.0716079
9.178                0.959175107     -84.2172027
9.179                0.959051987     -84.3631889
9.18                 0.958928488     -84.5095676
9.181                0.958804609       -84.65634
9.182                 0.95868035     -84.8035072
9.183                0.958555711     -84.9510704
9.184                0.958430692     -85.0990309
9.185                0.958305293     -85.2473897
9.186                0.958179512     -85.3961481
9.187                0.958053351     -85.5453072
9.188                0.957926808     -85.6948682
9.189                0.957799884     -85.8448324
9.19                 0.957672578     -85.9952008
9.191                 0.95754489     -86.1459747
9.192                 0.95741682     -86.2971552
9.193                0.957288368     -86.4487436
9.194                0.957159534     -86.6007411
9.195                0.957030317     -86.7531487
9.196                0.956900718     -86.9059678
9.197                0.956770736     -87.0591994
9.198                0.956640371     -87.2128449
9.199                0.956509623     -87.3669053
9.2                  0.956378493     -87.5213819
9.201                0.956246979     -87.6762759
9.202                0.956115083     -87.8315885
9.203                0.955982803     -87.9873208
9.204                0.955850141     -88.1434741
9.205                0.955717096     -88.3000495
9.206                0.955583668     -88.4570484
9.207                0.955449856     -88.6144717
9.208                0.955315663     -88.7723209
9.209                0.955181086      -88.930597
9.21                 0.955046127     -89.0893012
9.211                0.954910785     -89.2484349
9.212                0.954775061     -89.4079991
9.213                0.954638955      -89.567995
9.214                0.954502466     -89.7284239
9.215                0.954365596      -89.889287
9.216                0.954228344     -90.0505854
9.217                0.954090711     -90.2123205
9.218                0.953952696     -90.3744933
9.219                0.953814301      -90.537105
9.22                 0.953675524      -90.700157
9.221                0.953536368     -90.8636503
9.222                0.953396831     -91.0275862
9.223                0.953256915     -91.1919658
9.224                0.953116619     -91.3567905
9.225                0.952975945     -91.5220613
9.226                0.952834891     -91.6877796
9.227                 0.95269346     -91.8539464
9.228                0.952551651     -92.0205629
9.229                0.952409464     -92.1876305
9.23                 0.952266901     -92.3551502
9.231                0.952123961     -92.5231233
9.232                0.951980646      -92.691551
9.233                0.951836955     -92.8604344
9.234                 0.95169289     -93.0297748
9.235                0.951548451     -93.1995733
9.236                0.951403638     -93.3698312
9.237                0.951258452     -93.5405496
9.238                0.951112894     -93.7117297
9.239                0.950966965     -93.8833727
9.24                 0.950820665     -94.0554798
9.241                0.950673995     -94.2280522
9.242                0.950526955     -94.4010911
9.243                0.950379547     -94.5745976
9.244                0.950231772     -94.7485729
9.245                0.950083629     -94.9230183
9.246                 0.94993512     -95.0979348
9.247                0.949786247     -95.2733237
9.248                0.949637008      -95.449186
9.249                0.949487407     -95.6255231
9.25                 0.949337443     -95.8023361
9.251                0.949187118     -95.9796261
9.252                0.949036433     -96.1573943
9.253                0.948885388     -96.3356418
9.254                0.948733985     -96.5143699
9.255                0.948582225     -96.6935796
9.256                0.948430109     -96.8732721
9.257                0.948277637     -97.0534487
9.258                0.948124813     -97.2341103
9.259                0.947971635     -97.4152582
9.26                 0.947818107     -97.5968935
9.261                0.947664228     -97.7790174
9.262                0.947510001      -97.961631
9.263                0.947355427     -98.1447353
9.264                0.947200506     -98.3283317
9.265                0.947045241      -98.512421
9.266                0.946889633     -98.6970046
9.267                0.946733683     -98.8820835
9.268                0.946577393     -99.0676588
9.269                0.946420764     -99.2537317
9.27                 0.946263798     -99.4403031
9.271                0.946106496     -99.6273744
9.272                 0.94594886     -99.8149464
9.273                0.945790892      -100.00302
9.274                0.945632594     -100.191597
9.275                0.945473966     -100.380679
9.276                0.945315012     -100.570265
9.277                0.945155732     -100.760357
9.278                0.944996128     -100.950957
9.279                0.944836203     -101.142066
9.28                 0.944675957     -101.333683
9.281                0.944515394     -101.525811
9.282                0.944354516     -101.718451
9.283                0.944193323     -101.911604
9.284                0.944031818      -102.10527
9.285                0.943870003      -102.29945
9.286                0.943707881     -102.494147
9.287                0.943545453      -102.68936
9.288                0.943382722     -102.885091
9.289                0.943219689      -103.08134
9.29                 0.943056358      -103.27811
9.291                 0.94289273       -103.4754
9.292                0.942728808     -103.673212
9.293                0.942564594     -103.871546
9.294                 0.94240009     -104.070404
9.295                0.942235299     -104.269787
9.296                0.942070224     -104.469696
9.297                0.941904867     -104.670131
9.298                 0.94173923     -104.871093
9.299                0.941573317     -105.072584
9.3                  0.941407129     -105.274605
9.301                 0.94124067     -105.477155
9.302                0.941073942     -105.680237
9.303                0.940906949     -105.883851
9.304                0.940739692     -106.087998
9.305                0.940572175      -106.29268
9.306                0.940404401     -106.497895
9.307                0.940236372     -106.703647
9.308                0.940068092     -106.909935
9.309                0.939899564     -107.116761
9.31                  0.93973079     -107.324125
9.311                0.939561775     -107.532027
9.312                 0.93939252      -107.74047
9.313                 0.93922303     -107.949454
9.314                0.939053307     -108.158979
9.315                0.938883356     -108.369047
9.316                0.938713178     -108.579657
9.317                0.938542778     -108.790812
9.318                0.938372159     -109.002511
9.319                0.938201325     -109.214756
9.32                 0.938030279     -109.427547
9.321                0.937859024     -109.640885
9.322                0.937687565     -109.854771
9.323                0.937515905     -110.069205
9.324                0.937344048     -110.284188
9.325                0.937171997     -110.499721
9.326                0.936999757     -110.715804
9.327                0.936827331     -110.932439
9.328                0.936654723     -111.149626
9.329                0.936481937     -111.367364
9.33                 0.936308977     -111.585657
9.331                0.936135848     -111.804502
9.332                0.935962553     -112.023902
9.333                0.935789096     -112.243857
9.334                0.935615482     -112.464368
9.335                0.935441715     -112.685435
9.336                  0.9352678     -112.907058
9.337                 0.93509374     -113.129239
9.338                0.934919541     -113.351977
9.339                0.934745205     -113.575273
9.34                  0.93457074     -113.799129
9.341                0.934396147     -114.023543
9.342                0.934221433     -114.248517
9.343                0.934046602     -114.474052
9.344                0.933871659     -114.700147
9.345                0.933696609     -114.926803
9.346                0.933521455     -115.154021
9.347                0.933346204       -115.3818
9.348                 0.93317086     -115.610142
9.349                0.932995428     -115.839047
9.35                 0.932819913     -116.068514
9.351                0.932644321     -116.298545
9.352                0.932468656      -116.52914
9.353                0.932292924     -116.760298
9.354                0.932117129     -116.992021
9.355                0.931941278     -117.224308
9.356                0.931765375      -117.45716
9.357                0.931589426     -117.690578
9.358                0.931413436      -117.92456
9.359                0.931237412     -118.159108
9.36                 0.931061357     -118.394222
9.361                0.930885279     -118.629901
9.362                0.930709183     -118.866147
9.363                0.930533074     -119.102959
9.364                0.930356958     -119.340337
9.365                0.930180842     -119.578281
9.366                 0.93000473     -119.816792
9.367                 0.92982863     -120.055869
9.368                0.929652546     -120.295513
9.369                0.929476485     -120.535723
9.37                 0.929300453       -120.7765
9.371                0.929124457     -121.017844
9.372                0.928948502     -121.259754
9.373                0.928772594      -121.50223
9.374                 0.92859674     -121.745273
9.375                0.928420947     -121.988882
9.376                0.928245221     -122.233058
9.377                0.928069567     -122.477799
9.378                0.927893993     -122.723107
9.379                0.927718506      -122.96898
9.38                 0.927543111     -123.215419
9.381                0.927367816     -123.462423
9.382                0.927192628     -123.709992
9.383                0.927017552     -123.958126
9.384                0.926842596     -124.206824
9.385                0.926667767     -124.456087
9.386                0.926493072     -124.705913
9.387                0.926318517     -124.956303
9.388                 0.92614411     -125.207256
9.389                0.925969858     -125.458772
9.39                 0.925795767      -125.71085
9.391                0.925621846     -125.963491
9.392                0.925448101     -126.216692
9.393                0.925274539     -126.470455
9.394                0.925101168     -126.724777
9.395                0.924927996      -126.97966
9.396                0.924755029     -127.235102
