! TOUCHSTONE file generated by CST DESIGN STUDIO
! Date and time: Tue Feb  4 16:46:06 2025
! Project name: C:\Work\MatlabApps\UnitCellOptimizationMatlab\CST\unitcell.cst
! Tree item: Tasks\Sweep1\SPara1\S-Parameters
! Header version: 2024
! Port assignment regex: !\s*Touchstone port\s*([0-9]+)\s*=\s*(CST MWS port|CST DES external port|CST DES block port)\s*(.+)\s* \(\"(.*)\"\)(\s*mode\s*([0-9]+))?.*
! Touchstone port assignment:
! Touchstone port 1 = CST DES external port 1 ("")
# GHz S MA R 50
9                     0.97473223     -66.3202415
9.001                0.974663192      -66.419341
9.002                0.974593877     -66.5186844
9.003                0.974524284     -66.6182725
9.004                0.974454411      -66.718106
9.005                0.974384259     -66.8181858
9.006                0.974313826     -66.9185126
9.007                0.974243111     -67.0190873
9.008                0.974172114     -67.1199106
9.009                0.974100834     -67.2209833
9.01                 0.974029269     -67.3223063
9.011                 0.97395742     -67.4238804
9.012                0.973885284     -67.5257063
9.013                0.973812862     -67.6277849
9.014                0.973740153      -67.730117
9.015                0.973667155     -67.8327034
9.016                0.973593867     -67.9355449
9.017                 0.97352029     -68.0386424
9.018                0.973446421     -68.1419967
9.019                0.973372261     -68.2456086
9.02                 0.973297808      -68.349479
9.021                0.973223061     -68.4536086
9.022                 0.97314802     -68.5579984
9.023                0.973072684     -68.6626491
9.024                0.972997052     -68.7675616
9.025                0.972921122     -68.8727368
9.026                0.972844895     -68.9781755
9.027                0.972768369     -69.0838785
9.028                0.972691543     -69.1898467
9.029                0.972614417      -69.296081
9.03                  0.97253699     -69.4025822
9.031                 0.97245926     -69.5093512
9.032                0.972381228     -69.6163888
9.033                0.972302891      -69.723696
9.034                0.972224249     -69.8312735
9.035                0.972145302     -69.9391223
9.036                0.972066049     -70.0472432
9.037                0.971986488     -70.1556371
9.038                0.971906618      -70.264305
9.039                 0.97182644     -70.3732475
9.04                 0.971745952     -70.4824658
9.041                0.971665152     -70.5919606
9.042                0.971584041     -70.7017329
9.043                0.971502617     -70.8117834
9.044                 0.97142088     -70.9221133
9.045                0.971338829     -71.0327232
9.046                0.971256462     -71.1436142
9.047                0.971173779     -71.2547871
9.048                0.971090779     -71.3662429
9.049                0.971007462     -71.4779825
9.05                 0.970923826     -71.5900067
9.051                 0.97083987     -71.7023165
9.052                0.970755593     -71.8149128
9.053                0.970670996     -71.9277966
9.054                0.970586076     -72.0409687
9.055                0.970500833     -72.1544301
9.056                0.970415267     -72.2681817
9.057                0.970329376     -72.3822245
9.058                0.970243159     -72.4965594
9.059                0.970156615     -72.6111873
9.06                 0.970069744     -72.7261091
9.061                0.969982546     -72.8413259
9.062                0.969895018     -72.9568385
9.063                 0.96980716     -73.0726479
9.064                0.969718971     -73.1887551
9.065                0.969630451      -73.305161
9.066                0.969541598     -73.4218666
9.067                0.969452412     -73.5388728
9.068                0.969362892     -73.6561805
9.069                0.969273036     -73.7737909
9.07                 0.969182845     -73.8917048
9.071                0.969092317     -74.0099232
9.072                0.969001452      -74.128447
9.073                0.968910248     -74.2472773
9.074                0.968818705     -74.3664151
9.075                0.968726822     -74.4858612
9.076                0.968634597     -74.6056168
9.077                0.968542031     -74.7256827
9.078                0.968449123       -74.84606
9.079                0.968355871     -74.9667497
9.08                 0.968262275     -75.0877527
9.081                0.968168333     -75.2090701
9.082                0.968074046     -75.3307029
9.083                0.967979412      -75.452652
9.084                 0.96788443     -75.5749185
9.085                  0.9677891     -75.6975034
9.086                0.967693421     -75.8204076
9.087                0.967597391     -75.9436323
9.088                0.967501011     -76.0671784
9.089                0.967404279      -76.191047
9.09                 0.967307195      -76.315239
9.091                0.967209758     -76.4397555
9.092                0.967111966     -76.5645975
9.093                 0.96701382     -76.6897661
9.094                0.966915318     -76.8152622
9.095                0.966816459      -76.941087
9.096                0.966717243     -77.0672414
9.097                 0.96661767     -77.1937265
9.098                0.966517737     -77.3205433
9.099                0.966417445     -77.4476929
9.1                  0.966316793     -77.5751764
9.101                0.966215779     -77.7029947
9.102                0.966114404     -77.8311489
9.103                0.966012666     -77.9596402
9.104                0.965910564     -78.0884694
9.105                0.965808099     -78.2176378
9.106                0.965705269     -78.3471464
9.107                0.965602072     -78.4769961
9.108                 0.96549851     -78.6071882
9.109                0.965394581     -78.7377237
9.11                 0.965290283     -78.8686036
9.111                0.965185617      -78.999829
9.112                0.965080582     -79.1314009
9.113                0.964975177     -79.2633206
9.114                0.964869401      -79.395589
9.115                0.964763254     -79.5282073
9.116                0.964656735     -79.6611765
9.117                0.964549843     -79.7944977
9.118                0.964442577      -79.928172
9.119                0.964334938     -80.0622005
9.12                 0.964226923     -80.1965843
9.121                0.964118533     -80.3313245
9.122                0.964009767     -80.4664222
9.123                0.963900624     -80.6018785
9.124                0.963791104     -80.7376944
9.125                0.963681205     -80.8738712
9.126                0.963570928     -81.0104099
9.127                0.963460271     -81.1473117
9.128                0.963349235     -81.2845775
9.129                0.963237817     -81.4222087
9.13                 0.963126019     -81.5602062
9.131                0.963013838     -81.6985712
9.132                0.962901276     -81.8373048
9.133                 0.96278833     -81.9764081
9.134                0.962675001     -82.1158823
9.135                0.962561287     -82.2557285
9.136                0.962447189     -82.3959478
9.137                0.962332705     -82.5365414
9.138                0.962217836     -82.6775104
9.139                 0.96210258     -82.8188559
9.14                 0.961986937      -82.960579
9.141                0.961870907     -83.1026809
9.142                0.961754489     -83.2451628
9.143                0.961637683     -83.3880258
9.144                0.961520488     -83.5312709
9.145                0.961402903     -83.6748995
9.146                0.961284928     -83.8189125
9.147                0.961166563     -83.9633113
9.148                0.961047807     -84.1080968
9.149                 0.96092866     -84.2532703
9.15                 0.960809122      -84.398833
9.151                0.960689191     -84.5447859
9.152                0.960568867     -84.6911303
9.153                0.960448151     -84.8378672
9.154                0.960327041      -84.984998
9.155                0.960205537     -85.1325236
9.156                 0.96008364     -85.2804453
9.157                0.959961348     -85.4287643
9.158                0.959838661     -85.5774817
9.159                0.959715579     -85.7265986
9.16                 0.959592101     -85.8761163
9.161                0.959468228     -86.0260359
9.162                0.959343959     -86.1763586
9.163                0.959219293     -86.3270856
9.164                0.959094231      -86.478218
9.165                0.958968771      -86.629757
9.166                0.958842915     -86.7817038
9.167                0.958716661     -86.9340596
9.168                0.958590009     -87.0868254
9.169                 0.95846296     -87.2400026
9.17                 0.958335512     -87.3935923
9.171                0.958207667     -87.5475957
9.172                0.958079423     -87.7020139
9.173                 0.95795078     -87.8568482
9.174                0.957821738     -88.0120996
9.175                0.957692298     -88.1677695
9.176                0.957562459      -88.323859
9.177                0.957432221     -88.4803692
9.178                0.957301583     -88.6373013
9.179                0.957170547     -88.7946566
9.18                 0.957039111     -88.9524363
9.181                0.956907276     -89.1106414
9.182                0.956775042     -89.2692732
9.183                0.956642408     -89.4283329
9.184                0.956509375     -89.5878217
9.185                0.956375943     -89.7477407
9.186                0.956242111     -89.9080912
9.187                0.956107881     -90.0688743
9.188                0.955973251     -90.2300912
9.189                0.955838223     -90.3917431
9.19                 0.955702795     -90.5538312
9.191                0.955566969     -90.7163566
9.192                0.955430744     -90.8793207
9.193                0.955294121     -91.0427245
9.194                  0.9551571     -91.2065692
9.195                0.955019681      -91.370856
9.196                0.954881864     -91.5355862
9.197                 0.95474365     -91.7007608
9.198                0.954605038     -91.8663811
9.199                0.954466029     -92.0324483
9.2                  0.954326624     -92.1989635
9.201                0.954186823      -92.365928
9.202                0.954046625     -92.5333428
9.203                0.953906032     -92.7012093
9.204                0.953765044     -92.8695285
9.205                0.953623661     -93.0383016
9.206                0.953481884     -93.2075299
9.207                0.953339713     -93.3772145
9.208                0.953197149     -93.5473566
9.209                0.953054191     -93.7179573
9.21                 0.952910842     -93.8890178
9.211                  0.9527671     -94.0605394
9.212                0.952622968     -94.2325231
9.213                0.952478445     -94.4049701
9.214                0.952333531     -94.5778817
9.215                0.952188229     -94.7512589
9.216                0.952042538     -94.9251029
9.217                0.951896458      -95.099415
9.218                0.951749992     -95.2741962
9.219                0.951603139     -95.4494477
9.22                   0.9514559     -95.6251706
9.221                0.951308277     -95.8013662
9.222                0.951160269     -95.9780356
9.223                0.951011878     -96.1551799
9.224                0.950863104     -96.3328002
9.225                 0.95071395     -96.5108978
9.226                0.950564414     -96.6894737
9.227                0.950414499     -96.8685292
9.228                0.950264205     -97.0480652
9.229                0.950113534      -97.228083
9.23                 0.949962486     -97.4085837
9.231                0.949811063     -97.5895684
9.232                0.949659265     -97.7710383
9.233                0.949507094     -97.9529944
9.234                0.949354551     -98.1354379
9.235                0.949201637     -98.3183699
9.236                0.949048353     -98.5017916
9.237                0.948894701     -98.6857039
9.238                0.948740682     -98.8701081
9.239                0.948586297     -99.0550051
9.24                 0.948431547     -99.2403962
9.241                0.948276435     -99.4262824
9.242                 0.94812096     -99.6126648
9.243                0.947965126     -99.7995445
9.244                0.947808932     -99.9869225
9.245                0.947652381       -100.1748
9.246                0.947495475     -100.363178
9.247                0.947338214     -100.552058
9.248                  0.9471806      -100.74144
9.249                0.947022636     -100.931326
9.25                 0.946864323     -101.121716
9.251                0.946705661     -101.312613
9.252                0.946546654     -101.504016
9.253                0.946387303     -101.695927
9.254                 0.94622761     -101.888347
9.255                0.946067577     -102.081277
9.256                0.945907204     -102.274718
9.257                0.945746496      -102.46867
9.258                0.945585452     -102.663136
9.259                0.945424077     -102.858116
9.26                  0.94526237     -103.053611
9.261                0.945100335     -103.249621
9.262                0.944937974     -103.446149
9.263                0.944775288     -103.643194
9.264                 0.94461228     -103.840759
9.265                0.944448953     -104.038843
9.266                0.944285308     -104.237448
9.267                0.944121348     -104.436575
9.268                0.943957074     -104.636224
9.269                0.943792491     -104.836397
9.27                 0.943627599     -105.037095
9.271                0.943462401     -105.238318
9.272                0.943296901     -105.440068
9.273                  0.9431311     -105.642345
9.274                   0.942965      -105.84515
9.275                0.942798606     -106.048484
9.276                0.942631919     -106.252348
9.277                0.942464942     -106.456743
9.278                0.942297677     -106.661669
9.279                0.942130128     -106.867129
9.28                 0.941962298     -107.073121
9.281                0.941794189     -107.279648
9.282                0.941625805      -107.48671
9.283                0.941457147     -107.694308
9.284                 0.94128822     -107.902443
9.285                0.941119027     -108.111115
9.286                0.940949569     -108.320325
9.287                0.940779852     -108.530075
9.288                0.940609877     -108.740364
9.289                0.940439648     -108.951194
9.29                 0.940269169     -109.162566
9.291                0.940098442     -109.374479
9.292                0.939927472     -109.586936
9.293                0.939756261     -109.799936
9.294                0.939584813      -110.01348
9.295                0.939413132     -110.227569
9.296                0.939241221     -110.442204
9.297                0.939069084     -110.657386
9.298                0.938896724     -110.873114
9.299                0.938724145      -111.08939
9.3                  0.938551352     -111.306214
9.301                0.938378347     -111.523587
9.302                0.938205135      -111.74151
9.303                0.938031719     -111.959983
9.304                0.937858104     -112.179007
9.305                0.937684294     -112.398582
9.306                0.937510292     -112.618709
9.307                0.937336103     -112.839388
9.308                0.937161731     -113.060621
9.309                 0.93698718     -113.282407
9.31                 0.936812454     -113.504747
9.311                0.936637559     -113.727642
9.312                0.936462497     -113.951091
9.313                0.936287274     -114.175097
9.314                0.936111894     -114.399658
9.315                0.935936362     -114.624775
9.316                0.935760682      -114.85045
9.317                0.935584858     -115.076682
9.318                0.935408896     -115.303471
9.319                0.935232801     -115.530819
9.32                 0.935056576     -115.758725
9.321                0.934880227     -115.987189
9.322                0.934703759     -116.216213
9.323                0.934527177     -116.445797
9.324                0.934350486      -116.67594
9.325                 0.93417369     -116.906643
9.326                0.933996795     -117.137907
9.327                0.933819806     -117.369731
9.328                0.933642728     -117.602116
9.329                0.933465567     -117.835062
9.33                 0.933288328     -118.068569
9.331                0.933111016     -118.302638
9.332                0.932933637     -118.537268
9.333                0.932756196     -118.772461
9.334                0.932578699     -119.008215
9.335                0.932401151     -119.244531
9.336                0.932223557      -119.48141
9.337                0.932045925     -119.718851
9.338                0.931868259     -119.956854
9.339                0.931690565      -120.19542
9.34                 0.931512849     -120.434548
9.341                0.931335117     -120.674238
9.342                0.931157375     -120.914491
9.343                0.930979629     -121.155306
9.344                0.930801885     -121.396684
9.345                0.930624149     -121.638624
9.346                0.930446428     -121.881126
9.347                0.930268727      -122.12419
9.348                0.930091053     -122.367816
9.349                0.929913412     -122.612004
9.35                 0.929735811     -122.856754
9.351                0.929558256     -123.102065
9.352                0.929380754     -123.347937
9.353                0.929203311     -123.594371
9.354                0.929025933     -123.841365
9.355                0.928848628      -124.08892
9.356                0.928671402     -124.337035
9.357                0.928494262      -124.58571
9.358                0.928317215     -124.834944
9.359                0.928140267     -125.084738
9.36                 0.927963426      -125.33509
9.361                0.927786698     -125.586001
9.362                0.927610091      -125.83747
9.363                0.927433611     -126.089496
9.364                0.927257266      -126.34208
9.365                0.927081063      -126.59522
9.366                0.926905009     -126.848916
9.367                0.926729111     -127.103167
9.368                0.926553377     -127.357974
9.369                0.926377814     -127.613334
9.37                  0.92620243     -127.869249
9.371                0.926027231     -128.125716
9.372                0.925852226     -128.382736
9.373                0.925677422     -128.640308
9.374                0.925502827     -128.898431
9.375                0.925328448     -129.157104
9.376                0.925154293     -129.416326
9.377                 0.92498037     -129.676097
9.378                0.924806687     -129.936416
9.379                0.924633251     -130.197282
9.38                  0.92446007     -130.458694
9.381                0.924287152     -130.720652
9.382                0.924114506     -130.983153
9.383                0.923942139     -131.246199
9.384                0.923770059     -131.509786
9.385                0.923598275     -131.773915
9.386                0.923426794     -132.038584
9.387                0.923255625     -132.303793
9.388                0.923084776      -132.56954
9.389                0.922914255     -132.835824
9.39                 0.922744071     -133.102644
9.391                0.922574232     -133.369999
9.392                0.922404746     -133.637888
9.393                0.922235621     -133.906309
9.394                0.922066867     -134.175262
9.395                0.921898491     -134.444744
9.396                0.921730503     -134.714754
