! TOUCHSTONE file generated by CST DESIGN STUDIO
! Date and time: Wed Feb  5 13:31:25 2025
! Project name: C:\Work\MatlabApps\UnitCellOptimizationMatlab\CST\unitcell.cst
! Tree item: Tasks\Sweep1\SPara1\S-Parameters
! Header version: 2024
! Port assignment regex: !\s*Touchstone port\s*([0-9]+)\s*=\s*(CST MWS port|CST DES external port|CST DES block port)\s*(.+)\s* \(\"(.*)\"\)(\s*mode\s*([0-9]+))?.*
! Touchstone port assignment:
! Touchstone port 1 = CST DES external port 1 ("")
# GHz S MA R 50
9                    0.978392129     -59.9154279
9.001                0.978349869     -59.9970086
9.002                0.978307479     -60.0787749
9.003                0.978264961     -60.1607274
9.004                0.978222313     -60.2428667
9.005                0.978179535     -60.3251933
9.006                0.978136627      -60.407708
9.007                0.978093589     -60.4904112
9.008                 0.97805042     -60.5733035
9.009                0.978007119     -60.6563855
9.01                 0.977963686     -60.7396579
9.011                0.977920122     -60.8231211
9.012                0.977876424     -60.9067759
9.013                0.977832594     -60.9906227
9.014                 0.97778863     -61.0746623
9.015                0.977744532     -61.1588951
9.016                0.977700299     -61.2433219
9.017                0.977655932     -61.3279431
9.018                 0.97761143     -61.4127595
9.019                0.977566793     -61.4977716
9.02                 0.977522019       -61.58298
9.021                0.977477109     -61.6683853
9.022                0.977432062     -61.7539883
9.023                0.977386878     -61.8397894
9.024                0.977341557     -61.9257893
9.025                0.977296097     -62.0119886
9.026                0.977250498     -62.0983879
9.027                0.977204761      -62.184988
9.028                0.977158884     -62.2717893
9.029                0.977112868     -62.3587925
9.03                 0.977066711     -62.4459983
9.031                0.977020414     -62.5334074
9.032                0.976973975     -62.6210202
9.033                0.976927395     -62.7088375
9.034                0.976880673     -62.7968599
9.035                0.976833809     -62.8850881
9.036                0.976786802     -62.9735226
9.037                0.976739652     -63.0621642
9.038                0.976692357     -63.1510136
9.039                0.976644919     -63.2400712
9.04                 0.976597336     -63.3293378
9.041                0.976549609     -63.4188142
9.042                0.976501735     -63.5085008
9.043                0.976453716     -63.5983984
9.044                0.976405551     -63.6885076
9.045                0.976357239     -63.7788291
9.046                0.976308779     -63.8693636
9.047                0.976260172     -63.9601118
9.048                0.976211417     -64.0510742
9.049                0.976162513     -64.1422517
9.05                 0.976113461     -64.2336447
9.051                0.976064259     -64.3252542
9.052                0.976014907     -64.4170806
9.053                0.975965405     -64.5091248
9.054                0.975915752     -64.6013873
9.055                0.975865947     -64.6938689
9.056                0.975815992     -64.7865702
9.057                0.975765884     -64.8794921
9.058                0.975715623      -64.972635
9.059                 0.97566521     -65.0659998
9.06                 0.975614643     -65.1595872
9.061                0.975563922     -65.2533978
9.062                0.975513046     -65.3474323
9.063                0.975462016     -65.4416915
9.064                0.975410831      -65.536176
9.065                 0.97535949     -65.6308866
9.066                0.975307993      -65.725824
9.067                0.975256339     -65.8209889
9.068                0.975204528      -65.916382
9.069                 0.97515256      -66.012004
9.07                 0.975100433     -66.1078557
9.071                0.975048148     -66.2039377
9.072                0.974995704     -66.3002508
9.073                0.974943101     -66.3967958
9.074                0.974890338     -66.4935734
9.075                0.974837415     -66.5905842
9.076                0.974784331      -66.687829
9.077                0.974731086     -66.7853087
9.078                0.974677679     -66.8830238
9.079                 0.97462411     -66.9809752
9.08                 0.974570378     -67.0791636
9.081                0.974516484     -67.1775897
9.082                0.974462426     -67.2762543
9.083                0.974408204     -67.3751581
9.084                0.974353817      -67.474302
9.085                0.974299266     -67.5736866
9.086                 0.97424455     -67.6733127
9.087                0.974189667     -67.7731811
9.088                0.974134619     -67.8732925
9.089                0.974079403     -67.9736477
9.09                 0.974024021     -68.0742475
9.091                 0.97396847     -68.1750926
9.092                0.973912752     -68.2761839
9.093                0.973856865     -68.3775221
9.094                 0.97380081     -68.4791079
9.095                0.973744584     -68.5809421
9.096                0.973688189     -68.6830257
9.097                0.973631623     -68.7853592
9.098                0.973574887     -68.8879435
9.099                0.973517979     -68.9907794
9.1                  0.973460899     -69.0938678
9.101                0.973403647     -69.1972093
9.102                0.973346223     -69.3008047
9.103                0.973288625      -69.404655
9.104                0.973230853     -69.5087609
9.105                0.973172908     -69.6131231
9.106                0.973114788     -69.7177425
9.107                0.973056493       -69.82262
9.108                0.972998022     -69.9277562
9.109                0.972939375     -70.0331521
9.11                 0.972880553     -70.1388085
9.111                0.972821553     -70.2447261
9.112                0.972762376     -70.3509058
9.113                0.972703021     -70.4573484
9.114                0.972643488     -70.5640547
9.115                0.972583776     -70.6710257
9.116                0.972523885      -70.778262
9.117                0.972463815     -70.8857645
9.118                0.972403564     -70.9935342
9.119                0.972343133     -71.1015717
9.12                 0.972282521      -71.209878
9.121                0.972221728     -71.3184539
9.122                0.972160753     -71.4273002
9.123                0.972099595     -71.5364178
9.124                0.972038255     -71.6458075
9.125                0.971976731     -71.7554703
9.126                0.971915024     -71.8654068
9.127                0.971853133     -71.9756181
9.128                0.971791057      -72.086105
9.129                0.971728796     -72.1968683
9.13                  0.97166635     -72.3079089
9.131                0.971603718     -72.4192276
9.132                0.971540899     -72.5308254
9.133                0.971477894     -72.6427031
9.134                0.971414702     -72.7548615
9.135                0.971351321     -72.8673017
9.136                0.971287753     -72.9800243
9.137                0.971223996     -73.0930304
9.138                0.971160051     -73.2063208
9.139                0.971095915     -73.3198964
9.14                  0.97103159      -73.433758
9.141                0.970967075     -73.5479067
9.142                0.970902369     -73.6623432
9.143                0.970837472     -73.7770685
9.144                0.970772383     -73.8920834
9.145                0.970707102     -74.0073889
9.146                0.970641629     -74.1229859
9.147                0.970575963     -74.2388752
9.148                0.970510104     -74.3550579
9.149                0.970444051     -74.4715347
9.15                 0.970377804     -74.5883066
9.151                0.970311362     -74.7053746
9.152                0.970244726     -74.8227395
9.153                0.970177894     -74.9404023
9.154                0.970110866     -75.0583638
9.155                0.970043642     -75.1766251
9.156                0.969976222      -75.295187
9.157                0.969908605     -75.4140505
9.158                 0.96984079     -75.5332165
9.159                0.969772777     -75.6526859
9.16                 0.969704567     -75.7724597
9.161                0.969636157     -75.8925388
9.162                0.969567549     -76.0129241
9.163                0.969498741     -76.1336167
9.164                0.969429734     -76.2546174
9.165                0.969360527     -76.3759272
9.166                0.969291118      -76.497547
9.167                0.969221509     -76.6194778
9.168                0.969151699     -76.7417206
9.169                0.969081687     -76.8642763
9.17                 0.969011473     -76.9871458
9.171                0.968941057     -77.1103302
9.172                0.968870438     -77.2338303
9.173                0.968799615     -77.3576473
9.174                 0.96872859     -77.4817819
9.175                 0.96865736     -77.6062353
9.176                0.968585926     -77.7310083
9.177                0.968514287     -77.8561019
9.178                0.968442444     -77.9815172
9.179                0.968370395     -78.1072551
9.18                 0.968298141     -78.2333166
9.181                0.968225681     -78.3597026
9.182                0.968153014     -78.4864142
9.183                0.968080141     -78.6134523
9.184                0.968007061      -78.740818
9.185                0.967933774     -78.8685122
9.186                0.967860279     -78.9965359
9.187                0.967786576     -79.1248901
9.188                0.967712665     -79.2535758
9.189                0.967638545      -79.382594
9.19                 0.967564217     -79.5119457
9.191                0.967489679      -79.641632
9.192                0.967414932     -79.7716538
9.193                0.967339975     -79.9020121
9.194                0.967264808     -80.0327079
9.195                0.967189431     -80.1637423
9.196                0.967113843     -80.2951162
9.197                0.967038045     -80.4268308
9.198                0.966962035     -80.5588869
9.199                0.966885814     -80.6912856
9.2                  0.966809381      -80.824028
9.201                0.966732736     -80.9571151
9.202                0.966655879     -81.0905478
9.203                 0.96657881     -81.2243272
9.204                0.966501528     -81.3584544
9.205                0.966424033     -81.4929304
9.206                0.966346325     -81.6277561
9.207                0.966268403     -81.7629327
9.208                0.966190268     -81.8984612
9.209                0.966111919     -82.0343426
9.21                 0.966033357     -82.1705779
9.211                0.965954579     -82.3071682
9.212                0.965875588     -82.4441146
9.213                0.965796382      -82.581418
9.214                0.965716961     -82.7190795
9.215                0.965637325     -82.8571003
9.216                0.965557474     -82.9954812
9.217                0.965477408     -83.1342234
9.218                0.965397126     -83.2733279
9.219                0.965316628     -83.4127957
9.22                 0.965235915      -83.552628
9.221                0.965154986     -83.6928258
9.222                0.965073841     -83.8333901
9.223                0.964992479      -83.974322
9.224                0.964910901     -84.1156225
9.225                0.964829107     -84.2572928
9.226                0.964747096     -84.3993338
9.227                0.964664869     -84.5417467
9.228                0.964582425     -84.6845324
9.229                0.964499764     -84.8276922
9.23                 0.964416886     -84.9712269
9.231                0.964333791     -85.1151378
9.232                0.964250479     -85.2594258
9.233                 0.96416695     -85.4040921
9.234                0.964083203     -85.5491377
9.235                 0.96399924     -85.6945637
9.236                0.963915059     -85.8403711
9.237                0.963830661     -85.9865611
9.238                0.963746046     -86.1331347
9.239                0.963661214     -86.2800929
9.24                 0.963576164      -86.427437
9.241                0.963490897     -86.5751678
9.242                0.963405412     -86.7232866
9.243                0.963319711     -86.8717943
9.244                0.963233792     -87.0206922
9.245                0.963147656     -87.1699812
9.246                0.963061303     -87.3196624
9.247                0.962974733     -87.4697369
9.248                0.962887946     -87.6202058
9.249                0.962800942     -87.7710702
9.25                 0.962713721     -87.9223312
9.251                0.962626284     -88.0739898
9.252                 0.96253863     -88.2260472
9.253                 0.96245076     -88.3785043
9.254                0.962362673     -88.5313624
9.255                 0.96227437     -88.6846224
9.256                0.962185851     -88.8382855
9.257                0.962097116     -88.9923528
9.258                0.962008165     -89.1468253
9.259                0.961918999     -89.3017041
9.26                 0.961829618     -89.4569903
9.261                0.961740021      -89.612685
9.262                 0.96165021     -89.7687893
9.263                0.961560184     -89.9253043
9.264                0.961469943      -90.082231
9.265                0.961379488     -90.2395705
9.266                 0.96128882      -90.397324
9.267                0.961197938     -90.5554924
9.268                0.961106842      -90.714077
9.269                0.961015533     -90.8730787
9.27                 0.960924012     -91.0324986
9.271                0.960832278     -91.1923379
9.272                0.960740332     -91.3525976
9.273                0.960648174     -91.5132788
9.274                0.960555805     -91.6743826
9.275                0.960463225       -91.83591
9.276                0.960370434     -91.9978622
9.277                0.960277434     -92.1602401
9.278                0.960184223      -92.323045
9.279                0.960090803     -92.4862778
9.28                 0.959997174     -92.6499397
9.281                0.959903336     -92.8140317
9.282                0.959809291     -92.9785548
9.283                0.959715038     -93.1435103
9.284                0.959620578      -93.308899
9.285                0.959525911     -93.4747222
9.286                0.959431039     -93.6409808
9.287                0.959335961      -93.807676
9.288                0.959240678     -93.9748087
9.289                0.959145191     -94.1423801
9.29                   0.9590495     -94.3103913
9.291                0.958953606     -94.4788432
9.292                0.958857509      -94.647737
9.293                0.958761211     -94.8170736
9.294                0.958664711     -94.9868543
9.295                0.958568011     -95.1570799
9.296                0.958471111     -95.3277516
9.297                0.958374012     -95.4988703
9.298                0.958276714     -95.6704373
9.299                0.958179218     -95.8424534
9.3                  0.958081526     -96.0149198
9.301                0.957983637     -96.1878374
9.302                0.957885553     -96.3612073
9.303                0.957787274     -96.5350306
9.304                0.957688802     -96.7093083
9.305                0.957590136     -96.8840413
9.306                0.957491278     -97.0592308
9.307                0.957392229     -97.2348778
9.308                 0.95729299     -97.4109832
9.309                0.957193561     -97.5875481
9.31                 0.957093944     -97.7645735
9.311                0.956994139     -97.9420604
9.312                0.956894147     -98.1200099
9.313                0.956793969     -98.2984228
9.314                0.956693607     -98.4773003
9.315                0.956593062     -98.6566433
9.316                0.956492333     -98.8364528
9.317                0.956391423     -99.0167299
9.318                0.956290333     -99.1974754
9.319                0.956189063     -99.3786904
9.32                 0.956087615     -99.5603758
9.321                 0.95598599     -99.7425327
9.322                0.955884189     -99.9251619
9.323                0.955782213     -100.108264
9.324                0.955680063     -100.291841
9.325                0.955577742     -100.475894
9.326                0.955475249     -100.660422
9.327                0.955372586     -100.845428
9.328                0.955269754     -101.030911
9.329                0.955166755     -101.216874
9.33                 0.955063591     -101.403317
9.331                0.954960261      -101.59024
9.332                0.954856769     -101.777646
9.333                0.954753114     -101.965534
9.334                  0.9546493     -102.153906
9.335                0.954545326     -102.342762
9.336                0.954441194     -102.532104
9.337                0.954336907     -102.721933
9.338                0.954232465     -102.912248
9.339                 0.95412787     -103.103052
9.34                 0.954023124     -103.294345
9.341                0.953918228     -103.486127
9.342                0.953813183       -103.6784
9.343                0.953707992     -103.871165
9.344                0.953602656     -104.064423
9.345                0.953497177     -104.258173
9.346                0.953391556     -104.452418
9.347                0.953285795     -104.647158
9.348                0.953179896     -104.842394
9.349                0.953073861     -105.038126
9.35                 0.952967691     -105.234356
9.351                0.952861388     -105.431084
9.352                0.952754954     -105.628311
9.353                0.952648392     -105.826037
9.354                0.952541702     -106.024265
9.355                0.952434887     -106.222993
9.356                0.952327949     -106.422224
9.357                0.952220889     -106.621958
9.358                0.952113711     -106.822195
9.359                0.952006415     -107.022937
9.36                 0.951899003     -107.224184
9.361                0.951791479     -107.425937
9.362                0.951683844     -107.628196
9.363                  0.9515761     -107.830963
9.364                0.951468249     -108.034238
9.365                0.951360294     -108.238021
9.366                0.951252236     -108.442313
9.367                0.951144079     -108.647116
9.368                0.951035824     -108.852429
9.369                0.950927473     -109.058254
9.37                 0.950819029     -109.264591
9.371                0.950710494      -109.47144
9.372                0.950601871     -109.678802
9.373                0.950493163     -109.886678
9.374                 0.95038437     -110.095069
9.375                0.950275497     -110.303975
9.376                0.950166545     -110.513396
9.377                0.950057517     -110.723334
9.378                0.949948415     -110.933788
9.379                0.949839243      -111.14476
9.38                 0.949730002     -111.356249
9.381                0.949620696     -111.568257
9.382                0.949511327     -111.780783
9.383                0.949401898     -111.993829
9.384                0.949292411     -112.207395
9.385                 0.94918287     -112.421482
9.386                0.949073277     -112.636089
9.387                0.948963634     -112.851217
9.388                0.948853946     -113.066867
9.389                0.948744214     -113.283039
9.39                 0.948634441     -113.499734
9.391                0.948524631     -113.716952
9.392                0.948414787     -113.934693
9.393                0.948304911     -114.152958
9.394                0.948195006     -114.371747
9.395                0.948085077     -114.591061
9.396                0.947975125     -114.810899
