! TOUCHSTONE file generated by CST DESIGN STUDIO
! Date and time: Wed Feb  5 13:31:10 2025
! Project name: C:\Work\MatlabApps\UnitCellOptimizationMatlab\CST\unitcell.cst
! Tree item: Tasks\Sweep1\SPara1\S-Parameters
! Header version: 2024
! Port assignment regex: !\s*Touchstone port\s*([0-9]+)\s*=\s*(CST MWS port|CST DES external port|CST DES block port)\s*(.+)\s* \(\"(.*)\"\)(\s*mode\s*([0-9]+))?.*
! Touchstone port assignment:
! Touchstone port 1 = CST DES external port 1 ("")
# GHz S MA R 50
9                    0.976234658     -78.7536786
9.001                0.976174623     -78.8762808
9.002                0.976114408     -78.9991906
9.003                0.976054011     -79.1224087
9.004                0.975993433     -79.2459363
9.005                0.975932673     -79.3697741
9.006                0.975871731      -79.493923
9.007                0.975810606     -79.6183841
9.008                0.975749298     -79.7431581
9.009                0.975687807     -79.8682461
9.01                 0.975626132     -79.9936489
9.011                0.975564273     -80.1193675
9.012                 0.97550223     -80.2454027
9.013                0.975440003     -80.3717556
9.014                 0.97537759      -80.498427
9.015                0.975314992     -80.6254178
9.016                0.975252209      -80.752729
9.017                0.975189239     -80.8803616
9.018                0.975126084     -81.0083164
9.019                0.975062742     -81.1365944
9.02                 0.974999212     -81.2651965
9.021                0.974935496     -81.3941237
9.022                0.974871592     -81.5233769
9.023                0.974807501     -81.6529571
9.024                0.974743221     -81.7828651
9.025                0.974678753      -81.913102
9.026                0.974614096     -82.0436686
9.027                 0.97454925      -82.174566
9.028                0.974484215      -82.305795
9.029                 0.97441899     -82.4373567
9.03                 0.974353575      -82.569252
9.031                0.974287971     -82.7014818
9.032                0.974222176     -82.8340471
9.033                 0.97415619     -82.9669488
9.034                0.974090013     -83.1001879
9.035                0.974023645     -83.2337654
9.036                0.973957086     -83.3676823
9.037                0.973890334     -83.5019394
9.038                0.973823391     -83.6365377
9.039                0.973756256     -83.7714783
9.04                 0.973688928     -83.9067621
9.041                0.973621408       -84.04239
9.042                0.973553694      -84.178363
9.043                0.973485788     -84.3146821
9.044                0.973417688     -84.4513483
9.045                0.973349394     -84.5883625
9.046                0.973280907     -84.7257257
9.047                0.973212226     -84.8634389
9.048                 0.97314335     -85.0015031
9.049                 0.97307428     -85.1399192
9.05                 0.973005015     -85.2786882
9.051                0.972935556      -85.417811
9.052                0.972865901     -85.5572888
9.053                0.972796052     -85.6971224
9.054                0.972726007     -85.8373128
9.055                0.972655766     -85.9778611
9.056                 0.97258533     -86.1187681
9.057                0.972514698      -86.260035
9.058                 0.97244387     -86.4016626
9.059                0.972372845      -86.543652
9.06                 0.972301625     -86.6860041
9.061                0.972230208     -86.8287199
9.062                0.972158594     -86.9718005
9.063                0.972086784     -87.1152467
9.064                0.972014777     -87.2590597
9.065                0.971942573     -87.4032404
9.066                0.971870172     -87.5477897
9.067                0.971797574     -87.6927087
9.068                0.971724779     -87.8379984
9.069                0.971651786     -87.9836598
9.07                 0.971578596     -88.1296938
9.071                0.971505208     -88.2761014
9.072                0.971431623     -88.4228837
9.073                0.971357841     -88.5700416
9.074                 0.97128386     -88.7175762
9.075                0.971209682     -88.8654883
9.076                0.971135307     -89.0137792
9.077                0.971060733     -89.1624496
9.078                0.970985962     -89.3115006
9.079                0.970910993     -89.4609333
9.08                 0.970835826     -89.6107485
9.081                0.970760462     -89.7609474
9.082                0.970684899     -89.9115308
9.083                0.970609139     -90.0624999
9.084                0.970533181     -90.2138555
9.085                0.970457025     -90.3655987
9.086                0.970380672     -90.5177306
9.087                0.970304121      -90.670252
9.088                0.970227372     -90.8231639
9.089                0.970150426     -90.9764675
9.09                 0.970073282     -91.1301636
9.091                0.969995941     -91.2842533
9.092                0.969918403     -91.4387375
9.093                0.969840667     -91.5936173
9.094                0.969762735     -91.7488937
9.095                0.969684605     -91.9045676
9.096                0.969606278       -92.06064
9.097                0.969527755     -92.2171119
9.098                0.969449036     -92.3739844
9.099                0.969370119     -92.5312583
9.1                  0.969291007     -92.6889348
9.101                0.969211698     -92.8470147
9.102                0.969132194     -93.0054991
9.103                0.969052494      -93.164389
9.104                0.968972598     -93.3236853
9.105                0.968892507     -93.4833891
9.106                0.968812221     -93.6435013
9.107                 0.96873174     -93.8040228
9.108                0.968651065     -93.9649548
9.109                0.968570195     -94.1262981
9.11                 0.968489131     -94.2880538
9.111                0.968407873     -94.4502228
9.112                0.968326422     -94.6128061
9.113                0.968244778     -94.7758046
9.114                 0.96816294     -94.9392194
9.115                 0.96808091     -95.1030515
9.116                0.967998688     -95.2673017
9.117                0.967916274     -95.4319711
9.118                0.967833668     -95.5970606
9.119                0.967750871     -95.7625712
9.12                 0.967667884     -95.9285038
9.121                0.967584706     -96.0948595
9.122                0.967501338     -96.2616392
9.123                 0.96741778     -96.4288437
9.124                0.967334033     -96.5964742
9.125                0.967250098     -96.7645315
9.126                0.967165974     -96.9330167
9.127                0.967081662     -97.1019305
9.128                0.966997163     -97.2712741
9.129                0.966912477     -97.4410482
9.13                 0.966827605      -97.611254
9.131                0.966742547     -97.7818923
9.132                0.966657304      -97.952964
9.133                0.966571876     -98.1244701
9.134                0.966486264     -98.2964115
9.135                0.966400468     -98.4687892
9.136                0.966314489      -98.641604
9.137                0.966228328     -98.8148569
9.138                0.966141985     -98.9885489
9.139                0.966055461     -99.1626807
9.14                 0.965968757     -99.3372534
9.141                0.965881872     -99.5122678
9.142                0.965794809     -99.6877249
9.143                0.965707566     -99.8636255
9.144                0.965620147     -100.039971
9.145                 0.96553255     -100.216761
9.146                0.965444777     -100.393998
9.147                0.965356828     -100.571681
9.148                0.965268704     -100.749813
9.149                0.965180407     -100.928394
9.15                 0.965091936     -101.107424
9.151                0.965003293     -101.286905
9.152                0.964914478     -101.466838
9.153                0.964825493     -101.647223
9.154                0.964736337     -101.828061
9.155                0.964647013     -102.009353
9.156                0.964557521       -102.1911
9.157                0.964467861     -102.373303
9.158                0.964378036     -102.555963
9.159                0.964288045      -102.73908
9.16                 0.964197889     -102.922655
9.161                0.964107571     -103.106689
9.162                 0.96401709     -103.291184
9.163                0.963926448     -103.476139
9.164                0.963835645     -103.661555
9.165                0.963744684     -103.847434
9.166                0.963653564     -104.033776
9.167                0.963562287     -104.220582
9.168                0.963470854     -104.407853
9.169                0.963379267     -104.595589
9.17                 0.963287526     -104.783792
9.171                0.963195632     -104.972461
9.172                0.963103587     -105.161599
9.173                0.963011392     -105.351205
9.174                0.962919048      -105.54128
9.175                0.962826557     -105.731825
9.176                0.962733919     -105.922841
9.177                0.962641136     -106.114329
9.178                0.962548209     -106.306289
9.179                 0.96245514     -106.498722
9.18                  0.96236193     -106.691629
9.181                 0.96226858      -106.88501
9.182                0.962175092     -107.078866
9.183                0.962081466     -107.273198
9.184                0.961987706     -107.468007
9.185                0.961893811     -107.663292
9.186                0.961799783     -107.859056
9.187                0.961705625     -108.055298
9.188                0.961611336     -108.252019
9.189                 0.96151692      -108.44922
9.19                 0.961422377     -108.646901
9.191                0.961327709     -108.845064
9.192                0.961232918     -109.043708
9.193                0.961138005     -109.242834
9.194                0.961042972     -109.442443
9.195                0.960947821     -109.642536
9.196                0.960852552     -109.843113
9.197                0.960757169     -110.044174
9.198                0.960661672     -110.245721
9.199                0.960566064     -110.447753
9.2                  0.960470346     -110.650272
9.201                 0.96037452     -110.853278
9.202                0.960278587     -111.056771
9.203                0.960182551     -111.260752
9.204                0.960086411     -111.465221
9.205                0.959990171      -111.67018
9.206                0.959893833     -111.875627
9.207                0.959797397     -112.081565
9.208                0.959700867     -112.287993
9.209                0.959604244     -112.494912
9.21                  0.95950753     -112.702323
9.211                0.959410728     -112.910225
9.212                0.959313838     -113.118619
9.213                0.959216864     -113.327506
9.214                0.959119807     -113.536886
9.215                 0.95902267     -113.746759
9.216                0.958925455     -113.957127
9.217                0.958828163     -114.167988
9.218                0.958730797     -114.379344
9.219                 0.95863336     -114.591195
9.22                 0.958535853     -114.803541
9.221                0.958438279     -115.016383
9.222                 0.95834064      -115.22972
9.223                0.958242939     -115.443554
9.224                0.958145177     -115.657884
9.225                0.958047357     -115.872711
9.226                0.957949482     -116.088036
9.227                0.957851553     -116.303857
9.228                0.957753574     -116.520176
9.229                0.957655547     -116.736993
9.23                 0.957557474     -116.954308
9.231                0.957459358     -117.172121
9.232                0.957361201     -117.390433
9.233                0.957263007     -117.609243
9.234                0.957164777     -117.828552
9.235                0.957066514      -118.04836
9.236                 0.95696822     -118.268667
9.237                  0.9568699     -118.489473
9.238                0.956771554     -118.710778
9.239                0.956673186     -118.932583
9.24                 0.956574799     -119.154887
9.241                0.956476396     -119.377691
9.242                0.956377978     -119.600994
9.243                 0.95627955     -119.824797
9.244                0.956181114       -120.0491
9.245                0.956082672     -120.273902
9.246                0.955984228     -120.499204
9.247                0.955885784     -120.725006
9.248                0.955787344     -120.951307
9.249                0.955688911     -121.178108
9.25                 0.955590487     -121.405409
9.251                0.955492075     -121.633208
9.252                0.955393679     -121.861508
9.253                0.955295302     -122.090306
9.254                0.955196947     -122.319603
9.255                0.955098616     -122.549399
9.256                0.955000314     -122.779694
9.257                0.954902042     -123.010488
9.258                0.954803805      -123.24178
9.259                0.954705606      -123.47357
9.26                 0.954607448     -123.705858
9.261                0.954509334     -123.938644
9.262                0.954411267     -124.171927
9.263                0.954313251     -124.405707
9.264                 0.95421529     -124.639984
9.265                0.954117386     -124.874758
9.266                0.954019543     -125.110028
9.267                0.953921764     -125.345793
9.268                0.953824053     -125.582054
9.269                0.953726413      -125.81881
9.27                 0.953628849     -126.056061
9.271                0.953531362     -126.293806
9.272                0.953433958     -126.532045
9.273                0.953336639     -126.770777
9.274                0.953239409     -127.010002
9.275                0.953142271     -127.249719
9.276                 0.95304523     -127.489928
9.277                0.952948289     -127.730628
9.278                0.952851452     -127.971819
9.279                0.952754722       -128.2135
9.28                 0.952658103     -128.455671
9.281                0.952561599     -128.698331
9.282                0.952465214     -128.941478
9.283                0.952368951     -129.185114
9.284                0.952272814     -129.429236
9.285                0.952176808     -129.673845
9.286                0.952080935     -129.918939
9.287                  0.9519852     -130.164518
9.288                0.951889608     -130.410581
9.289                 0.95179416     -130.657127
9.29                 0.951698863     -130.904156
9.291                0.951603719     -131.151666
9.292                0.951508733     -131.399657
9.293                0.951413909     -131.648128
9.294                 0.95131925     -131.897078
9.295                0.951224761     -132.146506
9.296                0.951130446     -132.396411
9.297                0.951036308     -132.646793
9.298                0.950942353     -132.897649
9.299                0.950848584      -133.14898
9.3                  0.950755005     -133.400785
9.301                 0.95066162     -133.653061
9.302                0.950568435     -133.905809
9.303                0.950475452     -134.159027
9.304                0.950382676     -134.412713
9.305                0.950290111     -134.666868
9.306                0.950197762     -134.921489
9.307                0.950105633     -135.176576
9.308                0.950013728     -135.432127
9.309                0.949922051     -135.688142
9.31                 0.949830607     -135.944618
9.311                  0.9497394     -136.201555
9.312                0.949648434     -136.458951
9.313                0.949557714     -136.716805
9.314                0.949467244     -136.975116
9.315                0.949377029     -137.233882
9.316                0.949287073     -137.493103
9.317                0.949197379     -137.752775
9.318                0.949107954     -138.012899
9.319                0.949018801     -138.273473
9.32                 0.948929924     -138.534495
9.321                0.948841328     -138.795964
9.322                0.948753018     -139.057878
9.323                0.948664998     -139.320235
9.324                0.948577272     -139.583035
9.325                0.948489845     -139.846275
9.326                0.948402722     -140.109955
9.327                0.948315907     -140.374071
9.328                0.948229404     -140.638623
9.329                0.948143218     -140.903609
9.33                 0.948057354     -141.169028
9.331                0.947971816     -141.434877
9.332                0.947886608     -141.701154
9.333                0.947801736     -141.967859
9.334                0.947717204     -142.234988
9.335                0.947633016     -142.502542
9.336                0.947549176     -142.770516
9.337                 0.94746569      -143.03891
9.338                0.947382563     -143.307722
9.339                0.947299797      -143.57695
9.34                 0.947217399     -143.846592
9.341                0.947135373     -144.116645
9.342                0.947053723     -144.387109
9.343                0.946972454      -144.65798
9.344                0.946891571     -144.929257
9.345                0.946811077     -145.200938
9.346                0.946730978      -145.47302
9.347                0.946651279     -145.745502
9.348                0.946571983     -146.018381
9.349                0.946493095     -146.291656
9.35                 0.946414621     -146.565324
9.351                0.946336564     -146.839382
9.352                0.946258929     -147.113829
9.353                0.946181721     -147.388662
9.354                0.946104944      -147.66388
9.355                0.946028602     -147.939479
9.356                0.945952701     -148.215457
9.357                0.945877245     -148.491813
9.358                0.945802237     -148.768543
9.359                0.945727684     -149.045646
9.36                 0.945653589     -149.323118
9.361                0.945579957     -149.600957
9.362                0.945506792     -149.879162
9.363                0.945434098     -150.157729
9.364                0.945361881     -150.436655
9.365                0.945290145     -150.715939
9.366                0.945218893     -150.995578
9.367                0.945148131     -151.275569
9.368                0.945077863     -151.555909
9.369                0.945008093     -151.836597
9.37                 0.944938826     -152.117628
9.371                0.944870066     -152.399001
9.372                0.944801817     -152.680713
9.373                0.944734084     -152.962761
9.374                 0.94466687     -153.245142
9.375                0.944600181     -153.527854
9.376                0.944534021     -153.810894
9.377                0.944468393     -154.094258
9.378                0.944403302     -154.377945
9.379                0.944338753     -154.661951
9.38                 0.944274748     -154.946273
9.381                0.944211294     -155.230908
9.382                0.944148393     -155.515854
9.383                0.944086049     -155.801108
9.384                0.944024268     -156.086666
9.385                0.943963053     -156.372526
9.386                0.943902407     -156.658684
9.387                0.943842335     -156.945137
9.388                0.943782842     -157.231883
9.389                 0.94372393     -157.518919
9.39                 0.943665604      -157.80624
9.391                0.943607868     -158.093845
9.392                0.943550726      -158.38173
9.393                0.943494181     -158.669891
9.394                0.943438237     -158.958326
9.395                0.943382898     -159.247032
9.396                0.943328168     -159.536004
