! TOUCHSTONE file generated by CST DESIGN STUDIO
! Date and time: Wed Feb  5 13:31:20 2025
! Project name: C:\Work\MatlabApps\UnitCellOptimizationMatlab\CST\unitcell.cst
! Tree item: Tasks\Sweep1\SPara1\S-Parameters
! Header version: 2024
! Port assignment regex: !\s*Touchstone port\s*([0-9]+)\s*=\s*(CST MWS port|CST DES external port|CST DES block port)\s*(.+)\s* \(\"(.*)\"\)(\s*mode\s*([0-9]+))?.*
! Touchstone port assignment:
! Touchstone port 1 = CST DES external port 1 ("")
# GHz S MA R 50
9                    0.977568575     -66.5222528
9.001                0.977519571     -66.6169101
9.002                0.977470417     -66.7117922
9.003                0.977421114     -66.8068998
9.004                0.977371661     -66.9022336
9.005                0.977322057     -66.9977942
9.006                0.977272302     -67.0935825
9.007                0.977222396     -67.1895991
9.008                0.977172337     -67.2858448
9.009                0.977122127     -67.3823202
9.01                 0.977071764      -67.479026
9.011                0.977021247     -67.5759629
9.012                0.976970577     -67.6731318
9.013                0.976919753     -67.7705332
9.014                0.976868775      -67.868168
9.015                0.976817641     -67.9660368
9.016                0.976766352     -68.0641404
9.017                0.976714907     -68.1624795
9.018                0.976663306     -68.2610548
9.019                0.976611549      -68.359867
9.02                 0.976559634      -68.458917
9.021                0.976507561     -68.5582054
9.022                0.976455331     -68.6577329
9.023                0.976402942     -68.7575004
9.024                0.976350394     -68.8575085
9.025                0.976297687      -68.957758
9.026                 0.97624482     -69.0582497
9.027                0.976191793     -69.1589843
9.028                0.976138605     -69.2599625
9.029                0.976085256     -69.3611852
9.03                 0.976031745      -69.462653
9.031                0.975978073     -69.5643667
9.032                0.975924238     -69.6663271
9.033                 0.97587024      -69.768535
9.034                0.975816079     -69.8709911
9.035                0.975761754     -69.9736962
9.036                0.975707264      -70.076651
9.037                 0.97565261     -70.1798564
9.038                0.975597791     -70.2833131
9.039                0.975542807     -70.3870218
9.04                 0.975487656     -70.4909835
9.041                0.975432339     -70.5951988
9.042                0.975376855     -70.6996685
9.043                0.975321204     -70.8043934
9.044                0.975265385     -70.9093744
9.045                0.975209398     -71.0146121
9.046                0.975153242     -71.1201075
9.047                0.975096917     -71.2258612
9.048                0.975040423     -71.3318742
9.049                0.974983759     -71.4381471
9.05                 0.974926924     -71.5446808
9.051                0.974869918     -71.6514761
9.052                0.974812742     -71.7585339
9.053                0.974755393     -71.8658548
9.054                0.974697872     -71.9734398
9.055                0.974640179     -72.0812896
9.056                0.974582313     -72.1894051
9.057                0.974524273     -72.2977871
9.058                0.974466059     -72.4064363
9.059                0.974407672     -72.5153537
9.06                 0.974349109     -72.6245401
9.061                0.974290371     -72.7339962
9.062                0.974231457     -72.8437229
9.063                0.974172368     -72.9537211
9.064                0.974113102     -73.0639915
9.065                0.974053659     -73.1745351
9.066                0.973994038     -73.2853526
9.067                 0.97393424      -73.396445
9.068                0.973874264     -73.5078129
9.069                0.973814109     -73.6194574
9.07                 0.973753775     -73.7313792
9.071                0.973693262     -73.8435791
9.072                0.973632569     -73.9560582
9.073                0.973571695     -74.0688171
9.074                0.973510641     -74.1818567
9.075                0.973449405      -74.295178
9.076                0.973387988     -74.4087818
9.077                0.973326389     -74.5226689
9.078                0.973264607     -74.6368402
9.079                0.973202643     -74.7512965
9.08                 0.973140495     -74.8660388
9.081                0.973078164      -74.981068
9.082                0.973015649     -75.0963848
9.083                0.972952949     -75.2119902
9.084                0.972890065     -75.3278851
9.085                0.972826995     -75.4440703
9.086                0.972763739     -75.5605467
9.087                0.972700297     -75.6773152
9.088                0.972636669     -75.7943768
9.089                0.972572854     -75.9117322
9.09                 0.972508852     -76.0293823
9.091                0.972444662     -76.1473282
9.092                0.972380284     -76.2655706
9.093                0.972315717     -76.3841105
9.094                0.972250962     -76.5029488
9.095                0.972186017     -76.6220864
9.096                0.972120883     -76.7415241
9.097                0.972055559     -76.8612629
9.098                0.971990044     -76.9813037
9.099                0.971924339     -77.1016475
9.1                  0.971858442     -77.2222951
9.101                0.971792354     -77.3432474
9.102                0.971726074     -77.4645053
9.103                0.971659602     -77.5860699
9.104                0.971592937      -77.707942
9.105                0.971526079     -77.8301225
9.106                0.971459028     -77.9526123
9.107                0.971391783     -78.0754125
9.108                0.971324343     -78.1985239
9.109                 0.97125671     -78.3219474
9.11                 0.971188882      -78.445684
9.111                0.971120858     -78.5697346
9.112                0.971052639     -78.6941002
9.113                0.970984224     -78.8187817
9.114                0.970915613     -78.9437801
9.115                0.970846806     -79.0690962
9.116                0.970777802     -79.1947311
9.117                  0.9707086     -79.3206856
9.118                0.970639201     -79.4469608
9.119                0.970569605     -79.5735576
9.12                  0.97049981      -79.700477
9.121                0.970429816     -79.8277198
9.122                0.970359624     -79.9552872
9.123                0.970289233     -80.0831799
9.124                0.970218642      -80.211399
9.125                0.970147852     -80.3399455
9.126                0.970076861     -80.4688202
9.127                 0.97000567     -80.5980243
9.128                0.969934279     -80.7275586
9.129                0.969862687     -80.8574241
9.13                 0.969790894     -80.9876219
9.131                0.969718899     -81.1181528
9.132                0.969646702     -81.2490178
9.133                0.969574304      -81.380218
9.134                0.969501703     -81.5117542
9.135                0.969428899     -81.6436276
9.136                0.969355893      -81.775839
9.137                0.969282684     -81.9083894
9.138                0.969209272     -82.0412799
9.139                0.969135655     -82.1745115
9.14                 0.969061836      -82.308085
9.141                0.968987812     -82.4420016
9.142                0.968913584     -82.5762621
9.143                0.968839151     -82.7108677
9.144                0.968764513     -82.8458192
9.145                0.968689671     -82.9811177
9.146                0.968614624     -83.1167642
9.147                0.968539371     -83.2527597
9.148                0.968463913     -83.3891052
9.149                0.968388248     -83.5258017
9.15                 0.968312378     -83.6628501
9.151                0.968236302     -83.8002516
9.152                 0.96816002      -83.938007
9.153                0.968083531     -84.0761175
9.154                0.968006835      -84.214584
9.155                0.967929933     -84.3534075
9.156                0.967852823     -84.4925891
9.157                0.967775507     -84.6321297
9.158                0.967697983     -84.7720304
9.159                0.967620252     -84.9122922
9.16                 0.967542313     -85.0529161
9.161                0.967464166     -85.1939031
9.162                0.967385812     -85.3352543
9.163                 0.96730725     -85.4769706
9.164                 0.96722848     -85.6190531
9.165                0.967149502     -85.7615028
9.166                0.967070315     -85.9043207
9.167                0.966990921     -86.0475079
9.168                0.966911318     -86.1910653
9.169                0.966831506     -86.3349941
9.17                 0.966751486     -86.4792952
9.171                0.966671258     -86.6239696
9.172                 0.96659082     -86.7690184
9.173                0.966510175     -86.9144426
9.174                 0.96642932     -87.0602432
9.175                0.966348257     -87.2064214
9.176                0.966266985      -87.352978
9.177                0.966185504     -87.4999141
9.178                0.966103815     -87.6472308
9.179                0.966021917     -87.7949292
9.18                  0.96593981     -87.9430101
9.181                0.965857494     -88.0914747
9.182                 0.96577497      -88.240324
9.183                0.965692237      -88.389559
9.184                0.965609296     -88.5391807
9.185                0.965526146     -88.6891903
9.186                0.965442787     -88.8395887
9.187                 0.96535922      -88.990377
9.188                0.965275445     -89.1415561
9.189                0.965191462     -89.2931273
9.19                  0.96510727     -89.4450913
9.191                0.965022871     -89.5974494
9.192                0.964938263     -89.7502026
9.193                0.964853448     -89.9033518
9.194                0.964768426     -90.0568981
9.195                0.964683195     -90.2108426
9.196                0.964597758     -90.3651863
9.197                0.964512113     -90.5199302
9.198                0.964426262     -90.6750753
9.199                0.964340203     -90.8306228
9.2                  0.964253938     -90.9865735
9.201                0.964167467     -91.1429287
9.202                 0.96408079     -91.2996892
9.203                0.963993906     -91.4568562
9.204                0.963906817     -91.6144306
9.205                0.963819523     -91.7724135
9.206                0.963732024     -91.9308059
9.207                0.963644319     -92.0896089
9.208                 0.96355641     -92.2488235
9.209                0.963468297     -92.4084507
9.21                  0.96337998     -92.5684915
9.211                0.963291459      -92.728947
9.212                0.963202736     -92.8898182
9.213                0.963113809     -93.0511061
9.214                0.963024679     -93.2128118
9.215                0.962935347     -93.3749363
9.216                0.962845814     -93.5374805
9.217                0.962756079     -93.7004455
9.218                0.962666143     -93.8638324
9.219                0.962576007     -94.0276422
9.22                  0.96248567     -94.1918758
9.221                0.962395134     -94.3565343
9.222                0.962304399     -94.5216187
9.223                0.962213464       -94.68713
9.224                0.962122332     -94.8530692
9.225                0.962031002     -95.0194373
9.226                0.961939474     -95.1862354
9.227                 0.96184775     -95.3534645
9.228                 0.96175583     -95.5211255
9.229                0.961663714     -95.6892194
9.23                 0.961571404     -95.8577473
9.231                0.961478899     -96.0267102
9.232                  0.9613862      -96.196109
9.233                0.961293307     -96.3659447
9.234                0.961200223     -96.5362184
9.235                0.961106946     -96.7069309
9.236                0.961013478     -96.8780834
9.237                 0.96091982     -97.0496768
9.238                0.960825972      -97.221712
9.239                0.960731935     -97.3941901
9.24                 0.960637709      -97.567112
9.241                0.960543296     -97.7404787
9.242                0.960448696     -97.9142912
9.243                0.960353909     -98.0885503
9.244                0.960258938     -98.2632572
9.245                0.960163782     -98.4384128
9.246                0.960068442     -98.6140179
9.247                 0.95997292     -98.7900737
9.248                0.959877215     -98.9665809
9.249                 0.95978133     -99.1435406
9.25                 0.959685264     -99.3209538
9.251                0.959589019     -99.4988213
9.252                0.959492596      -99.677144
9.253                0.959395995      -99.855923
9.254                0.959299218     -100.035159
9.255                0.959202266     -100.214853
9.256                0.959105139     -100.395007
9.257                0.959007839      -100.57562
9.258                0.958910366     -100.756694
9.259                0.958812722     -100.938229
9.26                 0.958714908     -101.120228
9.261                0.958616925      -101.30269
9.262                0.958518774     -101.485616
9.263                0.958420456     -101.669008
9.264                0.958321973     -101.852866
9.265                0.958223325      -102.03719
9.266                0.958124514     -102.221983
9.267                 0.95802554     -102.407245
9.268                0.957926406     -102.592977
9.269                0.957827112     -102.779179
9.27                  0.95772766     -102.965852
9.271                0.957628051     -103.152998
9.272                0.957528287     -103.340617
9.273                0.957428368      -103.52871
9.274                0.957328296     -103.717277
9.275                0.957228072     -103.906321
9.276                0.957127699      -104.09584
9.277                0.957027176     -104.285837
9.278                0.956926507     -104.476312
9.279                0.956825691     -104.667266
9.28                 0.956724732       -104.8587
9.281                0.956623629     -105.050614
9.282                0.956522385     -105.243009
9.283                0.956421002     -105.435886
9.284                 0.95631948     -105.629246
9.285                0.956217822      -105.82309
9.286                 0.95611603     -106.017418
9.287                0.956014103     -106.212231
9.288                0.955912046      -106.40753
9.289                0.955809858     -106.603315
9.29                 0.955707543     -106.799587
9.291                0.955605101     -106.996348
9.292                0.955502534     -107.193597
9.293                0.955399845     -107.391336
9.294                0.955297035     -107.589565
9.295                0.955194105     -107.788284
9.296                0.955091059     -107.987495
9.297                0.954987897     -108.187198
9.298                0.954884621     -108.387394
9.299                0.954781234     -108.588084
9.3                  0.954677738     -108.789267
9.301                0.954574134     -108.990946
9.302                0.954470424     -109.193119
9.303                0.954366611     -109.395789
9.304                0.954262696     -109.598955
9.305                0.954158682     -109.802619
9.306                0.954054571      -110.00678
9.307                0.953950365      -110.21144
9.308                0.953846066     -110.416598
9.309                0.953741677     -110.622257
9.31                 0.953637198     -110.828415
9.311                0.953532634     -111.035074
9.312                0.953427986     -111.242234
9.313                0.953323256     -111.449895
9.314                0.953218446     -111.658059
9.315                 0.95311356     -111.866726
9.316                0.953008599     -112.075896
9.317                0.952903566     -112.285569
9.318                0.952798463     -112.495747
9.319                0.952693293     -112.706429
9.32                 0.952588058     -112.917616
9.321                0.952482761     -113.129309
9.322                0.952377405     -113.341507
9.323                0.952271991     -113.554212
9.324                0.952166522     -113.767424
9.325                0.952061002     -113.981143
9.326                0.951955432     -114.195369
9.327                0.951849815     -114.410103
9.328                0.951744155     -114.625346
9.329                0.951638454     -114.841097
9.33                 0.951532714     -115.057356
9.331                0.951426939     -115.274125
9.332                0.951321131     -115.491404
9.333                0.951215293     -115.709192
9.334                0.951109428     -115.927491
9.335                0.951003538       -116.1463
9.336                0.950897628     -116.365619
9.337                0.950791699     -116.585449
9.338                0.950685756      -116.80579
9.339                0.950579799     -117.026643
9.34                 0.950473834     -117.248007
9.341                0.950367863     -117.469882
9.342                0.950261888      -117.69227
9.343                0.950155914     -117.915169
9.344                0.950049943     -118.138581
9.345                0.949943979     -118.362504
9.346                0.949838024     -118.586941
9.347                0.949732082     -118.811889
9.348                0.949626156      -119.03735
9.349                 0.94952025     -119.263324
9.35                 0.949414367      -119.48981
9.351                 0.94930851     -119.716809
9.352                0.949202682      -119.94432
9.353                0.949096888     -120.172344
9.354                 0.94899113     -120.400881
9.355                0.948885412     -120.629931
9.356                0.948779737     -120.859493
9.357                 0.94867411     -121.089567
9.358                0.948568533     -121.320154
9.359                 0.94846301     -121.551254
9.36                 0.948357544     -121.782865
9.361                 0.94825214     -122.014989
9.362                0.948146801     -122.247625
9.363                0.948041531     -122.480772
9.364                0.947936333     -122.714431
9.365                0.947831212     -122.948602
9.366                 0.94772617     -123.183283
9.367                0.947621213     -123.418476
9.368                0.947516342     -123.654179
9.369                0.947411564     -123.890393
9.37                 0.947306881     -124.127116
9.371                0.947202297      -124.36435
9.372                0.947097816     -124.602093
9.373                0.946993442     -124.840346
9.374                 0.94688918     -125.079107
9.375                0.946785033     -125.318376
9.376                0.946681005     -125.558154
9.377                0.946577101     -125.798439
9.378                0.946473324     -126.039231
9.379                0.946369678      -126.28053
9.38                 0.946266169     -126.522335
9.381                0.946162799     -126.764646
9.382                0.946059573     -127.007462
9.383                0.945956496     -127.250782
9.384                0.945853572     -127.494607
9.385                0.945750804     -127.738935
9.386                0.945648197     -127.983766
9.387                0.945545756     -128.229099
9.388                0.945443485     -128.474934
9.389                0.945341388      -128.72127
9.39                  0.94523947     -128.968106
9.391                0.945137735     -129.215442
9.392                0.945036187     -129.463277
9.393                0.944934831     -129.711609
9.394                0.944833672     -129.960439
9.395                0.944732714     -130.209766
9.396                0.944631961     -130.459588
