! TOUCHSTONE file generated by CST DESIGN STUDIO
! Date and time: Wed Feb  5 13:31:15 2025
! Project name: C:\Work\MatlabApps\UnitCellOptimizationMatlab\CST\unitcell.cst
! Tree item: Tasks\Sweep1\SPara1\S-Parameters
! Header version: 2024
! Port assignment regex: !\s*Touchstone port\s*([0-9]+)\s*=\s*(CST MWS port|CST DES external port|CST DES block port)\s*(.+)\s* \(\"(.*)\"\)(\s*mode\s*([0-9]+))?.*
! Touchstone port assignment:
! Touchstone port 1 = CST DES external port 1 ("")
# GHz S MA R 50
9                    0.976839212      -72.901383
9.001                 0.97678408     -73.0100594
9.002                0.976728781     -73.1190025
9.003                0.976673315     -73.2282131
9.004                0.976617682     -73.3376918
9.005                0.976561881     -73.4474397
9.006                0.976505912     -73.5574574
9.007                0.976449774     -73.6677459
9.008                0.976393466     -73.7783059
9.009                0.976336989     -73.8891382
9.01                 0.976280342     -74.0002437
9.011                0.976223525     -74.1116233
9.012                0.976166537     -74.2232777
9.013                0.976109377     -74.3352077
9.014                0.976052046     -74.4474143
9.015                0.975994543     -74.5598983
9.016                0.975936867     -74.6726604
9.017                0.975879018     -74.7857016
9.018                0.975820996     -74.8990227
9.019                  0.9757628     -75.0126245
9.02                  0.97570443     -75.1265079
9.021                0.975645885     -75.2406738
9.022                0.975587165     -75.3551229
9.023                 0.97552827     -75.4698562
9.024                0.975469199     -75.5848745
9.025                0.975409952     -75.7001786
9.026                0.975350528     -75.8157695
9.027                0.975290927     -75.9316479
9.028                0.975231149     -76.0478149
9.029                0.975171193     -76.1642711
9.03                 0.975111059     -76.2810176
9.031                0.975050746     -76.3980551
9.032                0.974990254     -76.5153845
9.033                0.974929583     -76.6330068
9.034                0.974868732     -76.7509228
9.035                0.974807701     -76.8691334
9.036                0.974746489     -76.9876394
9.037                0.974685096     -77.1064418
9.038                0.974623522     -77.2255414
9.039                0.974561766     -77.3449391
9.04                 0.974499828     -77.4646359
9.041                0.974437708     -77.5846326
9.042                0.974375404       -77.70493
9.043                0.974312918     -77.8255292
9.044                0.974250248      -77.946431
9.045                0.974187393     -78.0676363
9.046                0.974124355      -78.189146
9.047                0.974061132      -78.310961
9.048                0.973997723     -78.4330822
9.049                0.973934129     -78.5555106
9.05                  0.97387035      -78.678247
9.051                0.973806384     -78.8012924
9.052                0.973742232     -78.9246476
9.053                0.973677892     -79.0483136
9.054                0.973613366     -79.1722913
9.055                0.973548652     -79.2965816
9.056                 0.97348375     -79.4211855
9.057                 0.97341866     -79.5461039
9.058                0.973353381     -79.6713376
9.059                0.973287913     -79.7968877
9.06                 0.973222256      -79.922755
9.061                0.973156409     -80.0489405
9.062                0.973090373     -80.1754452
9.063                0.973024146     -80.3022699
9.064                0.972957728     -80.4294156
9.065                 0.97289112     -80.5568832
9.066                 0.97282432     -80.6846737
9.067                0.972757329      -80.812788
9.068                0.972690146      -80.941227
9.069                0.972622771     -81.0699918
9.07                 0.972555203     -81.1990832
9.071                0.972487443     -81.3285022
9.072                0.972419489     -81.4582498
9.073                0.972351342     -81.5883269
9.074                0.972283002     -81.7187344
9.075                0.972214468     -81.8494734
9.076                0.972145739     -81.9805447
9.077                0.972076816     -82.1119493
9.078                0.972007698     -82.2436882
9.079                0.971938385     -82.3757624
9.08                 0.971868877     -82.5081728
9.081                0.971799174     -82.6409204
9.082                0.971729274     -82.7740061
9.083                0.971659179     -82.9074309
9.084                0.971588887     -83.0411958
9.085                0.971518398     -83.1753018
9.086                0.971447713     -83.3097498
9.087                0.971376831     -83.4445408
9.088                0.971305751     -83.5796757
9.089                0.971234475     -83.7151557
9.09                    0.971163     -83.8509815
9.091                0.971091327     -83.9871542
9.092                0.971019456     -84.1236749
9.093                0.970947387     -84.2605443
9.094                 0.97087512     -84.3977637
9.095                0.970802653     -84.5353339
9.096                0.970729988     -84.6732559
9.097                0.970657124     -84.8115306
9.098                 0.97058406     -84.9501592
9.099                0.970510797     -85.0891426
9.1                  0.970437334     -85.2284817
9.101                0.970363671     -85.3681776
9.102                0.970289809     -85.5082313
9.103                0.970215746     -85.6486436
9.104                0.970141483     -85.7894158
9.105                 0.97006702     -85.9305486
9.106                0.969992356     -86.0720432
9.107                0.969917491     -86.2139005
9.108                0.969842426     -86.3561215
9.109                0.969767159     -86.4987072
9.11                 0.969691692     -86.6416587
9.111                0.969616023     -86.7849768
9.112                0.969540154     -86.9286627
9.113                0.969464083     -87.0727173
9.114                 0.96938781     -87.2171416
9.115                0.969311336     -87.3619366
9.116                0.969234661     -87.5071033
9.117                0.969157784     -87.6526428
9.118                0.969080705      -87.798556
9.119                0.969003425     -87.9448439
9.12                 0.968925943     -88.0915076
9.121                0.968848259      -88.238548
9.122                0.968770373     -88.3859662
9.123                0.968692286     -88.5337631
9.124                0.968613997     -88.6819398
9.125                0.968535505     -88.8304973
9.126                0.968456812     -88.9794365
9.127                0.968377917     -89.1287585
9.128                0.968298821     -89.2784643
9.129                0.968219522     -89.4285549
9.13                 0.968140022     -89.5790313
9.131                 0.96806032     -89.7298946
9.132                0.967980417     -89.8811456
9.133                0.967900312     -90.0327855
9.134                0.967820005     -90.1848152
9.135                0.967739497     -90.3372358
9.136                0.967658788     -90.4900482
9.137                0.967577877     -90.6432535
9.138                0.967496766     -90.7968526
9.139                0.967415453     -90.9508467
9.14                 0.967333939     -91.1052366
9.141                0.967252225     -91.2600234
9.142                 0.96717031     -91.4152081
9.143                0.967088195     -91.5707916
9.144                0.967005879     -91.7267751
9.145                0.966923363     -91.8831595
9.146                0.966840648     -92.0399459
9.147                0.966757732     -92.1971351
9.148                0.966674617     -92.3547283
9.149                0.966591303     -92.5127263
9.15                  0.96650779     -92.6711303
9.151                0.966424078     -92.8299412
9.152                0.966340167     -92.9891601
9.153                0.966256058     -93.1487878
9.154                0.966171751     -93.3088255
9.155                0.966087246     -93.4692741
9.156                0.966002543     -93.6301346
9.157                0.965917644      -93.791408
9.158                0.965832547     -93.9530953
9.159                0.965747254     -94.1151975
9.16                 0.965661765     -94.2777156
9.161                 0.96557608     -94.4406505
9.162                0.965490199     -94.6040033
9.163                0.965404123     -94.7677749
9.164                0.965317853     -94.9319664
9.165                0.965231388     -95.0965786
9.166                0.965144729     -95.2616127
9.167                0.965057877     -95.4270695
9.168                0.964970832     -95.5929501
9.169                0.964883594     -95.7592553
9.17                 0.964796164     -95.9259863
9.171                0.964708542      -96.093144
9.172                0.964620729     -96.2607292
9.173                0.964532725     -96.4287431
9.174                0.964444532     -96.5971866
9.175                0.964356148     -96.7660606
9.176                0.964267576     -96.9353661
9.177                0.964178814      -97.105104
9.178                0.964089865     -97.2752754
9.179                0.964000729     -97.4458811
9.18                 0.963911406     -97.6169221
9.181                0.963821896     -97.7883994
9.182                0.963732201     -97.9603139
9.183                0.963642322     -98.1326665
9.184                0.963552258     -98.3054582
9.185                 0.96346201       -98.47869
9.186                 0.96337158     -98.6523627
9.187                0.963280967     -98.8264774
9.188                0.963190173     -99.0010348
9.189                0.963099198      -99.176036
9.19                 0.963008044     -99.3514818
9.191                 0.96291671     -99.5273732
9.192                0.962825198     -99.7037112
9.193                0.962733508     -99.8804965
9.194                0.962641641      -100.05773
9.195                0.962549599     -100.235413
9.196                0.962457381     -100.413546
9.197                0.962364989      -100.59213
9.198                0.962272424     -100.771166
9.199                0.962179687     -100.950655
9.2                  0.962086778     -101.130597
9.201                0.961993698     -101.310994
9.202                0.961900449     -101.491846
9.203                0.961807031     -101.673155
9.204                0.961713445     -101.854921
9.205                0.961619693     -102.037145
9.206                0.961525775     -102.219827
9.207                0.961431692      -102.40297
9.208                0.961337446     -102.586573
9.209                0.961243038     -102.770637
9.21                 0.961148468     -102.955164
9.211                0.961053738     -103.140154
9.212                0.960958849     -103.325607
9.213                0.960863802     -103.511526
9.214                0.960768598      -103.69791
9.215                0.960673238      -103.88476
9.216                0.960577725     -104.072078
9.217                0.960482058     -104.259864
9.218                0.960386239     -104.448118
9.219                 0.96029027     -104.636842
9.22                 0.960194151     -104.826036
9.221                0.960097884     -105.015701
9.222                0.960001471     -105.205838
9.223                0.959904912     -105.396448
9.224                 0.95980821     -105.587531
9.225                0.959711365     -105.779089
9.226                0.959614379     -105.971121
9.227                0.959517253     -106.163629
9.228                0.959419989     -106.356613
9.229                0.959322588     -106.550075
9.23                 0.959225052     -106.744014
9.231                0.959127383     -106.938431
9.232                0.959029581     -107.133328
9.233                0.958931648     -107.328705
9.234                0.958833587     -107.524562
9.235                0.958735398     -107.720901
9.236                0.958637084     -107.917721
9.237                0.958538645     -108.115024
9.238                0.958440084     -108.312811
9.239                0.958341402     -108.511081
9.24                 0.958242602     -108.709836
9.241                0.958143684     -108.909076
9.242                 0.95804465     -109.108801
9.243                0.957945503     -109.309014
9.244                0.957846244     -109.509713
9.245                0.957746875       -109.7109
9.246                0.957647398     -109.912575
9.247                0.957547815     -110.114738
9.248                0.957448127     -110.317391
9.249                0.957348337     -110.520534
9.25                 0.957248447     -110.724168
9.251                0.957148458     -110.928292
9.252                0.957048372     -111.132908
9.253                0.956948192     -111.338016
9.254                 0.95684792     -111.543617
9.255                0.956747557     -111.749711
9.256                0.956647107     -111.956298
9.257                 0.95654657     -112.163379
9.258                0.956445949     -112.370955
9.259                0.956345247     -112.579026
9.26                 0.956244465     -112.787592
9.261                0.956143606     -112.996654
9.262                0.956042672     -113.206212
9.263                0.955941665     -113.416268
9.264                0.955840587      -113.62682
9.265                0.955739442     -113.837869
9.266                0.955638231     -114.049417
9.267                0.955536956     -114.261463
9.268                0.955435621     -114.474008
9.269                0.955334227     -114.687051
9.27                 0.955232777     -114.900594
9.271                0.955131273     -115.114636
9.272                0.955029719     -115.329179
9.273                0.954928116     -115.544221
9.274                0.954826467     -115.759765
9.275                0.954724774     -115.975809
9.276                0.954623041     -116.192354
9.277                 0.95452127     -116.409401
9.278                0.954419463     -116.626949
9.279                0.954317624     -116.844999
9.28                 0.954215755      -117.06355
9.281                0.954113858     -117.282605
9.282                0.954011937     -117.502161
9.283                0.953909994      -117.72222
9.284                0.953808033     -117.942782
9.285                0.953706055     -118.163847
9.286                0.953604065     -118.385414
9.287                0.953502064     -118.607485
9.288                0.953400056     -118.830059
9.289                0.953298044     -119.053136
9.29                  0.95319603     -119.276717
9.291                0.953094018     -119.500801
9.292                0.952992011     -119.725389
9.293                0.952890012      -119.95048
9.294                0.952788023     -120.176074
9.295                0.952686049     -120.402172
9.296                0.952584092     -120.628774
9.297                0.952482155     -120.855879
9.298                0.952380242     -121.083487
9.299                0.952278356     -121.311599
9.3                    0.9521765     -121.540214
9.301                0.952074677     -121.769332
9.302                0.951972891     -121.998953
9.303                0.951871144     -122.229077
9.304                0.951769442     -122.459704
9.305                0.951667785     -122.690834
9.306                0.951566179     -122.922465
9.307                0.951464627     -123.154599
9.308                0.951363132     -123.387235
9.309                0.951261697     -123.620373
9.31                 0.951160327     -123.854012
9.311                0.951059024     -124.088153
9.312                0.950957792     -124.322794
9.313                0.950856635     -124.557936
9.314                0.950755556     -124.793579
9.315                 0.95065456     -125.029721
9.316                0.950553649     -125.266363
9.317                0.950452827     -125.503505
9.318                0.950352099     -125.741145
9.319                0.950251468     -125.979283
9.32                 0.950150937      -126.21792
9.321                0.950050511     -126.457054
9.322                0.949950193     -126.696685
9.323                0.949849987     -126.936813
9.324                0.949749897     -127.177437
9.325                0.949649927     -127.418557
9.326                0.949550081     -127.660172
9.327                0.949450363     -127.902281
9.328                0.949350777     -128.144884
9.329                0.949251326      -128.38798
9.33                 0.949152015     -128.631569
9.331                0.949052847     -128.875649
9.332                0.948953828     -129.120222
9.333                 0.94885496     -129.365284
9.334                0.948756248     -129.610837
9.335                0.948657697     -129.856879
9.336                0.948559309     -130.103409
9.337                0.948461091     -130.350428
9.338                0.948363044     -130.597933
9.339                0.948265175     -130.845924
9.34                 0.948167487       -131.0944
9.341                0.948069984     -131.343361
9.342                0.947972671     -131.592805
9.343                0.947875551     -131.842732
9.344                 0.94777863      -132.09314
9.345                0.947681911      -132.34403
9.346                0.947585399     -132.595399
9.347                0.947489099     -132.847247
9.348                0.947393014     -133.099572
9.349                0.947297149     -133.352375
9.35                 0.947201509     -133.605653
9.351                0.947106097     -133.859406
9.352                0.947010919     -134.113633
9.353                0.946915979     -134.368331
9.354                0.946821281     -134.623502
9.355                 0.94672683     -134.879142
9.356                0.946632631     -135.135251
9.357                0.946538687     -135.391828
9.358                0.946445004     -135.648872
9.359                0.946351586     -135.906381
9.36                 0.946258437     -136.164353
9.361                0.946165563     -136.422789
9.362                0.946072968     -136.681685
9.363                0.945980656     -136.941042
9.364                0.945888633     -137.200858
9.365                0.945796902      -137.46113
9.366                0.945705468     -137.721859
9.367                0.945614337     -137.983041
9.368                0.945523513     -138.244677
9.369                   0.945433     -138.506764
9.37                 0.945342803     -138.769301
9.371                0.945252927     -139.032286
9.372                0.945163377     -139.295718
9.373                0.945074157     -139.559596
9.374                0.944985273     -139.823917
9.375                0.944896728     -140.088679
9.376                0.944808528     -140.353882
9.377                0.944720678     -140.619524
9.378                0.944633182     -140.885603
9.379                0.944546044     -141.152117
9.38                 0.944459271     -141.419064
9.381                0.944372866     -141.686443
9.382                0.944286834     -141.954251
9.383                0.944201181     -142.222488
9.384                 0.94411591     -142.491151
9.385                0.944031028     -142.760238
9.386                0.943946537     -143.029747
9.387                0.943862445     -143.299677
9.388                0.943778754     -143.570025
9.389                0.943695471      -143.84079
9.39                 0.943612599      -144.11197
9.391                0.943530144     -144.383561
9.392                 0.94344811     -144.655564
9.393                0.943366502     -144.927974
9.394                0.943285326     -145.200791
9.395                0.943204585     -145.474012
9.396                0.943124285     -145.747635
