! TOUCHSTONE file generated by CST DESIGN STUDIO
! Date and time: Wed Feb  5 13:31:17 2025
! Project name: C:\Work\MatlabApps\UnitCellOptimizationMatlab\CST\unitcell.cst
! Tree item: Tasks\Sweep1\SPara1\S-Parameters
! Header version: 2024
! Port assignment regex: !\s*Touchstone port\s*([0-9]+)\s*=\s*(CST MWS port|CST DES external port|CST DES block port)\s*(.+)\s* \(\"(.*)\"\)(\s*mode\s*([0-9]+))?.*
! Touchstone port assignment:
! Touchstone port 1 = CST DES external port 1 ("")
# GHz S MA R 50
9                    0.977070102     -70.8147187
9.001                0.977016935     -70.9186794
9.002                0.976963606     -71.0228926
9.003                0.976910116     -71.1273591
9.004                0.976856463     -71.2320796
9.005                0.976802647     -71.3370551
9.006                0.976748668     -71.4422861
9.007                0.976694525     -71.5477736
9.008                0.976640218     -71.6535183
9.009                0.976585747      -71.759521
9.01                  0.97653111     -71.8657824
9.011                0.976476308     -71.9723035
9.012                 0.97642134     -72.0790849
9.013                0.976366206     -72.1861275
9.014                0.976310905     -72.2934321
9.015                0.976255437     -72.4009995
9.016                0.976199802     -72.5088304
9.017                0.976143998     -72.6169257
9.018                0.976088026     -72.7252862
9.019                0.976031885     -72.8339128
9.02                 0.975975575     -72.9428061
9.021                0.975919095     -73.0519671
9.022                0.975862445     -73.1613965
9.023                0.975805624     -73.2710952
9.024                0.975748633     -73.3810641
9.025                0.975691469     -73.4913038
9.026                0.975634135     -73.6018153
9.027                0.975576627     -73.7125993
9.028                0.975518947     -73.8236568
9.029                0.975461094     -73.9349885
9.03                 0.975403068     -74.0465953
9.031                0.975344867      -74.158478
9.032                0.975286493     -74.2706375
9.033                0.975227943     -74.3830745
9.034                0.975169218       -74.49579
9.035                0.975110318     -74.6087848
9.036                0.975051241     -74.7220597
9.037                0.974991988     -74.8356156
9.038                0.974932559     -74.9494534
9.039                0.974872952     -75.0635738
9.04                 0.974813167     -75.1779778
9.041                0.974753204     -75.2926662
9.042                0.974693063     -75.4076399
9.043                0.974632743     -75.5228997
9.044                0.974572243     -75.6384465
9.045                0.974511564     -75.7542812
9.046                0.974450705     -75.8704046
9.047                0.974389665     -75.9868176
9.048                0.974328445     -76.1035212
9.049                0.974267043     -76.2205161
9.05                 0.974205459     -76.3378032
9.051                0.974143694     -76.4553835
9.052                0.974081746     -76.5732577
9.053                0.974019615     -76.6914269
9.054                  0.9739573     -76.8098918
9.055                0.973894802     -76.9286534
9.056                0.973832121     -77.0477126
9.057                0.973769254     -77.1670702
9.058                0.973706203     -77.2867271
9.059                0.973642967     -77.4066843
9.06                 0.973579545     -77.5269426
9.061                0.973515938      -77.647503
9.062                0.973452144     -77.7683664
9.063                0.973388163     -77.8895335
9.064                0.973323995     -78.0110055
9.065                 0.97325964     -78.1327831
9.066                0.973195097     -78.2548673
9.067                0.973130367      -78.377259
9.068                0.973065447     -78.4999591
9.069                0.973000339     -78.6229685
9.07                 0.972935041     -78.7462882
9.071                0.972869555      -78.869919
9.072                0.972803878      -78.993862
9.073                0.972738011     -79.1181179
9.074                0.972671953     -79.2426878
9.075                0.972605704     -79.3675726
9.076                0.972539265     -79.4927731
9.077                0.972472633     -79.6182904
9.078                 0.97240581     -79.7441254
9.079                0.972338794      -79.870279
9.08                 0.972271586     -79.9967521
9.081                0.972204185     -80.1235457
9.082                0.972136591     -80.2506607
9.083                0.972068803     -80.3780981
9.084                0.972000821     -80.5058588
9.085                0.971932646     -80.6339438
9.086                0.971864275     -80.7623539
9.087                 0.97179571     -80.8910903
9.088                 0.97172695     -81.0201537
9.089                0.971657995     -81.1495452
9.09                 0.971588844     -81.2792658
9.091                0.971519496     -81.4093163
9.092                0.971449953     -81.5396977
9.093                0.971380213     -81.6704111
9.094                0.971310277     -81.8014573
9.095                0.971240143     -81.9328373
9.096                0.971169812     -82.0645521
9.097                0.971099283     -82.1966027
9.098                0.971028557       -82.32899
9.099                0.970957632      -82.461715
9.1                  0.970886509     -82.5947787
9.101                0.970815188      -82.728182
9.102                0.970743667     -82.8619259
9.103                0.970671948     -82.9960114
9.104                0.970600029     -83.1304395
9.105                 0.97052791     -83.2652111
9.106                0.970455592     -83.4003272
9.107                0.970383074     -83.5357889
9.108                0.970310355      -83.671597
9.109                0.970237436     -83.8077526
9.11                 0.970164317     -83.9442567
9.111                0.970090996     -84.0811103
9.112                0.970017475     -84.2183142
9.113                0.969943752     -84.3558696
9.114                0.969869828     -84.4937774
9.115                0.969795702     -84.6320386
9.116                0.969721375     -84.7706542
9.117                0.969646845     -84.9096253
9.118                0.969572114     -85.0489527
9.119                 0.96949718     -85.1886374
9.12                 0.969422044     -85.3286806
9.121                0.969346705     -85.4690832
9.122                0.969271164     -85.6098461
9.123                0.969195419     -85.7509704
9.124                0.969119472     -85.8924571
9.125                0.969043322     -86.0343072
9.126                0.968966969     -86.1765217
9.127                0.968890412     -86.3191015
9.128                0.968813652     -86.4620478
9.129                0.968736688     -86.6053615
9.13                 0.968659521     -86.7490435
9.131                 0.96858215      -86.893095
9.132                0.968504575      -87.037517
9.133                0.968426797     -87.1823103
9.134                0.968348815     -87.3274761
9.135                0.968270629     -87.4730153
9.136                0.968192239     -87.6189291
9.137                0.968113644     -87.7652182
9.138                0.968034846     -87.9118839
9.139                0.967955844     -88.0589271
9.14                 0.967876638     -88.2063488
9.141                0.967797228       -88.35415
9.142                0.967717613     -88.5023317
9.143                0.967637795      -88.650895
9.144                0.967557772     -88.7998409
9.145                0.967477546     -88.9491703
9.146                0.967397115     -89.0988843
9.147                0.967316481      -89.248984
9.148                0.967235643     -89.3994702
9.149                0.967154601     -89.5503441
9.15                 0.967073355     -89.7016067
9.151                0.966991905     -89.8532589
9.152                0.966910252     -90.0053018
9.153                0.966828395     -90.1577364
9.154                0.966746335     -90.3105637
9.155                0.966664071     -90.4637847
9.156                0.966581605     -90.6174005
9.157                0.966498935     -90.7714121
9.158                0.966416063     -90.9258204
9.159                0.966332987     -91.0806265
9.16                 0.966249709     -91.2358313
9.161                0.966166229      -91.391436
9.162                0.966082546     -91.5474416
9.163                0.965998662     -91.7038489
9.164                0.965914575     -91.8606591
9.165                0.965830287     -92.0178732
9.166                0.965745798     -92.1754921
9.167                0.965661107     -92.3335169
9.168                0.965576215     -92.4919486
9.169                0.965491123     -92.6507882
9.17                  0.96540583     -92.8100367
9.171                0.965320337     -92.9696951
9.172                0.965234644     -93.1297644
9.173                0.965148752     -93.2902456
9.174                 0.96506266     -93.4511398
9.175                 0.96497637     -93.6124478
9.176                0.964889881     -93.7741708
9.177                0.964803194     -93.9363097
9.178                0.964716308     -94.0988656
9.179                0.964629226     -94.2618393
9.18                 0.964541946      -94.425232
9.181                0.964454469     -94.5890446
9.182                0.964366796      -94.753278
9.183                0.964278927     -94.9179334
9.184                0.964190863     -95.0830117
9.185                0.964102604     -95.2485138
9.186                 0.96401415     -95.4144408
9.187                0.963925502     -95.5807936
9.188                 0.96383666     -95.7475733
9.189                0.963747625     -95.9147807
9.19                 0.963658398     -96.0824169
9.191                0.963568979     -96.2504829
9.192                0.963479368     -96.4189797
9.193                0.963389566     -96.5879081
9.194                0.963299573     -96.7572692
9.195                0.963209391     -96.9270639
9.196                 0.96311902     -97.0972933
9.197                 0.96302846     -97.2679582
9.198                0.962937712     -97.4390596
9.199                0.962846776     -97.6105986
9.2                  0.962755654     -97.7825759
9.201                0.962664346     -97.9549927
9.202                0.962572853     -98.1278498
9.203                0.962481175     -98.3011482
9.204                0.962389313     -98.4748888
9.205                0.962297268     -98.6490726
9.206                 0.96220504     -98.8237005
9.207                0.962112631     -98.9987734
9.208                0.962020041     -99.1742923
9.209                0.961927271     -99.3502581
9.21                 0.961834322     -99.5266718
9.211                0.961741194     -99.7035341
9.212                0.961647889     -99.8808462
9.213                0.961554406     -100.058609
9.214                0.961460749     -100.236823
9.215                0.961366916     -100.415489
9.216                0.961272909     -100.594609
9.217                0.961178729     -100.774183
9.218                0.961084377     -100.954212
9.219                0.960989853     -101.134697
9.22                  0.96089516     -101.315639
9.221                0.960800297     -101.497038
9.222                0.960705267     -101.678896
9.223                0.960610069     -101.861214
9.224                0.960514705     -102.043992
9.225                0.960419176     -102.227231
9.226                0.960323483     -102.410932
9.227                0.960227628     -102.595096
9.228                0.960131611     -102.779724
9.229                0.960035433     -102.964817
9.23                 0.959939096     -103.150375
9.231                0.959842601     -103.336399
9.232                 0.95974595      -103.52289
9.233                0.959649142     -103.709849
9.234                0.959552181     -103.897277
9.235                0.959455066     -104.085175
9.236                0.959357799     -104.273542
9.237                0.959260382     -104.462381
9.238                0.959162815     -104.651692
9.239                0.959065101     -104.841476
9.24                 0.958967241     -105.031733
9.241                0.958869235     -105.222464
9.242                0.958771086      -105.41367
9.243                0.958672794     -105.605353
9.244                0.958574362     -105.797511
9.245                0.958475791     -105.990147
9.246                0.958377082     -106.183261
9.247                0.958278237     -106.376854
9.248                0.958179257     -106.570926
9.249                0.958080144     -106.765479
9.25                 0.957980899     -106.960512
9.251                0.957881525     -107.156027
9.252                0.957782023     -107.352024
9.253                0.957682393     -107.548505
9.254                0.957582639     -107.745469
9.255                0.957482762     -107.942917
9.256                0.957382764      -108.14085
9.257                0.957282645      -108.33927
9.258                0.957182409     -108.538175
9.259                0.957082057     -108.737567
9.26                  0.95698159     -108.937447
9.261                0.956881011     -109.137816
9.262                0.956780322     -109.338673
9.263                0.956679523     -109.540019
9.264                0.956578618     -109.741856
9.265                0.956477608     -109.944183
9.266                0.956376495     -110.147002
9.267                0.956275282     -110.350312
9.268                0.956173969     -110.554114
9.269                 0.95607256      -110.75841
9.27                 0.955971056     -110.963199
9.271                0.955869459     -111.168482
9.272                0.955767772     -111.374259
9.273                0.955665996     -111.580532
9.274                0.955564135       -111.7873
9.275                0.955462189     -111.994564
9.276                0.955360161     -112.202324
9.277                0.955258054     -112.410582
9.278                0.955155869     -112.619337
9.279                 0.95505361     -112.828589
9.28                 0.954951277      -113.03834
9.281                0.954848875      -113.24859
9.282                0.954746404     -113.459339
9.283                0.954643868     -113.670588
9.284                0.954541268     -113.882336
9.285                0.954438608     -114.094585
9.286                 0.95433589     -114.307334
9.287                0.954233116     -114.520585
9.288                0.954130288     -114.734337
9.289                 0.95402741     -114.948591
9.29                 0.953924484     -115.163347
9.291                0.953821513     -115.378605
9.292                0.953718498     -115.594366
9.293                0.953615444      -115.81063
9.294                0.953512352     -116.027397
9.295                0.953409225     -116.244667
9.296                0.953306066     -116.462442
9.297                0.953202878      -116.68072
9.298                0.953099663     -116.899503
9.299                0.952996425      -117.11879
9.3                  0.952893166     -117.338581
9.301                0.952789889     -117.558878
9.302                0.952686597     -117.779679
9.303                0.952583293     -118.000986
9.304                0.952479979     -118.222797
9.305                 0.95237666     -118.445114
9.306                0.952273337     -118.667937
9.307                0.952170015     -118.891265
9.308                0.952066695     -119.115099
9.309                0.951963382     -119.339438
9.31                 0.951860077     -119.564283
9.311                0.951756785     -119.789634
9.312                0.951653508     -120.015491
9.313                0.951550251     -120.241854
9.314                0.951447015     -120.468722
9.315                0.951343804     -120.696097
9.316                0.951240622     -120.923977
9.317                0.951137471     -121.152362
9.318                0.951034356     -121.381254
9.319                0.950931279     -121.610651
9.32                 0.950828244     -121.840553
9.321                0.950725254      -122.07096
9.322                0.950622314     -122.301873
9.323                0.950519425     -122.533291
9.324                0.950416592     -122.765213
9.325                0.950313818      -122.99764
9.326                0.950211107     -123.230572
9.327                0.950108463     -123.464008
9.328                0.950005888     -123.697947
9.329                0.949903387     -123.932391
9.33                 0.949800963     -124.167338
9.331                0.949698621     -124.402787
9.332                0.949596362      -124.63874
9.333                0.949494193     -124.875195
9.334                0.949392115     -125.112153
9.335                0.949290134     -125.349612
9.336                0.949188252     -125.587572
9.337                0.949086473     -125.826033
9.338                0.948984803     -126.064995
9.339                0.948883243     -126.304457
9.34                 0.948781799     -126.544419
9.341                0.948680474      -126.78488
9.342                0.948579272     -127.025839
9.343                0.948478197     -127.267296
9.344                0.948377254     -127.509251
9.345                0.948276445     -127.751703
9.346                0.948175776     -127.994652
9.347                 0.94807525     -128.238096
9.348                0.947974872     -128.482036
9.349                0.947874645      -128.72647
9.35                 0.947774574     -128.971398
9.351                0.947674663     -129.216819
9.352                0.947574916     -129.462733
9.353                0.947475337     -129.709138
9.354                0.947375931     -129.956035
9.355                0.947276702     -130.203422
9.356                0.947177653     -130.451298
9.357                 0.94707879     -130.699663
9.358                0.946980117     -130.948516
9.359                0.946881638     -131.197856
9.36                 0.946783358     -131.447682
9.361                 0.94668528     -131.697993
9.362                 0.94658741     -131.948788
9.363                0.946489751     -132.200067
9.364                0.946392308     -132.451829
9.365                0.946295086     -132.704072
9.366                0.946198089     -132.956795
9.367                0.946101322     -133.209997
9.368                0.946004789     -133.463678
9.369                0.945908495     -133.717837
9.37                 0.945812443     -133.972471
9.371                 0.94571664     -134.227581
9.372                0.945621089     -134.483164
9.373                0.945525795     -134.739221
9.374                0.945430763     -134.995749
9.375                0.945335997     -135.252747
9.376                0.945241502     -135.510214
9.377                0.945147282      -135.76815
9.378                0.945053343     -136.026552
9.379                0.944959689     -136.285419
9.38                 0.944866325      -136.54475
9.381                0.944773255     -136.804544
9.382                0.944680484     -137.064799
9.383                0.944588018     -137.325514
9.384                 0.94449586     -137.586688
9.385                0.944404015     -137.848318
9.386                0.944312489     -138.110404
9.387                0.944221286     -138.372944
9.388                 0.94413041     -138.635936
9.389                0.944039868      -138.89938
9.39                 0.943949663     -139.163273
9.391                  0.9438598     -139.427614
9.392                0.943770285     -139.692401
9.393                0.943681121     -139.957632
9.394                0.943592315     -140.223307
9.395                 0.94350387     -140.489422
9.396                0.943415792     -140.755978
