! TOUCHSTONE file generated by CST DESIGN STUDIO
! Date and time: Tue Feb  4 17:55:30 2025
! Project name: C:\Work\MatlabApps\UnitCellOptimizationMatlab\CST\unitcell.cst
! Tree item: Tasks\Sweep1\SPara1\S-Parameters
! Header version: 2024
! Port assignment regex: !\s*Touchstone port\s*([0-9]+)\s*=\s*(CST MWS port|CST DES external port|CST DES block port)\s*(.+)\s* \(\"(.*)\"\)(\s*mode\s*([0-9]+))?.*
! Touchstone port assignment:
! Touchstone port 1 = CST DES external port 1 ("")
# GHz S MA R 50
9                    0.982475455     -63.1840726
9.001                0.982440203     -63.2716125
9.002                0.982404844     -63.3593547
9.003                0.982369377     -63.4472999
9.004                0.982333803     -63.5354487
9.005                0.982298119     -63.6238017
9.006                0.982262327     -63.7123596
9.007                0.982226426      -63.801123
9.008                0.982190415     -63.8900925
9.009                0.982154294     -63.9792687
9.01                 0.982118064     -64.0686524
9.011                0.982081722     -64.1582442
9.012                0.982045271     -64.2480446
9.013                0.982008708     -64.3380544
9.014                0.981972034     -64.4282741
9.015                0.981935248     -64.5187045
9.016                 0.98189835     -64.6093462
9.017                 0.98186134     -64.7001998
9.018                0.981824217     -64.7912661
9.019                0.981786981     -64.8825456
9.02                 0.981749632      -64.974039
9.021                0.981712169      -65.065747
9.022                0.981674592     -65.1576702
9.023                0.981636901     -65.2498094
9.024                0.981599096     -65.3421651
9.025                0.981561175     -65.4347381
9.026                0.981523139      -65.527529
9.027                0.981484988     -65.6205385
9.028                 0.98144672     -65.7137673
9.029                0.981408337     -65.8072161
9.03                 0.981369836     -65.9008855
9.031                0.981331219     -65.9947762
9.032                0.981292485      -66.088889
9.033                0.981253633     -66.1832244
9.034                0.981214663     -66.2777833
9.035                0.981175575     -66.3725662
9.036                0.981136368     -66.4675739
9.037                0.981097043     -66.5628071
9.038                0.981057598     -66.6582665
9.039                0.981018033     -66.7539527
9.04                 0.980978349     -66.8498666
9.041                0.980938544     -66.9460087
9.042                0.980898619     -67.0423798
9.043                0.980858573     -67.1389807
9.044                0.980818406     -67.2358119
9.045                0.980778117     -67.3328743
9.046                0.980737707     -67.4301686
9.047                0.980697174     -67.5276954
9.048                0.980656518     -67.6254555
9.049                 0.98061574     -67.7234496
9.05                 0.980574838     -67.8216785
9.051                0.980533813     -67.9201429
9.052                0.980492664     -68.0188434
9.053                 0.98045139     -68.1177809
9.054                0.980409992     -68.2169561
9.055                0.980368469     -68.3163697
9.056                0.980326821     -68.4160224
9.057                0.980285047      -68.515915
9.058                0.980243148     -68.6160483
9.059                0.980201122     -68.7164229
9.06                 0.980158969     -68.8170397
9.061                 0.98011669     -68.9178994
9.062                0.980074283     -69.0190026
9.063                0.980031749     -69.1203503
9.064                0.979989087     -69.2219431
9.065                0.979946296     -69.3237819
9.066                0.979903377     -69.4258673
9.067                0.979860329     -69.5282001
9.068                0.979817151     -69.6307811
9.069                0.979773844     -69.7336111
9.07                 0.979730407     -69.8366909
9.071                 0.97968684     -69.9400211
9.072                0.979643142     -70.0436027
9.073                0.979599313     -70.1474363
9.074                0.979555353     -70.2515227
9.075                0.979511261     -70.3558628
9.076                0.979467038     -70.4604574
9.077                0.979422682     -70.5653071
9.078                0.979378193     -70.6704128
9.079                0.979333571     -70.7757753
9.08                 0.979288816     -70.8813953
9.081                0.979243928     -70.9872738
9.082                0.979198905     -71.0934114
9.083                0.979153748      -71.199809
9.084                0.979108457     -71.3064674
9.085                0.979063031     -71.4133873
9.086                0.979017469     -71.5205697
9.087                0.978971772     -71.6280152
9.088                0.978925938     -71.7357248
9.089                0.978879969     -71.8436992
9.09                 0.978833863     -71.9519392
9.091                 0.97878762     -72.0604457
9.092                 0.97874124     -72.1692195
9.093                0.978694722     -72.2782614
9.094                0.978648066     -72.3875722
9.095                0.978601272     -72.4971528
9.096                0.978554339      -72.607004
9.097                0.978507268     -72.7171266
9.098                0.978460057     -72.8275214
9.099                0.978412707     -72.9381894
9.1                  0.978365217     -73.0491313
9.101                0.978317587      -73.160348
9.102                0.978269816     -73.2718403
9.103                0.978221905     -73.3836091
9.104                0.978173852     -73.4956552
9.105                0.978125658     -73.6079795
9.106                0.978077322     -73.7205827
9.107                0.978028844     -73.8334659
9.108                0.977980224     -73.9466298
9.109                0.977931461     -74.0600753
9.11                 0.977882555     -74.1738033
9.111                0.977833505     -74.2878146
9.112                0.977784312       -74.40211
9.113                0.977734976     -74.5166906
9.114                0.977685494      -74.631557
9.115                0.977635869     -74.7467103
9.116                0.977586098     -74.8621512
9.117                0.977536182     -74.9778807
9.118                0.977486121     -75.0938996
9.119                0.977435914     -75.2102088
9.12                 0.977385561     -75.3268093
9.121                0.977335061     -75.4437018
9.122                0.977284415     -75.5608873
9.123                0.977233622     -75.6783667
9.124                0.977182682     -75.7961408
9.125                0.977131594     -75.9142106
9.126                0.977080358     -76.0325769
9.127                0.977028974     -76.1512407
9.128                0.976977442     -76.2702028
9.129                0.976925761     -76.3894642
9.13                 0.976873931     -76.5090257
9.131                0.976821951     -76.6288883
9.132                0.976769822     -76.7490529
9.133                0.976717544     -76.8695204
9.134                0.976665115     -76.9902917
9.135                0.976612536     -77.1113677
9.136                0.976559806     -77.2327494
9.137                0.976506925     -77.3544376
9.138                0.976453893     -77.4764333
9.139                 0.97640071     -77.5987374
9.14                 0.976347375     -77.7213508
9.141                0.976293888     -77.8442745
9.142                0.976240248     -77.9675094
9.143                0.976186457     -78.0910564
9.144                0.976132512     -78.2149164
9.145                0.976078414     -78.3390905
9.146                0.976024163     -78.4635795
9.147                0.975969759     -78.5883844
9.148                0.975915201     -78.7135061
9.149                0.975860488     -78.8389455
9.15                 0.975805622     -78.9647037
9.151                0.975750601     -79.0907815
9.152                0.975695425       -79.21718
9.153                0.975640095     -79.3438999
9.154                0.975584609     -79.4709424
9.155                0.975528968     -79.5983084
9.156                0.975473171     -79.7259988
9.157                0.975417218     -79.8540146
9.158                 0.97536111     -79.9823567
9.159                0.975304845     -80.1110262
9.16                 0.975248423     -80.2400239
9.161                0.975191845     -80.3693509
9.162                 0.97513511     -80.4990081
9.163                0.975078217     -80.6289964
9.164                0.975021168      -80.759317
9.165                0.974963961     -80.8899706
9.166                0.974906596     -81.0209583
9.167                0.974849073     -81.1522812
9.168                0.974791392     -81.2839401
9.169                0.974733553      -81.415936
9.17                 0.974675555       -81.54827
9.171                0.974617399     -81.6809429
9.172                0.974559084     -81.8139559
9.173                 0.97450061     -81.9473098
9.174                0.974441977     -82.0810057
9.175                0.974383185     -82.2150446
9.176                0.974324233     -82.3494274
9.177                0.974265122     -82.4841551
9.178                0.974205851     -82.6192288
9.179                 0.97414642     -82.7546494
9.18                 0.974086829      -82.890418
9.181                0.974027078     -83.0265355
9.182                0.973967166     -83.1630029
9.183                0.973907095     -83.2998212
9.184                0.973846862     -83.4369915
9.185                0.973786469     -83.5745147
9.186                0.973725915     -83.7123919
9.187                0.973665201      -83.850624
9.188                0.973604325     -83.9892121
9.189                0.973543288     -84.1281571
9.19                  0.97348209     -84.2674602
9.191                0.973420731     -84.4071222
9.192                0.973359211     -84.5471442
9.193                0.973297529     -84.6875273
9.194                0.973235685     -84.8282723
9.195                 0.97317368     -84.9693805
9.196                0.973111514     -85.1108527
9.197                0.973049186       -85.25269
9.198                0.972986696     -85.3948933
9.199                0.972924044     -85.5374639
9.2                   0.97286123     -85.6804025
9.201                0.972798255     -85.8237104
9.202                0.972735118     -85.9673884
9.203                0.972671818     -86.1114377
9.204                0.972608357     -86.2558592
9.205                0.972544734     -86.4006539
9.206                0.972480949      -86.545823
9.207                0.972417002     -86.6913674
9.208                0.972352893     -86.8372881
9.209                0.972288622     -86.9835862
9.21                  0.97222419     -87.1302627
9.211                0.972159595     -87.2773187
9.212                0.972094839     -87.4247551
9.213                 0.97202992      -87.572573
9.214                 0.97196484     -87.7207734
9.215                0.971899599     -87.8693574
9.216                0.971834195      -88.018326
9.217                 0.97176863     -88.1676802
9.218                0.971702904     -88.3174211
9.219                0.971637016     -88.4675497
9.22                 0.971570967      -88.618067
9.221                0.971504757      -88.768974
9.222                0.971438385     -88.9202718
9.223                0.971371853     -89.0719615
9.224                0.971305159      -89.224044
9.225                0.971238305     -89.3765204
9.226                 0.97117129     -89.5293917
9.227                0.971104115      -89.682659
9.228                0.971036779     -89.8363233
9.229                0.970969283     -89.9903856
9.23                 0.970901627     -90.1448469
9.231                0.970833811     -90.2997084
9.232                0.970765836      -90.454971
9.233                0.970697701     -90.6106357
9.234                0.970629406     -90.7667036
9.235                0.970560953     -90.9231758
9.236                0.970492341     -91.0800532
9.237                 0.97042357     -91.2373368
9.238                0.970354641     -91.3950278
9.239                0.970285554     -91.5531272
9.24                 0.970216308     -91.7116359
9.241                0.970146905      -91.870555
9.242                0.970077345     -92.0298856
9.243                0.970007628     -92.1896286
9.244                0.969937754      -92.349785
9.245                0.969867723      -92.510356
9.246                0.969797536     -92.6713426
9.247                0.969727193     -92.8327456
9.248                0.969656695     -92.9945663
9.249                0.969586042     -93.1568055
9.25                 0.969515233     -93.3194644
9.251                0.969444271     -93.4825439
9.252                0.969373154     -93.6460451
9.253                0.969301883     -93.8099689
9.254                0.969230459     -93.9743164
9.255                0.969158882     -94.1390886
9.256                0.969087153     -94.3042866
9.257                0.969015271     -94.4699112
9.258                0.968943238     -94.6359635
9.259                0.968871054     -94.8024446
9.26                 0.968798719     -94.9693555
9.261                0.968726233      -95.136697
9.262                0.968653598     -95.3044703
9.263                0.968580814     -95.4726764
9.264                 0.96850788     -95.6413161
9.265                0.968434798     -95.8103907
9.266                0.968361569     -95.9799009
9.267                0.968288192     -96.1498478
9.268                0.968214669     -96.3202325
9.269                   0.968141     -96.4910558
9.27                 0.968067185     -96.6623188
9.271                0.967993225     -96.8340224
9.272                 0.96791912     -97.0061677
9.273                0.967844872     -97.1787556
9.274                0.967770481      -97.351787
9.275                0.967695948      -97.525263
9.276                0.967621272     -97.6991845
9.277                0.967546456     -97.8735525
9.278                0.967471499     -98.0483679
9.279                0.967396402     -98.2236317
9.28                 0.967321167     -98.3993448
9.281                0.967245793     -98.5755082
9.282                0.967170281     -98.7521229
9.283                0.967094632     -98.9291898
9.284                0.967018848     -99.1067098
9.285                0.966942928     -99.2846838
9.286                0.966866874     -99.4631129
9.287                0.966790685     -99.6419979
9.288                0.966714365     -99.8213397
9.289                0.966637911     -100.001139
9.29                 0.966561327     -100.181398
9.291                0.966484613     -100.362116
9.292                0.966407769     -100.543294
9.293                0.966330796     -100.724934
9.294                0.966253696     -100.907036
9.295                0.966176469     -101.089601
9.296                0.966099116     -101.272631
9.297                0.966021639     -101.456125
9.298                0.965944038     -101.640086
9.299                0.965866313     -101.824513
9.3                  0.965788467     -102.009407
9.301                0.965710501     -102.194771
9.302                0.965632414     -102.380603
9.303                0.965554209     -102.566906
9.304                0.965475886      -102.75368
9.305                0.965397446     -102.940925
9.306                0.965318891     -103.128644
9.307                0.965240222     -103.316836
9.308                0.965161439     -103.505502
9.309                0.965082544     -103.694644
9.31                 0.965003539     -103.884262
9.311                0.964924423     -104.074356
9.312                  0.9648452     -104.264929
9.313                0.964765869     -104.455979
9.314                0.964686432     -104.647509
9.315                 0.96460689     -104.839519
9.316                0.964527245      -105.03201
9.317                0.964447497     -105.224983
9.318                0.964367649     -105.418437
9.319                0.964287701     -105.612375
9.32                 0.964207655     -105.806797
9.321                0.964127513     -106.001703
9.322                0.964047274     -106.197095
9.323                0.963966942     -106.392973
9.324                0.963886517     -106.589337
9.325                0.963806001      -106.78619
9.326                0.963725396      -106.98353
9.327                0.963644702     -107.181359
9.328                0.963563921     -107.379678
9.329                0.963483056     -107.578487
9.33                 0.963402106     -107.777787
9.331                0.963321075     -107.977579
9.332                0.963239963     -108.177863
9.333                0.963158772      -108.37864
9.334                0.963077504     -108.579911
9.335                0.962996161     -108.781676
9.336                0.962914743     -108.983936
9.337                0.962833253     -109.186691
9.338                0.962751692     -109.389942
9.339                0.962670063      -109.59369
9.34                 0.962588366     -109.797935
9.341                0.962506604     -110.002678
9.342                0.962424779     -110.207919
9.343                0.962342892      -110.41366
9.344                0.962260944       -110.6199
9.345                0.962178939      -110.82664
9.346                0.962096877      -111.03388
9.347                0.962014762     -111.241622
9.348                0.961932593     -111.449865
9.349                0.961850374      -111.65861
9.35                 0.961768107     -111.867858
9.351                0.961685793     -112.077609
9.352                0.961603434     -112.287863
9.353                0.961521033     -112.498621
9.354                0.961438591     -112.709884
9.355                 0.96135611     -112.921652
9.356                0.961273593     -113.133925
9.357                0.961191042     -113.346703
9.358                0.961108459     -113.559988
9.359                0.961025846     -113.773779
9.36                 0.960943204     -113.988077
9.361                0.960860538     -114.202882
9.362                0.960777847     -114.418195
9.363                0.960695135     -114.634015
9.364                0.960612405     -114.850344
9.365                0.960529657     -115.067181
9.366                0.960446896     -115.284527
9.367                0.960364122     -115.502382
9.368                0.960281338     -115.720747
9.369                0.960198547     -115.939621
9.37                 0.960115751     -116.159005
9.371                0.960032952     -116.378899
9.372                0.959950154     -116.599303
9.373                0.959867357     -116.820218
9.374                0.959784565     -117.041644
9.375                0.959701781      -117.26358
9.376                0.959619006     -117.486028
9.377                0.959536244     -117.708986
9.378                0.959453497     -117.932456
9.379                0.959370767     -118.156438
9.38                 0.959288057     -118.380931
9.381                 0.95920537     -118.605935
9.382                0.959122708     -118.831451
9.383                0.959040075     -119.057479
9.384                0.958957472     -119.284019
9.385                0.958874903     -119.511071
9.386                 0.95879237     -119.738634
9.387                0.958709876      -119.96671
9.388                0.958627424     -120.195297
9.389                0.958545017     -120.424396
9.39                 0.958462657     -120.654006
9.391                0.958380347     -120.884129
9.392                0.958298091     -121.114762
9.393                0.958215891     -121.345908
9.394                0.958133749     -121.577564
9.395                 0.95805167     -121.809732
9.396                0.957969656     -122.042411
