! TOUCHSTONE file generated by CST DESIGN STUDIO
! Date and time: Tue Feb  4 17:55:11 2025
! Project name: C:\Work\MatlabApps\UnitCellOptimizationMatlab\CST\unitcell.cst
! Tree item: Tasks\Sweep1\SPara1\S-Parameters
! Header version: 2024
! Port assignment regex: !\s*Touchstone port\s*([0-9]+)\s*=\s*(CST MWS port|CST DES external port|CST DES block port)\s*(.+)\s* \(\"(.*)\"\)(\s*mode\s*([0-9]+))?.*
! Touchstone port assignment:
! Touchstone port 1 = CST DES external port 1 ("")
# GHz S MA R 50
9                     0.98086345      -79.528908
9.001                0.980815338     -79.6523401
9.002                0.980767082     -79.7760795
9.003                0.980718682     -79.9001272
9.004                0.980670137     -80.0244839
9.005                0.980621447     -80.1491507
9.006                0.980572611     -80.2741284
9.007                 0.98052363     -80.3994178
9.008                0.980474503       -80.52502
9.009                 0.98042523     -80.6509357
9.01                 0.980375811     -80.7771659
9.011                0.980326245     -80.9037116
9.012                0.980276532     -81.0305735
9.013                0.980226672     -81.1577526
9.014                0.980176665     -81.2852499
9.015                0.980126511     -81.4130661
9.016                0.980076208     -81.5412023
9.017                0.980025757     -81.6696594
9.018                0.979975158     -81.7984382
9.019                0.979924411     -81.9275397
9.02                 0.979873515     -82.0569648
9.021                 0.97982247     -82.1867144
9.022                0.979771275     -82.3167894
9.023                0.979719931     -82.4471908
9.024                0.979668438     -82.5779195
9.025                0.979616794     -82.7089764
9.026                0.979565001     -82.8403624
9.027                0.979513057     -82.9720784
9.028                0.979460963     -83.1041254
9.029                0.979408718     -83.2365044
9.03                 0.979356322     -83.3692162
9.031                0.979303775     -83.5022617
9.032                0.979251077      -83.635642
9.033                0.979198227     -83.7693579
9.034                0.979145226     -83.9034104
9.035                0.979092072     -84.0378004
9.036                0.979038767     -84.1725289
9.037                0.978985309     -84.3075967
9.038                0.978931699     -84.4430049
9.039                0.978877936     -84.5787544
9.04                 0.978824021      -84.714846
9.041                0.978769952     -84.8512809
9.042                0.978715731     -84.9880598
9.043                0.978661356     -85.1251838
9.044                0.978606828     -85.2626538
9.045                0.978552146     -85.4004708
9.046                 0.97849731     -85.5386356
9.047                0.978442321     -85.6771493
9.048                0.978387178     -85.8160128
9.049                 0.97833188      -85.955227
9.05                 0.978276429      -86.094793
9.051                0.978220823     -86.2347116
9.052                0.978165062     -86.3749838
9.053                0.978109147     -86.5156105
9.054                0.978053077     -86.6565928
9.055                0.977996852     -86.7979316
9.056                0.977940472     -86.9396278
9.057                0.977883937     -87.0816823
9.058                0.977827247     -87.2240963
9.059                0.977770402     -87.3668705
9.06                 0.977713402      -87.510006
9.061                0.977656246     -87.6535037
9.062                0.977598934     -87.7973646
9.063                0.977541467     -87.9415897
9.064                0.977483845     -88.0861799
9.065                0.977426067     -88.2311361
9.066                0.977368132     -88.3764594
9.067                0.977310043     -88.5221507
9.068                0.977251797     -88.6682109
9.069                0.977193395     -88.8146411
9.07                 0.977134838     -88.9614421
9.071                0.977076125      -89.108615
9.072                0.977017255     -89.2561607
9.073                 0.97695823     -89.4040801
9.074                0.976899049     -89.5523744
9.075                0.976839711     -89.7010443
9.076                0.976780218     -89.8500909
9.077                0.976720568     -89.9995151
9.078                0.976660763     -90.1493179
9.079                0.976600802     -90.2995002
9.08                 0.976540684     -90.4500631
9.081                0.976480411     -90.6010075
9.082                0.976419982     -90.7523344
9.083                0.976359397     -90.9040446
9.084                0.976298657     -91.0561392
9.085                 0.97623776     -91.2086192
9.086                0.976176708     -91.3614854
9.087                  0.9761155      -91.514739
9.088                0.976054137     -91.6683807
9.089                0.975992618     -91.8224116
9.09                 0.975930944     -91.9768327
9.091                0.975869115     -92.1316449
9.092                 0.97580713     -92.2868491
9.093                0.975744991     -92.4424464
9.094                0.975682696     -92.5984376
9.095                0.975620247     -92.7548238
9.096                0.975557643     -92.9116059
9.097                0.975494885     -93.0687848
9.098                0.975431972     -93.2263615
9.099                0.975368905      -93.384337
9.1                  0.975305684     -93.5427122
9.101                0.975242309      -93.701488
9.102                 0.97517878     -93.8606654
9.103                0.975115098     -94.0202454
9.104                0.975051263     -94.1802289
9.105                0.974987274     -94.3406169
9.106                0.974923133     -94.5014102
9.107                0.974858838     -94.6626099
9.108                0.974794392     -94.8242168
9.109                0.974729793      -94.986232
9.11                 0.974665042     -95.1486563
9.111                 0.97460014     -95.3114908
9.112                0.974535086     -95.4747362
9.113                0.974469881     -95.6383936
9.114                0.974404525      -95.802464
9.115                0.974339018     -95.9669481
9.116                0.974273362      -96.131847
9.117                0.974207555     -96.2971616
9.118                0.974141598     -96.4628928
9.119                0.974075493     -96.6290415
9.12                 0.974009238     -96.7956087
9.121                0.973942835     -96.9625952
9.122                0.973876283      -97.130002
9.123                0.973809584       -97.29783
9.124                0.973742737     -97.4660801
9.125                0.973675742     -97.6347532
9.126                0.973608602     -97.8038503
9.127                0.973541314     -97.9733722
9.128                0.973473881     -98.1433197
9.129                0.973406303      -98.313694
9.13                 0.973338579     -98.4844957
9.131                0.973270711     -98.6557258
9.132                0.973202699     -98.8273853
9.133                0.973134544     -98.9994749
9.134                0.973066245     -99.1719956
9.135                0.972997803     -99.3449482
9.136                 0.97292922     -99.5183336
9.137                0.972860494     -99.6921528
9.138                0.972791628     -99.8664065
9.139                0.972722621     -100.041096
9.14                 0.972653475     -100.216221
9.141                0.972584189     -100.391784
9.142                0.972514764     -100.567784
9.143                  0.9724452     -100.744224
9.144                  0.9723755     -100.921103
9.145                0.972305662     -101.098423
9.146                0.972235688     -101.276184
9.147                0.972165578     -101.454387
9.148                0.972095333     -101.633034
9.149                0.972024954     -101.812124
9.15                 0.971954441     -101.991659
9.151                0.971883795     -102.171639
9.152                0.971813016     -102.352066
9.153                0.971742106      -102.53294
9.154                0.971671065     -102.714262
9.155                0.971599894     -102.896033
9.156                0.971528594     -103.078253
9.157                0.971457165     -103.260924
9.158                0.971385608     -103.444046
9.159                0.971313924      -103.62762
9.16                 0.971242114     -103.811646
9.161                0.971170179     -103.996126
9.162                0.971098119      -104.18106
9.163                0.971025936     -104.366449
9.164                0.970953629     -104.552294
9.165                0.970881201     -104.738595
9.166                0.970808652     -104.925353
9.167                0.970735982      -105.11257
9.168                0.970663194     -105.300245
9.169                0.970590287      -105.48838
9.17                 0.970517263     -105.676974
9.171                0.970444122      -105.86603
9.172                0.970370867     -106.055547
9.173                0.970297497     -106.245526
9.174                0.970224013     -106.435968
9.175                0.970150418     -106.626874
9.176                0.970076711     -106.818245
9.177                0.970002894      -107.01008
9.178                0.969928968     -107.202381
9.179                0.969854935     -107.395148
9.18                 0.969780794     -107.588382
9.181                0.969706547     -107.782084
9.182                0.969632196     -107.976253
9.183                0.969557742     -108.170892
9.184                0.969483185     -108.366001
9.185                0.969408528     -108.561579
9.186                 0.96933377     -108.757628
9.187                0.969258914     -108.954148
9.188                0.969183961     -109.151141
9.189                0.969108911     -109.348606
9.19                 0.969033767     -109.546543
9.191                0.968958529     -109.744955
9.192                0.968883199     -109.943841
9.193                0.968807778     -110.143201
9.194                0.968732268     -110.343037
9.195                0.968656669     -110.543348
9.196                0.968580984     -110.744136
9.197                0.968505213     -110.945401
9.198                0.968429358     -111.147143
9.199                0.968353421     -111.349362
9.2                  0.968277403      -111.55206
9.201                0.968201305     -111.755237
9.202                0.968125128     -111.958894
9.203                0.968048876      -112.16303
9.204                0.967972548     -112.367646
9.205                0.967896147     -112.572742
9.206                0.967819673      -112.77832
9.207                 0.96774313     -112.984379
9.208                0.967666517     -113.190921
9.209                0.967589837     -113.397944
9.21                 0.967513092      -113.60545
9.211                0.967436283     -113.813439
9.212                0.967359412     -114.021911
9.213                 0.96728248     -114.230868
9.214                0.967205489     -114.440308
9.215                0.967128441     -114.650233
9.216                0.967051338     -114.860642
9.217                0.966974181     -115.071537
9.218                0.966896972     -115.282917
9.219                0.966819713     -115.494782
9.22                 0.966742406     -115.707133
9.221                0.966665053     -115.919971
9.222                0.966587655     -116.133295
9.223                0.966510215     -116.347106
9.224                0.966432734     -116.561403
9.225                0.966355214     -116.776188
9.226                0.966277658      -116.99146
9.227                0.966200066      -117.20722
9.228                0.966122442     -117.423467
9.229                0.966044787     -117.640202
9.23                 0.965967102     -117.857425
9.231                0.965889391     -118.075136
9.232                0.965811656     -118.293336
9.233                0.965733897     -118.512024
9.234                0.965656118       -118.7312
9.235                 0.96557832     -118.950865
9.236                0.965500506     -119.171018
9.237                0.965422678      -119.39166
9.238                0.965344837     -119.612791
9.239                0.965266987     -119.834411
9.24                 0.965189129     -120.056519
9.241                0.965111266     -120.279116
9.242                  0.9650334     -120.502202
9.243                0.964955533     -120.725777
9.244                0.964877667      -120.94984
9.245                0.964799805     -121.174392
9.246                0.964721949     -121.399432
9.247                0.964644101     -121.624961
9.248                0.964566264     -121.850979
9.249                 0.96448844     -122.077484
9.25                 0.964410632     -122.304478
9.251                0.964332842     -122.531959
9.252                0.964255072     -122.759928
9.253                0.964177326     -122.988385
9.254                0.964099604     -123.217329
9.255                0.964021911     -123.446761
9.256                0.963944248     -123.676679
9.257                0.963866618     -123.907084
9.258                0.963789024     -124.137976
9.259                0.963711468     -124.369353
9.26                 0.963633952     -124.601217
9.261                 0.96355648     -124.833566
9.262                0.963479054       -125.0664
9.263                0.963401677     -125.299719
9.264                0.963324351     -125.533523
9.265                0.963247079      -125.76781
9.266                0.963169863     -126.002582
9.267                0.963092708     -126.237836
9.268                0.963015614     -126.473574
9.269                0.962938586     -126.709794
9.27                 0.962861625     -126.946496
9.271                0.962784736     -127.183679
9.272                0.962707919     -127.421343
9.273                0.962631179     -127.659488
9.274                0.962554518     -127.898112
9.275                0.962477939     -128.137216
9.276                0.962401445     -128.376798
9.277                0.962325039     -128.616858
9.278                0.962248724     -128.857396
9.279                0.962172503     -129.098411
9.28                 0.962096378     -129.339902
9.281                0.962020353     -129.581868
9.282                0.961944431     -129.824309
9.283                0.961868614     -130.067224
9.284                0.961792907     -130.310613
9.285                0.961717311     -130.554474
9.286                 0.96164183     -130.798807
9.287                0.961566467     -131.043611
9.288                0.961491225     -131.288885
9.289                0.961416107     -131.534629
9.29                 0.961341116      -131.78084
9.291                0.961266257      -132.02752
9.292                 0.96119153     -132.274666
9.293                0.961116941     -132.522278
9.294                0.961042491     -132.770355
9.295                0.960968185     -133.018896
9.296                0.960894025       -133.2679
9.297                0.960820015     -133.517365
9.298                0.960746158     -133.767291
9.299                0.960672457     -134.017678
9.3                  0.960598915     -134.268523
9.301                0.960525536     -134.519825
9.302                0.960452323     -134.771585
9.303                 0.96037928     -135.023799
9.304                0.960306409     -135.276468
9.305                0.960233714     -135.529591
9.306                0.960161199     -135.783165
9.307                0.960088866     -136.037189
9.308                 0.96001672     -136.291664
9.309                0.959944763     -136.546586
9.31                 0.959872999     -136.801955
9.311                0.959801431      -137.05777
9.312                0.959730063     -137.314029
9.313                0.959658898     -137.570731
9.314                0.959587939     -137.827875
9.315                0.959517191     -138.085459
9.316                0.959446656     -138.343482
9.317                0.959376338     -138.601942
9.318                 0.95930624     -138.860837
9.319                0.959236367     -139.120167
9.32                  0.95916672      -139.37993
9.321                0.959097305     -139.640125
9.322                0.959028124     -139.900749
9.323                0.958959181     -140.161801
9.324                0.958890479      -140.42328
9.325                0.958822022     -140.685184
9.326                0.958753814     -140.947511
9.327                0.958685857      -141.21026
9.328                0.958618156     -141.473429
9.329                0.958550714     -141.737017
9.33                 0.958483535      -142.00102
9.331                0.958416622     -142.265439
9.332                0.958349978      -142.53027
9.333                0.958283608     -142.795513
9.334                0.958217515     -143.061165
9.335                0.958151702     -143.327225
9.336                0.958086173      -143.59369
9.337                0.958020931     -143.860559
9.338                0.957955981      -144.12783
9.339                0.957891325     -144.395501
9.34                 0.957826967     -144.663569
9.341                0.957762911     -144.932034
9.342                0.957699161     -145.200893
9.343                0.957635719     -145.470143
9.344                 0.95757259     -145.739783
9.345                0.957509777     -146.009811
9.346                0.957447283     -146.280225
9.347                0.957385113     -146.551022
9.348                0.957323269       -146.8222
9.349                0.957261756     -147.093758
9.35                 0.957200576     -147.365693
9.351                0.957139734     -147.638002
9.352                0.957079233     -147.910684
9.353                0.957019076     -148.183736
9.354                0.956959267     -148.457157
9.355                0.956899809     -148.730943
9.356                0.956840707     -149.005092
9.357                0.956781963     -149.279602
9.358                 0.95672358     -149.554471
9.359                0.956665564     -149.829696
9.36                 0.956607916     -150.105274
9.361                0.956550641     -150.381204
9.362                0.956493742     -150.657483
9.363                0.956437222     -150.934109
9.364                0.956381084     -151.211078
9.365                0.956325334     -151.488388
9.366                0.956269972     -151.766037
9.367                0.956215004     -152.044023
9.368                0.956160432     -152.322342
9.369                 0.95610626     -152.600991
9.37                 0.956052492     -152.879969
9.371                0.955999129     -153.159273
9.372                0.955946177       -153.4389
9.373                0.955893638     -153.718847
9.374                0.955841516     -153.999111
9.375                0.955789813      -154.27969
9.376                0.955738533     -154.560582
9.377                 0.95568768     -154.841782
9.378                0.955637257     -155.123288
9.379                0.955587266     -155.405099
9.38                 0.955537712     -155.687209
9.381                0.955488596     -155.969618
9.382                0.955439924     -156.252321
9.383                0.955391696     -156.535317
9.384                0.955343918     -156.818601
9.385                0.955296591     -157.102172
9.386                0.955249719     -157.386025
9.387                0.955203306     -157.670159
9.388                0.955157353      -157.95457
9.389                0.955111864     -158.239254
9.39                 0.955066843      -158.52421
9.391                0.955022291     -158.809434
9.392                0.954978212     -159.094922
9.393                 0.95493461     -159.380672
9.394                0.954891486     -159.666681
9.395                0.954848844     -159.952945
9.396                0.954806686     -160.239461
