! TOUCHSTONE file generated by CST DESIGN STUDIO
! Date and time: Tue Feb  4 17:55:28 2025
! Project name: C:\Work\MatlabApps\UnitCellOptimizationMatlab\CST\unitcell.cst
! Tree item: Tasks\Sweep1\SPara1\S-Parameters
! Header version: 2024
! Port assignment regex: !\s*Touchstone port\s*([0-9]+)\s*=\s*(CST MWS port|CST DES external port|CST DES block port)\s*(.+)\s* \(\"(.*)\"\)(\s*mode\s*([0-9]+))?.*
! Touchstone port assignment:
! Touchstone port 1 = CST DES external port 1 ("")
# GHz S MA R 50
9                    0.982290373     -64.9558765
9.001                0.982253545     -65.0468539
9.002                0.982216605     -65.1380439
9.003                0.982179555     -65.2294473
9.004                0.982142392     -65.3210646
9.005                0.982105118     -65.4128965
9.006                0.982067731     -65.5049437
9.007                0.982030232     -65.5972068
9.008                0.981992619     -65.6896865
9.009                0.981954893     -65.7823835
9.01                 0.981917054     -65.8752985
9.011                  0.9818791      -65.968432
9.012                0.981841032     -66.0617849
9.013                0.981802849     -66.1553577
9.014                0.981764552     -66.2491512
9.015                0.981726139     -66.3431659
9.016                 0.98168761     -66.4374027
9.017                0.981648966     -66.5318622
9.018                0.981610205     -66.6265451
9.019                0.981571327     -66.7214521
9.02                 0.981532333     -66.8165838
9.021                0.981493221      -66.911941
9.022                0.981453991     -67.0075243
9.023                0.981414644     -67.1033344
9.024                0.981375178     -67.1993722
9.025                0.981335593     -67.2956382
9.026                 0.98129589     -67.3921331
9.027                0.981256067     -67.4888577
9.028                0.981216124     -67.5858127
9.029                0.981176061     -67.6829987
9.03                 0.981135878     -67.7804166
9.031                0.981095575      -67.878067
9.032                 0.98105515     -67.9759506
9.033                0.981014604     -68.0740682
9.034                0.980973936     -68.1724204
9.035                0.980933147      -68.271008
9.036                0.980892234     -68.3698318
9.037                  0.9808512     -68.4688924
9.038                0.980810042     -68.5681906
9.039                 0.98076876     -68.6677272
9.04                 0.980727355     -68.7675027
9.041                0.980685826     -68.8675181
9.042                0.980644173      -68.967774
9.043                0.980602395     -69.0682712
9.044                0.980560492     -69.1690104
9.045                0.980518463     -69.2699923
9.046                0.980476309     -69.3712178
9.047                0.980434028     -69.4726875
9.048                0.980391621     -69.5744023
9.049                0.980349088     -69.6763628
9.05                 0.980306427     -69.7785699
9.051                0.980263639     -69.8810242
9.052                0.980220723     -69.9837266
9.053                0.980177679     -70.0866778
9.054                0.980134506     -70.1898786
9.055                0.980091205     -70.2933298
9.056                0.980047775     -70.3970321
9.057                0.980004215     -70.5009862
9.058                0.979960526     -70.6051931
9.059                0.979916706     -70.7096534
9.06                 0.979872756     -70.8143679
9.061                0.979828675     -70.9193375
9.062                0.979784463     -71.0245628
9.063                0.979740119     -71.1300447
9.064                0.979695644      -71.235784
9.065                0.979651037     -71.3417815
9.066                0.979606297     -71.4480379
9.067                0.979561424      -71.554554
9.068                0.979516418     -71.6613308
9.069                0.979471279     -71.7683688
9.07                 0.979426006     -71.8756691
9.071                0.979380599     -71.9832323
9.072                0.979335057     -72.0910592
9.073                0.979289381     -72.1991507
9.074                0.979243569     -72.3075076
9.075                0.979197622     -72.4161308
9.076                0.979151539     -72.5250209
9.077                0.979105321     -72.6341788
9.078                0.979058965     -72.7436055
9.079                0.979012473     -72.8533015
9.08                 0.978965844     -72.9632679
9.081                0.978919078     -73.0735055
9.082                0.978872174     -73.1840149
9.083                0.978825132     -73.2947972
9.084                0.978777951     -73.4058531
9.085                0.978730632     -73.5171834
9.086                0.978683173     -73.6287891
9.087                0.978635576     -73.7406709
9.088                0.978587838     -73.8528296
9.089                0.978539961     -73.9652662
9.09                 0.978491944     -74.0779815
9.091                0.978443785     -74.1909763
9.092                0.978395486     -74.3042514
9.093                0.978347046     -74.4178078
9.094                0.978298464     -74.5316463
9.095                 0.97824974     -74.6457677
9.096                0.978200875     -74.7601728
9.097                0.978151866     -74.8748627
9.098                0.978102715     -74.9898381
9.099                0.978053421     -75.1050999
9.1                  0.978003983     -75.2206489
9.101                0.977954402     -75.3364861
9.102                0.977904676     -75.4526122
9.103                0.977854807     -75.5690283
9.104                0.977804792     -75.6857351
9.105                0.977754633     -75.8027335
9.106                0.977704329     -75.9200245
9.107                0.977653879     -76.0376089
9.108                0.977603283     -76.1554875
9.109                0.977552541     -76.2736613
9.11                 0.977501653     -76.3921312
9.111                0.977450618     -76.5108981
9.112                0.977399436     -76.6299628
9.113                0.977348107     -76.7493262
9.114                 0.97729663     -76.8689893
9.115                0.977245005      -76.988953
9.116                0.977193233     -77.1092181
9.117                0.977141312     -77.2297855
9.118                0.977089242     -77.3506562
9.119                0.977037024     -77.4718311
9.12                 0.976984656      -77.593311
9.121                0.976932138      -77.715097
9.122                0.976879471     -77.8371898
9.123                0.976826654     -77.9595905
9.124                0.976773687     -78.0822999
9.125                0.976720569      -78.205319
9.126                  0.9766673     -78.3286487
9.127                 0.97661388     -78.4522899
9.128                0.976560309     -78.5762435
9.129                0.976506586     -78.7005105
9.13                 0.976452712     -78.8250917
9.131                0.976398685     -78.9499882
9.132                0.976344506     -79.0752009
9.133                0.976290175     -79.2007306
9.134                 0.97623569     -79.3265784
9.135                0.976181053     -79.4527452
9.136                0.976126262     -79.5792319
9.137                0.976071318     -79.7060394
9.138                 0.97601622     -79.8331688
9.139                0.975960968     -79.9606209
9.14                 0.975905561     -80.0883967
9.141                0.975850001     -80.2164971
9.142                0.975794285     -80.3449232
9.143                0.975738415     -80.4736758
9.144                 0.97568239     -80.6027559
9.145                0.975626209     -80.7321645
9.146                0.975569873     -80.8619026
9.147                0.975513381      -80.991971
9.148                0.975456733     -81.1223708
9.149                0.975399929     -81.2531029
9.15                 0.975342969     -81.3841683
9.151                0.975285853     -81.5155679
9.152                0.975228579     -81.6473028
9.153                0.975171149     -81.7793738
9.154                0.975113562      -81.911782
9.155                0.975055817     -82.0445284
9.156                0.974997915     -82.1776138
9.157                0.974939856     -82.3110394
9.158                0.974881639      -82.444806
9.159                0.974823264     -82.5789147
9.16                  0.97476473     -82.7133664
9.161                0.974706039     -82.8481622
9.162                0.974647189     -82.9833029
9.163                0.974588181     -83.1187896
9.164                0.974529014     -83.2546233
9.165                0.974469689     -83.3908049
9.166                0.974410204     -83.5273355
9.167                 0.97435056     -83.6642161
9.168                0.974290758     -83.8014475
9.169                0.974230796     -83.9390309
9.17                 0.974170674     -84.0769672
9.171                0.974110393     -84.2152575
9.172                0.974049953     -84.3539026
9.173                0.973989352     -84.4929037
9.174                0.973928592     -84.6322617
9.175                0.973867672     -84.7719776
9.176                0.973806592     -84.9120524
9.177                0.973745352     -85.0524871
9.178                0.973683952     -85.1932827
9.179                0.973622392     -85.3344403
9.18                 0.973560671     -85.4759608
9.181                 0.97349879     -85.6178452
9.182                0.973436748     -85.7600946
9.183                0.973374547       -85.90271
9.184                0.973312184     -86.0456923
9.185                0.973249661     -86.1890425
9.186                0.973186978     -86.3327618
9.187                0.973124134     -86.4768511
9.188                0.973061129     -86.6213114
9.189                0.972997964     -86.7661437
9.19                 0.972934638      -86.911349
9.191                0.972871151     -87.0569284
9.192                0.972807504     -87.2028828
9.193                0.972743697     -87.3492134
9.194                0.972679728      -87.495921
9.195                0.972615599     -87.6430068
9.196                 0.97255131     -87.7904717
9.197                 0.97248686     -87.9383167
9.198                0.972422249     -88.0865429
9.199                0.972357478     -88.2351513
9.2                  0.972292547     -88.3841429
9.201                0.972227456     -88.5335188
9.202                0.972162204     -88.6832798
9.203                0.972096792     -88.8334272
9.204                 0.97203122     -88.9839618
9.205                0.971965488     -89.1348847
9.206                0.971899596      -89.286197
9.207                0.971833544     -89.4378996
9.208                0.971767333     -89.5899935
9.209                0.971700962     -89.7424799
9.21                 0.971634432     -89.8953596
9.211                0.971567742     -90.0486338
9.212                0.971500893     -90.2023034
9.213                0.971433886     -90.3563695
9.214                0.971366719     -90.5108331
9.215                0.971299394     -90.6656952
9.216                 0.97123191     -90.8209567
9.217                0.971164269     -90.9766189
9.218                0.971096469     -91.1326825
9.219                0.971028511     -91.2891488
9.22                 0.970960395     -91.4460186
9.221                0.970892122     -91.6032931
9.222                0.970823692     -91.7609732
9.223                0.970755105     -91.9190599
9.224                0.970686361     -92.0775542
9.225                 0.97061746     -92.2364572
9.226                0.970548404     -92.3957699
9.227                0.970479191     -92.5554933
9.228                0.970409823     -92.7156284
9.229                0.970340299     -92.8761762
9.23                  0.97027062     -93.0371377
9.231                0.970200787     -93.1985139
9.232                0.970130799     -93.3603059
9.233                0.970060657     -93.5225146
9.234                0.969990361      -93.685141
9.235                0.969919912     -93.8481862
9.236                 0.96984931     -94.0116512
9.237                0.969778555     -94.1755368
9.238                0.969707647     -94.3398442
9.239                0.969636588     -94.5045744
9.24                 0.969565378     -94.6697283
9.241                0.969494016     -94.8353069
9.242                0.969422504     -95.0013112
9.243                0.969350841     -95.1677422
9.244                0.969279029      -95.334601
9.245                0.969207068     -95.5018884
9.246                0.969134957     -95.6696055
9.247                0.969062699     -95.8377532
9.248                0.968990292     -96.0063326
9.249                0.968917738     -96.1753445
9.25                 0.968845038     -96.3447901
9.251                0.968772191     -96.5146702
9.252                0.968699198     -96.6849858
9.253                 0.96862606     -96.8557379
9.254                0.968552778     -97.0269275
9.255                0.968479351     -97.1985555
9.256                0.968405781     -97.3706229
9.257                0.968332069     -97.5431306
9.258                0.968258213     -97.7160796
9.259                0.968184217     -97.8894709
9.26                 0.968110079     -98.0633054
9.261                0.968035801      -98.237584
9.262                0.967961384     -98.4123077
9.263                0.967886827     -98.5874774
9.264                0.967812133      -98.763094
9.265                  0.9677373     -98.9391586
9.266                0.967662331      -99.115672
9.267                0.967587226     -99.2926351
9.268                0.967511985     -99.4700489
9.269                 0.96743661     -99.6479142
9.27                 0.967361101     -99.8262321
9.271                 0.96728546     -100.005003
9.272                0.967209685     -100.184229
9.273                 0.96713378      -100.36391
9.274                0.967057744     -100.544047
9.275                0.966981578     -100.724641
9.276                0.966905284     -100.905693
9.277                0.966828862     -101.087203
9.278                0.966752312     -101.269174
9.279                0.966675637     -101.451605
9.28                 0.966598836     -101.634497
9.281                0.966521911     -101.817851
9.282                0.966444863     -102.001669
9.283                0.966367692     -102.185951
9.284                  0.9662904     -102.370698
9.285                0.966212988      -102.55591
9.286                0.966135456     -102.741589
9.287                0.966057806     -102.927735
9.288                0.965980039      -103.11435
9.289                0.965902156     -103.301433
9.29                 0.965824158     -103.488987
9.291                0.965746045     -103.677011
9.292                 0.96566782     -103.865506
9.293                0.965589483     -104.054474
9.294                0.965511036     -104.243915
9.295                0.965432479      -104.43383
9.296                0.965353814      -104.62422
9.297                0.965275042     -104.815085
9.298                0.965196165     -105.006426
9.299                0.965117182     -105.198244
9.3                  0.965038097      -105.39054
9.301                0.964958909     -105.583314
9.302                0.964879621     -105.776568
9.303                0.964800234     -105.970302
9.304                0.964720748     -106.164516
9.305                0.964641166     -106.359212
9.306                0.964561488      -106.55439
9.307                0.964481716      -106.75005
9.308                0.964401852     -106.946195
9.309                0.964321897     -107.142823
9.31                 0.964241852     -107.339937
9.311                0.964161719     -107.537536
9.312                0.964081498     -107.735622
9.313                0.964001193     -107.934194
9.314                0.963920804     -108.133254
9.315                0.963840333     -108.332803
9.316                0.963759781      -108.53284
9.317                 0.96367915     -108.733367
9.318                0.963598441     -108.934384
9.319                0.963517657     -109.135891
9.32                 0.963436798      -109.33789
9.321                0.963355867     -109.540381
9.322                0.963274865     -109.743365
9.323                0.963193793     -109.946842
9.324                0.963112655     -110.150812
9.325                 0.96303145     -110.355277
9.326                0.962950181     -110.560236
9.327                 0.96286885     -110.765691
9.328                0.962787459     -110.971642
9.329                0.962706009     -111.178089
9.33                 0.962624502     -111.385032
9.331                 0.96254294     -111.592474
9.332                0.962461325     -111.800413
9.333                0.962379659      -112.00885
9.334                0.962297943     -112.217787
9.335                0.962216181     -112.427222
9.336                0.962134373     -112.637158
9.337                0.962052521     -112.847593
9.338                0.961970628     -113.058529
9.339                0.961888696     -113.269966
9.34                 0.961806726     -113.481904
9.341                0.961724722     -113.694344
9.342                0.961642684     -113.907287
9.343                0.961560615     -114.120732
9.344                0.961478517     -114.334679
9.345                0.961396392      -114.54913
9.346                0.961314243     -114.764084
9.347                0.961232071     -114.979543
9.348                0.961149879     -115.195505
9.349                0.961067669     -115.411972
9.35                 0.960985444     -115.628943
9.351                0.960903205      -115.84642
9.352                0.960820955     -116.064401
9.353                0.960738696     -116.282889
9.354                0.960656431     -116.501881
9.355                0.960574162      -116.72138
9.356                0.960491891     -116.941385
9.357                 0.96040962     -117.161896
9.358                0.960327353     -117.382914
9.359                0.960245092     -117.604438
9.36                 0.960162839     -117.826469
9.361                0.960080596     -118.049007
9.362                0.959998367     -118.272052
9.363                0.959916153     -118.495604
9.364                0.959833958     -118.719663
9.365                0.959751783      -118.94423
9.366                0.959669632     -119.169303
9.367                0.959587507     -119.394884
9.368                0.959505411     -119.620973
9.369                0.959423346     -119.847568
9.37                 0.959341315     -120.074672
9.371                0.959259321     -120.302282
9.372                0.959177367       -120.5304
9.373                0.959095455     -120.759025
9.374                0.959013589     -120.988157
9.375                 0.95893177     -121.217797
9.376                0.958850002     -121.447943
9.377                0.958768288     -121.678596
9.378                 0.95868663     -121.909756
9.379                0.958605032     -122.141423
9.38                 0.958523496     -122.373595
9.381                0.958442025     -122.606275
9.382                0.958360622      -122.83946
9.383                0.958279291     -123.073151
9.384                0.958198034     -123.307347
9.385                0.958116854     -123.542049
9.386                0.958035755     -123.777256
9.387                0.957954739     -124.012967
9.388                0.957873809     -124.249183
9.389                0.957792969     -124.485903
9.39                 0.957712221     -124.723127
9.391                0.957631569     -124.960854
9.392                0.957551017     -125.199084
9.393                0.957470566     -125.437816
9.394                0.957390221     -125.677051
9.395                0.957309984     -125.916788
9.396                0.957229859     -126.157025
