! TOUCHSTONE file generated by CST DESIGN STUDIO
! Date and time: Tue Feb  4 17:55:23 2025
! Project name: C:\Work\MatlabApps\UnitCellOptimizationMatlab\CST\unitcell.cst
! Tree item: Tasks\Sweep1\SPara1\S-Parameters
! Header version: 2024
! Port assignment regex: !\s*Touchstone port\s*([0-9]+)\s*=\s*(CST MWS port|CST DES external port|CST DES block port)\s*(.+)\s* \(\"(.*)\"\)(\s*mode\s*([0-9]+))?.*
! Touchstone port assignment:
! Touchstone port 1 = CST DES external port 1 ("")
# GHz S MA R 50
9                    0.981757844     -70.1772513
9.001                0.981716687     -70.2790765
9.002                0.981675407     -70.3811462
9.003                0.981634003     -70.4834612
9.004                0.981592474     -70.5860222
9.005                 0.98155082       -70.68883
9.006                0.981509042     -70.7918853
9.007                0.981467138     -70.8951889
9.008                0.981425109     -70.9987416
9.009                0.981382953      -71.102544
9.01                 0.981340671     -71.2065971
9.011                0.981298262     -71.3109014
9.012                0.981255727     -71.4154578
9.013                0.981213064     -71.5202671
9.014                0.981170273       -71.62533
9.015                0.981127354     -71.7306473
9.016                0.981084307     -71.8362197
9.017                0.981041131     -71.9420481
9.018                0.980997827     -72.0481333
9.019                0.980954393     -72.1544759
9.02                 0.980910829     -72.2610768
9.021                0.980867135     -72.3679367
9.022                0.980823311     -72.4750566
9.023                0.980779356      -72.582437
9.024                 0.98073527     -72.6900789
9.025                0.980691053      -72.797983
9.026                0.980646705     -72.9061502
9.027                0.980602224     -73.0145811
9.028                0.980557611     -73.1232767
9.029                0.980512866     -73.2322376
9.03                 0.980467987     -73.3414648
9.031                0.980422975     -73.4509591
9.032                 0.98037783     -73.5607211
9.033                0.980332551     -73.6707518
9.034                0.980287137     -73.7810519
9.035                0.980241589     -73.8916224
9.036                0.980195907     -74.0024638
9.037                0.980150088     -74.1135772
9.038                0.980104135     -74.2249634
9.039                0.980058046      -74.336623
9.04                  0.98001182      -74.448557
9.041                0.979965458     -74.5607663
9.042                0.979918959     -74.6732515
9.043                0.979872323     -74.7860136
9.044                 0.97982555     -74.8990534
9.045                0.979778639     -75.0123717
9.046                 0.97973159     -75.1259694
9.047                0.979684403     -75.2398472
9.048                0.979637077     -75.3540061
9.049                0.979589612     -75.4684469
9.05                 0.979542008     -75.5831704
9.051                0.979494264     -75.6981775
9.052                 0.97944638      -75.813469
9.053                0.979398357     -75.9290458
9.054                0.979350192     -76.0449087
9.055                0.979301887     -76.1610587
9.056                0.979253441     -76.2774964
9.057                0.979204853     -76.3942229
9.058                0.979156124     -76.5112389
9.059                0.979107253     -76.6285453
9.06                 0.979058239     -76.7461431
9.061                0.979009083      -76.864033
9.062                0.978959784     -76.9822159
9.063                0.978910342     -77.1006927
9.064                0.978860756     -77.2194643
9.065                0.978811027     -77.3385316
9.066                0.978761154     -77.4578954
9.067                0.978711136     -77.5775566
9.068                0.978660974     -77.6975161
9.069                0.978610667     -77.8177747
9.07                 0.978560215     -77.9383334
9.071                0.978509617     -78.0591931
9.072                0.978458874     -78.1803546
9.073                0.978407984     -78.3018189
9.074                0.978356949     -78.4235867
9.075                0.978305766     -78.5456591
9.076                0.978254438     -78.6680369
9.077                0.978202962     -78.7907209
9.078                0.978151338     -78.9137122
9.079                0.978099567     -79.0370116
9.08                 0.978047649     -79.1606201
9.081                0.977995582     -79.2845384
9.082                0.977943367     -79.4087676
9.083                0.977891003     -79.5333085
9.084                 0.97783849     -79.6581621
9.085                0.977785828     -79.7833292
9.086                0.977733017     -79.9088109
9.087                0.977680057     -80.0346079
9.088                0.977626946     -80.1607212
9.089                0.977573685     -80.2871517
9.09                 0.977520274     -80.4139005
9.091                0.977466713     -80.5409683
9.092                   0.977413     -80.6683561
9.093                0.977359137     -80.7960648
9.094                0.977305122     -80.9240954
9.095                0.977250956     -81.0524488
9.096                0.977196639     -81.1811259
9.097                0.977142169     -81.3101276
9.098                0.977087547      -81.439455
9.099                0.977032773     -81.5691089
9.1                  0.976977846     -81.6990902
9.101                0.976922767        -81.8294
9.102                0.976867535      -81.960039
9.103                0.976812149     -82.0910084
9.104                 0.97675661      -82.222309
9.105                0.976700918     -82.3539418
9.106                0.976645072     -82.4859077
9.107                0.976589072     -82.6182077
9.108                0.976532918     -82.7508427
9.109                0.976476609     -82.8838137
9.11                 0.976420147     -83.0171217
9.111                0.976363529     -83.1507675
9.112                0.976306757     -83.2847521
9.113                 0.97624983     -83.4190765
9.114                0.976192747     -83.5537417
9.115                 0.97613551     -83.6887486
9.116                0.976078117     -83.8240981
9.117                0.976020568     -83.9597913
9.118                0.975962864     -84.0958291
9.119                0.975905004     -84.2322125
9.12                 0.975846988     -84.3689424
9.121                0.975788815     -84.5060197
9.122                0.975730487     -84.6434456
9.123                0.975672002     -84.7812208
9.124                 0.97561336     -84.9193465
9.125                0.975554562     -85.0578235
9.126                0.975495607     -85.1966529
9.127                0.975436496     -85.3358356
9.128                0.975377227     -85.4753726
9.129                0.975317802     -85.6152648
9.13                 0.975258219     -85.7555133
9.131                0.975198479      -85.896119
9.132                0.975138582     -86.0370829
9.133                0.975078527     -86.1784059
9.134                0.975018315     -86.3200891
9.135                0.974957945     -86.4621335
9.136                0.974897418     -86.6045399
9.137                0.974836733     -86.7473095
9.138                0.974775891     -86.8904431
9.139                0.974714891     -87.0339417
9.14                 0.974653733     -87.1778065
9.141                0.974592417     -87.3220382
9.142                0.974530943     -87.4666379
9.143                0.974469312     -87.6116067
9.144                0.974407523     -87.7569454
9.145                0.974345575     -87.9026551
9.146                 0.97428347     -88.0487367
9.147                0.974221207     -88.1951913
9.148                0.974158786     -88.3420198
9.149                0.974096208     -88.4892232
9.15                 0.974033471     -88.6368025
9.151                0.973970577     -88.7847587
9.152                0.973907524     -88.9330928
9.153                0.973844314     -89.0818058
9.154                0.973780947     -89.2308986
9.155                0.973717421     -89.3803722
9.156                0.973653738     -89.5302277
9.157                0.973589898      -89.680466
9.158                  0.9735259     -89.8310881
9.159                0.973461744     -89.9820951
9.16                 0.973397431     -90.1334878
9.161                0.973332961     -90.2852672
9.162                0.973268334     -90.4374345
9.163                 0.97320355     -90.5899905
9.164                0.973138609     -90.7429362
9.165                0.973073511     -90.8962727
9.166                0.973008257     -91.0500009
9.167                0.972942846     -91.2041218
9.168                0.972877279     -91.3586363
9.169                0.972811555     -91.5135456
9.17                 0.972745676     -91.6688505
9.171                 0.97267964     -91.8245521
9.172                0.972613449     -91.9806513
9.173                0.972547102     -92.1371491
9.174                  0.9724806     -92.2940465
9.175                0.972413943     -92.4513445
9.176                0.972347131      -92.609044
9.177                0.972280164     -92.7671461
9.178                0.972213043     -92.9256517
9.179                0.972145767     -93.0845618
9.18                 0.972078338     -93.2438774
9.181                0.972010755     -93.4035994
9.182                0.971943018     -93.5637289
9.183                0.971875128     -93.7242668
9.184                0.971807085      -93.885214
9.185                 0.97173889     -94.0465716
9.186                0.971670542     -94.2083405
9.187                0.971602042     -94.3705217
9.188                0.971533391     -94.5331162
9.189                0.971464588     -94.6961249
9.19                 0.971395634     -94.8595488
9.191                0.971326529     -95.0233888
9.192                0.971257274     -95.1876459
9.193                0.971187869     -95.3523211
9.194                0.971118315     -95.5174153
9.195                0.971048611     -95.6829296
9.196                0.970978759     -95.8488647
9.197                0.970908758     -96.0152218
9.198                0.970838609     -96.1820016
9.199                0.970768312     -96.3492053
9.2                  0.970697869     -96.5168337
9.201                0.970627279     -96.6848878
9.202                0.970556543     -96.8533685
9.203                0.970485661     -97.0222768
9.204                0.970414634     -97.1916135
9.205                0.970343462     -97.3613797
9.206                0.970272146     -97.5315763
9.207                0.970200686     -97.7022041
9.208                0.970129083     -97.8732641
9.209                0.970057338     -98.0447573
9.21                  0.96998545     -98.2166845
9.211                0.969913421     -98.3890467
9.212                0.969841251     -98.5618448
9.213                0.969768941     -98.7350797
9.214                0.969696491     -98.9087523
9.215                0.969623902     -99.0828635
9.216                0.969551175     -99.2574143
9.217                 0.96947831     -99.4324054
9.218                0.969405308     -99.6078378
9.219                0.969332169     -99.7837125
9.22                 0.969258894     -99.9600302
9.221                0.969185485     -100.136792
9.222                0.969111941     -100.313998
9.223                0.969038263     -100.491651
9.224                0.968964453      -100.66975
9.225                 0.96889051     -100.848296
9.226                0.968816436     -101.027291
9.227                0.968742231     -101.206734
9.228                0.968667897     -101.386628
9.229                0.968593433     -101.566973
9.23                 0.968518841      -101.74777
9.231                0.968444122     -101.929019
9.232                0.968369276     -102.110721
9.233                0.968294305     -102.292878
9.234                0.968219209      -102.47549
9.235                0.968143989     -102.658558
9.236                0.968068646     -102.842083
9.237                0.967993181     -103.026065
9.238                0.967917595     -103.210505
9.239                0.967841888     -103.395405
9.24                 0.967766063     -103.580764
9.241                0.967690119     -103.766585
9.242                0.967614058     -103.952866
9.243                0.967537881     -104.139611
9.244                0.967461588     -104.326818
9.245                0.967385182     -104.514489
9.246                0.967308662     -104.702625
9.247                0.967232031     -104.891226
9.248                0.967155288     -105.080293
9.249                0.967078436     -105.269827
9.25                 0.967001475     -105.459829
9.251                0.966924407     -105.650299
9.252                0.966847232     -105.841238
9.253                0.966769952     -106.032647
9.254                0.966692568     -106.224527
9.255                0.966615081     -106.416877
9.256                0.966537493       -106.6097
9.257                0.966459804     -106.802995
9.258                0.966382017     -106.996764
9.259                0.966304131     -107.191006
9.26                 0.966226149     -107.385724
9.261                0.966148072     -107.580916
9.262                0.966069901     -107.776584
9.263                0.965991638      -107.97273
9.264                0.965913284     -108.169352
9.265                 0.96583484     -108.366452
9.266                0.965756307     -108.564031
9.267                0.965677688     -108.762089
9.268                0.965598983     -108.960626
9.269                0.965520194     -109.159644
9.27                 0.965441323     -109.359143
9.271                0.965362371     -109.559123
9.272                0.965283339     -109.759586
9.273                0.965204229     -109.960531
9.274                0.965125043     -110.161959
9.275                0.965045782     -110.363871
9.276                0.964966448     -110.566268
9.277                0.964887042     -110.769149
9.278                0.964807566     -110.972515
9.279                0.964728021     -111.176368
9.28                  0.96464841     -111.380706
9.281                0.964568734     -111.585532
9.282                0.964488995     -111.790845
9.283                0.964409194     -111.996645
9.284                0.964329333     -112.202934
9.285                0.964249414     -112.409712
9.286                0.964169438     -112.616979
9.287                0.964089409     -112.824735
9.288                0.964009326     -113.032982
9.289                0.963929193     -113.241718
9.29                 0.963849011     -113.450946
9.291                0.963768781     -113.660665
9.292                0.963688507     -113.870875
9.293                0.963608189     -114.081578
9.294                 0.96352783     -114.292772
9.295                0.963447431     -114.504459
9.296                0.963366995     -114.716639
9.297                0.963286524     -114.929313
9.298                 0.96320602      -115.14248
9.299                0.963125484     -115.356141
9.3                  0.963044919     -115.570296
9.301                0.962964326     -115.784945
9.302                0.962883709      -116.00009
9.303                0.962803069     -116.215729
9.304                0.962722408     -116.431863
9.305                0.962641728     -116.648493
9.306                0.962561033     -116.865618
9.307                0.962480322     -117.083239
9.308                  0.9623996     -117.301356
9.309                0.962318869     -117.519969
9.31                  0.96223813     -117.739079
9.311                0.962157385     -117.958684
9.312                0.962076638     -118.178787
9.313                0.961995891     -118.399386
9.314                0.961915145     -118.620482
9.315                0.961834404     -118.842075
9.316                0.961753669     -119.064164
9.317                0.961672943     -119.286751
9.318                0.961592229     -119.509834
9.319                0.961511529     -119.733415
9.32                 0.961430845     -119.957493
9.321                0.961350181     -120.182068
9.322                0.961269538     -120.407139
9.323                0.961188918     -120.632708
9.324                0.961108326     -120.858774
9.325                0.961027763     -121.085337
9.326                0.960947231     -121.312396
9.327                0.960866734     -121.539952
9.328                0.960786274     -121.768005
9.329                0.960705854     -121.996555
9.33                 0.960625476       -122.2256
9.331                0.960545144     -122.455142
9.332                0.960464859      -122.68518
9.333                0.960384625     -122.915713
9.334                0.960304445     -123.146743
9.335                 0.96022432     -123.378267
9.336                0.960144255     -123.610287
9.337                0.960064251     -123.842802
9.338                0.959984313     -124.075811
9.339                0.959904442     -124.309314
9.34                 0.959824641     -124.543312
9.341                0.959744914     -124.777803
9.342                0.959665263     -125.012788
9.343                0.959585691     -125.248265
9.344                0.959506202     -125.484235
9.345                0.959426798     -125.720697
9.346                0.959347482     -125.957651
9.347                0.959268258     -126.195096
9.348                0.959189128     -126.433032
9.349                0.959110095     -126.671459
9.35                 0.959031163     -126.910375
9.351                0.958952334     -127.149781
9.352                0.958873613     -127.389675
9.353                0.958795001     -127.630058
9.354                0.958716502     -127.870929
9.355                0.958638119     -128.112287
9.356                0.958559856     -128.354131
9.357                0.958481716     -128.596461
9.358                0.958403701     -128.839276
9.359                0.958325816     -129.082576
9.36                 0.958248062      -129.32636
9.361                0.958170445     -129.570627
9.362                0.958092967     -129.815377
9.363                0.958015631     -130.060608
9.364                 0.95793844      -130.30632
9.365                0.957861399     -130.552513
9.366                 0.95778451     -130.799184
9.367                0.957707777     -131.046335
9.368                0.957631203     -131.293962
9.369                0.957554791     -131.542067
9.37                 0.957478546     -131.790648
9.371                 0.95740247     -132.039703
9.372                0.957326567     -132.289233
9.373                0.957250841     -132.539236
9.374                0.957175294     -132.789711
9.375                0.957099931     -133.040657
9.376                0.957024754     -133.292073
9.377                0.956949768     -133.543958
9.378                0.956874976     -133.796311
9.379                0.956800382     -134.049131
9.38                 0.956725989     -134.302417
9.381                0.956651801     -134.556168
9.382                 0.95657782     -134.810382
9.383                0.956504052     -135.065059
9.384                  0.9564305     -135.320196
9.385                0.956357166     -135.575794
9.386                0.956284056      -135.83185
9.387                0.956211172     -136.088363
9.388                0.956138518     -136.345333
9.389                0.956066098     -136.602758
9.39                 0.955993915     -136.860636
9.391                0.955921974     -137.118966
9.392                0.955850277     -137.377747
9.393                0.955778829     -137.636977
9.394                0.955707634     -137.896656
9.395                0.955636694      -138.15678
9.396                0.955566015      -138.41735
