! TOUCHSTONE file generated by CST DESIGN STUDIO
! Date and time: Tue Feb  4 17:55:19 2025
! Project name: C:\Work\MatlabApps\UnitCellOptimizationMatlab\CST\unitcell.cst
! Tree item: Tasks\Sweep1\SPara1\S-Parameters
! Header version: 2024
! Port assignment regex: !\s*Touchstone port\s*([0-9]+)\s*=\s*(CST MWS port|CST DES external port|CST DES block port)\s*(.+)\s* \(\"(.*)\"\)(\s*mode\s*([0-9]+))?.*
! Touchstone port assignment:
! Touchstone port 1 = CST DES external port 1 ("")
# GHz S MA R 50
9                    0.981428144     -73.5240771
9.001                0.981384379     -73.6333324
9.002                0.981340482      -73.742854
9.003                0.981296453     -73.8526426
9.004                0.981252291     -73.9626991
9.005                0.981207997     -74.0730242
9.006                 0.98116357     -74.1836187
9.007                 0.98111901     -74.2944835
9.008                0.981074316     -74.4056194
9.009                0.981029488     -74.5170272
9.01                 0.980984526     -74.6287077
9.011                0.980939429     -74.7406618
9.012                0.980894198     -74.8528901
9.013                0.980848831     -74.9653937
9.014                0.980803328     -75.0781732
9.015                 0.98075769     -75.1912295
9.016                0.980711916     -75.3045635
9.017                0.980666005     -75.4181759
9.018                0.980619958     -75.5320677
9.019                0.980573773     -75.6462395
9.02                 0.980527451     -75.7606924
9.021                0.980480992     -75.8754271
9.022                0.980434394     -75.9904444
9.023                0.980387658     -76.1057452
9.024                0.980340784     -76.2213304
9.025                 0.98029377     -76.3372007
9.026                0.980246618     -76.4533571
9.027                0.980199325     -76.5698003
9.028                0.980151894     -76.6865313
9.029                0.980104321     -76.8035509
9.03                 0.980056609     -76.9208599
9.031                0.980008756     -77.0384592
9.032                0.979960762     -77.1563496
9.033                0.979912626     -77.2745321
9.034                 0.97986435     -77.3930075
9.035                0.979815931     -77.5117767
9.036                 0.97976737     -77.6308404
9.037                0.979718666     -77.7501996
9.038                 0.97966982     -77.8698552
9.039                0.979620831     -77.9898081
9.04                 0.979571699      -78.110059
9.041                0.979522423      -78.230609
9.042                0.979473003     -78.3514587
9.043                0.979423439     -78.4726093
9.044                 0.97937373     -78.5940614
9.045                0.979323877     -78.7158161
9.046                0.979273879     -78.8378742
9.047                0.979223736     -78.9602366
9.048                0.979173447     -79.0829041
9.049                0.979123013     -79.2058777
9.05                 0.979072432     -79.3291583
9.051                0.979021706     -79.4527467
9.052                0.978970832     -79.5766439
9.053                0.978919812     -79.7008507
9.054                0.978868645     -79.8253681
9.055                0.978817331      -79.950197
9.056                0.978765869     -80.0753382
9.057                0.978714259     -80.2007926
9.058                0.978662501     -80.3265613
9.059                0.978610595      -80.452645
9.06                  0.97855854     -80.5790447
9.061                0.978506336     -80.7057613
9.062                0.978453984     -80.8327958
9.063                0.978401482      -80.960149
9.064                 0.97834883     -81.0878218
9.065                0.978296029     -81.2158152
9.066                0.978243078     -81.3441301
9.067                0.978189977     -81.4727674
9.068                0.978136726      -81.601728
9.069                0.978083323     -81.7310129
9.07                  0.97802977      -81.860623
9.071                0.977976066     -81.9905592
9.072                0.977922211     -82.1208225
9.073                0.977868204     -82.2514137
9.074                0.977814046     -82.3823339
9.075                0.977759735     -82.5135839
9.076                0.977705273     -82.6451647
9.077                0.977650658     -82.7770771
9.078                0.977595891     -82.9093223
9.079                0.977540971      -83.041901
9.08                 0.977485899     -83.1748143
9.081                0.977430673     -83.3080631
9.082                0.977375295     -83.4416483
9.083                0.977319762     -83.5755708
9.084                0.977264077     -83.7098317
9.085                0.977208237     -83.8444318
9.086                0.977152244     -83.9793721
9.087                0.977096097     -84.1146536
9.088                0.977039795     -84.2502772
9.089                0.976983339     -84.3862438
9.09                 0.976926729     -84.5225545
9.091                0.976869964     -84.6592102
9.092                0.976813044     -84.7962117
9.093                 0.97675597     -84.9335602
9.094                 0.97669874     -85.0712565
9.095                0.976641355     -85.2093015
9.096                0.976583815     -85.3476964
9.097                 0.97652612     -85.4864419
9.098                0.976468269     -85.6255392
9.099                0.976410262     -85.7649891
9.1                    0.9763521     -85.9047925
9.101                0.976293781     -86.0449506
9.102                0.976235307     -86.1854642
9.103                0.976176677     -86.3263343
9.104                 0.97611789     -86.4675618
9.105                0.976058948     -86.6091478
9.106                0.975999849     -86.7510932
9.107                0.975940594     -86.8933989
9.108                0.975881182      -87.036066
9.109                0.975821614     -87.1790954
9.11                 0.975761889     -87.3224881
9.111                0.975702008     -87.4662451
9.112                 0.97564197     -87.6103672
9.113                0.975581775     -87.7548556
9.114                0.975521424     -87.8997111
9.115                0.975460916     -88.0449348
9.116                0.975400251     -88.1905275
9.117                0.975339429     -88.3364904
9.118                0.975278451     -88.4828243
9.119                0.975217315     -88.6295303
9.12                 0.975156023     -88.7766093
9.121                0.975094574     -88.9240622
9.122                0.975032968     -89.0718902
9.123                0.974971206      -89.220094
9.124                0.974909286     -89.3686748
9.125                 0.97484721     -89.5176335
9.126                0.974784978      -89.666971
9.127                0.974722588     -89.8166884
9.128                0.974660042     -89.9667866
9.129                 0.97459734     -90.1172666
9.13                  0.97453448     -90.2681294
9.131                0.974471465     -90.4193759
9.132                0.974408293     -90.5710071
9.133                0.974344965      -90.723024
9.134                 0.97428148     -90.8754276
9.135                 0.97421784     -91.0282188
9.136                0.974154044     -91.1813986
9.137                0.974090091     -91.3349681
9.138                0.974025983     -91.4889281
9.139                 0.97396172     -91.6432796
9.14                   0.9738973     -91.7980237
9.141                0.973832726     -91.9531612
9.142                0.973767996     -92.1086932
9.143                0.973703111     -92.2646206
9.144                0.973638072     -92.4209444
9.145                0.973572877     -92.5776655
9.146                0.973507529      -92.734785
9.147                0.973442025     -92.8923038
9.148                0.973376368     -93.0502228
9.149                0.973310557     -93.2085431
9.15                 0.973244592     -93.3672656
9.151                0.973178473     -93.5263912
9.152                0.973112201     -93.6859209
9.153                0.973045776     -93.8458558
9.154                0.972979199     -94.0061966
9.155                0.972912468     -94.1669445
9.156                0.972845586     -94.3281003
9.157                0.972778552      -94.489665
9.158                0.972711365     -94.6516396
9.159                0.972644028      -94.814025
9.16                 0.972576539     -94.9768222
9.161                  0.9725089     -95.1400321
9.162                 0.97244111     -95.3036556
9.163                 0.97237317     -95.4676938
9.164                 0.97230508     -95.6321476
9.165                0.972236841     -95.7970178
9.166                0.972168452     -95.9623055
9.167                0.972099915     -96.1280115
9.168                 0.97203123     -96.2941369
9.169                0.971962397     -96.4606826
9.17                 0.971893416     -96.6276494
9.171                0.971824288     -96.7950383
9.172                0.971755013     -96.9628503
9.173                0.971685592     -97.1310862
9.174                0.971616025     -97.2997471
9.175                0.971546313     -97.4688337
9.176                0.971476456     -97.6383471
9.177                0.971406455     -97.8082882
9.178                0.971336309     -97.9786577
9.179                0.971266021     -98.1494568
9.18                 0.971195589     -98.3206863
9.181                0.971125015      -98.492347
9.182                0.971054299     -98.6644399
9.183                0.970983442     -98.8369659
9.184                0.970912444     -99.0099259
9.185                0.970841305     -99.1833207
9.186                0.970770028     -99.3571514
9.187                0.970698611     -99.5314186
9.188                0.970627056     -99.7061234
9.189                0.970555363     -99.8812666
9.19                 0.970483533     -100.056849
9.191                0.970411566     -100.232872
9.192                0.970339464     -100.409335
9.193                0.970267226     -100.586241
9.194                0.970194854     -100.763589
9.195                0.970122349     -100.941381
9.196                 0.97004971     -101.119617
9.197                0.969976939     -101.298299
9.198                0.969904036     -101.477427
9.199                0.969831002     -101.657002
9.2                  0.969757838     -101.837024
9.201                0.969684545     -102.017496
9.202                0.969611124     -102.198416
9.203                0.969537574     -102.379787
9.204                0.969463898      -102.56161
9.205                0.969390096     -102.743884
9.206                0.969316168     -102.926611
9.207                0.969242117     -103.109791
9.208                0.969167941     -103.293426
9.209                0.969093643     -103.477516
9.21                 0.969019224     -103.662061
9.211                0.968944683     -103.847064
9.212                0.968870023     -104.032524
9.213                0.968795244     -104.218442
9.214                0.968720347     -104.404819
9.215                0.968645333     -104.591656
9.216                0.968570203     -104.778954
9.217                0.968494959     -104.966713
9.218                  0.9684196     -105.154934
9.219                0.968344129     -105.343617
9.22                 0.968268545     -105.532764
9.221                0.968192851     -105.722375
9.222                0.968117048     -105.912452
9.223                0.968041135     -106.102993
9.224                0.967965116     -106.294002
9.225                 0.96788899     -106.485477
9.226                0.967812759      -106.67742
9.227                0.967736424     -106.869831
9.228                0.967659987     -107.062712
9.229                0.967583448     -107.256062
9.23                 0.967506808     -107.449882
9.231                 0.96743007     -107.644174
9.232                0.967353234     -107.838937
9.233                0.967276301     -108.034173
9.234                0.967199273     -108.229882
9.235                0.967122151     -108.426064
9.236                0.967044936     -108.622721
9.237                 0.96696763     -108.819852
9.238                0.966890234     -109.017459
9.239                 0.96681275     -109.215542
9.24                 0.966735179     -109.414102
9.241                0.966657521     -109.613138
9.242                 0.96657978     -109.812653
9.243                0.966501956     -110.012646
9.244                 0.96642405     -110.213117
9.245                0.966346064     -110.414069
9.246                   0.966268       -110.6155
9.247                 0.96618986     -110.817411
9.248                0.966111643     -111.019804
9.249                0.966033353     -111.222678
9.25                 0.965954991     -111.426034
9.251                0.965876559     -111.629872
9.252                0.965798057     -111.834194
9.253                0.965719488     -112.038998
9.254                0.965640853     -112.244287
9.255                0.965562155      -112.45006
9.256                0.965483394     -112.656318
9.257                0.965404572     -112.863061
9.258                0.965325692     -113.070289
9.259                0.965246754     -113.278004
9.26                 0.965167762     -113.486205
9.261                0.965088715     -113.694892
9.262                0.965009617     -113.904067
9.263                0.964930469      -114.11373
9.264                0.964851273      -114.32388
9.265                 0.96477203     -114.534518
9.266                0.964692744     -114.745645
9.267                0.964613414     -114.957261
9.268                0.964534045     -115.169366
9.269                0.964454637      -115.38196
9.27                 0.964375192     -115.595045
9.271                0.964295713     -115.808619
9.272                0.964216201     -116.022683
9.273                0.964136658     -116.237238
9.274                0.964057088     -116.452284
9.275                 0.96397749      -116.66782
9.276                0.963897869     -116.883848
9.277                0.963818225     -117.100367
9.278                0.963738561     -117.317377
9.279                0.963658879      -117.53488
9.28                 0.963579181     -117.752874
9.281                0.963499469      -117.97136
9.282                0.963419746     -118.190338
9.283                0.963340014     -118.409809
9.284                0.963260276     -118.629772
9.285                0.963180532     -118.850227
9.286                0.963100786     -119.071175
9.287                 0.96302104     -119.292615
9.288                0.962941297     -119.514548
9.289                0.962861557     -119.736974
9.29                 0.962781825     -119.959892
9.291                0.962702103     -120.183303
9.292                0.962622392     -120.407207
9.293                0.962542696     -120.631603
9.294                0.962463016     -120.856491
9.295                0.962383355     -121.081873
9.296                0.962303716     -121.307747
9.297                0.962224101     -121.534113
9.298                0.962144513     -121.760971
9.299                0.962064954     -121.988321
9.3                  0.961985427     -122.216164
9.301                0.961905935     -122.444498
9.302                0.961826479     -122.673324
9.303                0.961747064     -122.902642
9.304                 0.96166769      -123.13245
9.305                0.961588362      -123.36275
9.306                0.961509081     -123.593541
9.307                0.961429851     -123.824822
9.308                0.961350674     -124.056594
9.309                0.961271553     -124.288856
9.31                 0.961192491     -124.521607
9.311                 0.96111349     -124.754848
9.312                0.961034553     -124.988578
9.313                0.960955684     -125.222796
9.314                0.960876884     -125.457503
9.315                0.960798158     -125.692698
9.316                0.960719507     -125.928381
9.317                0.960640935     -126.164551
9.318                0.960562445     -126.401207
9.319                0.960484039      -126.63835
9.32                  0.96040572     -126.875978
9.321                0.960327492     -127.114092
9.322                0.960249358     -127.352691
9.323                 0.96017132     -127.591773
9.324                0.960093382      -127.83134
9.325                0.960015546     -128.071389
9.326                0.959937816     -128.311921
9.327                0.959860195     -128.552935
9.328                0.959782685      -128.79443
9.329                0.959705291     -129.036406
9.33                 0.959628015     -129.278862
9.331                 0.95955086     -129.521797
9.332                 0.95947383     -129.765211
9.333                0.959396927     -130.009102
9.334                0.959320155      -130.25347
9.335                0.959243518     -130.498315
9.336                0.959167018     -130.743636
9.337                0.959090658     -130.989431
9.338                0.959014443       -131.2357
9.339                0.958938374     -131.482442
9.34                 0.958862457     -131.729656
9.341                0.958786693     -131.977341
9.342                0.958711086     -132.225497
9.343                 0.95863564     -132.474122
9.344                0.958560358     -132.723216
9.345                0.958485243     -132.972777
9.346                0.958410299     -133.222805
9.347                0.958335528     -133.473298
9.348                0.958260936     -133.724256
9.349                0.958186524     -133.975677
9.35                 0.958112297      -134.22756
9.351                0.958038258     -134.479905
9.352                 0.95796441      -134.73271
9.353                0.957890757     -134.985973
9.354                0.957817302     -135.239695
9.355                0.957744049     -135.493873
9.356                0.957671002     -135.748506
9.357                0.957598163     -136.003594
9.358                0.957525537     -136.259134
9.359                0.957453127     -136.515126
9.36                 0.957380936     -136.771569
9.361                0.957308969      -137.02846
9.362                0.957237228     -137.285799
9.363                0.957165718     -137.543584
9.364                0.957094442     -137.801814
9.365                0.957023403     -138.060488
9.366                0.956952605     -138.319603
9.367                0.956882053     -138.579159
9.368                0.956811748     -138.839155
9.369                0.956741696     -139.099587
9.37                   0.9566719     -139.360456
9.371                0.956602363      -139.62176
9.372                0.956533089     -139.883496
9.373                0.956464081     -140.145663
9.374                0.956395344     -140.408261
9.375                0.956326882     -140.671286
9.376                0.956258697     -140.934738
9.377                0.956190793     -141.198614
9.378                0.956123175     -141.462913
9.379                0.956055845     -141.727634
9.38                 0.955988808     -141.992774
9.381                0.955922067     -142.258332
9.382                0.955855627     -142.524305
9.383                0.955789489     -142.790693
9.384                 0.95572366     -143.057493
9.385                0.955658141     -143.324703
9.386                0.955592937     -143.592322
9.387                0.955528052     -143.860347
9.388                0.955463489     -144.128777
9.389                0.955399252     -144.397609
9.39                 0.955335344     -144.666842
9.391                 0.95527177     -144.936473
9.392                0.955208533     -145.206501
9.393                0.955145636     -145.476923
9.394                0.955083084     -145.747738
9.395                 0.95502088     -146.018943
9.396                0.954959028     -146.290536
