! TOUCHSTONE file generated by CST DESIGN STUDIO
! Date and time: Tue Feb  4 17:55:26 2025
! Project name: C:\Work\MatlabApps\UnitCellOptimizationMatlab\CST\unitcell.cst
! Tree item: Tasks\Sweep1\SPara1\S-Parameters
! Header version: 2024
! Port assignment regex: !\s*Touchstone port\s*([0-9]+)\s*=\s*(CST MWS port|CST DES external port|CST DES block port)\s*(.+)\s* \(\"(.*)\"\)(\s*mode\s*([0-9]+))?.*
! Touchstone port assignment:
! Touchstone port 1 = CST DES external port 1 ("")
# GHz S MA R 50
9                    0.982108682     -66.7151487
9.001                0.982070406     -66.8096852
9.002                0.982032014     -66.9044447
9.003                0.981993506      -66.999428
9.004                0.981954882     -67.0946357
9.005                 0.98191614     -67.1900685
9.006                0.981877282     -67.2857271
9.007                0.981838306     -67.3816122
9.008                0.981799212     -67.4777245
9.009                0.981760001     -67.5740647
9.01                 0.981720671     -67.6706335
9.011                0.981681222     -67.7674316
9.012                0.981641654     -67.8644597
9.013                0.981601966     -67.9617185
9.014                0.981562159     -68.0592088
9.015                0.981522232     -68.1569311
9.016                0.981482184     -68.2548864
9.017                0.981442015     -68.3530751
9.018                0.981401726     -68.4514982
9.019                0.981361315     -68.5501562
9.02                 0.981320782       -68.64905
9.021                0.981280127     -68.7481802
9.022                 0.98123935     -68.8475476
9.023                 0.98119845     -68.9471529
9.024                0.981157427     -69.0469969
9.025                 0.98111628     -69.1470802
9.026                 0.98107501     -69.2474036
9.027                0.981033616     -69.3479678
9.028                0.980992097     -69.4487736
9.029                0.980950453     -69.5498218
9.03                 0.980908685      -69.651113
9.031                0.980866791      -69.752648
9.032                0.980824771     -69.8544276
9.033                0.980782625     -69.9564525
9.034                0.980740352     -70.0587235
9.035                0.980697953     -70.1612413
9.036                0.980655427     -70.2640066
9.037                0.980612773     -70.3670204
9.038                0.980569992     -70.4702832
9.039                0.980527083     -70.5737958
9.04                 0.980484045     -70.6775591
9.041                0.980440878     -70.7815739
9.042                0.980397582     -70.8858407
9.043                0.980354157     -70.9903605
9.044                0.980310602     -71.0951341
9.045                0.980266917     -71.2001621
9.046                0.980223101     -71.3054454
9.047                0.980179155     -71.4109848
9.048                0.980135078      -71.516781
9.049                0.980090869     -71.6228348
9.05                 0.980046529     -71.7291471
9.051                0.980002056     -71.8357185
9.052                0.979957451       -71.94255
9.053                0.979912713     -72.0496422
9.054                0.979867843     -72.1569961
9.055                0.979822839     -72.2646123
9.056                0.979777701     -72.3724917
9.057                0.979732429     -72.4806352
9.058                0.979687023     -72.5890434
9.059                0.979641482     -72.6977172
9.06                 0.979595806     -72.8066575
9.061                0.979549995     -72.9158649
9.062                0.979504048     -73.0253405
9.063                0.979457965     -73.1350849
9.064                0.979411746     -73.2450989
9.065                 0.97936539     -73.3553835
9.066                0.979318897     -73.4659394
9.067                0.979272267     -73.5767675
9.068                0.979225499     -73.6878686
9.069                0.979178593     -73.7992434
9.07                  0.97913155     -73.9108929
9.071                0.979084367     -74.0228179
9.072                0.979037046     -74.1350192
9.073                0.978989586     -74.2474977
9.074                0.978941986     -74.3602541
9.075                0.978894246     -74.4732894
9.076                0.978846366     -74.5866044
9.077                0.978798346     -74.7001999
9.078                0.978750185     -74.8140767
9.079                0.978701883     -74.9282359
9.08                 0.978653439     -75.0426781
9.081                0.978604854     -75.1574042
9.082                0.978556127     -75.2724151
9.083                0.978507258     -75.3877117
9.084                0.978458246     -75.5032948
9.085                0.978409091     -75.6191653
9.086                0.978359793     -75.7353241
9.087                0.978310352      -75.851772
9.088                0.978260766     -75.9685098
9.089                0.978211037     -76.0855386
9.09                 0.978161163     -76.2028591
9.091                0.978111145     -76.3204721
9.092                0.978060982     -76.4383787
9.093                0.978010673     -76.5565797
9.094                0.977960219     -76.6750759
9.095                0.977909619     -76.7938683
9.096                0.977858873     -76.9129577
9.097                0.977807981      -77.032345
9.098                0.977756941     -77.1520311
9.099                0.977705755     -77.2720169
9.1                  0.977654422     -77.3923034
9.101                0.977602941     -77.5128913
9.102                0.977551313     -77.6337816
9.103                0.977499536     -77.7549753
9.104                0.977447611     -77.8764731
9.105                0.977395537      -77.998276
9.106                0.977343315      -78.120385
9.107                0.977290943     -78.2428009
9.108                0.977238422     -78.3655246
9.109                0.977185751      -78.488557
9.11                  0.97713293     -78.6118991
9.111                0.977079959     -78.7355518
9.112                0.977026838      -78.859516
9.113                0.976973566     -78.9837926
9.114                0.976920143     -79.1083826
9.115                0.976866569     -79.2332868
9.116                0.976812843     -79.3585062
9.117                0.976758966     -79.4840417
9.118                0.976704937     -79.6098943
9.119                0.976650756     -79.7360649
9.12                 0.976596422     -79.8625543
9.121                0.976541935     -79.9893637
9.122                0.976487296     -80.1164938
9.123                0.976432504     -80.2439456
9.124                0.976377558     -80.3717201
9.125                0.976322459     -80.4998182
9.126                0.976267206     -80.6282409
9.127                0.976211799      -80.756989
9.128                0.976156238     -80.8860636
9.129                0.976100523     -81.0154656
9.13                 0.976044653     -81.1451959
9.131                0.975988628     -81.2752556
9.132                0.975932448     -81.4056455
9.133                0.975876113     -81.5363666
9.134                0.975819623     -81.6674198
9.135                0.975762977     -81.7988062
9.136                0.975706175     -81.9305266
9.137                0.975649217     -82.0625821
9.138                0.975592104     -82.1949737
9.139                0.975534833     -82.3277021
9.14                 0.975477407     -82.4607686
9.141                0.975419824     -82.5941739
9.142                0.975362084     -82.7279191
9.143                0.975304187     -82.8620051
9.144                0.975246132      -82.996433
9.145                0.975187921     -83.1312037
9.146                0.975129552     -83.2663181
9.147                0.975071026     -83.4017773
9.148                0.975012342     -83.5375821
9.149                0.974953499     -83.6737337
9.15                 0.974894499      -83.810233
9.151                0.974835341     -83.9470809
9.152                0.974776025     -84.0842785
9.153                 0.97471655     -84.2218267
9.154                0.974656917     -84.3597265
9.155                0.974597125     -84.4979789
9.156                0.974537175     -84.6365849
9.157                0.974477066     -84.7755454
9.158                0.974416797     -84.9148615
9.159                 0.97435637     -85.0545342
9.16                 0.974295784     -85.1945644
9.161                0.974235039     -85.3349532
9.162                0.974174134     -85.4757014
9.163                 0.97411307     -85.6168103
9.164                0.974051847     -85.7582806
9.165                0.973990464     -85.9001134
9.166                0.973928922     -86.0423098
9.167                 0.97386722     -86.1848706
9.168                0.973805359      -86.327797
9.169                0.973743338     -86.4710899
9.17                 0.973681157     -86.6147502
9.171                0.973618817     -86.7587791
9.172                0.973556317     -86.9031775
9.173                0.973493658     -87.0479465
9.174                0.973430838     -87.1930869
9.175                0.973367859     -87.3385999
9.176                 0.97330472     -87.4844863
9.177                0.973241421     -87.6307473
9.178                0.973177963     -87.7773839
9.179                0.973114345     -87.9243969
9.18                 0.973050567     -88.0717876
9.181                 0.97298663     -88.2195567
9.182                0.972922533     -88.3677055
9.183                0.972858277     -88.5162348
9.184                0.972793861     -88.6651456
9.185                0.972729285     -88.8144391
9.186                 0.97266455     -88.9641161
9.187                0.972599656     -89.1141777
9.188                0.972534603     -89.2646249
9.189                 0.97246939     -89.4154588
9.19                 0.972404019     -89.5666802
9.191                0.972338489     -89.7182903
9.192                0.972272799       -89.87029
9.193                0.972206951     -90.0226804
9.194                0.972140945     -90.1754624
9.195                 0.97207478      -90.328637
9.196                0.972008456     -90.4822053
9.197                0.971941975     -90.6361683
9.198                0.971875336      -90.790527
9.199                0.971808538     -90.9452824
9.2                  0.971741583     -91.1004354
9.201                0.971674471     -91.2559871
9.202                0.971607201     -91.4119386
9.203                0.971539774     -91.5682907
9.204                 0.97147219     -91.7250446
9.205                 0.97140445     -91.8822011
9.206                0.971336553     -92.0397614
9.207                  0.9712685     -92.1977264
9.208                 0.97120029     -92.3560971
9.209                0.971131925     -92.5148746
9.21                 0.971063405     -92.6740597
9.211                0.970994729     -92.8336536
9.212                0.970925899     -92.9936572
9.213                0.970856914     -93.1540715
9.214                0.970787774     -93.3148975
9.215                 0.97071848     -93.4761362
9.216                0.970649033     -93.6377886
9.217                0.970579432     -93.7998557
9.218                0.970509678     -93.9623384
9.219                0.970439772     -94.1252378
9.22                 0.970369713     -94.2885549
9.221                0.970299502     -94.4522906
9.222                0.970229139     -94.6164459
9.223                0.970158625     -94.7810219
9.224                0.970087961     -94.9460194
9.225                0.970017145     -95.1114395
9.226                 0.96994618     -95.2772831
9.227                0.969875065     -95.4435513
9.228                0.969803801     -95.6102449
9.229                0.969732389      -95.777365
9.23                 0.969660828     -95.9449126
9.231                0.969589119     -96.1128885
9.232                0.969517263     -96.2812938
9.233                 0.96944526     -96.4501295
9.234                0.969373111     -96.6193964
9.235                0.969300816     -96.7890956
9.236                0.969228376      -96.959228
9.237                0.969155791     -97.1297946
9.238                0.969083062     -97.3007963
9.239                0.969010189      -97.472234
9.24                 0.968937174     -97.6441088
9.241                0.968864016     -97.8164215
9.242                0.968790716     -97.9891731
9.243                0.968717275     -98.1623645
9.244                0.968643694     -98.3359967
9.245                0.968569972     -98.5100705
9.246                0.968496112      -98.684587
9.247                0.968422112     -98.8595471
9.248                0.968347975     -99.0349516
9.249                0.968273701     -99.2108015
9.25                  0.96819929     -99.3870977
9.251                0.968124743     -99.5638411
9.252                0.968050061     -99.7410326
9.253                0.967975245     -99.9186732
9.254                0.967900296     -100.096764
9.255                0.967825214     -100.275305
9.256                0.967749999     -100.454298
9.257                0.967674654     -100.633743
9.258                0.967599178     -100.813643
9.259                0.967523573     -100.993996
9.26                 0.967447839     -101.174805
9.261                0.967371977     -101.356069
9.262                0.967295989     -101.537791
9.263                0.967219874     -101.719971
9.264                0.967143634     -101.902609
9.265                 0.96706727     -102.085707
9.266                0.966990783     -102.269265
9.267                0.966914174     -102.453284
9.268                0.966837443     -102.637766
9.269                0.966760592      -102.82271
9.27                 0.966683621     -103.008118
9.271                0.966606533     -103.193991
9.272                0.966529327     -103.380329
9.273                0.966452004     -103.567133
9.274                0.966374567     -103.754404
9.275                0.966297015     -103.942143
9.276                0.966219351     -104.130351
9.277                0.966141574     -104.319028
9.278                0.966063687     -104.508175
9.279                 0.96598569     -104.697792
9.28                 0.965907585     -104.887882
9.281                0.965829372     -105.078444
9.282                0.965751054     -105.269479
9.283                0.965672631     -105.460989
9.284                0.965594104     -105.652973
9.285                0.965515474     -105.845432
9.286                0.965436744     -106.038368
9.287                0.965357914      -106.23178
9.288                0.965278985      -106.42567
9.289                0.965199959     -106.620038
9.29                 0.965120837     -106.814886
9.291                0.965041621     -107.010213
9.292                0.964962312      -107.20602
9.293                0.964882911     -107.402309
9.294                0.964803419     -107.599079
9.295                0.964723839     -107.796332
9.296                0.964644172     -107.994068
9.297                0.964564418     -108.192287
9.298                 0.96448458     -108.390991
9.299                0.964404659      -108.59018
9.3                  0.964324657     -108.789855
9.301                0.964244575     -108.990015
9.302                0.964164414     -109.190663
9.303                0.964084177     -109.391798
9.304                0.964003864     -109.593421
9.305                0.963923478     -109.795532
9.306                0.963843021     -109.998133
9.307                0.963762493     -110.201224
9.308                0.963681896     -110.404804
9.309                0.963601233     -110.608876
9.31                 0.963520504     -110.813439
9.311                0.963439712     -111.018494
9.312                0.963358859     -111.224041
9.313                0.963277945     -111.430081
9.314                0.963196974     -111.636614
9.315                0.963115946     -111.843642
9.316                0.963034864     -112.051163
9.317                 0.96295373      -112.25918
9.318                0.962872545     -112.467692
9.319                0.962791311     -112.676699
9.32                  0.96271003     -112.886203
9.321                0.962628705     -113.096203
9.322                0.962547337       -113.3067
9.323                0.962465927     -113.517694
9.324                0.962384479     -113.729186
9.325                0.962302994     -113.941177
9.326                0.962221474     -114.153665
9.327                0.962139922     -114.366653
9.328                0.962058338      -114.58014
9.329                0.961976727     -114.794126
9.33                 0.961895088     -115.008612
9.331                0.961813426     -115.223598
9.332                0.961731741     -115.439084
9.333                0.961650037     -115.655071
9.334                0.961568314     -115.871559
9.335                0.961486577     -116.088549
9.336                0.961404826     -116.306039
9.337                0.961323064     -116.524032
9.338                0.961241294     -116.742526
9.339                0.961159517     -116.961522
9.34                 0.961077737     -117.181021
9.341                0.960995955     -117.401021
9.342                0.960914174     -117.621525
9.343                0.960832396     -117.842531
9.344                0.960750624      -118.06404
9.345                 0.96066886     -118.286052
9.346                0.960587106     -118.508567
9.347                0.960505366     -118.731585
9.348                0.960423641     -118.955107
9.349                0.960341935     -119.179131
9.35                 0.960260249      -119.40366
9.351                0.960178586     -119.628691
9.352                 0.96009695     -119.854226
9.353                0.960015342     -120.080264
9.354                0.959933765     -120.306805
9.355                0.959852222      -120.53385
9.356                0.959770716     -120.761398
9.357                0.959689249     -120.989449
9.358                0.959607824     -121.218003
9.359                0.959526444     -121.447061
9.36                 0.959445111     -121.676621
9.361                0.959363829     -121.906684
9.362                  0.9592826      -122.13725
9.363                0.959201427     -122.368318
9.364                0.959120313     -122.599888
9.365                 0.95903926     -122.831961
9.366                0.958958273     -123.064535
9.367                0.958877353     -123.297611
9.368                0.958796503     -123.531188
9.369                0.958715727     -123.765267
9.37                 0.958635027     -123.999846
9.371                0.958554407     -124.234926
9.372                0.958473869     -124.470506
9.373                0.958393417     -124.706586
9.374                0.958313054     -124.943165
9.375                0.958232783     -125.180244
9.376                0.958152606     -125.417821
9.377                0.958072527     -125.655897
9.378                0.957992549     -125.894471
9.379                0.957912676     -126.133542
9.38                  0.95783291      -126.37311
9.381                0.957753255     -126.613174
9.382                0.957673714     -126.853735
9.383                0.957594289     -127.094791
9.384                0.957514986     -127.336342
9.385                0.957435806     -127.578388
9.386                0.957356753     -127.820927
9.387                 0.95727783     -128.063959
9.388                0.957199041     -128.307484
9.389                0.957120389     -128.551501
9.39                 0.957041878     -128.796009
9.391                 0.95696351     -129.041008
9.392                0.956885289     -129.286496
9.393                 0.95680722     -129.532474
9.394                0.956729304      -129.77894
9.395                0.956651545     -130.025893
9.396                0.956573948     -130.273334
