! TOUCHSTONE file generated by CST DESIGN STUDIO
! Date and time: Tue Feb  4 17:55:15 2025
! Project name: C:\Work\MatlabApps\UnitCellOptimizationMatlab\CST\unitcell.cst
! Tree item: Tasks\Sweep1\SPara1\S-Parameters
! Header version: 2024
! Port assignment regex: !\s*Touchstone port\s*([0-9]+)\s*=\s*(CST MWS port|CST DES external port|CST DES block port)\s*(.+)\s* \(\"(.*)\"\)(\s*mode\s*([0-9]+))?.*
! Touchstone port assignment:
! Touchstone port 1 = CST DES external port 1 ("")
# GHz S MA R 50
9                    0.981126236     -76.6858057
9.001                0.981080227     -76.8024012
9.002                0.981034077     -76.9192843
9.003                0.980987788     -77.0364557
9.004                0.980941358     -77.1539165
9.005                0.980894787     -77.2716673
9.006                0.980848076     -77.3897092
9.007                0.980801223     -77.5080428
9.008                0.980754228     -77.6266692
9.009                0.980707092      -77.745589
9.01                 0.980659814     -77.8648033
9.011                0.980612393     -77.9843129
9.012                0.980564829     -78.1041186
9.013                0.980517122     -78.2242213
9.014                0.980469272     -78.3446219
9.015                0.980421279     -78.4653213
9.016                0.980373141     -78.5863203
9.017                 0.98032486     -78.7076198
9.018                0.980276434     -78.8292207
9.019                0.980227863     -78.9511238
9.02                 0.980179148     -79.0733301
9.021                0.980130287     -79.1958404
9.022                0.980081281     -79.3186557
9.023                0.980032129     -79.4417767
9.024                0.979982832     -79.5652044
9.025                0.979933387     -79.6889397
9.026                0.979883797     -79.8129835
9.027                 0.97983406     -79.9373366
9.028                0.979784175         -80.062
9.029                0.979734144     -80.1869746
9.03                 0.979683964     -80.3122612
9.031                0.979633637     -80.4378608
9.032                0.979583162     -80.5637742
9.033                0.979532539     -80.6900024
9.034                0.979481767     -80.8165463
9.035                0.979430847     -80.9434067
9.036                0.979379778     -81.0705847
9.037                0.979328559      -81.198081
9.038                0.979277191     -81.3258967
9.039                0.979225673     -81.4540326
9.04                 0.979174005     -81.5824896
9.041                0.979122187     -81.7112686
9.042                0.979070219     -81.8403707
9.043                0.979018101     -81.9697966
9.044                0.978965831     -82.0995474
9.045                 0.97891341     -82.2296239
9.046                0.978860839      -82.360027
9.047                0.978808116     -82.4907577
9.048                0.978755241      -82.621817
9.049                0.978702214     -82.7532057
9.05                 0.978649036     -82.8849248
9.051                0.978595705     -83.0169751
9.052                0.978542221     -83.1493577
9.053                0.978488586     -83.2820735
9.054                0.978434797     -83.4151234
9.055                0.978380855     -83.5485083
9.056                 0.97832676     -83.6822292
9.057                0.978272512      -83.816287
9.058                0.978218111     -83.9506827
9.059                0.978163555     -84.0854172
9.06                 0.978108846     -84.2204914
9.061                0.978053983     -84.3559063
9.062                0.977998966     -84.4916628
9.063                0.977943794     -84.6277619
9.064                0.977888468     -84.7642045
9.065                0.977832987     -84.9009916
9.066                0.977777352     -85.0381241
9.067                0.977721561      -85.175603
9.068                0.977665616     -85.3134292
9.069                0.977609515     -85.4516037
9.07                  0.97755326     -85.5901274
9.071                0.977496848     -85.7290013
9.072                0.977440281     -85.8682263
9.073                0.977383559     -86.0078034
9.074                0.977326681     -86.1477335
9.075                0.977269647     -86.2880177
9.076                0.977212456     -86.4286568
9.077                 0.97715511     -86.5696519
9.078                0.977097608     -86.7110038
9.079                0.977039949     -86.8527135
9.08                 0.976982134     -86.9947821
9.081                0.976924163     -87.1372104
9.082                0.976866035     -87.2799995
9.083                0.976807751     -87.4231502
9.084                 0.97674931     -87.5666636
9.085                0.976690712     -87.7105406
9.086                0.976631958     -87.8547822
9.087                0.976573047     -87.9993893
9.088                0.976513979      -88.144363
9.089                0.976454754     -88.2897041
9.09                 0.976395372     -88.4354136
9.091                0.976335833     -88.5814926
9.092                0.976276138     -88.7279419
9.093                0.976216285     -88.8747626
9.094                0.976156276     -89.0219556
9.095                0.976096109     -89.1695219
9.096                0.976035786     -89.3174624
9.097                0.975975305     -89.4657781
9.098                0.975914668       -89.61447
9.099                0.975853874     -89.7635391
9.1                  0.975792923     -89.9129863
9.101                0.975731815     -90.0628125
9.102                 0.97567055     -90.2130188
9.103                0.975609128     -90.3636061
9.104                 0.97554755     -90.5145754
9.105                0.975485815     -90.6659277
9.106                0.975423923     -90.8176639
9.107                0.975361875     -90.9697849
9.108                 0.97529967     -91.1222919
9.109                0.975237309     -91.2751856
9.11                 0.975174792     -91.4284671
9.111                0.975112119     -91.5821374
9.112                0.975049289     -91.7361973
9.113                0.974986304      -91.890648
9.114                0.974923162     -92.0454903
9.115                0.974859865     -92.2007252
9.116                0.974796413     -92.3563537
9.117                0.974732805     -92.5123767
9.118                0.974669041     -92.6687952
9.119                0.974605123     -92.8256101
9.12                  0.97454105     -92.9828224
9.121                0.974476822     -93.1404331
9.122                0.974412439     -93.2984432
9.123                0.974347902     -93.4568535
9.124                 0.97428321      -93.615665
9.125                0.974218365     -93.7748788
9.126                0.974153366     -93.9344956
9.127                0.974088213     -94.0945166
9.128                0.974022907     -94.2549426
9.129                0.973957448     -94.4157746
9.13                 0.973891837     -94.5770136
9.131                0.973826072     -94.7386604
9.132                0.973760155     -94.9007161
9.133                0.973694087     -95.0631815
9.134                0.973627866     -95.2260577
9.135                0.973561494     -95.3893455
9.136                0.973494971     -95.5530459
9.137                0.973428297     -95.7171598
9.138                0.973361473     -95.8816882
9.139                0.973294498      -96.046632
9.14                 0.973227374     -96.2119921
9.141                  0.9731601     -96.3777695
9.142                0.973092677     -96.5439651
9.143                0.973025105     -96.7105797
9.144                0.972957385     -96.8776144
9.145                0.972889517     -97.0450701
9.146                0.972821501     -97.2129476
9.147                0.972753339     -97.3812479
9.148                0.972685029     -97.5499719
9.149                0.972616574     -97.7191205
9.15                 0.972547972     -97.8886946
9.151                0.972479225     -98.0586952
9.152                0.972410333      -98.229123
9.153                0.972341297     -98.3999791
9.154                0.972272117     -98.5712643
9.155                0.972202793     -98.7429795
9.156                0.972133326     -98.9151256
9.157                0.972063717     -99.0877035
9.158                0.971993966     -99.2607141
9.159                0.971924074     -99.4341582
9.16                 0.971854041     -99.6080368
9.161                0.971783868     -99.7823507
9.162                0.971713555     -99.9571007
9.163                0.971643103     -100.132288
9.164                0.971572513     -100.307913
9.165                0.971501785     -100.483977
9.166                0.971430919      -100.66048
9.167                0.971359918     -100.837424
9.168                 0.97128878     -101.014809
9.169                0.971217507     -101.192637
9.17                   0.9711461     -101.370907
9.171                0.971074558     -101.549621
9.172                0.971002884      -101.72878
9.173                0.970931077     -101.908385
9.174                0.970859139     -102.088435
9.175                 0.97078707     -102.268933
9.176                 0.97071487     -102.449879
9.177                0.970642542     -102.631274
9.178                0.970570084     -102.813118
9.179                0.970497499     -102.995413
9.18                 0.970424787     -103.178159
9.181                0.970351949     -103.361356
9.182                0.970278985     -103.545007
9.183                0.970205897     -103.729111
9.184                0.970132686     -103.913669
9.185                0.970059351     -104.098683
9.186                0.969985895     -104.284152
9.187                0.969912318     -104.470078
9.188                0.969838622     -104.656461
9.189                0.969764806     -104.843303
9.19                 0.969690872     -105.030603
9.191                0.969616821     -105.218363
9.192                0.969542654     -105.406583
9.193                0.969468372     -105.595264
9.194                0.969393976     -105.784407
9.195                0.969319467     -105.974012
9.196                0.969244846     -106.164081
9.197                0.969170115     -106.354613
9.198                0.969095273      -106.54561
9.199                0.969020323     -106.737072
9.2                  0.968945265        -106.929
9.201                0.968870101     -107.121395
9.202                0.968794831     -107.314257
9.203                0.968719458     -107.507586
9.204                0.968643981     -107.701385
9.205                0.968568403     -107.895652
9.206                0.968492724      -108.09039
9.207                0.968416946     -108.285597
9.208                0.968341069     -108.481276
9.209                0.968265096     -108.677427
9.21                 0.968189028      -108.87405
9.211                0.968112865     -109.071145
9.212                 0.96803661     -109.268715
9.213                0.967960263     -109.466758
9.214                0.967883825     -109.665276
9.215                0.967807299     -109.864269
9.216                0.967730685     -110.063738
9.217                0.967653986     -110.263683
9.218                0.967577201     -110.464105
9.219                0.967500334     -110.665004
9.22                 0.967423385     -110.866381
9.221                0.967346355     -111.068237
9.222                0.967269247     -111.270571
9.223                0.967192062     -111.473385
9.224                  0.9671148     -111.676678
9.225                0.967037465     -111.880452
9.226                0.966960057     -112.084707
9.227                0.966882578     -112.289443
9.228                 0.96680503      -112.49466
9.229                0.966727413      -112.70036
9.23                 0.966649731     -112.906542
9.231                0.966571984     -113.113208
9.232                0.966494174     -113.320356
9.233                0.966416304     -113.527988
9.234                0.966338373     -113.736105
9.235                0.966260385     -113.944706
9.236                0.966182342     -114.153792
9.237                0.966104244     -114.363363
9.238                0.966026093     -114.573419
9.239                0.965947892     -114.783961
9.24                 0.965869643      -114.99499
9.241                0.965791346     -115.206505
9.242                0.965713005     -115.418507
9.243                 0.96563462     -115.630996
9.244                0.965556194     -115.843972
9.245                0.965477729     -116.057436
9.246                0.965399227     -116.271387
9.247                0.965320689     -116.485827
9.248                0.965242118     -116.700755
9.249                0.965163515     -116.916171
9.25                 0.965084884     -117.132076
9.251                0.965006224      -117.34847
9.252                 0.96492754     -117.565353
9.253                0.964848833     -117.782725
9.254                0.964770104     -118.000586
9.255                0.964691357     -118.218937
9.256                0.964612592     -118.437777
9.257                0.964533814     -118.657107
9.258                0.964455023     -118.876927
9.259                0.964376221     -119.097236
9.26                 0.964297412     -119.318036
9.261                0.964218597     -119.539325
9.262                0.964139778     -119.761105
9.263                0.964060958     -119.983374
9.264                 0.96398214     -120.206133
9.265                0.963903324     -120.429382
9.266                0.963824515     -120.653122
9.267                0.963745714     -120.877351
9.268                0.963666923      -121.10207
9.269                0.963588145     -121.327278
9.27                 0.963509383     -121.552977
9.271                0.963430638     -121.779165
9.272                0.963351914     -122.005842
9.273                0.963273212     -122.233009
9.274                0.963194536     -122.460665
9.275                0.963115888      -122.68881
9.276                0.963037269     -122.917444
9.277                0.962958684     -123.146566
9.278                0.962880135     -123.376177
9.279                0.962801623     -123.606276
9.28                 0.962723152     -123.836864
9.281                0.962644724     -124.067938
9.282                0.962566343     -124.299501
9.283                 0.96248801      -124.53155
9.284                0.962409728     -124.764086
9.285                0.962331501     -124.997109
9.286                0.962253331     -125.230618
9.287                 0.96217522     -125.464612
9.288                0.962097171     -125.699092
9.289                0.962019188     -125.934057
9.29                 0.961941272     -126.169507
9.291                0.961863428      -126.40544
9.292                0.961785657     -126.641858
9.293                0.961707963     -126.878758
9.294                0.961630348     -127.116141
9.295                0.961552815     -127.354007
9.296                0.961475368     -127.592354
9.297                0.961398009     -127.831182
9.298                0.961320741     -128.070491
9.299                0.961243568      -128.31028
9.3                  0.961166491     -128.550549
9.301                0.961089515     -128.791296
9.302                0.961012641     -129.032521
9.303                0.960935874     -129.274224
9.304                0.960859217     -129.516403
9.305                0.960782671     -129.759059
9.306                0.960706242      -130.00219
9.307                 0.96062993     -130.245795
9.308                0.960553741     -130.489875
9.309                0.960477676     -130.734428
9.31                  0.96040174     -130.979453
9.311                0.960325934     -131.224949
9.312                0.960250263     -131.470916
9.313                 0.96017473     -131.717353
9.314                0.960099338     -131.964259
9.315                0.960024089     -132.211633
9.316                0.959948988     -132.459474
9.317                0.959874038     -132.707781
9.318                0.959799241     -132.956554
9.319                0.959724602      -133.20579
9.32                 0.959650123      -133.45549
9.321                0.959575808     -133.705652
9.322                 0.95950166     -133.956275
9.323                0.959427683     -134.207359
9.324                 0.95935388     -134.458901
9.325                0.959280253     -134.710901
9.326                0.959206808     -134.963358
9.327                0.959133547     -135.216271
9.328                0.959060473     -135.469637
9.329                 0.95898759     -135.723458
9.33                 0.958914901      -135.97773
9.331                 0.95884241     -136.232453
9.332                0.958770121     -136.487625
9.333                0.958698036     -136.743246
9.334                 0.95862616     -136.999314
9.335                0.958554495     -137.255827
9.336                0.958483045     -137.512784
9.337                0.958411814     -137.770185
9.338                0.958340806     -138.028027
9.339                0.958270023     -138.286308
9.34                 0.958199469     -138.545029
9.341                0.958129149     -138.804187
9.342                0.958059064      -139.06378
9.343                 0.95798922     -139.323807
9.344                0.957919619     -139.584267
9.345                0.957850266     -139.845159
9.346                0.957781163     -140.106479
9.347                0.957712314     -140.368228
9.348                0.957643723     -140.630402
9.349                0.957575394     -140.893002
9.35                  0.95750733     -141.156024
9.351                0.957439534     -141.419468
9.352                0.957372011     -141.683331
9.353                0.957304764     -141.947612
9.354                0.957237796     -142.212309
9.355                0.957171111      -142.47742
9.356                0.957104714     -142.742944
9.357                0.957038606     -143.008878
9.358                0.956972793     -143.275221
9.359                0.956907277     -143.541971
9.36                 0.956842063     -143.809126
9.361                0.956777153     -144.076684
9.362                0.956712552     -144.344643
9.363                0.956648263     -144.613001
9.364                 0.95658429     -144.881756
9.365                0.956520637     -145.150907
9.366                0.956457306      -145.42045
9.367                0.956394303     -145.690385
9.368                0.956331629     -145.960708
9.369                 0.95626929     -146.231419
9.37                 0.956207288     -146.502514
9.371                0.956145627     -146.773991
9.372                0.956084311     -147.045849
9.373                0.956023344     -147.318085
9.374                0.955962728     -147.590697
9.375                0.955902468     -147.863683
9.376                0.955842568      -148.13704
9.377                 0.95578303     -148.410766
9.378                0.955723858     -148.684859
9.379                0.955665056     -148.959317
9.38                 0.955606628     -149.234136
9.381                0.955548577     -149.509315
9.382                0.955490906     -149.784852
9.383                0.955433619     -150.060743
9.384                 0.95537672     -150.336987
9.385                0.955320212     -150.613581
9.386                0.955264099     -150.890522
9.387                0.955208384     -151.167808
9.388                 0.95515307     -151.445436
9.389                0.955098162     -151.723404
9.39                 0.955043662      -152.00171
9.391                0.954989574      -152.28035
9.392                0.954935901     -152.559322
9.393                0.954882647     -152.838623
9.394                0.954829815     -153.118251
9.395                0.954777409     -153.398202
9.396                0.954725432     -153.678475
