! TOUCHSTONE file generated by CST DESIGN STUDIO
! Date and time: Tue Feb  4 14:10:35 2025
! Project name: C:\Work\MatlabApps\UnitCellOptimizationMatlab\CST\unitcell.cst
! Tree item: Tasks\Sweep1\SPara1\S-Parameters
! Header version: 2024
! Port assignment regex: !\s*Touchstone port\s*([0-9]+)\s*=\s*(CST MWS port|CST DES external port|CST DES block port)\s*(.+)\s* \(\"(.*)\"\)(\s*mode\s*([0-9]+))?.*
! Touchstone port assignment:
! Touchstone port 1 = CST DES external port 1 ("")
# GHz S MA R 50
9                    0.898301297     -89.4671606
9.001                 0.89785416     -89.6457566
9.002                0.897405331     -89.8248916
9.003                0.896954808     -90.0045671
9.004                0.896502592     -90.1847851
9.005                0.896048684     -90.3655474
9.006                0.895593085     -90.5468558
9.007                0.895135794      -90.728712
9.008                0.894676812     -90.9111179
9.009                0.894216141     -91.0940753
9.01                 0.893753781     -91.2775859
9.011                0.893289733     -91.4616517
9.012                0.892823998     -91.6462745
9.013                0.892356577      -91.831456
9.014                0.891887471     -92.0171981
9.015                0.891416682     -92.2035027
9.016                0.890944211     -92.3903715
9.017                 0.89047006     -92.5778064
9.018                 0.88999423     -92.7658092
9.019                0.889516722     -92.9543818
9.02                 0.889037539      -93.143526
9.021                0.888556683     -93.3332437
9.022                0.888074155     -93.5235367
9.023                0.887589957     -93.7144069
9.024                0.887104093      -93.905856
9.025                0.886616563      -94.097886
9.026                0.886127371     -94.2904988
9.027                0.885636519     -94.4836961
9.028                0.885144009     -94.6774798
9.029                0.884649845     -94.8718518
9.03                  0.88415403      -95.066814
9.031                0.883656565     -95.2623682
9.032                0.883157455     -95.4585162
9.033                0.882656702       -95.65526
9.034                 0.88215431     -95.8526014
9.035                0.881650282     -96.0505423
9.036                0.881144622     -96.2490845
9.037                0.880637333     -96.4482299
9.038                 0.88012842     -96.6479804
9.039                0.879617886     -96.8483379
9.04                 0.879105735     -97.0493041
9.041                0.878591971     -97.2508811
9.042                0.878076599     -97.4530706
9.043                0.877559623     -97.6558745
9.044                0.877041048     -97.8592948
9.045                0.876520878     -98.0633332
9.046                0.875999119     -98.2679916
9.047                0.875475774     -98.4732719
9.048                 0.87495085     -98.6791761
9.049                0.874424351     -98.8857058
9.05                 0.873896283     -99.0928631
9.051                0.873366651     -99.3006498
9.052                0.872835461     -99.5090677
9.053                0.872302719     -99.7181187
9.054                 0.87176843     -99.9278046
9.055                0.871232601     -100.138127
9.056                0.870695238     -100.349089
9.057                0.870156347     -100.560691
9.058                0.869615936     -100.772935
9.059                0.869074009     -100.985824
9.06                 0.868530575     -101.199359
9.061                0.867985641     -101.413541
9.062                0.867439212     -101.628374
9.063                0.866891298     -101.843858
9.064                0.866341904     -102.059996
9.065                0.865791039     -102.276789
9.066                0.865238711     -102.494239
9.067                0.864684927     -102.712348
9.068                0.864129696     -102.931118
9.069                0.863573026      -103.15055
9.07                 0.863014924     -103.370647
9.071                0.862455401      -103.59141
9.072                0.861894463     -103.812841
9.073                0.861332122     -104.034942
9.074                0.860768385     -104.257715
9.075                0.860203261     -104.481161
9.076                0.859636761     -104.705283
9.077                0.859068894     -104.930081
9.078                0.858499669     -105.155558
9.079                0.857929098     -105.381716
9.08                 0.857357188     -105.608556
9.081                0.856783952      -105.83608
9.082                  0.8562094      -106.06429
9.083                0.855633542     -106.293188
9.084                0.855056389     -106.522775
9.085                0.854477953     -106.753053
9.086                0.853898244     -106.984024
9.087                0.853317274     -107.215689
9.088                0.852735055     -107.448051
9.089                0.852151599      -107.68111
9.09                 0.851566917     -107.914869
9.091                0.850981022     -108.149329
9.092                0.850393926     -108.384493
9.093                0.849805642      -108.62036
9.094                0.849216182     -108.856934
9.095                 0.84862556     -109.094216
9.096                 0.84803379     -109.332208
9.097                0.847440883     -109.570911
9.098                0.846846855     -109.810326
9.099                0.846251718     -110.050456
9.1                  0.845655488     -110.291302
9.101                0.845058177     -110.532865
9.102                0.844459801     -110.775148
9.103                0.843860375     -111.018151
9.104                0.843259912     -111.261876
9.105                0.842658429     -111.506325
9.106                 0.84205594       -111.7515
9.107                0.841452462     -111.997401
9.108                0.840848009      -112.24403
9.109                0.840242598     -112.491389
9.11                 0.839636246      -112.73948
9.111                0.839028967     -112.988303
9.112                 0.83842078      -113.23786
9.113                0.837811701     -113.488152
9.114                0.837201746     -113.739181
9.115                0.836590934     -113.990949
9.116                0.835979282     -114.243456
9.117                0.835366807     -114.496705
9.118                0.834753527     -114.750695
9.119                0.834139462      -115.00543
9.12                 0.833524628     -115.260909
9.121                0.832909045     -115.517135
9.122                0.832292732     -115.774108
9.123                0.831675708     -116.031829
9.124                0.831057992     -116.290301
9.125                0.830439603     -116.549524
9.126                0.829820562     -116.809499
9.127                0.829200889     -117.070228
9.128                0.828580604     -117.331712
9.129                0.827959726     -117.593951
9.13                 0.827338279     -117.856947
9.131                0.826716281     -118.120702
9.132                0.826093754     -118.385215
9.133                0.825470721     -118.650488
9.134                0.824847202     -118.916523
9.135                 0.82422322      -119.18332
9.136                0.823598796     -119.450879
9.137                0.822973953     -119.719203
9.138                0.822348714     -119.988292
9.139                0.821723102     -120.258146
9.14                  0.82109714     -120.528768
9.141                 0.82047085     -120.800156
9.142                0.819844258     -121.072314
9.143                0.819217386      -121.34524
9.144                0.818590259     -121.618936
9.145                0.817962901     -121.893403
9.146                0.817335337     -122.168641
9.147                0.816707591     -122.444651
9.148                0.816079689     -122.721434
9.149                0.815451656      -122.99899
9.15                 0.814823517     -123.277321
9.151                0.814195299     -123.556425
9.152                0.813567026     -123.836305
9.153                0.812938727      -124.11696
9.154                0.812310426      -124.39839
9.155                 0.81168215     -124.680598
9.156                0.811053928     -124.963582
9.157                0.810425785     -125.247343
9.158                 0.80979775     -125.531882
9.159                 0.80916985     -125.817198
9.16                 0.808542112     -126.103293
9.161                0.807914566     -126.390165
9.162                0.807287239     -126.677816
9.163                 0.80666016     -126.966246
9.164                0.806033358     -127.255455
9.165                0.805406862     -127.545442
9.166                0.804780701     -127.836208
9.167                0.804154905     -128.127753
9.168                0.803529504     -128.420077
9.169                0.802904527      -128.71318
9.17                 0.802280005     -129.007061
9.171                0.801655968     -129.301721
9.172                0.801032446     -129.597159
9.173                0.800409471     -129.893376
9.174                0.799787074      -130.19037
9.175                0.799165286     -130.488141
9.176                0.798544138      -130.78669
9.177                0.797923663     -131.086015
9.178                0.797303891     -131.386117
9.179                0.796684856     -131.686995
9.18                  0.79606659     -131.988648
9.181                0.795449124     -132.291075
9.182                0.794832493     -132.594277
9.183                0.794216728     -132.898252
9.184                0.793601863        -133.203
9.185                0.792987931      -133.50852
9.186                0.792374966     -133.814811
9.187                0.791763002     -134.121872
9.188                0.791152071     -134.429702
9.189                 0.79054221     -134.738301
9.19                 0.789933451     -135.047668
9.191                0.789325829       -135.3578
9.192                0.788719378     -135.668698
9.193                0.788114134      -135.98036
9.194                0.787510132     -136.292785
9.195                0.786907406     -136.605972
9.196                0.786305992     -136.919919
9.197                0.785705925     -137.234624
9.198                0.785107241     -137.550088
9.199                0.784509975     -137.866307
9.2                  0.783914164     -138.183281
9.201                0.783319843     -138.501008
9.202                0.782727049     -138.819486
9.203                0.782135817     -139.138713
9.204                0.781546185     -139.458689
9.205                0.780958188      -139.77941
9.206                0.780371864     -140.100876
9.207                 0.77978725     -140.423084
9.208                0.779204381     -140.746032
9.209                0.778623296     -141.069719
9.21                 0.778044031     -141.394142
9.211                0.777466623     -141.719298
9.212                 0.77689111     -142.045187
9.213                 0.77631753     -142.371805
9.214                0.775745919      -142.69915
9.215                0.775176315     -143.027219
9.216                0.774608757     -143.356012
9.217                0.774043281     -143.685524
9.218                0.773479925     -144.015753
9.219                0.772918728     -144.346697
9.22                 0.772359727     -144.678352
9.221                 0.77180296     -145.010717
9.222                0.771248465     -145.343788
9.223                 0.77069628     -145.677562
9.224                0.770146444     -146.012037
9.225                0.769598994     -146.347209
9.226                0.769053968     -146.683075
9.227                0.768511405     -147.019633
9.228                0.767971343     -147.356878
9.229                0.767433819     -147.694809
9.23                 0.766898873      -148.03342
9.231                0.766366542     -148.372709
9.232                0.765836864     -148.712673
9.233                0.765309877     -149.053308
9.234                0.764785621     -149.394609
9.235                0.764264131     -149.736575
9.236                0.763745447       -150.0792
9.237                0.763229607     -150.422481
9.238                0.762716648     -150.766415
9.239                0.762206609     -151.110996
9.24                 0.761699527     -151.456222
9.241                0.761195439     -151.802087
9.242                0.760694384     -152.148589
9.243                0.760196399     -152.495722
9.244                0.759701521     -152.843483
9.245                0.759209789     -153.191867
9.246                0.758721238      -153.54087
9.247                0.758235907     -153.890486
9.248                0.757753832     -154.240713
9.249                 0.75727505     -154.591544
9.25                 0.756799598     -154.942976
9.251                0.756327513     -155.295003
9.252                0.755858831     -155.647621
9.253                0.755393588     -156.000824
9.254                 0.75493182     -156.354609
9.255                0.754473565     -156.708969
9.256                0.754018856       -157.0639
9.257                0.753567731     -157.419397
9.258                0.753120224     -157.775454
9.259                0.752676371     -158.132066
9.26                 0.752236206     -158.489228
9.261                0.751799765     -158.846934
9.262                0.751367082     -159.205179
9.263                0.750938192     -159.563957
9.264                0.750513128     -159.923262
9.265                0.750091924      -160.28309
9.266                0.749674615     -160.643433
9.267                0.749261234     -161.004287
9.268                0.748851813     -161.365645
9.269                0.748446386     -161.727502
9.27                 0.748044985     -162.089851
9.271                0.747647642     -162.452686
9.272                 0.74725439     -162.816002
9.273                 0.74686526     -163.179792
9.274                0.746480283     -163.544049
9.275                0.746099491     -163.908768
9.276                0.745722915     -164.273942
9.277                0.745350584     -164.639564
9.278                0.744982529     -165.005629
9.279                 0.74461878     -165.372129
9.28                 0.744259365     -165.739058
9.281                0.743904315      -166.10641
9.282                0.743553658     -166.474176
9.283                0.743207422     -166.842352
9.284                0.742865634     -167.210929
9.285                0.742528324     -167.579901
9.286                0.742195517     -167.949261
9.287                 0.74186724     -168.319002
9.288                0.741543521     -168.689117
9.289                0.741224384     -169.059599
9.29                 0.740909856      -169.43044
9.291                0.740599961     -169.801633
9.292                0.740294724     -170.173172
9.293                 0.73999417     -170.545048
9.294                0.739698322     -170.917255
9.295                0.739407204     -171.289784
9.296                0.739120838     -171.662629
9.297                0.738839247     -172.035782
9.298                0.738562454     -172.409236
9.299                0.738290479     -172.782982
9.3                  0.738023344     -173.157013
9.301                0.737761069     -173.531321
9.302                0.737503674       -173.9059
9.303                0.737251179      -174.28074
9.304                0.737003604     -174.655834
9.305                0.736760966     -175.031174
9.306                0.736523284     -175.406753
9.307                0.736290576     -175.782562
9.308                0.736062858     -176.158594
9.309                0.735840147      -176.53484
9.31                  0.73562246     -176.911293
9.311                0.735409811     -177.287944
9.312                0.735202216     -177.664785
9.313                 0.73499969     -178.041808
9.314                0.734802246     -178.419005
9.315                0.734609897     -178.796368
9.316                0.734422657     -179.173889
9.317                0.734240538     -179.551559
9.318                0.734063551      -179.92937
9.319                0.733891709      179.692686
9.32                  0.73372502      179.314618
9.321                0.733563497      178.936433
9.322                0.733407148       178.55814
9.323                0.733255981      178.179748
9.324                0.733110007      177.801265
9.325                0.732969232      177.422699
9.326                0.732833664      177.044059
9.327                0.732703309      176.665353
9.328                0.732578174       176.28659
9.329                0.732458264      175.907777
9.33                 0.732343585      175.528924
9.331                 0.73223414      175.150039
9.332                0.732129934       174.77113
9.333                 0.73203097      174.392206
9.334                 0.73193725      174.013275
9.335                0.731848777      173.634346
9.336                0.731765552      173.255428
9.337                0.731687576      172.876528
9.338                 0.73161485      172.497655
9.339                0.731547374      172.118818
9.34                 0.731485146      171.740026
9.341                0.731428165      171.361286
9.342                 0.73137643      170.982607
9.343                0.731329938      170.603998
9.344                0.731288686      170.225466
9.345                 0.73125267      169.847022
9.346                0.731221887      169.468672
9.347                 0.73119633      169.090426
9.348                0.731175996      168.712291
9.349                0.731160878      168.334277
9.35                 0.731150969      167.956391
9.351                0.731146263      167.578642
9.352                0.731146752      167.201038
9.353                0.731152428      166.823588
9.354                0.731163282        166.4463
9.355                0.731179305      166.069182
9.356                0.731200487      165.692242
9.357                0.731226818      165.315489
9.358                0.731258287      164.938931
9.359                0.731294882      164.562575
9.36                 0.731336592      164.186431
9.361                0.731383404      163.810506
9.362                0.731435305      163.434809
9.363                0.731492281      163.059347
9.364                0.731554319      162.684128
9.365                0.731621403      162.309161
9.366                0.731693519      161.934454
9.367                0.731770652      161.560013
9.368                0.731852784      161.185848
9.369                  0.7319399      160.811966
9.37                 0.732031981      160.438375
9.371                0.732129012      160.065083
9.372                0.732230973      159.692097
9.373                0.732337846      159.319425
9.374                0.732449613      158.947075
9.375                0.732566252      158.575054
9.376                0.732687746       158.20337
9.377                0.732814072      157.832031
9.378                0.732945211      157.461043
9.379                 0.73308114      157.090415
9.38                 0.733221839      156.720153
9.381                0.733367285      156.350265
9.382                0.733517455      155.980759
9.383                0.733672327      155.611641
9.384                0.733831876      155.242918
9.385                 0.73399608      154.874599
9.386                0.734164913      154.506689
9.387                0.734338351      154.139196
9.388                0.734516369      153.772126
9.389                0.734698942      153.405488
9.39                 0.734886043      153.039287
9.391                0.735077647       152.67353
9.392                0.735273727      152.308224
9.393                0.735474256      151.943376
9.394                0.735679206      151.578992
9.395                0.735888551      151.215079
9.396                0.736102262      150.851643
