! TOUCHSTONE file generated by CST DESIGN STUDIO
! Date and time: Tue Feb  4 14:10:28 2025
! Project name: C:\Work\MatlabApps\UnitCellOptimizationMatlab\CST\unitcell.cst
! Tree item: Tasks\Sweep1\SPara1\S-Parameters
! Header version: 2024
! Port assignment regex: !\s*Touchstone port\s*([0-9]+)\s*=\s*(CST MWS port|CST DES external port|CST DES block port)\s*(.+)\s* \(\"(.*)\"\)(\s*mode\s*([0-9]+))?.*
! Touchstone port assignment:
! Touchstone port 1 = CST DES external port 1 ("")
# GHz S MA R 50
9                    0.840194108     -127.681798
9.001                0.839523453     -127.998299
9.002                0.838852422     -128.315644
9.003                 0.83818104     -128.633832
9.004                0.837509333     -128.952863
9.005                0.836837326     -129.272736
9.006                0.836165048      -129.59345
9.007                0.835492524     -129.915005
9.008                0.834819783       -130.2374
9.009                0.834146852     -130.560634
9.01                 0.833473761     -130.884707
9.011                0.832800538     -131.209618
9.012                0.832127213     -131.535365
9.013                0.831453816     -131.861948
9.014                0.830780377     -132.189367
9.015                0.830106927     -132.517619
9.016                0.829433499     -132.846704
9.017                0.828760123      -133.17662
9.018                0.828086832     -133.507367
9.019                0.827413659     -133.838944
9.02                 0.826740637     -134.171348
9.021                  0.8260678     -134.504579
9.022                0.825395181     -134.838635
9.023                0.824722816     -135.173514
9.024                 0.82405074     -135.509216
9.025                0.823378987     -135.845738
9.026                0.822707594     -136.183079
9.027                0.822036596     -136.521237
9.028                0.821366032     -136.860211
9.029                0.820695937     -137.199998
9.03                 0.820026349     -137.540597
9.031                0.819357306     -137.882005
9.032                0.818688847     -138.224221
9.033                0.818021009     -138.567243
9.034                0.817353833     -138.911067
9.035                0.816687357     -139.255694
9.036                0.816021622     -139.601119
9.037                0.815356667      -139.94734
9.038                0.814692532     -140.294356
9.039                 0.81402926     -140.642163
9.04                 0.813366891     -140.990759
9.041                0.812705466     -141.340141
9.042                0.812045027     -141.690307
9.043                0.811385617     -142.041254
9.044                0.810727279     -142.392979
9.045                0.810070053      -142.74548
9.046                0.809413985     -143.098752
9.047                0.808759118     -143.452793
9.048                0.808105494       -143.8076
9.049                0.807453158      -144.16317
9.05                 0.806802154     -144.519499
9.051                0.806152527     -144.876585
9.052                0.805504321     -145.234423
9.053                0.804857581      -145.59301
9.054                0.804212353     -145.952342
9.055                0.803568682     -146.312417
9.056                0.802926613     -146.673229
9.057                0.802286192     -147.034776
9.058                0.801647465     -147.397053
9.059                0.801010479     -147.760056
9.06                  0.80037528     -148.123782
9.061                0.799741914     -148.488225
9.062                0.799110428     -148.853383
9.063                0.798480869     -149.219251
9.064                0.797853284     -149.585824
9.065                 0.79722772     -149.953097
9.066                0.796604224     -150.321067
9.067                0.795982844     -150.689729
9.068                0.795363627     -151.059078
9.069                 0.79474662     -151.429108
9.07                 0.794131871     -151.799817
9.071                0.793519428     -152.171198
9.072                0.792909339     -152.543246
9.073                0.792301651     -152.915956
9.074                0.791696411     -153.289324
9.075                0.791093669     -153.663344
9.076                0.790493471      -154.03801
9.077                0.789895866     -154.413317
9.078                0.789300901      -154.78926
9.079                0.788708625     -155.165833
9.08                 0.788119084     -155.543031
9.081                0.787532327     -155.920847
9.082                0.786948402     -156.299276
9.083                0.786367355     -156.678312
9.084                0.785789235     -157.057949
9.085                0.785214089     -157.438181
9.086                0.784641964     -157.819002
9.087                0.784072908     -158.200406
9.088                0.783506968     -158.582385
9.089                 0.78294419     -158.964935
9.09                 0.782384622     -159.348047
9.091                0.781828311     -159.731717
9.092                0.781275302     -160.115937
9.093                0.780725642     -160.500701
9.094                0.780179378     -160.886001
9.095                0.779636556     -161.271832
9.096                0.779097221     -161.658185
9.097                0.778561418     -162.045055
9.098                0.778029193     -162.432434
9.099                0.777500592     -162.820314
9.1                  0.776975659     -163.208689
9.101                0.776454438     -163.597551
9.102                0.775936974     -163.986894
9.103                0.775423311     -164.376709
9.104                0.774913492     -164.766988
9.105                0.774407562     -165.157726
9.106                0.773905562     -165.548913
9.107                0.773407536     -165.940542
9.108                0.772913526     -166.332605
9.109                0.772423574     -166.725095
9.11                 0.771937722     -167.118003
9.111                0.771456011     -167.511321
9.112                0.770978482     -167.905042
9.113                0.770505176     -168.299158
9.114                0.770036132     -168.693659
9.115                0.769571391     -169.088538
9.116                0.769110991     -169.483787
9.117                0.768654972     -169.879397
9.118                0.768203372     -170.275359
9.119                0.767756228     -170.671666
9.12                 0.767313578     -171.068308
9.121                 0.76687546     -171.465277
9.122                 0.76644191     -171.862565
9.123                0.766012963     -172.260162
9.124                0.765588655      -172.65806
9.125                0.765169022     -173.056251
9.126                0.764754097     -173.454724
9.127                0.764343916     -173.853471
9.128                 0.76393851     -174.252484
9.129                0.763537913     -174.651753
9.13                 0.763142157     -175.051269
9.131                0.762751274     -175.451023
9.132                0.762365296     -175.851005
9.133                0.761984252     -176.251208
9.134                0.761608173      -176.65162
9.135                0.761237088     -177.052234
9.136                0.760871026      -177.45304
9.137                0.760510015     -177.854027
9.138                0.760154083     -178.255188
9.139                0.759803257     -178.656512
9.14                 0.759457563     -179.057991
9.141                0.759117026     -179.459613
9.142                0.758781673     -179.861371
9.143                0.758451526      179.736746
9.144                0.758126611      179.334747
9.145                 0.75780695      178.932642
9.146                0.757492565       178.53044
9.147                0.757183479      178.128152
9.148                0.756879712      177.725786
9.149                0.756581285      177.323353
9.15                 0.756288217      176.920862
9.151                0.756000528      176.518323
9.152                0.755718237      176.115746
9.153                 0.75544136       175.71314
9.154                0.755169914      175.310516
9.155                0.754903917      174.907883
9.156                0.754643383      174.505251
9.157                0.754388327      174.102629
9.158                0.754138764      173.700028
9.159                0.753894707      173.297458
9.16                 0.753656168      172.894927
9.161                0.753423161      172.492447
9.162                0.753195695      172.090027
9.163                0.752973782      171.687676
9.164                0.752757431      171.285405
9.165                0.752546652      170.883223
9.166                0.752341453       170.48114
9.167                0.752141842      170.079167
9.168                0.751947826      169.677312
9.169                 0.75175941      169.275585
9.17                 0.751576601      168.873997
9.171                0.751399403      168.472557
9.172                0.751227821      168.071274
9.173                0.751061857       167.67016
9.174                0.750901515      167.269222
9.175                0.750746796      166.868471
9.176                0.750597702      166.467917
9.177                0.750454232      166.067568
9.178                0.750316388      165.667436
9.179                0.750184167      165.267529
9.18                 0.750057569      164.867856
9.181                0.749936591      164.468428
9.182                 0.74982123      164.069254
9.183                0.749711482      163.670343
9.184                0.749607342      163.271705
9.185                0.749508807      162.873349
9.186                0.749415869      162.475284
9.187                0.749328523       162.07752
9.188                0.749246761      161.680066
9.189                0.749170575      161.282931
9.19                 0.749099957      160.886125
9.191                0.749034898      160.489656
9.192                0.748975388      160.093533
9.193                0.748921416      159.697766
9.194                0.748872971      159.302364
9.195                0.748830041      158.907335
9.196                0.748792615      158.512689
9.197                0.748760678      158.118433
9.198                0.748734218      157.724578
9.199                0.748713219      157.331131
9.2                  0.748697667      156.938102
9.201                0.748687547      156.545499
9.202                0.748682842       156.15333
9.203                0.748683535      155.761604
9.204                0.748689609      155.370329
9.205                0.748701046      154.979514
9.206                0.748717829      154.589167
9.207                0.748739936      154.199297
9.208                 0.74876735      153.809911
9.209                0.748800049      153.421017
9.21                 0.748838014      153.032624
9.211                0.748881222      152.644739
9.212                0.748929652      152.257371
9.213                0.748983282      151.870527
9.214                0.749042088      151.484215
9.215                0.749106048      151.098443
9.216                0.749175137      150.713218
9.217                0.749249332      150.328547
9.218                0.749328607      149.944439
9.219                0.749412938      149.560901
9.22                 0.749502297      149.177939
9.221                 0.74959666      148.795562
9.222                0.749695999      148.413776
9.223                0.749800288      148.032588
9.224                0.749909498      147.652006
9.225                0.750023603      147.272036
9.226                0.750142572      146.892685
9.227                0.750266379       146.51396
9.228                0.750394993      146.135867
9.229                0.750528385      145.758414
9.23                 0.750666525      145.381606
9.231                0.750809382      145.005451
9.232                0.750956927      144.629953
9.233                0.751109128      144.255121
9.234                0.751265953      143.880959
9.235                0.751427371      143.507475
9.236                0.751593351      143.134673
9.237                0.751763858       142.76256
9.238                0.751938862      142.391142
9.239                0.752118329      142.020425
9.24                 0.752302225      141.650413
9.241                0.752490518      141.281114
9.242                0.752683174      140.912532
9.243                0.752880158      140.544672
9.244                0.753081436      140.177541
9.245                0.753286973      139.811142
9.246                0.753496736      139.445482
9.247                0.753710688      139.080566
9.248                0.753928795      138.716398
9.249                0.754151022      138.352984
9.25                 0.754377332      137.990328
9.251                 0.75460769      137.628435
9.252                 0.75484206      137.267309
9.253                0.755080405      136.906955
9.254                 0.75532269      136.547379
9.255                0.755568878      136.188583
9.256                0.755818932      135.830572
9.257                0.756072816      135.473351
9.258                0.756330492      135.116924
9.259                0.756591924      134.761295
9.26                 0.756857074      134.406467
9.261                0.757125905      134.052445
9.262                0.757398381      133.699232
9.263                0.757674462      133.346832
9.264                0.757954113      132.995249
9.265                0.758237295      132.644487
9.266                 0.75852397      132.294548
9.267                0.758814102      131.945436
9.268                0.759107652      131.597154
9.269                0.759404582      131.249707
9.27                 0.759704854      130.903096
9.271                0.760008431      130.557325
9.272                0.760315275      130.212396
9.273                0.760625348      129.868314
9.274                0.760938611       129.52508
9.275                0.761255027      129.182697
9.276                0.761574559      128.841168
9.277                0.761897167      128.500496
9.278                0.762222814      128.160682
9.279                0.762551463       127.82173
9.28                 0.762883075      127.483642
9.281                0.763217613       127.14642
9.282                0.763555038      126.810067
9.283                0.763895314      126.474583
9.284                0.764238402      126.139973
9.285                0.764584264      125.806236
9.286                0.764932864      125.473376
9.287                0.765284164      125.141394
9.288                0.765638126      124.810292
9.289                0.765994714      124.480072
9.29                 0.766353889      124.150734
9.291                0.766715615      123.822282
9.292                0.767079854      123.494716
9.293                0.767446571      123.168037
9.294                0.767815727      122.842247
9.295                0.768187287      122.517348
9.296                0.768561213       122.19334
9.297                 0.76893747      121.870225
9.298                 0.76931602      121.548003
9.299                0.769696828      121.226676
9.3                  0.770079858      120.906245
9.301                0.770465074       120.58671
9.302                0.770852439      120.268072
9.303                0.771241919      119.950333
9.304                0.771633477      119.633492
9.305                 0.77202708      119.317551
9.306                 0.77242269      119.002509
9.307                0.772820274      118.688369
9.308                0.773219796      118.375128
9.309                0.773621222       118.06279
9.31                 0.774024518      117.751353
9.311                0.774429649      117.440818
9.312                 0.77483658      117.131184
9.313                0.775245279      116.822454
9.314                0.775655711      116.514625
9.315                0.776067843        116.2077
9.316                 0.77648164      115.901676
9.317                0.776897071      115.596555
9.318                0.777314103      115.292337
9.319                0.777732701       114.98902
9.32                 0.778152834      114.686606
9.321                 0.77857447      114.385093
9.322                0.778997576      114.084482
9.323                 0.77942212      113.784772
9.324                0.779848071      113.485962
9.325                0.780275396      113.188053
9.326                0.780704066      112.891043
9.327                0.781134048      112.594933
9.328                0.781565311      112.299721
9.329                0.781997826      112.005407
9.33                 0.782431561      111.711991
9.331                0.782866486      111.419471
9.332                0.783302572      111.127847
9.333                0.783739788      110.837118
9.334                0.784178105      110.547283
9.335                0.784617494      110.258341
9.336                0.785057925      109.970292
9.337                0.785499371      109.683134
9.338                0.785941801      109.396867
9.339                0.786385188      109.111489
9.34                 0.786829503         108.827
9.341                0.787274719      108.543397
9.342                0.787720808      108.260681
9.343                0.788167743       107.97885
9.344                0.788615495      107.697902
9.345                0.789064039      107.417836
9.346                0.789513347      107.138652
9.347                0.789963394      106.860348
9.348                0.790414152      106.582922
9.349                0.790865595      106.306373
9.35                 0.791317698        106.0307
9.351                0.791770436      105.755901
9.352                0.792223783      105.481974
9.353                0.792677713      105.208919
9.354                0.793132202      104.936734
9.355                0.793587226      104.665417
9.356                 0.79404276      104.394966
9.357                0.794498779       104.12538
9.358                0.794955261      103.856658
9.359                0.795412181      103.588797
9.36                 0.795869515      103.321796
9.361                0.796327242      103.055654
9.362                0.796785337      102.790367
9.363                0.797243778      102.525936
9.364                0.797702542      102.262357
9.365                0.798161608       101.99963
9.366                0.798620954      101.737752
9.367                0.799080556      101.476721
9.368                0.799540395      101.216536
9.369                0.800000448      100.957194
9.37                 0.800460695      100.698694
9.371                0.800921115      100.441034
9.372                0.801381686      100.184212
9.373                 0.80184239      99.9282251
9.374                0.802303205      99.6730724
9.375                0.802764111      99.4187515
9.376                 0.80322509      99.1652604
9.377                 0.80368612       98.912597
9.378                0.804147185      98.6607593
9.379                0.804608263      98.4097451
9.38                 0.805069336      98.1595525
9.381                0.805530387      97.9101792
9.382                0.805991396      97.6616231
9.383                0.806452345      97.4138821
9.384                0.806913217      97.1669541
9.385                0.807373993      96.9208368
9.386                0.807834656      96.6755282
9.387                 0.80829519      96.4310259
9.388                0.808755576      96.1873277
9.389                0.809215798      95.9444315
9.39                  0.80967584      95.7023351
9.391                0.810135685      95.4610361
9.392                0.810595316      95.2205323
9.393                0.811054719      94.9808214
9.394                0.811513876      94.7419012
9.395                0.811972773      94.5037694
9.396                0.812431394      94.2664237
