! TOUCHSTONE file generated by CST DESIGN STUDIO
! Date and time: Tue Feb  4 14:10:49 2025
! Project name: C:\Work\MatlabApps\UnitCellOptimizationMatlab\CST\unitcell.cst
! Tree item: Tasks\Sweep1\SPara1\S-Parameters
! Header version: 2024
! Port assignment regex: !\s*Touchstone port\s*([0-9]+)\s*=\s*(CST MWS port|CST DES external port|CST DES block port)\s*(.+)\s* \(\"(.*)\"\)(\s*mode\s*([0-9]+))?.*
! Touchstone port assignment:
! Touchstone port 1 = CST DES external port 1 ("")
# GHz S MA R 50
9                     0.96128947     -49.4323006
9.001                0.961194633     -49.4953468
9.002                0.961099448     -49.5585256
9.003                0.961003914     -49.6218375
9.004                0.960908031     -49.6852829
9.005                0.960811796     -49.7488621
9.006                 0.96071521     -49.8125755
9.007                0.960618272     -49.8764235
9.008                 0.96052098     -49.9404066
9.009                0.960423334     -50.0045251
9.01                 0.960325332     -50.0687795
9.011                0.960226975     -50.1331701
9.012                 0.96012826     -50.1976974
9.013                0.960029188     -50.2623617
9.014                0.959929757     -50.3271634
9.015                0.959829966     -50.3921031
9.016                0.959729815      -50.457181
9.017                0.959629302     -50.5223977
9.018                0.959528427     -50.5877534
9.019                0.959427189     -50.6532487
9.02                 0.959325587     -50.7188839
9.021                 0.95922362     -50.7846596
9.022                0.959121287      -50.850576
9.023                0.959018587     -50.9166336
9.024                 0.95891552     -50.9828329
9.025                0.958812084     -51.0491742
9.026                0.958708279      -51.115658
9.027                0.958604104     -51.1822848
9.028                0.958499557      -51.249055
9.029                0.958394639     -51.3159689
9.03                 0.958289348     -51.3830271
9.031                0.958183683     -51.4502299
9.032                0.958077644     -51.5175779
9.033                0.957971229     -51.5850714
9.034                0.957864438     -51.6527109
9.035                 0.95775727     -51.7204968
9.036                0.957649724     -51.7884297
9.037                0.957541799     -51.8565099
9.038                0.957433494     -51.9247378
9.039                0.957324809      -51.993114
9.04                 0.957215742     -52.0616389
9.041                0.957106293      -52.130313
9.042                0.956996461     -52.1991366
9.043                0.956886245     -52.2681103
9.044                0.956775644     -52.3372346
9.045                0.956664658     -52.4065098
9.046                0.956553285     -52.4759365
9.047                0.956441525     -52.5455151
9.048                0.956329376     -52.6152462
9.049                0.956216839       -52.68513
9.05                 0.956103912     -52.7551673
9.051                0.955990594     -52.8253583
9.052                0.955876884     -52.8957037
9.053                0.955762783     -52.9662038
9.054                0.955648288     -53.0368591
9.055                0.955533399     -53.1076702
9.056                0.955418116     -53.1786376
9.057                0.955302436     -53.2497616
9.058                0.955186361     -53.3210428
9.059                0.955069888     -53.3924818
9.06                 0.954953017     -53.4640789
9.061                0.954835747     -53.5358347
9.062                0.954718078     -53.6077497
9.063                0.954600008     -53.6798243
9.064                0.954481537     -53.7520592
9.065                0.954362664     -53.8244547
9.066                0.954243388     -53.8970115
9.067                0.954123708     -53.9697299
9.068                0.954003624     -54.0426105
9.069                0.953883134     -54.1156539
9.07                 0.953762239     -54.1888605
9.071                0.953640936     -54.2622309
9.072                0.953519226     -54.3357656
9.073                0.953397108     -54.4094651
9.074                0.953274581     -54.4833298
9.075                0.953151643     -54.5573605
9.076                0.953028295     -54.6315575
9.077                0.952904535     -54.7059215
9.078                0.952780363     -54.7804529
9.079                0.952655778     -54.8551523
9.08                 0.952530779     -54.9300202
9.081                0.952405366     -55.0050571
9.082                0.952279537     -55.0802637
9.083                0.952153292     -55.1556405
9.084                0.952026631     -55.2311879
9.085                0.951899552     -55.3069066
9.086                0.951772054     -55.3827971
9.087                0.951644137       -55.45886
9.088                0.951515801     -55.5350957
9.089                0.951387044      -55.611505
9.09                 0.951257866     -55.6880883
9.091                0.951128265     -55.7648462
9.092                0.950998242     -55.8417793
9.093                0.950867796     -55.9188881
9.094                0.950736925     -55.9961732
9.095                0.950605629     -56.0736353
9.096                0.950473907     -56.1512748
9.097                0.950341759     -56.2290923
9.098                0.950209184     -56.3070885
9.099                0.950076181     -56.3852639
9.1                   0.94994275     -56.4636192
9.101                0.949808889     -56.5421548
9.102                0.949674599     -56.6208714
9.103                0.949539877     -56.6997696
9.104                0.949404725       -56.77885
9.105                 0.94926914     -56.8581132
9.106                0.949133122     -56.9375598
9.107                0.948996672     -57.0171904
9.108                0.948859786     -57.0970056
9.109                0.948722466     -57.1770061
9.11                 0.948584711     -57.2571924
9.111                0.948446519     -57.3375651
9.112                0.948307891      -57.418125
9.113                0.948168825     -57.4988725
9.114                 0.94802932     -57.5798084
9.115                0.947889377     -57.6609332
9.116                0.947748994     -57.7422477
9.117                0.947608171     -57.8237523
9.118                0.947466907     -57.9054479
9.119                0.947325201      -57.987335
9.12                 0.947183053     -58.0694142
9.121                0.947040463     -58.1516862
9.122                0.946897428     -58.2341517
9.123                 0.94675395     -58.3168113
9.124                0.946610027     -58.3996657
9.125                0.946465658     -58.4827154
9.126                0.946320843     -58.5659613
9.127                0.946175581      -58.649404
9.128                0.946029872      -58.733044
9.129                0.945883715     -58.8168822
9.13                 0.945737109     -58.9009191
9.131                0.945590053     -58.9851555
9.132                0.945442548      -59.069592
9.133                0.945294592     -59.1542293
9.134                0.945146185     -59.2390681
9.135                0.944997326     -59.3241091
9.136                0.944848015      -59.409353
9.137                0.944698251     -59.4948005
9.138                0.944548033     -59.5804523
9.139                 0.94439736      -59.666309
9.14                 0.944246233     -59.7523715
9.141                 0.94409465     -59.8386404
9.142                0.943942611     -59.9251163
9.143                0.943790115     -60.0118001
9.144                0.943637162     -60.0986925
9.145                0.943483751     -60.1857942
9.146                0.943329881     -60.2731058
9.147                0.943175552     -60.3606282
9.148                0.943020764     -60.4483621
9.149                0.942865515     -60.5363082
9.15                 0.942709805     -60.6244672
9.151                0.942553634     -60.7128399
9.152                   0.942397     -60.8014271
9.153                0.942239904     -60.8902294
9.154                0.942082345     -60.9792478
9.155                0.941924321     -61.0684828
9.156                0.941765833     -61.1579352
9.157                 0.94160688      -61.247606
9.158                0.941447462     -61.3374957
9.159                0.941287577     -61.4276052
9.16                 0.941127226     -61.5179352
9.161                0.940966407     -61.6084866
9.162                 0.94080512     -61.6992601
9.163                0.940643365     -61.7902564
9.164                 0.94048114     -61.8814765
9.165                0.940318446     -61.9729211
9.166                0.940155282     -62.0645909
9.167                0.939991647     -62.1564869
9.168                0.939827541     -62.2486097
9.169                0.939662963     -62.3409603
9.17                 0.939497912     -62.4335393
9.171                0.939332388     -62.5263477
9.172                0.939166391     -62.6193862
9.173                0.938999919     -62.7126557
9.174                0.938832973     -62.8061571
9.175                0.938665551      -62.899891
9.176                0.938497653     -62.9938585
9.177                 0.93832928     -63.0880602
9.178                0.938160429     -63.1824972
9.179                  0.9379911     -63.2771701
9.18                 0.937821294     -63.3720799
9.181                0.937651008     -63.4672274
9.182                0.937480244     -63.5626135
9.183                   0.937309      -63.658239
9.184                0.937137275     -63.7541048
9.185                 0.93696507     -63.8502119
9.186                0.936792383     -63.9465609
9.187                0.936619214      -64.043153
9.188                0.936445563     -64.1399888
9.189                0.936271428     -64.2370693
9.19                  0.93609681     -64.3343955
9.191                0.935921707     -64.4319682
9.192                 0.93574612     -64.5297882
9.193                0.935570047     -64.6278566
9.194                0.935393489     -64.7261742
9.195                0.935216444     -64.8247419
9.196                0.935038911     -64.9235607
9.197                0.934860892     -65.0226314
9.198                0.934682384      -65.121955
9.199                0.934503387     -65.2215325
9.2                  0.934323901     -65.3213647
9.201                0.934143926     -65.4214527
9.202                 0.93396346     -65.5217972
9.203                0.933782502     -65.6223994
9.204                0.933601054     -65.7232601
9.205                0.933419113     -65.8243803
9.206                0.933236679      -65.925761
9.207                0.933053753      -66.027403
9.208                0.932870332     -66.1293075
9.209                0.932686417     -66.2314754
9.21                 0.932502007     -66.3339076
9.211                0.932317102     -66.4366051
9.212                  0.9321317      -66.539569
9.213                0.931945802     -66.6428002
9.214                0.931759406     -66.7462996
9.215                0.931572513     -66.8500684
9.216                0.931385121     -66.9541075
9.217                 0.93119723     -67.0584179
9.218                0.931008839     -67.1630007
9.219                0.930819948     -67.2678568
9.22                 0.930630556     -67.3729873
9.221                0.930440663     -67.4783932
9.222                0.930250268     -67.5840756
9.223                 0.93005937     -67.6900354
9.224                0.929867969     -67.7962737
9.225                0.929676064     -67.9027916
9.226                0.929483655     -68.0095902
9.227                0.929290741     -68.1166704
9.228                0.929097321     -68.2240333
9.229                0.928903395       -68.33168
9.23                 0.928708962     -68.4396116
9.231                0.928514021     -68.5478292
9.232                0.928318573     -68.6563337
9.233                0.928122616     -68.7651264
9.234                0.927926149     -68.8742083
9.235                0.927729172     -68.9835805
9.236                0.927531685      -69.093244
9.237                0.927333686     -69.2032001
9.238                0.927135176     -69.3134497
9.239                0.926936153     -69.4239941
9.24                 0.926736616     -69.5348343
9.241                0.926536566     -69.6459714
9.242                0.926336002     -69.7574067
9.243                0.926134922     -69.8691411
9.244                0.925933326     -69.9811759
9.245                0.925731214     -70.0935122
9.246                0.925528585     -70.2061511
9.247                0.925325438     -70.3190938
9.248                0.925121773     -70.4323414
9.249                0.924917588     -70.5458952
9.25                 0.924712884     -70.6597562
9.251                0.924507659     -70.7739257
9.252                0.924301913     -70.8884048
9.253                0.924095644     -71.0031947
9.254                0.923888854     -71.1182965
9.255                 0.92368154     -71.2337116
9.256                0.923473702      -71.349441
9.257                0.923265339      -71.465486
9.258                0.923056451     -71.5818478
9.259                0.922847037     -71.6985276
9.26                 0.922637096     -71.8155265
9.261                0.922426628     -71.9328459
9.262                0.922215631      -72.050487
9.263                0.922004105     -72.1684509
9.264                 0.92179205      -72.286739
9.265                0.921579464     -72.4053524
9.266                0.921366346     -72.5242924
9.267                0.921152697     -72.6435602
9.268                0.920938515     -72.7631572
9.269                  0.9207238     -72.8830845
9.27                  0.92050855     -73.0033435
9.271                0.920292766     -73.1239354
9.272                0.920076446     -73.2448615
9.273                0.919859589      -73.366123
9.274                0.919642195     -73.4877212
9.275                0.919424263     -73.6096575
9.276                0.919205792     -73.7319332
9.277                0.918986781     -73.8545494
9.278                 0.91876723     -73.9775076
9.279                0.918547138     -74.1008091
9.28                 0.918326504     -74.2244551
9.281                0.918105327      -74.348447
9.282                0.917883607     -74.4727861
9.283                0.917661342     -74.5974737
9.284                0.917438532     -74.7225112
9.285                0.917215176        -74.8479
9.286                0.916991273     -74.9736413
9.287                0.916766823     -75.0997365
9.288                0.916541824      -75.226187
9.289                0.916316276     -75.3529941
9.29                 0.916090177     -75.4801592
9.291                0.915863528     -75.6076836
9.292                0.915636327     -75.7355688
9.293                0.915408574     -75.8638162
9.294                0.915180267      -75.992427
9.295                0.914951405     -76.1214027
9.296                0.914721989     -76.2507447
9.297                0.914492016     -76.3804545
9.298                0.914261487     -76.5105333
9.299                  0.9140304     -76.6409826
9.3                  0.913798755     -76.7718038
9.301                 0.91356655     -76.9029984
9.302                0.913333784     -77.0345678
9.303                0.913100458     -77.1665133
9.304                 0.91286657     -77.2988365
9.305                0.912632119     -77.4315388
9.306                0.912397104     -77.5646216
9.307                0.912161524     -77.6980863
9.308                0.911925379     -77.8319345
9.309                0.911688668     -77.9661675
9.31                 0.911451389     -78.1007869
9.311                0.911213543     -78.2357941
9.312                0.910975127     -78.3711906
9.313                0.910736142     -78.5069779
9.314                0.910496585     -78.6431574
9.315                0.910256458     -78.7797306
9.316                0.910015757     -78.9166991
9.317                0.909774484     -79.0540643
9.318                0.909532636     -79.1918277
9.319                0.909290213     -79.3299908
9.32                 0.909047214     -79.4685552
9.321                0.908803638     -79.6075224
9.322                0.908559484     -79.7468938
9.323                0.908314752     -79.8866711
9.324                 0.90806944     -80.0268557
9.325                0.907823548     -80.1674491
9.326                0.907577075      -80.308453
9.327                0.907330019     -80.4498688
9.328                 0.90708238     -80.5916981
9.329                0.906834158     -80.7339425
9.33                 0.906585351     -80.8766035
9.331                0.906335958     -81.0196827
9.332                0.906085979     -81.1631816
9.333                0.905835413     -81.3071018
9.334                0.905584258     -81.4514448
9.335                0.905332515     -81.5962124
9.336                0.905080181      -81.741406
9.337                0.904827257     -81.8870272
9.338                0.904573742     -82.0330776
9.339                0.904319634     -82.1795589
9.34                 0.904064933     -82.3264726
9.341                0.903809638     -82.4738203
9.342                0.903553748     -82.6216036
9.343                0.903297263     -82.7698242
9.344                0.903040181     -82.9184836
9.345                0.902782502     -83.0675836
9.346                0.902524225     -83.2171256
9.347                0.902265349     -83.3671113
9.348                0.902005874     -83.5175424
9.349                0.901745798     -83.6684206
9.35                 0.901485122     -83.8197473
9.351                0.901223843     -83.9715244
9.352                0.900961962     -84.1237533
9.353                0.900699478     -84.2764359
9.354                0.900436389     -84.4295737
9.355                0.900172696     -84.5831684
9.356                0.899908398     -84.7372216
9.357                0.899643494     -84.8917351
9.358                0.899377982     -85.0467105
9.359                0.899111864     -85.2021494
9.36                 0.898845137     -85.3580536
9.361                0.898577801     -85.5144247
9.362                0.898309856     -85.6712644
9.363                0.898041301     -85.8285743
9.364                0.897772136     -85.9863563
9.365                0.897502359     -86.1446119
9.366                0.897231971     -86.3033429
9.367                 0.89696097      -86.462551
9.368                0.896689357     -86.6222378
9.369                 0.89641713     -86.7824051
9.37                 0.896144289     -86.9430546
9.371                0.895870834      -87.104188
9.372                0.895596764     -87.2658069
9.373                0.895322079     -87.4279132
9.374                0.895046778     -87.5905085
9.375                0.894770861     -87.7535946
9.376                0.894494328     -87.9171732
9.377                0.894217177     -88.0812459
9.378                0.893939409     -88.2458146
9.379                0.893661024      -88.410881
9.38                 0.893382021     -88.5764467
9.381                0.893102399     -88.7425136
9.382                0.892822159     -88.9090834
9.383                  0.8925413     -89.0761578
9.384                0.892259822     -89.2437385
9.385                0.891977725     -89.4118273
9.386                0.891695009     -89.5804259
9.387                0.891411673     -89.7495362
9.388                0.891127717     -89.9191598
9.389                0.890843142     -90.0892984
9.39                 0.890557947     -90.2599539
9.391                0.890272132      -90.431128
9.392                0.889985697     -90.6028225
9.393                0.889698642      -90.775039
9.394                0.889410968     -90.9477794
9.395                0.889122674     -91.1210454
9.396                 0.88883376     -91.2948388
