! TOUCHSTONE file generated by CST DESIGN STUDIO
! Date and time: Tue Feb  4 14:10:47 2025
! Project name: C:\Work\MatlabApps\UnitCellOptimizationMatlab\CST\unitcell.cst
! Tree item: Tasks\Sweep1\SPara1\S-Parameters
! Header version: 2024
! Port assignment regex: !\s*Touchstone port\s*([0-9]+)\s*=\s*(CST MWS port|CST DES external port|CST DES block port)\s*(.+)\s* \(\"(.*)\"\)(\s*mode\s*([0-9]+))?.*
! Touchstone port assignment:
! Touchstone port 1 = CST DES external port 1 ("")
# GHz S MA R 50
9                    0.955414137      -53.728388
9.001                 0.95527249     -53.8001834
9.002                0.955130486     -53.8721342
9.003                0.954988122     -53.9442408
9.004                  0.9548454     -54.0165038
9.005                0.954702318     -54.0889237
9.006                0.954558877     -54.1615011
9.007                0.954415075     -54.2342365
9.008                0.954270912     -54.3071305
9.009                0.954126389     -54.3801836
9.01                 0.953981504     -54.4533964
9.011                0.953836257     -54.5267695
9.012                0.953690647     -54.6003034
9.013                0.953544675     -54.6739987
9.014                0.953398339      -54.747856
9.015                 0.95325164     -54.8218758
9.016                0.953104576     -54.8960587
9.017                0.952957148     -54.9704053
9.018                0.952809354     -55.0449161
9.019                0.952661194     -55.1195918
9.02                 0.952512669     -55.1944329
9.021                0.952363776     -55.2694401
9.022                0.952214517     -55.3446139
9.023                 0.95206489     -55.4199548
9.024                0.951914894     -55.4954636
9.025                 0.95176453     -55.5711407
9.026                0.951613797     -55.6469869
9.027                0.951462693     -55.7230027
9.028                 0.95131122     -55.7991887
9.029                0.951159376     -55.8755455
9.03                  0.95100716     -55.9520737
9.031                0.950854573      -56.028774
9.032                0.950701613     -56.1056469
9.033                 0.95054828     -56.1826932
9.034                0.950394574     -56.2599133
9.035                0.950240494      -56.337308
9.036                0.950086039     -56.4148779
9.037                0.949931209     -56.4926235
9.038                0.949776002     -56.5705456
9.039                 0.94962042     -56.6486448
9.04                 0.949464461     -56.7269216
9.041                0.949308124     -56.8053768
9.042                0.949151408     -56.8840111
9.043                0.948994315      -56.962825
9.044                0.948836841     -57.0418191
9.045                0.948678988     -57.1209943
9.046                0.948520754      -57.200351
9.047                0.948362139     -57.2798901
9.048                0.948203142      -57.359612
9.049                0.948043762     -57.4395176
9.05                 0.947883999     -57.5196075
9.051                0.947723853     -57.5998823
9.052                0.947563322     -57.6803427
9.053                0.947402405     -57.7609895
9.054                0.947241103     -57.8418232
9.055                0.947079415     -57.9228446
9.056                0.946917339     -58.0040544
9.057                0.946754875     -58.0854532
9.058                0.946592023     -58.1670418
9.059                0.946428782     -58.2488208
9.06                  0.94626515     -58.3307909
9.061                0.946101128     -58.4129529
9.062                0.945936715     -58.4953074
9.063                0.945771909     -58.5778553
9.064                 0.94560671      -58.660597
9.065                0.945441118     -58.7435335
9.066                0.945275132     -58.8266654
9.067                 0.94510875     -58.9099934
9.068                0.944941973     -58.9935182
9.069                0.944774798     -59.0772407
9.07                 0.944607227     -59.1611615
9.071                0.944439257     -59.2452813
9.072                0.944270889     -59.3296009
9.073                 0.94410212      -59.414121
9.074                0.943932951     -59.4988424
9.075                0.943763381     -59.5837658
9.076                0.943593408      -59.668892
9.077                0.943423032     -59.7542218
9.078                0.943252253     -59.8397558
9.079                0.943081069     -59.9254949
9.08                 0.942909479     -60.0114397
9.081                0.942737483     -60.0975912
9.082                 0.94256508       -60.18395
9.083                0.942392268     -60.2705169
9.084                0.942219048     -60.3572927
9.085                0.942045418     -60.4442782
9.086                0.941871377     -60.5314742
9.087                0.941696924     -60.6188814
9.088                 0.94152206     -60.7065007
9.089                0.941346781     -60.7943328
9.09                 0.941171088     -60.8823785
9.091                 0.94099498     -60.9706387
9.092                0.940818456     -61.0591141
9.093                0.940641515     -61.1478056
9.094                0.940464156     -61.2367139
9.095                0.940286377       -61.32584
9.096                0.940108179     -61.4151845
9.097                 0.93992956     -61.5047483
9.098                0.939750518     -61.5945323
9.099                0.939571054     -61.6845372
9.1                  0.939391167     -61.7747639
9.101                0.939210854     -61.8652133
9.102                0.939030115     -61.9558862
9.103                 0.93884895     -62.0467834
9.104                0.938667356     -62.1379058
9.105                0.938485334     -62.2292541
9.106                0.938302882     -62.3208294
9.107                0.938119998     -62.4126324
9.108                0.937936683      -62.504664
9.109                0.937752934     -62.5969251
9.11                 0.937568752     -62.6894164
9.111                0.937384134      -62.782139
9.112                 0.93719908     -62.8750937
9.113                0.937013588     -62.9682813
9.114                0.936827658     -63.0617028
9.115                0.936641289      -63.155359
9.116                0.936454479     -63.2492508
9.117                0.936267227     -63.3433791
9.118                0.936079532     -63.4377448
9.119                0.935891392     -63.5323489
9.12                 0.935702808     -63.6271921
9.121                0.935513777     -63.7222755
9.122                0.935324299        -63.8176
9.123                0.935134372     -63.9131664
9.124                0.934943996     -64.0089756
9.125                0.934753168     -64.1050287
9.126                0.934561888     -64.2013265
9.127                0.934370155       -64.29787
9.128                0.934177967     -64.3946601
9.129                0.933985323     -64.4916977
9.13                 0.933792223     -64.5889838
9.131                0.933598664     -64.6865193
9.132                0.933404645     -64.7843052
9.133                0.933210166     -64.8823425
9.134                0.933015225     -64.9806321
9.135                0.932819821     -65.0791749
9.136                0.932623952      -65.177972
9.137                0.932427617     -65.2770242
9.138                0.932230816     -65.3763327
9.139                0.932033546     -65.4758983
9.14                 0.931835806      -65.575722
9.141                0.931637596     -65.6758049
9.142                0.931438914     -65.7761479
9.143                0.931239758      -65.876752
9.144                0.931040127     -65.9776182
9.145                 0.93084002     -66.0787475
9.146                0.930639435      -66.180141
9.147                0.930438372     -66.2817996
9.148                0.930236828     -66.3837243
9.149                0.930034803     -66.4859163
9.15                 0.929832295     -66.5883764
9.151                0.929629303     -66.6911057
9.152                0.929425825     -66.7941053
9.153                 0.92922186     -66.8973762
9.154                0.929017406     -67.0009194
9.155                0.928812463      -67.104736
9.156                0.928607028     -67.2088271
9.157                0.928401101     -67.3131936
9.158                 0.92819468     -67.4178366
9.159                0.927987763     -67.5227572
9.16                 0.927780349     -67.6279565
9.161                0.927572437     -67.7334355
9.162                0.927364025     -67.8391954
9.163                0.927155111     -67.9452371
9.164                0.926945695     -68.0515617
9.165                0.926735775     -68.1581705
9.166                0.926525349     -68.2650643
9.167                0.926314416     -68.3722444
9.168                0.926102974     -68.4797118
9.169                0.925891022     -68.5874677
9.17                 0.925678558     -68.6955131
9.171                0.925465581     -68.8038492
9.172                 0.92525209      -68.912477
9.173                0.925038082     -69.0213978
9.174                0.924823556     -69.1306125
9.175                0.924608511     -69.2401225
9.176                0.924392946     -69.3499286
9.177                0.924176858     -69.4600323
9.178                0.923960246     -69.5704344
9.179                0.923743109     -69.6811363
9.18                 0.923525444     -69.7921391
9.181                0.923307252     -69.9034438
9.182                0.923088529     -70.0150517
9.183                0.922869274      -70.126964
9.184                0.922649486     -70.2391818
9.185                0.922429163     -70.3517063
9.186                0.922208303     -70.4645386
9.187                0.921986906     -70.5776799
9.188                0.921764969     -70.6911315
9.189                 0.92154249     -70.8048945
9.19                 0.921319469     -70.9189701
9.191                0.921095903     -71.0333596
9.192                0.920871791      -71.148064
9.193                0.920647131     -71.2630847
9.194                0.920421922     -71.3784228
9.195                0.920196161     -71.4940796
9.196                0.919969849     -71.6100562
9.197                0.919742981      -71.726354
9.198                0.919515558     -71.8429741
9.199                0.919287577     -71.9599177
9.2                  0.919059037     -72.0771862
9.201                0.918829936     -72.1947807
9.202                0.918600272     -72.3127025
9.203                0.918370045     -72.4309529
9.204                0.918139251     -72.5495331
9.205                0.917907889     -72.6684444
9.206                0.917675959      -72.787688
9.207                0.917443457     -72.9072653
9.208                0.917210383     -73.0271774
9.209                0.916976735     -73.1474258
9.21                  0.91674251     -73.2680115
9.211                0.916507708     -73.3889361
9.212                0.916272327     -73.5102007
9.213                0.916036364     -73.6318066
9.214                0.915799819     -73.7537552
9.215                0.915562689     -73.8760477
9.216                0.915324973     -73.9986855
9.217                 0.91508667     -74.1216699
9.218                0.914847777     -74.2450022
9.219                0.914608292     -74.3686838
9.22                 0.914368215     -74.4927159
9.221                0.914127543     -74.6170999
9.222                0.913886275     -74.7418372
9.223                0.913644408      -74.866929
9.224                0.913401942     -74.9923768
9.225                0.913158875     -75.1181819
9.226                0.912915205     -75.2443456
9.227                0.912670929     -75.3708694
9.228                0.912426047     -75.4977545
9.229                0.912180557     -75.6250024
9.23                 0.911934457     -75.7526144
9.231                0.911687746      -75.880592
9.232                0.911440421     -76.0089364
9.233                0.911192481     -76.1376492
9.234                0.910943924     -76.2667316
9.235                0.910694749     -76.3961851
9.236                0.910444954     -76.5260112
9.237                0.910194537     -76.6562111
9.238                0.909943497     -76.7867863
9.239                0.909691832     -76.9177383
9.24                 0.909439539     -77.0490684
9.241                0.909186619     -77.1807781
9.242                0.908933068     -77.3128689
9.243                0.908678885      -77.445342
9.244                0.908424069     -77.5781991
9.245                0.908168618     -77.7114416
9.246                 0.90791253     -77.8450708
9.247                0.907655804     -77.9790882
9.248                0.907398437     -78.1134954
9.249                0.907140429     -78.2482938
9.25                 0.906881778     -78.3834847
9.251                0.906622481     -78.5190698
9.252                0.906362538     -78.6550505
9.253                0.906101947     -78.7914283
9.254                0.905840706     -78.9282046
9.255                0.905578813     -79.0653809
9.256                0.905316268     -79.2029588
9.257                0.905053068     -79.3409398
9.258                0.904789212     -79.4793253
9.259                0.904524698     -79.6181168
9.26                 0.904259524     -79.7573159
9.261                 0.90399369     -79.8969241
9.262                0.903727194     -80.0369429
9.263                0.903460034     -80.1773738
9.264                0.903192208     -80.3182184
9.265                0.902923715     -80.4594782
9.266                0.902654554     -80.6011547
9.267                0.902384723     -80.7432495
9.268                 0.90211422     -80.8857642
9.269                0.901843045     -81.0287002
9.27                 0.901571195     -81.1720591
9.271                 0.90129867     -81.3158426
9.272                0.901025467     -81.4600521
9.273                0.900751585     -81.6046892
9.274                0.900477024     -81.7497555
9.275                0.900201781     -81.8952526
9.276                0.899925855     -82.0411821
9.277                0.899649245     -82.1875455
9.278                0.899371949     -82.3343444
9.279                0.899093966     -82.4815805
9.28                 0.898815296     -82.6292553
9.281                0.898535935     -82.7773704
9.282                0.898255884     -82.9259275
9.283                0.897975141      -83.074928
9.284                0.897693704     -83.2243738
9.285                0.897411573     -83.3742663
9.286                0.897128746     -83.5246072
9.287                0.896845222     -83.6753981
9.288                   0.896561     -83.8266407
9.289                0.896276079     -83.9783365
9.29                 0.895990457     -84.1304872
9.291                0.895704133     -84.2830945
9.292                0.895417107     -84.4361601
9.293                0.895129376     -84.5896854
9.294                0.894840941     -84.7436722
9.295                  0.8945518     -84.8981222
9.296                0.894261952      -85.053037
9.297                0.893971396     -85.2084183
9.298                0.893680131     -85.3642677
9.299                0.893388157     -85.5205869
9.3                  0.893095471     -85.6773776
9.301                0.892802074     -85.8346414
9.302                0.892507964     -85.9923801
9.303                0.892213141     -86.1505953
9.304                0.891917604     -86.3092887
9.305                0.891621351     -86.4684619
9.306                0.891324383     -86.6281168
9.307                0.891026698     -86.7882549
9.308                0.890728296      -86.948878
9.309                0.890429176     -87.1099877
9.31                 0.890129337     -87.2715858
9.311                0.889828779     -87.4336741
9.312                0.889527501     -87.5962541
9.313                0.889225503     -87.7593276
9.314                0.888922784     -87.9228963
9.315                0.888619343     -88.0869619
9.316                0.888315181     -88.2515263
9.317                0.888010296      -88.416591
9.318                0.887704689     -88.5821578
9.319                0.887398358     -88.7482284
9.32                 0.887091304     -88.9148046
9.321                0.886783526     -89.0818881
9.322                0.886475024     -89.2494806
9.323                0.886165798     -89.4175839
9.324                0.885855848     -89.5861997
9.325                0.885545173     -89.7553298
9.326                0.885233773     -89.9249759
9.327                0.884921648     -90.0951397
9.328                0.884608799     -90.2658229
9.329                0.884295225     -90.4370275
9.33                 0.883980927      -90.608755
9.331                0.883665903     -90.7810073
9.332                0.883350156      -90.953786
9.333                0.883033684     -91.1270931
9.334                0.882716487     -91.3009301
9.335                0.882398567     -91.4752989
9.336                0.882079924     -91.6502012
9.337                0.881760558     -91.8256389
9.338                0.881440468     -92.0016136
9.339                0.881119657     -92.1781271
9.34                 0.880798123     -92.3551812
9.341                0.880475869     -92.5327777
9.342                0.880152894     -92.7109182
9.343                0.879829199     -92.8896047
9.344                0.879504784     -93.0688388
9.345                0.879179651     -93.2486224
9.346                0.878853801     -93.4289571
9.347                0.878527233     -93.6098448
9.348                 0.87819995     -93.7912873
9.349                0.877871952     -93.9732862
9.35                 0.877543239     -94.1558434
9.351                0.877213814     -94.3389607
9.352                0.876883677     -94.5226398
9.353                 0.87655283     -94.7068824
9.354                0.876221273     -94.8916904
9.355                0.875889009     -95.0770656
9.356                0.875556037     -95.2630096
9.357                0.875222361     -95.4495243
9.358                0.874887981     -95.6366114
9.359                0.874552899     -95.8242727
9.36                 0.874217116       -96.01251
9.361                0.873880635      -96.201325
9.362                0.873543457     -96.3907195
9.363                0.873205583     -96.5806952
9.364                0.872867016     -96.7712539
9.365                0.872527758     -96.9623974
9.366                 0.87218781     -97.1541274
9.367                0.871847175     -97.3464457
9.368                0.871505855      -97.539354
9.369                0.871163852     -97.7328541
9.37                 0.870821168     -97.9269477
9.371                0.870477806     -98.1216366
9.372                0.870133769     -98.3169226
9.373                0.869789058     -98.5128072
9.374                0.869443677     -98.7092924
9.375                0.869097628     -98.9063798
9.376                0.868750913     -99.1040712
9.377                0.868403536     -99.3023682
9.378                  0.8680555     -99.5012727
9.379                0.867706807     -99.7007863
9.38                 0.867357461     -99.9009108
9.381                0.867007464     -100.101648
9.382                0.866656821     -100.302999
9.383                0.866305533     -100.504967
9.384                0.865953606     -100.707552
9.385                0.865601042     -100.910756
9.386                0.865247844     -101.114581
9.387                0.864894017      -101.31903
9.388                0.864539564     -101.524102
9.389                0.864184489     -101.729801
9.39                 0.863828796     -101.936128
9.391                0.863472489     -102.143084
9.392                0.863115572     -102.350671
9.393                0.862758049     -102.558891
9.394                0.862399925     -102.767745
9.395                0.862041204     -102.977236
9.396                 0.86168189     -103.187364
