! TOUCHSTONE file generated by CST DESIGN STUDIO
! Date and time: Tue Feb  4 12:52:50 2025
! Project name: C:\Work\MatlabApps\UnitCellOptimizationMatlab\CST\unitcell.cst
! Tree item: Tasks\Sweep1\SPara1\S-Parameters
! Header version: 2024
! Port assignment regex: !\s*Touchstone port\s*([0-9]+)\s*=\s*(CST MWS port|CST DES external port|CST DES block port)\s*(.+)\s* \(\"(.*)\"\)(\s*mode\s*([0-9]+))?.*
! Touchstone port assignment:
! Touchstone port 1 = CST DES external port 1 ("")
# GHz S MA R 50
9                    0.950718771     -74.2131912
9.001                0.950599662     -74.3481534
9.002                0.950479488     -74.4835298
9.003                0.950358245     -74.6193218
9.004                0.950235928     -74.7555308
9.005                0.950112532     -74.8921582
9.006                0.949988053     -75.0292056
9.007                0.949862485     -75.1666743
9.008                0.949735826     -75.3045658
9.009                0.949608068     -75.4428815
9.01                 0.949479209     -75.5816229
9.011                0.949349244     -75.7207914
9.012                0.949218167     -75.8603885
9.013                0.949085974     -76.0004157
9.014                 0.94895266     -76.1408745
9.015                0.948818221     -76.2817662
9.016                0.948682652     -76.4230925
9.017                0.948545949     -76.5648547
9.018                0.948408106     -76.7070545
9.019                0.948269119     -76.8496932
9.02                 0.948128983     -76.9927723
9.021                0.947987695     -77.1362934
9.022                0.947845248      -77.280258
9.023                0.947701639     -77.4246676
9.024                0.947556862     -77.5695237
9.025                0.947410913     -77.7148278
9.026                0.947263788     -77.8605815
9.027                0.947115482     -78.0067862
9.028                 0.94696599     -78.1534435
9.029                0.946815307      -78.300555
9.03                 0.946663429     -78.4481221
9.031                0.946510351     -78.5961465
9.032                0.946356069     -78.7446296
9.033                0.946200578     -78.8935731
9.034                0.946043873     -79.0429784
9.035                 0.94588595     -79.1928472
9.036                0.945726805      -79.343181
9.037                0.945566431     -79.4939814
9.038                0.945404826     -79.6452499
9.039                0.945241984     -79.7969882
9.04                 0.945077902     -79.9491977
9.041                0.944912573     -80.1018802
9.042                0.944745994     -80.2550371
9.043                0.944578161     -80.4086701
9.044                0.944409068     -80.5627808
9.045                0.944238711     -80.7173707
9.046                0.944067086     -80.8724415
9.047                0.943894188     -81.0279948
9.048                0.943720013     -81.1840322
9.049                0.943544556     -81.3405553
9.05                 0.943367813     -81.4975657
9.051                 0.94318978      -81.655065
9.052                0.943010451     -81.8130549
9.053                0.942829823     -81.9715371
9.054                0.942647891      -82.130513
9.055                0.942464651     -82.2899844
9.056                0.942280098      -82.449953
9.057                0.942094229     -82.6104203
9.058                0.941907038     -82.7713879
9.059                0.941718522     -82.9328577
9.06                 0.941528676     -83.0948311
9.061                0.941337496     -83.2573099
9.062                0.941144977     -83.4202957
9.063                0.940951117     -83.5837902
9.064                0.940755909      -83.747795
9.065                0.940559351     -83.9123118
9.066                0.940361437     -84.0773423
9.067                0.940162164     -84.2428882
9.068                0.939961528     -84.4089511
9.069                0.939759525     -84.5755327
9.07                  0.93955615     -84.7426347
9.071                  0.9393514     -84.9102588
9.072                0.939145271     -85.0784066
9.073                0.938937758     -85.2470799
9.074                0.938728858     -85.4162804
9.075                0.938518566     -85.5860097
9.076                0.938306879     -85.7562696
9.077                0.938093794     -85.9270617
9.078                0.937879305     -86.0983877
9.079                 0.93766341     -86.2702494
9.08                 0.937446104     -86.4426485
9.081                0.937227385     -86.6155867
9.082                0.937007247     -86.7890656
9.083                0.936785689      -86.963087
9.084                0.936562705     -87.1376526
9.085                0.936338292     -87.3127642
9.086                0.936112447     -87.4884234
9.087                0.935885167      -87.664632
9.088                0.935656447     -87.8413917
9.089                0.935426285     -88.0187042
9.09                 0.935194677     -88.1965712
9.091                 0.93496162     -88.3749945
9.092                 0.93472711     -88.5539758
9.093                0.934491144     -88.7335169
9.094                0.934253719     -88.9136194
9.095                0.934014832     -89.0942851
9.096                0.933774479     -89.2755157
9.097                0.933532658     -89.4573129
9.098                0.933289366     -89.6396786
9.099                0.933044599     -89.8226144
9.1                  0.932798355      -90.006122
9.101                0.932550631     -90.1902033
9.102                0.932301423     -90.3748599
9.103                 0.93205073     -90.5600936
9.104                0.931798548      -90.745906
9.105                0.931544875     -90.9322991
9.106                0.931289708     -91.1192744
9.107                0.931033045     -91.3068338
9.108                0.930774884     -91.4949789
9.109                 0.93051522     -91.6837116
9.11                 0.930254054     -91.8730335
9.111                0.929991381     -92.0629464
9.112                  0.9297272      -92.253452
9.113                0.929461509      -92.444552
9.114                0.929194306     -92.6362483
9.115                0.928925588     -92.8285424
9.116                0.928655353     -93.0214363
9.117                0.928383601     -93.2149315
9.118                0.928110327     -93.4090299
9.119                0.927835532     -93.6037331
9.12                 0.927559214      -93.799043
9.121                0.927281369     -93.9949611
9.122                0.927001999     -94.1914893
9.123                0.926721099     -94.3886292
9.124                 0.92643867     -94.5863826
9.125                 0.92615471     -94.7847513
9.126                0.925869217     -94.9837369
9.127                0.925582191     -95.1833411
9.128                 0.92529363     -95.3835656
9.129                0.925003534     -95.5844123
9.13                 0.924711901     -95.7858827
9.131                0.924418731     -95.9879786
9.132                0.924124023     -96.1907017
9.133                0.923827776     -96.3940536
9.134                 0.92352999     -96.5980362
9.135                0.923230663      -96.802651
9.136                0.922929797     -97.0078998
9.137                 0.92262739     -97.2137842
9.138                0.922323442     -97.4203059
9.139                0.922017954     -97.6274667
9.14                 0.921710925     -97.8352681
9.141                0.921402355     -98.0437119
9.142                0.921092244     -98.2527997
9.143                0.920780593     -98.4625331
9.144                0.920467402     -98.6729139
9.145                0.920152672     -98.8839436
9.146                0.919836403      -99.095624
9.147                0.919518596     -99.3079566
9.148                0.919199251     -99.5209431
9.149                 0.91887837     -99.7345851
9.15                 0.918555954     -99.9488843
9.151                0.918232004     -100.163842
9.152                 0.91790652     -100.379461
9.153                0.917579505     -100.595741
9.154                 0.91725096     -100.812685
9.155                0.916920887     -101.030294
9.156                0.916589287     -101.248569
9.157                0.916256161     -101.467513
9.158                0.915921513     -101.687127
9.159                0.915585344     -101.907412
9.16                 0.915247656     -102.128371
9.161                0.914908452     -102.350004
9.162                0.914567734     -102.572312
9.163                0.914225505     -102.795299
9.164                0.913881768     -103.018965
9.165                0.913536524     -103.243311
9.166                0.913189778     -103.468339
9.167                0.912841533     -103.694051
9.168                0.912491791     -103.920448
9.169                0.912140557     -104.147532
9.17                 0.911787833     -104.375304
9.171                0.911433623     -104.603765
9.172                0.911077932     -104.832917
9.173                0.910720763     -105.062761
9.174                 0.91036212       -105.2933
9.175                0.910002008     -105.524533
9.176                0.909640431     -105.756463
9.177                0.909277393     -105.989091
9.178                  0.9089129     -106.222418
9.179                0.908546956     -106.456446
9.18                 0.908179566     -106.691176
9.181                0.907810736      -106.92661
9.182                 0.90744047     -107.162748
9.183                0.907068775     -107.399592
9.184                0.906695655     -107.637144
9.185                0.906321117     -107.875404
9.186                0.905945167     -108.114374
9.187                0.905567811     -108.354055
9.188                0.905189055     -108.594449
9.189                0.904808906     -108.835556
9.19                  0.90442737     -109.077377
9.191                0.904044455     -109.319915
9.192                0.903660166      -109.56317
9.193                0.903274512     -109.807144
9.194                  0.9028875     -110.051837
9.195                0.902499137      -110.29725
9.196                0.902109432     -110.543385
9.197                0.901718391     -110.790244
9.198                0.901326023     -111.037826
9.199                0.900932336     -111.286133
9.2                   0.90053734     -111.535166
9.201                0.900141041     -111.784926
9.202                 0.89974345     -112.035414
9.203                0.899344575     -112.286631
9.204                0.898944425     -112.538578
9.205                 0.89854301     -112.791256
9.206                0.898140339     -113.044666
9.207                0.897736423     -113.298809
9.208                 0.89733127     -113.553685
9.209                0.896924892     -113.809297
9.21                 0.896517298     -114.065643
9.211                  0.8961085     -114.322726
9.212                0.895698507     -114.580546
9.213                0.895287331     -114.839103
9.214                0.894874984     -115.098399
9.215                0.894461475     -115.358435
9.216                0.894046818     -115.619211
9.217                0.893631024     -115.880727
9.218                0.893214104     -116.142985
9.219                0.892796071     -116.405984
9.22                 0.892376938     -116.669727
9.221                0.891956716     -116.934213
9.222                0.891535419     -117.199442
9.223                 0.89111306     -117.465416
9.224                0.890689652     -117.732135
9.225                0.890265209     -117.999599
9.226                0.889839743     -118.267809
9.227                 0.88941327     -118.536765
9.228                0.888985803     -118.806469
9.229                0.888557356     -119.076919
9.23                 0.888127945     -119.348116
9.231                0.887697583     -119.620062
9.232                0.887266285     -119.892755
9.233                0.886834068     -120.166197
9.234                0.886400946     -120.440387
9.235                0.885966935     -120.715326
9.236                0.885532051     -120.991014
9.237                0.885096309     -121.267452
9.238                0.884659727     -121.544638
9.239                0.884222321     -121.822574
9.24                 0.883784107     -122.101259
9.241                0.883345102     -122.380694
9.242                0.882905324     -122.660878
9.243                 0.88246479     -122.941812
9.244                0.882023518     -123.223494
9.245                0.881581525     -123.505926
9.246                0.881138829     -123.789107
9.247                 0.88069545     -124.073037
9.248                0.880251405     -124.357716
9.249                0.879806713     -124.643143
9.25                 0.879361393     -124.929318
9.251                0.878915465     -125.216241
9.252                0.878468948     -125.503911
9.253                0.878021861     -125.792329
9.254                0.877574224     -126.081493
9.255                0.877126058     -126.371404
9.256                0.876677382      -126.66206
9.257                0.876228218     -126.953461
9.258                0.875778585     -127.245607
9.259                0.875328506     -127.538497
9.26                 0.874878001      -127.83213
9.261                0.874427092     -128.126506
9.262                  0.8739758     -128.421624
9.263                0.873524147     -128.717483
9.264                0.873072156     -129.014083
9.265                0.872619848     -129.311421
9.266                0.872167246     -129.609499
9.267                0.871714373     -129.908314
9.268                0.871261252     -130.207866
9.269                0.870807906     -130.508153
9.27                 0.870354358     -130.809175
9.271                0.869900632      -131.11093
9.272                0.869446751     -131.413418
9.273                0.868992741     -131.716637
9.274                0.868538624     -132.020586
9.275                0.868084425     -132.325263
9.276                0.867630169     -132.630668
9.277                0.867175881     -132.936798
9.278                0.866721586     -133.243653
9.279                0.866267309     -133.551231
9.28                 0.865813075     -133.859531
9.281                 0.86535891      -134.16855
9.282                 0.86490484     -134.478288
9.283                 0.86445089     -134.788743
9.284                0.863997088     -135.099913
9.285                0.863543459     -135.411795
9.286                0.863090029      -135.72439
9.287                0.862636826     -136.037694
9.288                0.862183877     -136.351706
9.289                0.861731208     -136.666423
9.29                 0.861278847     -136.981844
9.291                0.860826821     -137.297968
9.292                0.860375158      -137.61479
9.293                0.859923886     -137.932311
9.294                0.859473032     -138.250526
9.295                0.859022625     -138.569435
9.296                0.858572692     -138.889035
9.297                0.858123263     -139.209323
9.298                0.857674366     -139.530297
9.299                0.857226029     -139.851955
9.3                  0.856778282     -140.174294
9.301                0.856331153     -140.497312
9.302                0.855884671     -140.821005
9.303                0.855438867     -141.145372
9.304                0.854993768     -141.470409
9.305                0.854549405     -141.796115
9.306                0.854105808     -142.122485
9.307                0.853663005     -142.449518
9.308                0.853221028      -142.77721
9.309                0.852779906     -143.105558
9.31                 0.852339669     -143.434559
9.311                0.851900347     -143.764211
9.312                 0.85146197      -144.09451
9.313                 0.85102457     -144.425452
9.314                0.850588176     -144.757035
9.315                 0.85015282     -145.089256
9.316                0.849718531      -145.42211
9.317                0.849285341     -145.755595
9.318                 0.84885328     -146.089707
9.319                 0.84842238     -146.424442
9.32                 0.847992671     -146.759798
9.321                0.847564184      -147.09577
9.322                0.847136951     -147.432354
9.323                0.846711003     -147.769548
9.324                 0.84628637     -148.107346
9.325                0.845863084     -148.445746
9.326                0.845441176     -148.784743
9.327                0.845020678     -149.124333
9.328                0.844601621     -149.464513
9.329                0.844184036     -149.805278
9.33                 0.843767955     -150.146625
9.331                0.843353409     -150.488548
9.332                0.842940429     -150.831044
9.333                0.842529047     -151.174108
9.334                0.842119294     -151.517737
9.335                0.841711202     -151.861925
9.336                0.841304801     -152.206668
9.337                0.840900124     -152.551962
9.338                0.840497202     -152.897803
9.339                0.840096065     -153.244184
9.34                 0.839696746     -153.591103
9.341                0.839299274     -153.938553
9.342                0.838903683     -154.286531
9.343                0.838510002     -154.635031
9.344                0.838118263     -154.984049
9.345                0.837728496      -155.33358
9.346                0.837340733     -155.683618
9.347                0.836955004     -156.034158
9.348                0.836571341     -156.385196
9.349                0.836189773     -156.736726
9.35                 0.835810332     -157.088743
9.351                0.835433048     -157.441242
9.352                0.835057951     -157.794217
9.353                0.834685072     -158.147663
9.354                 0.83431444     -158.501575
9.355                0.833946086     -158.855947
9.356                0.833580039     -159.210774
9.357                 0.83321633      -159.56605
9.358                0.832854988     -159.921769
9.359                0.832496042     -160.277926
9.36                 0.832139522     -160.634514
9.361                0.831785457     -160.991529
9.362                0.831433876     -161.348965
9.363                0.831084808     -161.706814
9.364                 0.83073828     -162.065073
9.365                0.830394323     -162.423734
9.366                0.830052964     -162.782792
9.367                0.829714231      -163.14224
9.368                0.829378152     -163.502072
9.369                0.829044755     -163.862283
9.37                 0.828714067     -164.222866
9.371                0.828386115     -164.583815
9.372                0.828060927     -164.945123
9.373                0.827738529     -165.306784
9.374                0.827418948     -165.668793
9.375                 0.82710221     -166.031141
9.376                0.826788341     -166.393824
9.377                0.826477368     -166.756834
9.378                0.826169315     -167.120165
9.379                0.825864208     -167.483811
9.38                 0.825562071     -167.847764
9.381                0.825262931     -168.212018
9.382                0.824966811     -168.576567
9.383                0.824673735     -168.941403
9.384                0.824383728      -169.30652
9.385                0.824096812     -169.671912
9.386                0.823813012      -170.03757
9.387                 0.82353235     -170.403489
9.388                0.823254849     -170.769662
9.389                0.822980532     -171.136081
9.39                  0.82270942     -171.502739
9.391                0.822441535      -171.86963
9.392                0.822176899     -172.236747
9.393                0.821915533     -172.604082
9.394                0.821657458     -172.971629
9.395                0.821402693      -173.33938
9.396                0.821151259     -173.707328
