! TOUCHSTONE file generated by CST DESIGN STUDIO
! Date and time: Tue Feb  4 12:52:53 2025
! Project name: C:\Work\MatlabApps\UnitCellOptimizationMatlab\CST\unitcell.cst
! Tree item: Tasks\Sweep1\SPara1\S-Parameters
! Header version: 2024
! Port assignment regex: !\s*Touchstone port\s*([0-9]+)\s*=\s*(CST MWS port|CST DES external port|CST DES block port)\s*(.+)\s* \(\"(.*)\"\)(\s*mode\s*([0-9]+))?.*
! Touchstone port assignment:
! Touchstone port 1 = CST DES external port 1 ("")
# GHz S MA R 50
9                    0.964699338     -63.7600711
9.001                0.964608721     -63.8638524
9.002                0.964517341     -63.9679179
9.003                0.964425194     -64.0722686
9.004                0.964332278     -64.1769055
9.005                0.964238588     -64.2818295
9.006                0.964144121     -64.3870415
9.007                0.964048873     -64.4925424
9.008                0.963952843     -64.5983333
9.009                0.963856025     -64.7044151
9.01                 0.963758416     -64.8107888
9.011                0.963660013     -64.9174552
9.012                0.963560814     -65.0244154
9.013                0.963460813     -65.1316704
9.014                0.963360008     -65.2392211
9.015                0.963258395     -65.3470684
9.016                0.963155971     -65.4552135
9.017                0.963052733     -65.5636572
9.018                0.962948677     -65.6724005
9.019                0.962843799     -65.7814445
9.02                 0.962738096     -65.8907902
9.021                0.962631565     -66.0004384
9.022                0.962524203     -66.1103903
9.023                0.962416005     -66.2206468
9.024                0.962306969      -66.331209
9.025                0.962197091     -66.4420778
9.026                0.962086367     -66.5532543
9.027                0.961974795     -66.6647395
9.028                 0.96186237     -66.7765344
9.029                 0.96174909       -66.88864
9.03                 0.961634951     -67.0010575
9.031                0.961519949     -67.1137877
9.032                0.961404081     -67.2268318
9.033                0.961287344     -67.3401908
9.034                0.961169734     -67.4538657
9.035                0.961051248     -67.5678576
9.036                0.960931882     -67.6821675
9.037                0.960811633     -67.7967966
9.038                0.960690498     -67.9117458
9.039                0.960568473     -68.0270162
9.04                 0.960445555     -68.1426089
9.041                0.960321741      -68.258525
9.042                0.960197026     -68.3747656
9.043                0.960071408     -68.4913316
9.044                0.959944883     -68.6082243
9.045                0.959817448     -68.7254447
9.046                  0.9596891     -68.8429939
9.047                0.959559835     -68.9608729
9.048                0.959429649     -69.0790829
9.049                 0.95929854     -69.1976251
9.05                 0.959166503     -69.3165004
9.051                0.959033537       -69.43571
9.052                0.958899636     -69.5552551
9.053                0.958764799     -69.6751367
9.054                0.958629021      -69.795356
9.055                0.958492299     -69.9159141
9.056                 0.95835463     -70.0368121
9.057                0.958216011     -70.1580512
9.058                0.958076438     -70.2796325
9.059                0.957935908     -70.4015572
9.06                 0.957794418     -70.5238263
9.061                0.957651963     -70.6464411
9.062                0.957508542     -70.7694027
9.063                 0.95736415     -70.8927123
9.064                0.957218785      -71.016371
9.065                0.957072443       -71.14038
9.066                0.956925121     -71.2647405
9.067                0.956776815     -71.3894537
9.068                0.956627523     -71.5145207
9.069                 0.95647724     -71.6399427
9.07                 0.956325965     -71.7657209
9.071                0.956173693     -71.8918565
9.072                0.956020421     -72.0183507
9.073                0.955866146     -72.1452047
9.074                0.955710865     -72.2724197
9.075                0.955554575     -72.3999969
9.076                0.955397273     -72.5279376
9.077                0.955238954     -72.6562429
9.078                0.955079617     -72.7849141
9.079                0.954919257     -72.9139524
9.08                 0.954757872      -73.043359
9.081                0.954595459     -73.1731352
9.082                0.954432015     -73.3032822
9.083                0.954267535     -73.4338012
9.084                0.954102018     -73.5646936
9.085                 0.95393546     -73.6959605
9.086                0.953767857     -73.8276032
9.087                0.953599208     -73.9596229
9.088                0.953429508      -74.092021
9.089                0.953258755     -74.2247987
9.09                 0.953086946     -74.3579573
9.091                0.952914077      -74.491498
9.092                0.952740146     -74.6254221
9.093                 0.95256515      -74.759731
9.094                0.952389085     -74.8944259
9.095                0.952211948      -75.029508
9.096                0.952033737     -75.1649788
9.097                0.951854449     -75.3008395
9.098                 0.95167408     -75.4370914
9.099                0.951492627     -75.5737358
9.1                  0.951310089     -75.7107741
9.101                0.951126461     -75.8482075
9.102                0.950941742     -75.9860374
9.103                0.950755927     -76.1242651
9.104                0.950569014      -76.262892
9.105                0.950381001     -76.4019194
9.106                0.950191884     -76.5413485
9.107                0.950001661     -76.6811809
9.108                0.949810329     -76.8214177
9.109                0.949617884     -76.9620605
9.11                 0.949424325     -77.1031104
9.111                0.949229648      -77.244569
9.112                0.949033851     -77.3864375
9.113                0.948836931     -77.5287174
9.114                0.948638886     -77.6714099
9.115                0.948439712     -77.8145166
9.116                0.948239407     -77.9580387
9.117                0.948037968     -78.1019776
9.118                0.947835393     -78.2463348
9.119                0.947631679     -78.3911117
9.12                 0.947426823     -78.5363096
9.121                0.947220823     -78.6819299
9.122                0.947013677     -78.8279741
9.123                0.946805381     -78.9744435
9.124                0.946595934     -79.1213397
9.125                0.946385332     -79.2686639
9.126                0.946173574     -79.4164177
9.127                0.945960657     -79.5646024
9.128                0.945746578     -79.7132195
9.129                0.945531335     -79.8622705
9.13                 0.945314926     -80.0117567
9.131                0.945097348     -80.1616796
9.132                0.944878599     -80.3120406
9.133                0.944658677     -80.4628413
9.134                0.944437579     -80.6140831
9.135                0.944215304     -80.7657673
9.136                0.943991848     -80.9178956
9.137                0.943767211     -81.0704693
9.138                0.943541388       -81.22349
9.139                 0.94331438     -81.3769591
9.14                 0.943086182      -81.530878
9.141                0.942856794     -81.6852483
9.142                0.942626212     -81.8400715
9.143                0.942394436      -81.995349
9.144                0.942161463     -82.1510824
9.145                0.941927292     -82.3072731
9.146                0.941691919     -82.4639227
9.147                0.941455343     -82.6210326
9.148                0.941217563     -82.7786044
9.149                0.940978577     -82.9366395
9.15                 0.940738382     -83.0951396
9.151                0.940496977      -83.254106
9.152                 0.94025436     -83.4135404
9.153                0.940010529     -83.5734442
9.154                0.939765484      -83.733819
9.155                0.939519221     -83.8946664
9.156                 0.93927174     -84.0559878
9.157                0.939023038     -84.2177848
9.158                0.938773115      -84.380059
9.159                0.938521969     -84.5428119
9.16                 0.938269598      -84.706045
9.161                0.938016001     -84.8697599
9.162                0.937761176     -85.0339581
9.163                0.937505123     -85.1986413
9.164                0.937247839     -85.3638109
9.165                0.936989323     -85.5294686
9.166                0.936729575      -85.695616
9.167                0.936468593     -85.8622544
9.168                0.936206376     -86.0293857
9.169                0.935942922     -86.1970113
9.17                 0.935678231     -86.3651328
9.171                0.935412302     -86.5337518
9.172                0.935145134     -86.7028699
9.173                0.934876725     -86.8724887
9.174                0.934607074     -87.0426098
9.175                0.934336182     -87.2132347
9.176                0.934064047     -87.3843651
9.177                0.933790668     -87.5560025
9.178                0.933516045     -87.7281486
9.179                0.933240176      -87.900805
9.18                 0.932963062     -88.0739732
9.181                0.932684702     -88.2476549
9.182                0.932405095     -88.4218517
9.183                 0.93212424     -88.5965652
9.184                0.931842138     -88.7717971
9.185                0.931558788     -88.9475488
9.186                 0.93127419     -89.1238221
9.187                0.930988342     -89.3006186
9.188                0.930701246     -89.4779399
9.189                0.930412901     -89.6557875
9.19                 0.930123307     -89.8341633
9.191                0.929832463     -90.0130687
9.192                0.929540371     -90.1925054
9.193                0.929247029      -90.372475
9.194                0.928952438     -90.5529792
9.195                0.928656599     -90.7340196
9.196                 0.92835951     -90.9155978
9.197                0.928061174     -91.0977155
9.198                 0.92776159     -91.2803742
9.199                0.927460758     -91.4635757
9.2                  0.927158679     -91.6473216
9.201                0.926855354     -91.8316135
9.202                0.926550783     -92.0164531
9.203                0.926244967     -92.2018419
9.204                0.925937907     -92.3877817
9.205                0.925629603      -92.574274
9.206                0.925320057     -92.7613206
9.207                0.925009268      -92.948923
9.208                0.924697239     -93.1370829
9.209                0.924383971      -93.325802
9.21                 0.924069464     -93.5150819
9.211                0.923753719     -93.7049241
9.212                0.923436739     -93.8953305
9.213                0.923118524     -94.0863025
9.214                0.922799077     -94.2778419
9.215                0.922478397     -94.4699503
9.216                0.922156488     -94.6626294
9.217                 0.92183335     -94.8558807
9.218                0.921508986     -95.0497059
9.219                0.921183397     -95.2441066
9.22                 0.920856586     -95.4390846
9.221                0.920528553     -95.6346413
9.222                0.920199302     -95.8307785
9.223                0.919868835     -96.0274978
9.224                0.919537153     -96.2248008
9.225                0.919204259     -96.4226891
9.226                0.918870155     -96.6211644
9.227                0.918534845     -96.8202283
9.228                 0.91819833     -97.0198824
9.229                0.917860613     -97.2201284
9.23                 0.917521697     -97.4209678
9.231                0.917181585     -97.6224023
9.232                 0.91684028     -97.8244335
9.233                0.916497785      -98.027063
9.234                0.916154102     -98.2302924
9.235                0.915809235     -98.4341233
9.236                0.915463188     -98.6385573
9.237                0.915115964      -98.843596
9.238                0.914767566      -99.049241
9.239                0.914417998      -99.255494
9.24                 0.914067263     -99.4623564
9.241                0.913715366     -99.6698299
9.242                0.913362311      -99.877916
9.243                  0.9130081     -100.086616
9.244                0.912652739     -100.295933
9.245                0.912296232     -100.505866
9.246                0.911938583     -100.716419
9.247                0.911579795     -100.927592
9.248                0.911219875     -101.139387
9.249                0.910858826     -101.351805
9.25                 0.910496654     -101.564849
9.251                0.910133362     -101.778519
9.252                0.909768957     -101.992818
9.253                0.909403443     -102.207746
9.254                0.909036825     -102.423306
9.255                0.908669108     -102.639498
9.256                0.908300298     -102.856324
9.257                0.907930401     -103.073787
9.258                0.907559422     -103.291886
9.259                0.907187367     -103.510625
9.26                 0.906814242     -103.730003
9.261                0.906440052     -103.950023
9.262                0.906064804     -104.170686
9.263                0.905688505     -104.391994
9.264                0.905311159     -104.613948
9.265                0.904932775      -104.83655
9.266                0.904553358       -105.0598
9.267                0.904172916     -105.283701
9.268                0.903791454     -105.508253
9.269                0.903408981     -105.733459
9.27                 0.903025503     -105.959319
9.271                0.902641027     -106.185835
9.272                0.902255561     -106.413009
9.273                0.901869113     -106.640841
9.274                0.901481689     -106.869333
9.275                0.901093298     -107.098487
9.276                0.900703948     -107.328303
9.277                0.900313646     -107.558783
9.278                0.899922402     -107.789929
9.279                0.899530222     -108.021741
9.28                 0.899137116     -108.254221
9.281                0.898743093     -108.487371
9.282                 0.89834816     -108.721191
9.283                0.897952327     -108.955683
9.284                0.897555603     -109.190847
9.285                0.897157997     -109.426686
9.286                0.896759518       -109.6632
9.287                0.896360176     -109.900391
9.288                 0.89595998      -110.13826
9.289                0.895558941     -110.376808
9.29                 0.895157067     -110.616036
9.291                0.894754369     -110.855945
9.292                0.894350858     -111.096537
9.293                0.893946543     -111.337812
9.294                0.893541434     -111.579772
9.295                0.893135544     -111.822418
9.296                0.892728882      -112.06575
9.297                0.892321459     -112.309771
9.298                0.891913287      -112.55448
9.299                0.891504376     -112.799879
9.3                  0.891094739     -113.045969
9.301                0.890684386     -113.292751
9.302                 0.89027333     -113.540226
9.303                0.889861581     -113.788395
9.304                0.889449154     -114.037258
9.305                0.889036058     -114.286817
9.306                0.888622307     -114.537073
9.307                0.888207914     -114.788027
9.308                0.887792891     -115.039678
9.309                0.887377251     -115.292029
9.31                 0.886961006      -115.54508
9.311                0.886544171     -115.798831
9.312                0.886126758     -116.053284
9.313                 0.88570878      -116.30844
9.314                0.885290252     -116.564298
9.315                0.884871188      -116.82086
9.316                0.884451601     -117.078127
9.317                0.884031505     -117.336099
9.318                0.883610915     -117.594777
9.319                0.883189845     -117.854161
9.32                  0.88276831     -118.114252
9.321                0.882346325      -118.37505
9.322                0.881923904     -118.636557
9.323                0.881501063     -118.898773
9.324                0.881077817     -119.161698
9.325                0.880654182     -119.425332
9.326                0.880230174     -119.689677
9.327                0.879805807     -119.954732
9.328                0.879381098     -120.220498
9.329                0.878956064     -120.486976
9.33                  0.87853072     -120.754165
9.331                0.878105083     -121.022066
9.332                 0.87767917      -121.29068
9.333                0.877252998     -121.560006
9.334                0.876826583     -121.830045
9.335                0.876399943     -122.100797
9.336                0.875973095     -122.372263
9.337                0.875546057     -122.644442
9.338                0.875118845     -122.917334
9.339                0.874691479     -123.190941
9.34                 0.874263976     -123.465261
9.341                0.873836355     -123.740294
9.342                0.873408633     -124.016042
9.343                0.872980829     -124.292503
9.344                0.872552963     -124.569678
9.345                0.872125051     -124.847567
9.346                0.871697115     -125.126169
9.347                0.871269173     -125.405485
9.348                0.870841244     -125.685514
9.349                0.870413347     -125.966256
9.35                 0.869985503      -126.24771
9.351                0.869557732     -126.529877
9.352                0.869130052     -126.812756
9.353                0.868702485     -127.096347
9.354                0.868275051      -127.38065
9.355                 0.86784777     -127.665663
9.356                0.867420663     -127.951387
9.357                 0.86699375     -128.237821
9.358                0.866567054     -128.524965
9.359                0.866140593     -128.812817
9.36                 0.865714391     -129.101378
9.361                0.865288468     -129.390646
9.362                0.864862847     -129.680622
9.363                0.864437547     -129.971304
9.364                0.864012593     -130.262691
9.365                0.863588005     -130.554783
9.366                0.863163805      -130.84758
9.367                0.862740017     -131.141079
9.368                0.862316662      -131.43528
9.369                0.861893763     -131.730183
9.37                 0.861471343     -132.025786
9.371                0.861049425     -132.322088
9.372                0.860628031     -132.619088
9.373                0.860207185     -132.916786
9.374                0.859786911     -133.215179
9.375                 0.85936723     -133.514267
9.376                0.858948168     -133.814048
9.377                0.858529748     -134.114521
9.378                0.858111993     -134.415685
9.379                0.857694927     -134.717539
9.38                 0.857278575     -135.020081
9.381                0.856862961     -135.323309
9.382                0.856448109     -135.627222
9.383                0.856034043     -135.931819
9.384                0.855620788     -136.237098
9.385                0.855208368     -136.543057
9.386                0.854796809     -136.849694
9.387                0.854386134     -137.157009
9.388                 0.85397637     -137.464998
9.389                0.853567541     -137.773661
9.39                 0.853159672     -138.082996
9.391                0.852752788     -138.392999
9.392                0.852346915     -138.703671
9.393                0.851942078     -139.015008
9.394                0.851538303     -139.327008
9.395                0.851135615      -139.63967
9.396                 0.85073404     -139.952991
