! TOUCHSTONE file generated by CST DESIGN STUDIO
! Date and time: Tue Feb  4 12:52:48 2025
! Project name: C:\Work\MatlabApps\UnitCellOptimizationMatlab\CST\unitcell.cst
! Tree item: Tasks\Sweep1\SPara1\S-Parameters
! Header version: 2024
! Port assignment regex: !\s*Touchstone port\s*([0-9]+)\s*=\s*(CST MWS port|CST DES external port|CST DES block port)\s*(.+)\s* \(\"(.*)\"\)(\s*mode\s*([0-9]+))?.*
! Touchstone port assignment:
! Touchstone port 1 = CST DES external port 1 ("")
# GHz S MA R 50
9                    0.930525811     -87.7952993
9.001                 0.93036451     -87.9752236
9.002                0.930201906     -88.1557548
9.003                0.930037994     -88.3368949
9.004                0.929872767     -88.5186459
9.005                 0.92970622     -88.7010099
9.006                0.929538346     -88.8839887
9.007                0.929369141     -89.0675843
9.008                0.929198597     -89.2517989
9.009                 0.92902671     -89.4366343
9.01                 0.928853473     -89.6220926
9.011                0.928678881     -89.8081758
9.012                0.928502929     -89.9948858
9.013                0.928325609     -90.1822247
9.014                0.928146917     -90.3701945
9.015                0.927966847     -90.5587972
9.016                0.927785394     -90.7480347
9.017                0.927602551      -90.937909
9.018                0.927418314     -91.1284223
9.019                0.927232677     -91.3195764
9.02                 0.927045634     -91.5113734
9.021                0.926857181     -91.7038153
9.022                0.926667311      -91.896904
9.023                0.926476019     -92.0906416
9.024                0.926283301       -92.28503
9.025                 0.92608915     -92.4800713
9.026                0.925893562     -92.6757675
9.027                0.925696532     -92.8721205
9.028                0.925498054     -93.0691323
9.029                0.925298123     -93.2668049
9.03                 0.925096735     -93.4651404
9.031                0.924893884     -93.6641407
9.032                0.924689566     -93.8638077
9.033                0.924483776     -94.0641435
9.034                0.924276508     -94.2651501
9.035                0.924067759     -94.4668294
9.036                0.923857523     -94.6691833
9.037                0.923645796      -94.872214
9.038                0.923432573     -95.0759233
9.039                 0.92321785     -95.2803131
9.04                 0.923001623     -95.4853856
9.041                0.922783886     -95.6911425
9.042                0.922564636     -95.8975859
9.043                0.922343869     -96.1047178
9.044                 0.92212158       -96.31254
9.045                0.921897765     -96.5210545
9.046                0.921672421     -96.7302633
9.047                0.921445542     -96.9401682
9.048                0.921217126     -97.1507712
9.049                0.920987169     -97.3620743
9.05                 0.920755666     -97.5740793
9.051                0.920522615     -97.7867882
9.052                0.920288011     -98.0002028
9.053                0.920051851     -98.2143251
9.054                0.919814132      -98.429157
9.055                0.919574851     -98.6447003
9.056                0.919334003     -98.8609569
9.057                0.919091587     -99.0779287
9.058                0.918847598     -99.2956175
9.059                0.918602035     -99.5140253
9.06                 0.918354894     -99.7331539
9.061                0.918106172     -99.9530051
9.062                0.917855867     -100.173581
9.063                0.917603975     -100.394883
9.064                0.917350496     -100.616913
9.065                0.917095426     -100.839673
9.066                0.916838762     -101.063164
9.067                0.916580504      -101.28739
9.068                0.916320648      -101.51235
9.069                0.916059194     -101.738048
9.07                 0.915796138     -101.964484
9.071                0.915531479     -102.191661
9.072                0.915265216      -102.41958
9.073                0.914997348     -102.648244
9.074                0.914727872     -102.877653
9.075                0.914456787      -103.10781
9.076                0.914184093     -103.338716
9.077                0.913909788     -103.570372
9.078                0.913633872     -103.802782
9.079                0.913356343     -104.035945
9.08                 0.913077202     -104.269865
9.081                0.912796447     -104.504542
9.082                0.912514078     -104.739978
9.083                0.912230096     -104.976175
9.084                0.911944499     -105.213134
9.085                0.911657288     -105.450858
9.086                0.911368463     -105.689346
9.087                0.911078025     -105.928602
9.088                0.910785974     -106.168627
9.089                 0.91049231     -106.409421
9.09                 0.910197035     -106.650987
9.091                0.909900149     -106.893327
9.092                0.909601653     -107.136441
9.093                0.909301549     -107.380331
9.094                0.908999838     -107.624999
9.095                0.908696521     -107.870445
9.096                0.908391601     -108.116672
9.097                0.908085079     -108.363681
9.098                0.907776956     -108.611472
9.099                0.907467237     -108.860049
9.1                  0.907155922     -109.109411
9.101                0.906843014      -109.35956
9.102                0.906528516     -109.610498
9.103                0.906212431     -109.862225
9.104                0.905894762     -110.114743
9.105                0.905575512     -110.368054
9.106                0.905254685     -110.622158
9.107                0.904932284     -110.877057
9.108                0.904608313     -111.132751
9.109                0.904282777     -111.389242
9.11                 0.903955678     -111.646532
9.111                0.903627022      -111.90462
9.112                0.903296813     -112.163509
9.113                0.902965057     -112.423199
9.114                0.902631757     -112.683692
9.115                0.902296919     -112.944987
9.116                0.901960548     -113.207088
9.117                0.901622651     -113.469993
9.118                0.901283232     -113.733705
9.119                0.900942298     -113.998224
9.12                 0.900599855      -114.26355
9.121                0.900255909     -114.529686
9.122                0.899910468     -114.796632
9.123                0.899563536     -115.064388
9.124                0.899215123     -115.332955
9.125                0.898865235     -115.602334
9.126                0.898513879     -115.872526
9.127                0.898161064     -116.143532
9.128                0.897806796     -116.415351
9.129                0.897451085     -116.687986
9.13                 0.897093939     -116.961435
9.131                0.896735366     -117.235701
9.132                0.896375375     -117.510783
9.133                0.896013976     -117.786682
9.134                0.895651177     -118.063398
9.135                0.895286988     -118.340932
9.136                0.894921419     -118.619284
9.137                 0.89455448     -118.898455
9.138                0.894186181     -119.178445
9.139                0.893816533     -119.459254
9.14                 0.893445546     -119.740883
9.141                0.893073232     -120.023331
9.142                0.892699601       -120.3066
9.143                0.892324666     -120.590688
9.144                0.891948438     -120.875597
9.145                0.891570929     -121.161326
9.146                 0.89119215     -121.447876
9.147                0.890812116     -121.735246
9.148                0.890430838     -122.023436
9.149                0.890048329     -122.312447
9.15                 0.889664604     -122.602278
9.151                0.889279674     -122.892929
9.152                0.888893555     -123.184399
9.153                 0.88850626      -123.47669
9.154                0.888117803       -123.7698
9.155                0.887728199     -124.063729
9.156                0.887337463     -124.358477
9.157                 0.88694561     -124.654043
9.158                0.886552656     -124.950427
9.159                0.886158615     -125.247629
9.16                 0.885763505     -125.545648
9.161                 0.88536734     -125.844483
9.162                0.884970138     -126.144134
9.163                0.884571915       -126.4446
9.164                0.884172688      -126.74588
9.165                0.883772474     -127.047975
9.166                0.883371292     -127.350882
9.167                0.882969158     -127.654601
9.168                0.882566091     -127.959132
9.169                0.882162108     -128.264473
9.17                  0.88175723     -128.570623
9.171                0.881351474     -128.877581
9.172                0.880944859     -129.185347
9.173                0.880537406     -129.493919
9.174                0.880129133     -129.803296
9.175                0.879720061     -130.113476
9.176                0.879310209     -130.424459
9.177                0.878899599     -130.736243
9.178                0.878488251     -131.048827
9.179                0.878076186     -131.362209
9.18                 0.877663425     -131.676389
9.181                 0.87724999     -131.991363
9.182                0.876835903     -132.307131
9.183                0.876421185     -132.623691
9.184                 0.87600586     -132.941042
9.185                0.875589949     -133.259182
9.186                0.875173475     -133.578108
9.187                0.874756462     -133.897819
9.188                0.874338933     -134.218314
9.189                0.873920912     -134.539589
9.19                 0.873502422     -134.861644
9.191                0.873083488     -135.184476
9.192                0.872664133     -135.508083
9.193                0.872244384     -135.832463
9.194                0.871824264     -136.157613
9.195                0.871403799     -136.483532
9.196                0.870983013     -136.810216
9.197                0.870561934     -137.137664
9.198                0.870140586     -137.465873
9.199                0.869718996      -137.79484
9.2                  0.869297189     -138.124563
9.201                0.868875194     -138.455039
9.202                0.868453036     -138.786266
9.203                0.868030742     -139.118241
9.204                 0.86760834      -139.45096
9.205                0.867185858     -139.784422
9.206                0.866763322     -140.118622
9.207                0.866340761     -140.453559
9.208                0.865918204     -140.789228
9.209                0.865495677     -141.125628
9.21                 0.865073211     -141.462754
9.211                0.864650834     -141.800603
9.212                0.864228574     -142.139173
9.213                0.863806461     -142.478459
9.214                0.863384525     -142.818458
9.215                0.862962794     -143.159167
9.216                0.862541299     -143.500583
9.217                 0.86212007       -143.8427
9.218                0.861699136     -144.185517
9.219                0.861278528     -144.529029
9.22                 0.860858276     -144.873232
9.221                0.860438412     -145.218122
9.222                0.860018965     -145.563696
9.223                0.859599968     -145.909949
9.224                 0.85918145     -146.256877
9.225                0.858763443     -146.604477
9.226                0.858345979     -146.952743
9.227                0.857929089     -147.301673
9.228                0.857512804      -147.65126
9.229                0.857097158     -148.001502
9.23                  0.85668218     -148.352393
9.231                0.856267905     -148.703929
9.232                0.855854363     -149.056106
9.233                0.855441587     -149.408919
9.234                0.855029609     -149.762362
9.235                0.854618462     -150.116432
9.236                0.854208179     -150.471123
9.237                0.853798792     -150.826431
9.238                0.853390333      -151.18235
9.239                0.852982837     -151.538876
9.24                 0.852576335     -151.896004
9.241                 0.85217086     -152.253727
9.242                0.851766446     -152.612042
9.243                0.851363126     -152.970943
9.244                0.850960932     -153.330424
9.245                0.850559898      -153.69048
9.246                0.850160058     -154.051105
9.247                0.849761443     -154.412295
9.248                0.849364089     -154.774043
9.249                0.848968027     -155.136345
9.25                 0.848573291     -155.499193
9.251                0.848179914     -155.862582
9.252                0.847787931     -156.226507
9.253                0.847397373     -156.590962
9.254                0.847008274      -156.95594
9.255                0.846620668     -157.321436
9.256                0.846234587     -157.687443
9.257                0.845850065     -158.053956
9.258                0.845467136     -158.420968
9.259                 0.84508583     -158.788474
9.26                 0.844706183     -159.156465
9.261                0.844328227     -159.524938
9.262                0.843951995     -159.893884
9.263                0.843577519     -160.263297
9.264                0.843204833     -160.633172
9.265                0.842833968     -161.003501
9.266                0.842464958     -161.374277
9.267                0.842097835     -161.745495
9.268                0.841732631     -162.117147
9.269                0.841369379     -162.489226
9.27                  0.84100811     -162.861726
9.271                0.840648857      -163.23464
9.272                0.840291651      -163.60796
9.273                0.839936523      -163.98168
9.274                0.839583507     -164.355793
9.275                0.839232631     -164.730292
9.276                0.838883929     -165.105169
9.277                0.838537431     -165.480417
9.278                0.838193168     -165.856029
9.279                 0.83785117     -166.231998
9.28                 0.837511468     -166.608317
9.281                0.837174092     -166.984977
9.282                0.836839072     -167.361972
9.283                0.836506438     -167.739294
9.284                 0.83617622     -168.116936
9.285                0.835848446      -168.49489
9.286                0.835523147     -168.873148
9.287                 0.83520035     -169.251703
9.288                0.834880086     -169.630548
9.289                0.834562381     -170.009674
9.29                 0.834247265     -170.389073
9.291                0.833934764     -170.768739
9.292                0.833624907     -171.148662
9.293                0.833317722     -171.528836
9.294                0.833013234     -171.909253
9.295                0.832711471     -172.289903
9.296                0.832412459     -172.670781
9.297                0.832116225     -173.051877
9.298                0.831822794     -173.433183
9.299                0.831532191     -173.814692
9.3                  0.831244443     -174.196395
9.301                0.830959573     -174.578284
9.302                0.830677607     -174.960352
9.303                0.830398568      -175.34259
9.304                0.830122481      -175.72499
9.305                0.829849369     -176.107543
9.306                0.829579255     -176.490242
9.307                0.829312162     -176.873078
9.308                0.829048113     -177.256043
9.309                0.828787129     -177.639129
9.31                 0.828529232     -178.022327
9.311                0.828274444      -178.40563
9.312                0.828022786     -178.789028
9.313                0.827774278     -179.172513
9.314                 0.82752894     -179.556078
9.315                0.827286792     -179.939714
9.316                0.827047854      179.676589
9.317                0.826812144      179.292837
9.318                0.826579682      178.909039
9.319                0.826350485      178.525205
9.32                 0.826124571      178.141341
9.321                0.825901957      177.757457
9.322                0.825682661      177.373561
9.323                0.825466699      176.989662
9.324                0.825254086      176.605767
9.325                 0.82504484      176.221886
9.326                0.824838974      175.838026
9.327                0.824636505      175.454197
9.328                0.824437445      175.070406
9.329                0.824241809      174.686662
9.33                 0.824049611      174.302973
9.331                0.823860864      173.919348
9.332                0.823675579      173.535795
9.333                 0.82349377      173.152323
9.334                0.823315448      172.768939
9.335                0.823140625      172.385653
9.336                 0.82296931      172.002472
9.337                0.822801515      171.619406
9.338                 0.82263725      171.236461
9.339                0.822476523      170.853647
9.34                 0.822319344      170.470972
9.341                0.822165722      170.088444
9.342                0.822015664      169.706072
9.343                0.821869178      169.323863
9.344                0.821726272      168.941825
9.345                0.821586951      168.559968
9.346                0.821451223      168.178299
9.347                0.821319093      167.796827
9.348                0.821190566      167.415559
9.349                0.821065648      167.034503
9.35                 0.820944343      166.653668
9.351                0.820826654      166.273062
9.352                0.820712586      165.892692
9.353                0.820602141      165.512567
9.354                0.820495322      165.132695
9.355                0.820392131      164.753083
9.356                0.820292571      164.373739
9.357                0.820196641      163.994672
9.358                0.820104344      163.615889
9.359                0.820015679      163.237397
9.36                 0.819930646      162.859205
9.361                0.819849246      162.481321
9.362                0.819771476      162.103751
9.363                0.819697336      161.726504
9.364                0.819626824      161.349587
9.365                0.819559937      160.973007
9.366                0.819496673      160.596773
9.367                 0.81943703      160.220891
9.368                0.819381002       159.84537
9.369                0.819328587      159.470215
9.37                  0.81927978      159.095436
9.371                0.819234576      158.721038
9.372                 0.81919297      158.347029
9.373                0.819154957      157.973417
9.374                 0.81912053      157.600208
9.375                0.819089684       157.22741
9.376                0.819062411      156.855029
9.377                0.819038704      156.483073
9.378                0.819018556      156.111548
9.379                0.819001958      155.740461
9.38                 0.818988902       155.36982
9.381                0.818979381       154.99963
9.382                0.818973383      154.629899
9.383                0.818970901      154.260633
9.384                0.818971924      153.891839
9.385                0.818976442      153.523523
9.386                0.818984444      153.155692
9.387                 0.81899592      152.788352
9.388                0.819010858      152.421509
9.389                0.819029247      152.055171
9.39                 0.819051074      151.689343
9.391                0.819076328       151.32403
9.392                0.819104996      150.959241
9.393                0.819137065      150.594979
9.394                0.819172522      150.231252
9.395                0.819211352      149.868066
9.396                0.819253543      149.505425
