! TOUCHSTONE file generated by CST DESIGN STUDIO
! Date and time: Tue Feb  4 12:52:45 2025
! Project name: C:\Work\MatlabApps\UnitCellOptimizationMatlab\CST\unitcell.cst
! Tree item: Tasks\Sweep1\SPara1\S-Parameters
! Header version: 2024
! Port assignment regex: !\s*Touchstone port\s*([0-9]+)\s*=\s*(CST MWS port|CST DES external port|CST DES block port)\s*(.+)\s* \(\"(.*)\"\)(\s*mode\s*([0-9]+))?.*
! Touchstone port assignment:
! Touchstone port 1 = CST DES external port 1 ("")
# GHz S MA R 50
9                    0.903128729      -105.23342
9.001                0.902925495     -105.475125
9.002                0.902721011     -105.717673
9.003                0.902515274     -105.961066
9.004                0.902308281     -106.205306
9.005                0.902100028     -106.450395
9.006                0.901890515     -106.696334
9.007                0.901679737     -106.943126
9.008                0.901467693     -107.190773
9.009                 0.90125438     -107.439276
9.01                 0.901039797     -107.688636
9.011                 0.90082394     -107.938857
9.012                0.900606809     -108.189939
9.013                0.900388402     -108.441884
9.014                0.900168716     -108.694694
9.015                0.899947751     -108.948371
9.016                0.899725505     -109.202916
9.017                0.899501976     -109.458331
9.018                0.899277165     -109.714617
9.019                0.899051069     -109.971777
9.02                 0.898823688     -110.229811
9.021                0.898595022     -110.488722
9.022                 0.89836507     -110.748511
9.023                0.898133831     -111.009179
9.024                0.897901306     -111.270728
9.025                0.897667494     -111.533159
9.026                0.897432396     -111.796474
9.027                0.897196012     -112.060674
9.028                0.896958342      -112.32576
9.029                0.896719387     -112.591734
9.03                 0.896479148     -112.858597
9.031                0.896237625     -113.126351
9.032                0.895994821     -113.394997
9.033                0.895750736     -113.664535
9.034                0.895505371     -113.934967
9.035                0.895258729     -114.206295
9.036                0.895010811     -114.478519
9.037                0.894761619      -114.75164
9.038                0.894511156      -115.02566
9.039                0.894259423      -115.30058
9.04                 0.894006425       -115.5764
9.041                0.893752162     -115.853122
9.042                0.893496639     -116.130747
9.043                0.893239858     -116.409274
9.044                0.892981823     -116.688707
9.045                0.892722537     -116.969044
9.046                0.892462005     -117.250287
9.047                 0.89220023     -117.532437
9.048                0.891937216     -117.815494
9.049                0.891672967     -118.099459
9.05                  0.89140749     -118.384333
9.051                0.891140787     -118.670116
9.052                0.890872865     -118.956809
9.053                0.890603728     -119.244413
9.054                0.890333382     -119.532927
9.055                0.890061833     -119.822353
9.056                0.889789086      -120.11269
9.057                0.889515148     -120.403939
9.058                0.889240025     -120.696101
9.059                0.888963724     -120.989176
9.06                 0.888686252     -121.283163
9.061                0.888407615     -121.578063
9.062                0.888127821     -121.873877
9.063                0.887846877     -122.170604
9.064                0.887564791     -122.468244
9.065                0.887281572     -122.766797
9.066                0.886997227     -123.066264
9.067                0.886711766     -123.366644
9.068                0.886425196     -123.667936
9.069                0.886137526     -123.970142
9.07                 0.885848767      -124.27326
9.071                0.885558927      -124.57729
9.072                0.885268016     -124.882233
9.073                0.884976044     -125.188087
9.074                0.884683022     -125.494851
9.075                 0.88438896     -125.802527
9.076                0.884093868     -126.111112
9.077                0.883797758     -126.420607
9.078                0.883500641      -126.73101
9.079                0.883202529     -127.042322
9.08                 0.882903433      -127.35454
9.081                0.882603365     -127.667665
9.082                0.882302338     -127.981695
9.083                0.882000364      -128.29663
9.084                0.881697456     -128.612469
9.085                0.881393628     -128.929209
9.086                0.881088892     -129.246851
9.087                0.880783263     -129.565394
9.088                0.880476754     -129.884835
9.089                0.880169379     -130.205173
9.09                 0.879861154     -130.526408
9.091                0.879552092     -130.848538
9.092                0.879242209     -131.171561
9.093                 0.87893152     -131.495476
9.094                 0.87862004     -131.820281
9.095                0.878307786     -132.145974
9.096                0.877994773     -132.472554
9.097                0.877681019     -132.800019
9.098                0.877366539     -133.128367
9.099                 0.87705135     -133.457597
9.1                   0.87673547     -133.787705
9.101                0.876418917      -134.11869
9.102                0.876101707     -134.450551
9.103                 0.87578386     -134.783284
9.104                0.875465392     -135.116887
9.105                0.875146324     -135.451359
9.106                0.874826674     -135.786696
9.107                 0.87450646     -136.122897
9.108                0.874185703     -136.459958
9.109                0.873864421     -136.797878
9.11                 0.873542636     -137.136652
9.111                0.873220366      -137.47628
9.112                0.872897633     -137.816757
9.113                0.872574458     -138.158082
9.114                0.872250861      -138.50025
9.115                0.871926863     -138.843259
9.116                0.871602487     -139.187107
9.117                0.871277754     -139.531788
9.118                0.870952686     -139.877302
9.119                0.870627305     -140.223643
9.12                 0.870301634      -140.57081
9.121                0.869975696     -140.918797
9.122                0.869649514     -141.267602
9.123                0.869323111     -141.617221
9.124                0.868996512     -141.967651
9.125                0.868669739     -142.318888
9.126                0.868342817     -142.670927
9.127                 0.86801577     -143.023765
9.128                0.867688624     -143.377398
9.129                0.867361402     -143.731822
9.13                  0.86703413     -144.087033
9.131                0.866706834     -144.443026
9.132                0.866379539     -144.799798
9.133                 0.86605227     -145.157344
9.134                0.865725054     -145.515659
9.135                0.865397918     -145.874739
9.136                0.865070887      -146.23458
9.137                0.864743988     -146.595176
9.138                0.864417249     -146.956524
9.139                0.864090697     -147.318617
9.14                 0.863764359     -147.681453
9.141                0.863438263     -148.045024
9.142                0.863112437     -148.409328
9.143                0.862786908     -148.774357
9.144                0.862461706     -149.140108
9.145                0.862136859     -149.506576
9.146                0.861812395     -149.873753
9.147                0.861488344     -150.241637
9.148                0.861164735      -150.61022
9.149                0.860841597     -150.979498
9.15                  0.86051896     -151.349464
9.151                0.860196854     -151.720114
9.152                0.859875308     -152.091442
9.153                0.859554354     -152.463442
9.154                0.859234022     -152.836107
9.155                0.858914342     -153.209433
9.156                0.858595346     -153.583413
9.157                0.858277064     -153.958041
9.158                0.857959528     -154.333311
9.159                0.857642769     -154.709218
9.16                  0.85732682     -155.085754
9.161                0.857011713     -155.462914
9.162                 0.85669748     -155.840692
9.163                0.856384153     -156.219081
9.164                0.856071765     -156.598074
9.165                 0.85576035     -156.977666
9.166                0.855449941      -157.35785
9.167                0.855140572      -157.73862
9.168                0.854832276     -158.119969
9.169                0.854525088     -158.501891
9.17                 0.854219042     -158.884378
9.171                0.853914174     -159.267426
9.172                0.853610519     -159.651026
9.173                0.853308112     -160.035174
9.174                 0.85300699     -160.419861
9.175                0.852707189     -160.805083
9.176                0.852408747     -161.190832
9.177                  0.8521117     -161.577102
9.178                0.851816087     -161.963887
9.179                0.851521946     -162.351181
9.18                 0.851229317     -162.738977
9.181                 0.85093824     -163.127271
9.182                0.850648754     -163.516056
9.183                0.850360901     -163.905327
9.184                0.850074722     -164.295079
9.185                0.849790259     -164.685307
9.186                0.849507557     -165.076006
9.187                0.849226657     -165.467172
9.188                0.848947605     -165.858803
9.189                0.848670444     -166.250894
9.19                 0.848395218     -166.643445
9.191                0.848121971     -167.036454
9.192                0.847850746     -167.429921
9.193                0.847581583     -167.823848
9.194                0.847314521     -168.218237
9.195                 0.84704959     -168.613094
9.196                0.846786815     -169.008427
9.197                0.846526208     -169.404246
9.198                0.846267763     -169.800567
9.199                0.846011447     -170.197408
9.2                  0.845757185     -170.594795
9.201                0.845504844     -170.992761
9.202                0.845254203     -171.391349
9.203                0.845004905     -171.790612
9.204                0.844756388     -172.190621
9.205                0.844507782     -172.591461
9.206                0.844257737     -172.993242
9.207                0.844004156     -173.396098
9.208                0.843743785     -173.800182
9.209                0.843471565     -174.205659
9.21                 0.843179696     -174.612664
9.211                  0.8428564     -175.021206
9.212                 0.84248485     -175.430955
9.213                0.842043912     -175.840842
9.214                0.841514928     -176.248494
9.215                0.840900468     -176.649968
9.216                0.840250965     -177.041013
9.217                0.839665478     -177.420502
9.218                0.839233667     -177.792801
9.219                0.838971903      -178.16495
9.22                 0.838832134     -178.541841
9.221                0.838753635     -178.924817
9.222                0.838693677     -179.313121
9.223                0.838630079     -179.705414
9.224                0.838553996      179.899509
9.225                0.838463395      179.502547
9.226                0.838359193       179.10432
9.227                0.838243332      178.705247
9.228                0.838117933      178.305604
9.229                0.837984948      177.905581
9.23                 0.837846066      177.505303
9.231                0.837702699      177.104861
9.232                0.837556011      176.704316
9.233                0.837406961      176.303715
9.234                0.837256336      175.903091
9.235                0.837104784      175.502471
9.236                0.836952842      175.101877
9.237                0.836800956      174.701324
9.238                0.836649502       174.30083
9.239                0.836498793      173.900405
9.24                 0.836349097      173.500063
9.241                0.836200641      173.099814
9.242                0.836053622      172.699668
9.243                0.835908207      172.299636
9.244                0.835764543      171.899726
9.245                0.835622759      171.499949
9.246                0.835482964      171.100314
9.247                0.835345259      170.700829
9.248                0.835209731      170.301503
9.249                0.835076457      169.902346
9.25                 0.834945506      169.503366
9.251                0.834816941      169.104573
9.252                0.834690816      168.705975
9.253                0.834567184      168.307581
9.254                0.834446088        167.9094
9.255                 0.83432757      167.511441
9.256                0.834211668      167.113712
9.257                0.834098415      166.716223
9.258                0.833987844      166.318983
9.259                0.833879981      165.921999
9.26                 0.833774854      165.525282
9.261                0.833672485      165.128839
9.262                0.833572898       164.73268
9.263                0.833476111      164.336814
9.264                0.833382143      163.941248
9.265                0.833291011      163.545992
9.266                0.833202729      163.151055
9.267                0.833117313      162.756445
9.268                0.833034775       162.36217
9.269                0.832955125       161.96824
9.27                 0.832878376      161.574662
9.271                0.832804536      161.181446
9.272                0.832733613        160.7886
9.273                0.832665616      160.396132
9.274                0.832600551       160.00405
9.275                0.832538424      159.612364
9.276                 0.83247924      159.221081
9.277                0.832423003      158.830209
9.278                0.832369718      158.439758
9.279                0.832319386      158.049734
9.28                 0.832272011      157.660146
9.281                0.832227594      157.271002
9.282                0.832186136      156.882311
9.283                0.832147637      156.494079
9.284                0.832112098      156.106315
9.285                0.832079517      155.719027
9.286                0.832049894      155.332222
9.287                0.832023226      154.945909
9.288                0.831999511      154.560094
9.289                0.831978747      154.174786
9.29                  0.83196093      153.789991
9.291                0.831946056      153.405718
9.292                0.831934122      153.021974
9.293                0.831925121      152.638765
9.294                0.831919051        152.2561
9.295                0.831915904      151.873986
9.296                0.831915674      151.492429
9.297                0.831918357      151.111437
9.298                0.831923943      150.731016
9.299                0.831932427      150.351174
9.3                  0.831943801      149.971918
9.301                0.831958057      149.593253
9.302                0.831975186      149.215188
9.303                 0.83199518      148.837727
9.304                 0.83201803      148.460879
9.305                0.832043726       148.08465
9.306                0.832072258      147.709045
9.307                0.832103617      147.334071
9.308                0.832137793      146.959735
9.309                0.832174773      146.586042
9.31                 0.832214548      146.212999
9.311                0.832257106      145.840612
9.312                0.832302435      145.468887
9.313                0.832350524      145.097828
9.314                0.832401359      144.727444
9.315                 0.83245493      144.357738
9.316                0.832511222      143.988717
9.317                0.832570223      143.620386
9.318                 0.83263192      143.252751
9.319                0.832696299      142.885816
9.32                 0.832763346      142.519588
9.321                0.832833047      142.154072
9.322                0.832905388      141.789272
9.323                0.832980355      141.425195
9.324                0.833057932      141.061844
9.325                0.833138105      140.699224
9.326                0.833220858      140.337341
9.327                0.833306176        139.9762
9.328                0.833394044      139.615804
9.329                0.833484446       139.25616
9.33                 0.833577366       138.89727
9.331                0.833672787      138.539139
9.332                0.833770694      138.181773
9.333                0.833871069      137.825175
9.334                0.833973897      137.469349
9.335                 0.83407916      137.114299
9.336                0.834186842       136.76003
9.337                0.834296925      136.406546
9.338                0.834409392       136.05385
9.339                0.834524226      135.701946
9.34                 0.834641408      135.350838
9.341                0.834760923      135.000529
9.342                 0.83488275      134.651024
9.343                0.835006874      134.302325
9.344                0.835133275      133.954437
9.345                0.835261935      133.607361
9.346                0.835392837      133.261102
9.347                0.835525962      132.915663
9.348                0.835661291      132.571047
9.349                0.835798806      132.227257
9.35                 0.835938489      131.884296
9.351                 0.83608032      131.542166
9.352                0.836224281      131.200872
9.353                0.836370353      130.860414
9.354                0.836518517      130.520797
9.355                0.836668754      130.182022
9.356                0.836821045      129.844092
9.357                0.836975372      129.507009
9.358                0.837131714      129.170777
9.359                0.837290053      128.835396
9.36                 0.837450369      128.500871
9.361                0.837612643      128.167201
9.362                0.837776857      127.834391
9.363                 0.83794299      127.502441
9.364                0.838111023      127.171353
9.365                0.838280938       126.84113
9.366                0.838452714      126.511774
9.367                0.838626332      126.183285
9.368                0.838801772      125.855666
9.369                0.838979017      125.528919
9.37                 0.839158045      125.203044
9.371                0.839338837      124.878043
9.372                0.839521375      124.553919
9.373                0.839705639      124.230671
9.374                0.839891609      123.908302
9.375                0.840079266      123.586812
9.376                 0.84026859      123.266203
9.377                0.840459563      122.946476
9.378                0.840652165      122.627632
9.379                0.840846377      122.309671
9.38                  0.84104218      121.992595
9.381                0.841239553      121.676405
9.382                0.841438479      121.361101
9.383                0.841638938      121.046684
9.384                0.841840912      120.733155
9.385                0.842044379      120.420514
9.386                0.842249323      120.108762
9.387                0.842455724        119.7979
9.388                0.842663563      119.487927
9.389                0.842872822      119.178844
9.39                 0.843083481      118.870653
9.391                0.843295521      118.563351
9.392                0.843508925      118.256941
9.393                0.843723673      117.951423
9.394                0.843939748      117.646795
9.395                 0.84415713      117.343059
9.396                0.844375801      117.040215
