! TOUCHSTONE file generated by CST DESIGN STUDIO
! Date and time: Tue Feb  4 12:52:42 2025
! Project name: C:\Work\MatlabApps\UnitCellOptimizationMatlab\CST\unitcell.cst
! Tree item: Tasks\Sweep1\SPara1\S-Parameters
! Header version: 2024
! Port assignment regex: !\s*Touchstone port\s*([0-9]+)\s*=\s*(CST MWS port|CST DES external port|CST DES block port)\s*(.+)\s* \(\"(.*)\"\)(\s*mode\s*([0-9]+))?.*
! Touchstone port assignment:
! Touchstone port 1 = CST DES external port 1 ("")
# GHz S MA R 50
9                    0.871032209     -126.483215
9.001                 0.87083546      -126.79896
9.002                0.870638278     -127.115698
9.003                0.870440672     -127.433429
9.004                 0.87024265     -127.752153
9.005                0.870044222     -128.071868
9.006                0.869845396     -128.392574
9.007                0.869646183     -128.714271
9.008                0.869446591     -129.036957
9.009                 0.86924663     -129.360632
9.01                  0.86904631     -129.685295
9.011                0.868845641     -130.010944
9.012                0.868644633      -130.33758
9.013                0.868443298     -130.665199
9.014                0.868241644     -130.993803
9.015                0.868039684     -131.323388
9.016                0.867837428     -131.653954
9.017                0.867634888       -131.9855
9.018                0.867432074     -132.318023
9.019                0.867228999     -132.651523
9.02                 0.867025674     -132.985997
9.021                0.866822111     -133.321445
9.022                0.866618323     -133.657863
9.023                 0.86641432     -133.995251
9.024                0.866210118     -134.333606
9.025                0.866005726     -134.672926
9.026                 0.86580116     -135.013209
9.027                0.865596431     -135.354453
9.028                0.865391554     -135.696656
9.029                0.865186541     -136.039816
9.03                 0.864981406     -136.383929
9.031                0.864776164     -136.728993
9.032                0.864570827     -137.075007
9.033                 0.86436541     -137.421966
9.034                0.864159929     -137.769869
9.035                0.863954396     -138.118712
9.036                0.863748827     -138.468493
9.037                0.863543238     -138.819209
9.038                0.863337642     -139.170855
9.039                0.863132056      -139.52343
9.04                 0.862926494      -139.87693
9.041                0.862720973     -140.231352
9.042                0.862515508     -140.586691
9.043                0.862310115     -140.942946
9.044                0.862104811     -141.300111
9.045                0.861899611     -141.658183
9.046                0.861694533     -142.017159
9.047                0.861489592     -142.377034
9.048                0.861284807     -142.737805
9.049                0.861080193     -143.099467
9.05                 0.860875768     -143.462016
9.051                0.860671549     -143.825449
9.052                0.860467554      -144.18976
9.053                  0.8602638     -144.554945
9.054                0.860060305        -144.921
9.055                0.859857087      -145.28792
9.056                0.859654165       -145.6557
9.057                0.859451555     -146.024336
9.058                0.859249278     -146.393823
9.059                 0.85904735     -146.764154
9.06                 0.858845791     -147.135327
9.061                 0.85864462     -147.507334
9.062                0.858443855     -147.880172
9.063                0.858243515     -148.253834
9.064                 0.85804362     -148.628316
9.065                0.857844189     -149.003611
9.066                0.857645241     -149.379714
9.067                0.857446796     -149.756619
9.068                0.857248873     -150.134321
9.069                0.857051491     -150.512813
9.07                 0.856854672     -150.892089
9.071                0.856658434     -151.272143
9.072                0.856462798      -151.65297
9.073                0.856267784     -152.034562
9.074                0.856073411     -152.416914
9.075                  0.8558797     -152.800019
9.076                0.855686672      -153.18387
9.077                0.855494347      -153.56846
9.078                0.855302745     -153.953783
9.079                0.855111887     -154.339832
9.08                 0.854921793     -154.726601
9.081                0.854732484     -155.114081
9.082                0.854543981     -155.502266
9.083                0.854356305     -155.891148
9.084                0.854169476     -156.280721
9.085                0.853983514     -156.670977
9.086                0.853798442     -157.061908
9.087                 0.85361428     -157.453506
9.088                0.853431048     -157.845765
9.089                0.853248768     -158.238677
9.09                  0.85306746     -158.632233
9.091                0.852887146     -159.026425
9.092                0.852707847     -159.421246
9.093                0.852529582     -159.816688
9.094                0.852352374     -160.212742
9.095                0.852176243       -160.6094
9.096                0.852001211     -161.006653
9.097                0.851827297     -161.404494
9.098                0.851654523     -161.802914
9.099                0.851482909     -162.201904
9.1                  0.851312477     -162.601455
9.101                0.851143247     -163.001559
9.102                 0.85097524     -163.402207
9.103                0.850808476     -163.803391
9.104                0.850642976       -164.2051
9.105                 0.85047876     -164.607326
9.106                0.850315849      -165.01006
9.107                0.850154263     -165.413293
9.108                0.849994022     -165.817015
9.109                0.849835146     -166.221217
9.11                 0.849677656      -166.62589
9.111                0.849521572     -167.031024
9.112                0.849366913      -167.43661
9.113                0.849213698     -167.842638
9.114                0.849061949     -168.249098
9.115                0.848911683     -168.655981
9.116                0.848762921     -169.063277
9.117                0.848615681     -169.470975
9.118                0.848469983     -169.879067
9.119                0.848325845     -170.287542
9.12                 0.848183287     -170.696389
9.121                0.848042327       -171.1056
9.122                0.847902984     -171.515164
9.123                0.847765275      -171.92507
9.124                0.847629219     -172.335308
9.125                0.847494834     -172.745869
9.126                0.847362137     -173.156741
9.127                0.847231147     -173.567915
9.128                 0.84710188     -173.979379
9.129                0.846974353     -174.391124
9.13                 0.846848585     -174.803139
9.131                 0.84672459     -175.215413
9.132                0.846602387     -175.627936
9.133                 0.84648199     -176.040697
9.134                0.846363418     -176.453686
9.135                0.846246684     -176.866891
9.136                0.846131805     -177.280302
9.137                0.846018797     -177.693908
9.138                0.845907674     -178.107698
9.139                0.845798451     -178.521663
9.14                 0.845691143     -178.935789
9.141                0.845585765     -179.350068
9.142                 0.84548233     -179.764487
9.143                0.845380853      179.820963
9.144                0.845281347      179.406295
9.145                0.845183826      178.991518
9.146                0.845088302      178.576645
9.147                0.844994788      178.161685
9.148                0.844903297       177.74665
9.149                0.844813842      177.331551
9.15                 0.844726433      176.916399
9.151                0.844641083      176.501206
9.152                0.844557804      176.085981
9.153                0.844476605      175.670736
9.154                0.844397499      175.255482
9.155                0.844320495      174.840231
9.156                0.844245604      174.424992
9.157                0.844172835      174.009778
9.158                0.844102198      173.594599
9.159                0.844033703      173.179466
9.16                 0.843967357      172.764391
9.161                0.843903171      172.349384
9.162                0.843841152      171.934456
9.163                0.843781307      171.519619
9.164                0.843723646      171.104882
9.165                0.843668175      170.690258
9.166                  0.8436149      170.275757
9.167                 0.84356383       169.86139
9.168                0.843514969      169.447168
9.169                0.843468325      169.033101
9.17                 0.843423903      168.619201
9.171                0.843381708      168.205478
9.172                0.843341745      167.791944
9.173                0.843304019      167.378608
9.174                0.843268534      166.965482
9.175                0.843235295      166.552576
9.176                0.843204305      166.139901
9.177                0.843175568      165.727468
9.178                0.843149086      165.315287
9.179                0.843124862      164.903368
9.18                 0.843102899      164.491722
9.181                0.843083199      164.080359
9.182                0.843065764      163.669291
9.183                0.843050594      163.258526
9.184                0.843037692      162.848077
9.185                0.843027057      162.437951
9.186                 0.84301869      162.028161
9.187                0.843012592      161.618716
9.188                0.843008762      161.209626
9.189                0.843007199      160.800901
9.19                 0.843007903      160.392551
9.191                0.843010873      159.984586
9.192                0.843016106      159.577016
9.193                0.843023602       159.16985
9.194                0.843033358      158.763099
9.195                0.843045372      158.356773
9.196                 0.84305964      157.950879
9.197                0.843076161      157.545429
9.198                 0.84309493      157.140431
9.199                0.843115944      156.735896
9.2                  0.843139199      156.331832
9.201                0.843164691      155.928248
9.202                0.843192415      155.525154
9.203                0.843222367      155.122559
9.204                 0.84325454      154.720472
9.205                0.843288931      154.318902
9.206                0.843325533      153.917857
9.207                 0.84336434      153.517347
9.208                0.843405346      153.117381
9.209                0.843448545      152.717966
9.21                 0.843493929      152.319111
9.211                0.843541492      151.920826
9.212                0.843591227      151.523118
9.213                0.843643125      151.125996
9.214                 0.84369718      150.729467
9.215                0.843753382      150.333541
9.216                0.843811725      149.938225
9.217                0.843872198      149.543527
9.218                0.843934794      149.149455
9.219                0.843999503      148.756016
9.22                 0.844066317       148.36322
9.221                0.844135225      147.971072
9.222                0.844206218      147.579581
9.223                0.844279286      147.188755
9.224                0.844354419      146.798599
9.225                0.844431606      146.409123
9.226                0.844510838      146.020333
9.227                0.844592102      145.632236
9.228                0.844675389      145.244838
9.229                0.844760688      144.858148
9.23                 0.844847986      144.472172
9.231                0.844937272      144.086916
9.232                0.845028535      143.702388
9.233                0.845121763      143.318593
9.234                0.845216943      142.935538
9.235                0.845314064       142.55323
9.236                0.845413113      142.171674
9.237                0.845514077      141.790878
9.238                0.845616945      141.410846
9.239                0.845721702      141.031586
9.24                 0.845828336      140.653102
9.241                0.845936835      140.275401
9.242                0.846047184      139.898488
9.243                 0.84615937       139.52237
9.244                0.846273379       139.14705
9.245                0.846389199      138.772536
9.246                0.846506815      138.398831
9.247                0.846626214      138.025943
9.248                0.846747381      137.653874
9.249                0.846870302      137.282631
9.25                 0.846994963      136.912219
9.251                 0.84712135      136.542641
9.252                0.847249448      136.173904
9.253                0.847379243      135.806012
9.254                 0.84751072      135.438969
9.255                0.847643865      135.072779
9.256                0.847778663      134.707448
9.257                0.847915099      134.342979
9.258                0.848053158      133.979377
9.259                0.848192825      133.616645
9.26                 0.848334085      133.254788
9.261                0.848476923       132.89381
9.262                0.848621324      132.533714
9.263                0.848767273      132.174504
9.264                0.848914755      131.816184
9.265                0.849063754      131.458758
9.266                0.849214255      131.102228
9.267                0.849366243      130.746598
9.268                0.849519701      130.391872
9.269                0.849674616      130.038053
9.27                 0.849830971      129.685143
9.271                0.849988751      129.333146
9.272                0.850147941      128.982065
9.273                0.850308525      128.631903
9.274                0.850470487      128.282662
9.275                0.850633813      127.934345
9.276                0.850798485      127.586954
9.277                 0.85096449      127.240493
9.278                0.851131812      126.894963
9.279                0.851300434      126.550367
9.28                 0.851470343      126.206708
9.281                0.851641521      125.863986
9.282                0.851813954      125.522206
9.283                0.851987626      125.181367
9.284                0.852162521      124.841473
9.285                0.852338625      124.502526
9.286                0.852515922      124.164526
9.287                0.852694397      123.827476
9.288                0.852874034      123.491378
9.289                0.853054817      123.156232
9.29                 0.853236733      122.822041
9.291                0.853419765      122.488806
9.292                0.853603898      122.156528
9.293                0.853789118      121.825208
9.294                0.853975409      121.494848
9.295                0.854162755      121.165449
9.296                0.854351143      120.837011
9.297                0.854540557      120.509537
9.298                0.854730982      120.183025
9.299                0.854922404      119.857478
9.3                  0.855114807      119.532897
9.301                0.855308177      119.209281
9.302                  0.8555025      118.886631
9.303                 0.85569776      118.564949
9.304                0.855893943      118.244234
9.305                0.856091035      117.924487
9.306                0.856289021      117.605709
9.307                0.856487888      117.287899
9.308                 0.85668762      116.971058
9.309                0.856888204      116.655186
9.31                 0.857089625      116.340283
9.311                 0.85729187       116.02635
9.312                0.857494924      115.713385
9.313                0.857698774       115.40139
9.314                0.857903406      115.090364
9.315                0.858108806      114.780307
9.316                 0.85831496      114.471218
9.317                0.858521856      114.163097
9.318                0.858729479      113.855945
9.319                0.858937816       113.54976
9.32                 0.859146855      113.244542
9.321                0.859356581      112.940291
9.322                0.859566982      112.637005
9.323                0.859778044      112.334685
9.324                0.859989755       112.03333
9.325                0.860202102      111.732939
9.326                0.860415072      111.433512
9.327                0.860628653      111.135046
9.328                0.860842832      110.837542
9.329                0.861057596      110.540999
9.33                 0.861272933      110.245416
9.331                0.861488832      109.950792
9.332                0.861705279      109.657125
9.333                0.861922262      109.364415
9.334                0.862139771       109.07266
9.335                0.862357792       108.78186
9.336                0.862576314      108.492013
9.337                0.862795326      108.203117
9.338                0.863014815      107.915173
9.339                0.863234771      107.628177
9.34                 0.863455182      107.342129
9.341                0.863676036      107.057028
9.342                0.863897323      106.772872
9.343                0.864119031      106.489659
9.344                0.864341149      106.207388
9.345                0.864563667      105.926058
9.346                0.864786574      105.645667
9.347                0.865009859      105.366212
9.348                0.865233511      105.087694
9.349                 0.86545752      104.810109
9.35                 0.865681876      104.533456
9.351                0.865906568      104.257733
9.352                0.866131587      103.982939
9.353                0.866356921      103.709072
9.354                0.866582561       103.43613
9.355                0.866808498      103.164111
9.356                0.867034721      102.893012
9.357                0.867261221      102.622833
9.358                0.867487987      102.353571
9.359                0.867715012      102.085225
9.36                 0.867942285      101.817791
9.361                0.868169797      101.551269
9.362                0.868397538      101.285655
9.363                0.868625501      101.020949
9.364                0.868853675      100.757147
9.365                0.869082052      100.494248
9.366                0.869310623       100.23225
9.367                0.869539379      99.9711497
9.368                0.869768312      99.7109457
9.369                0.869997413      99.4516355
9.37                 0.870226674       99.193217
9.371                0.870456087      98.9356878
9.372                0.870685643      98.6790456
9.373                0.870915334      98.4232882
9.374                0.871145152      98.1684132
9.375                 0.87137509      97.9144182
9.376                0.871605138      97.6613009
9.377                0.871835291      97.4090589
9.378                0.872065539      97.1576897
9.379                0.872295876      96.9071911
9.38                 0.872526293      96.6575604
9.381                0.872756784      96.4087953
9.382                0.872987341      96.1608933
9.383                0.873217957      95.9138519
9.384                0.873448625      95.6676686
9.385                0.873679338       95.422341
9.386                0.873910088      95.1778664
9.387                 0.87414087      94.9342424
9.388                0.874371676      94.6914663
9.389                0.874602499      94.4495357
9.39                 0.874833334       94.208448
9.391                0.875064172      93.9682005
9.392                0.875295009      93.7287907
9.393                0.875525837       93.490216
9.394                0.875756651      93.2524738
9.395                0.875987444      93.0155613
9.396                 0.87621821      92.7794761
