! TOUCHSTONE file generated by CST DESIGN STUDIO
! Date and time: Tue Feb  4 13:08:15 2025
! Project name: C:\Work\MatlabApps\UnitCellOptimizationMatlab\CST\unitcell.cst
! Tree item: Tasks\Sweep1\SPara1\S-Parameters
! Header version: 2024
! Port assignment regex: !\s*Touchstone port\s*([0-9]+)\s*=\s*(CST MWS port|CST DES external port|CST DES block port)\s*(.+)\s* \(\"(.*)\"\)(\s*mode\s*([0-9]+))?.*
! Touchstone port assignment:
! Touchstone port 1 = CST DES external port 1 ("")
# GHz S MA R 50
9                    0.975179667     -65.2683573
9.001                0.975125947      -65.360612
9.002                0.975072062     -65.4530849
9.003                0.975018011     -65.5457765
9.004                0.974963794     -65.6386875
9.005                 0.97490941     -65.7318187
9.006                0.974854859     -65.8251707
9.007                 0.97480014     -65.9187442
9.008                0.974745252       -66.01254
9.009                0.974690196     -66.1065585
9.01                 0.974634971     -66.2008007
9.011                0.974579576     -66.2952672
9.012                0.974524011     -66.3899586
9.013                0.974468275     -66.4848757
9.014                0.974412367     -66.5800192
9.015                0.974356288     -66.6753898
9.016                0.974300037     -66.7709882
9.017                0.974243613     -66.8668151
9.018                0.974187016     -66.9628713
9.019                0.974130245     -67.0591573
9.02                   0.9740733      -67.155674
9.021                 0.97401618     -67.2524221
9.022                0.973958885     -67.3494023
9.023                0.973901414     -67.4466154
9.024                0.973843767     -67.5440619
9.025                0.973785944     -67.6417428
9.026                0.973727943     -67.7396586
9.027                0.973669764     -67.8378102
9.028                0.973611407     -67.9361983
9.029                0.973552872     -68.0348236
9.03                 0.973494157     -68.1336868
9.031                0.973435262     -68.2327888
9.032                0.973376187     -68.3321301
9.033                0.973316931     -68.4317117
9.034                0.973257494     -68.5315342
9.035                0.973197876     -68.6315984
9.036                0.973138075     -68.7319051
9.037                0.973078091     -68.8324549
9.038                0.973017924     -68.9332487
9.039                0.972957573     -69.0342873
9.04                 0.972897038     -69.1355713
9.041                0.972836318     -69.2371015
9.042                0.972775413     -69.3388788
9.043                0.972714322     -69.4409039
9.044                0.972653045     -69.5431775
9.045                0.972591581     -69.6457005
9.046                0.972529929     -69.7484736
9.047                 0.97246809     -69.8514975
9.048                0.972406062     -69.9547732
9.049                0.972343846     -70.0583013
9.05                  0.97228144     -70.1620826
9.051                0.972218844      -70.266118
9.052                0.972156058     -70.3704082
9.053                0.972093081     -70.4749541
9.054                0.972029913     -70.5797563
9.055                0.971966553     -70.6848158
9.056                   0.971903     -70.7901332
9.057                0.971839255     -70.8957095
9.058                0.971775316     -71.0015454
9.059                0.971711183     -71.1076418
9.06                 0.971646856     -71.2139993
9.061                0.971582334      -71.320619
9.062                0.971517617     -71.4275015
9.063                0.971452703     -71.5346476
9.064                0.971387594     -71.6420583
9.065                0.971322287     -71.7497343
9.066                0.971256783     -71.8576765
9.067                0.971191081     -71.9658856
9.068                0.971125181     -72.0743625
9.069                0.971059082     -72.1831081
9.07                 0.970992783     -72.2921231
9.071                0.970926285     -72.4014085
9.072                0.970859586      -72.510965
9.073                0.970792686     -72.6207934
9.074                0.970725585     -72.7308947
9.075                0.970658282     -72.8412697
9.076                0.970590777     -72.9519192
9.077                0.970523069      -73.062844
9.078                0.970455157     -73.1740451
9.079                0.970387042     -73.2855232
9.08                 0.970318722     -73.3972793
9.081                0.970250198     -73.5093141
9.082                0.970181468     -73.6216286
9.083                0.970112533     -73.7342236
9.084                0.970043391        -73.8471
9.085                0.969974043     -73.9602587
9.086                0.969904487     -74.0737005
9.087                0.969834724     -74.1874262
9.088                0.969764752     -74.3014369
9.089                0.969694572     -74.4157332
9.09                 0.969624183     -74.5303162
9.091                0.969553584     -74.6451867
9.092                0.969482775     -74.7603456
9.093                0.969411756     -74.8757938
9.094                0.969340525     -74.9915322
9.095                0.969269083     -75.1075616
9.096                0.969197429     -75.2238829
9.097                0.969125563     -75.3404971
9.098                0.969053484     -75.4574051
9.099                0.968981191     -75.5746077
9.1                  0.968908685     -75.6921058
9.101                0.968835965     -75.8099004
9.102                 0.96876303     -75.9279924
9.103                0.968689879     -76.0463826
9.104                0.968616513      -76.165072
9.105                0.968542931     -76.2840615
9.106                0.968469133      -76.403352
9.107                0.968395118     -76.5229445
9.108                0.968320885     -76.6428398
9.109                0.968246435     -76.7630388
9.11                 0.968171766     -76.8835426
9.111                0.968096878      -77.004352
9.112                0.968021772     -77.1254679
9.113                0.967946446     -77.2468913
9.114                  0.9678709     -77.3686232
9.115                0.967795133     -77.4906643
9.116                0.967719146     -77.6130158
9.117                0.967642938     -77.7356785
9.118                0.967566508     -77.8586534
9.119                0.967489856     -77.9819414
9.12                 0.967412981     -78.1055435
9.121                0.967335884     -78.2294605
9.122                0.967258564     -78.3536936
9.123                0.967181019     -78.4782435
9.124                0.967103251     -78.6031113
9.125                0.967025258      -78.728298
9.126                0.966947041     -78.8538044
9.127                0.966868598     -78.9796315
9.128                 0.96678993     -79.1057804
9.129                0.966711036     -79.2322519
9.13                 0.966631915     -79.3590471
9.131                0.966552568     -79.4861668
9.132                0.966472993     -79.6136122
9.133                0.966393191     -79.7413841
9.134                0.966313162     -79.8694835
9.135                0.966232904     -79.9979114
9.136                0.966152418     -80.1266688
9.137                0.966071702     -80.2557566
9.138                0.965990758     -80.3851759
9.139                0.965909584     -80.5149276
9.14                  0.96582818     -80.6450127
9.141                0.965746546     -80.7754322
9.142                0.965664682      -80.906187
9.143                0.965582587     -81.0372783
9.144                 0.96550026     -81.1687069
9.145                0.965417702     -81.3004739
9.146                0.965334913     -81.4325802
9.147                0.965251891     -81.5650269
9.148                0.965168637     -81.6978149
9.149                 0.96508515     -81.8309453
9.15                 0.965001431     -81.9644191
9.151                0.964917478     -82.0982372
9.152                0.964833291     -82.2324007
9.153                0.964748871     -82.3669106
9.154                0.964664217     -82.5017678
9.155                0.964579329     -82.6369735
9.156                0.964494206     -82.7725286
9.157                0.964408848     -82.9084341
9.158                0.964323256      -83.044691
9.159                0.964237428     -83.1813004
9.16                 0.964151364     -83.3182633
9.161                0.964065065     -83.4555806
9.162                 0.96397853     -83.5932535
9.163                0.963891759      -83.731283
9.164                0.963804751       -83.86967
9.165                0.963717507     -84.0084156
9.166                0.963630027     -84.1475208
9.167                0.963542309     -84.2869867
9.168                0.963454355     -84.4268142
9.169                0.963366163     -84.5670045
9.17                 0.963277733     -84.7075585
9.171                0.963189067     -84.8484772
9.172                0.963100162     -84.9897618
9.173                 0.96301102     -85.1314132
9.174                0.962921639     -85.2734325
9.175                0.962832021     -85.4158208
9.176                0.962742164     -85.5585789
9.177                0.962652069     -85.7017081
9.178                0.962561736     -85.8452093
9.179                0.962471164     -85.9890836
9.18                 0.962380354     -86.1333321
9.181                0.962289305     -86.2779557
9.182                0.962198017     -86.4229555
9.183                 0.96210649     -86.5683325
9.184                0.962014724     -86.7140879
9.185                 0.96192272     -86.8602226
9.186                0.961830477     -87.0067377
9.187                0.961737994     -87.1536343
9.188                0.961645273     -87.3009134
9.189                0.961552313      -87.448576
9.19                 0.961459113     -87.5966232
9.191                0.961365675      -87.745056
9.192                0.961271998     -87.8938756
9.193                0.961178082     -88.0430829
9.194                0.961083927      -88.192679
9.195                0.960989533      -88.342665
9.196                0.960894901     -88.4930419
9.197                 0.96080003     -88.6438107
9.198                 0.96070492     -88.7949726
9.199                0.960609572     -88.9465285
9.2                  0.960513985     -89.0984796
9.201                 0.96041816     -89.2508269
9.202                0.960322097     -89.4035714
9.203                0.960225795     -89.5567141
9.204                0.960129256     -89.7102563
9.205                 0.96003248     -89.8641988
9.206                0.959935465     -90.0185428
9.207                0.959838213     -90.1732893
9.208                0.959740724     -90.3284394
9.209                0.959642998     -90.4839941
9.21                 0.959545036     -90.6399544
9.211                0.959446836     -90.7963215
9.212                0.959348401     -90.9530964
9.213                0.959249729     -91.1102801
9.214                0.959150822     -91.2678737
9.215                0.959051679     -91.4258783
9.216                0.958952301     -91.5842948
9.217                0.958852688     -91.7431244
9.218                 0.95875284     -91.9023681
9.219                0.958652758      -92.062027
9.22                 0.958552442      -92.222102
9.221                0.958451893     -92.3825943
9.222                 0.95835111     -92.5435049
9.223                0.958250094     -92.7048348
9.224                0.958148846     -92.8665851
9.225                0.958047366     -93.0287568
9.226                0.957945655      -93.191351
9.227                0.957843712     -93.3543688
9.228                0.957741539     -93.5178111
9.229                0.957639135      -93.681679
9.23                 0.957536502     -93.8459735
9.231                0.957433639     -94.0106957
9.232                0.957330548     -94.1758467
9.233                0.957227229     -94.3414274
9.234                0.957123682     -94.5074388
9.235                0.957019907     -94.6738821
9.236                0.956915907     -94.8407582
9.237                 0.95681168     -95.0080683
9.238                0.956707228     -95.1758132
9.239                0.956602551      -95.343994
9.24                 0.956497651     -95.5126118
9.241                0.956392527     -95.6816676
9.242                 0.95628718     -95.8511623
9.243                0.956181611     -96.0210971
9.244                0.956075821     -96.1914728
9.245                 0.95596981     -96.3622907
9.246                 0.95586358     -96.5335515
9.247                 0.95575713     -96.7052564
9.248                0.955650462     -96.8774064
9.249                0.955543577     -97.0500024
9.25                 0.955436475     -97.2230455
9.251                0.955329157     -97.3965367
9.252                0.955221624     -97.5704769
9.253                0.955113877     -97.7448671
9.254                0.955005917     -97.9197084
9.255                0.954897745     -98.0950017
9.256                0.954789361      -98.270748
9.257                0.954680766     -98.4469482
9.258                0.954571962     -98.6236035
9.259                 0.95446295     -98.8007146
9.26                  0.95435373     -98.9782827
9.261                0.954244304     -99.1563086
9.262                0.954134673     -99.3347934
9.263                0.954024837     -99.5137379
9.264                0.953914798     -99.6931432
9.265                0.953804556     -99.8730102
9.266                0.953694114      -100.05334
9.267                0.953583472     -100.234133
9.268                0.953472631     -100.415391
9.269                0.953361593     -100.597114
9.27                 0.953250358     -100.779303
9.271                0.953138929      -100.96196
9.272                0.953027305     -101.145085
9.273                 0.95291549      -101.32868
9.274                0.952803483     -101.512744
9.275                0.952691286     -101.697279
9.276                  0.9525789     -101.882287
9.277                0.952466328     -102.067766
9.278                 0.95235357      -102.25372
9.279                0.952240627     -102.440148
9.28                 0.952127502     -102.627052
9.281                0.952014195     -102.814432
9.282                0.951900709     -103.002289
9.283                0.951787044     -103.190624
9.284                0.951673202     -103.379438
9.285                0.951559185     -103.568732
9.286                0.951444994     -103.758507
9.287                0.951330631     -103.948762
9.288                0.951216098     -104.139501
9.289                0.951101396     -104.330722
9.29                 0.950986526     -104.522427
9.291                0.950871492     -104.714618
9.292                0.950756294     -104.907293
9.293                0.950640934     -105.100455
9.294                0.950525413     -105.294105
9.295                0.950409735     -105.488242
9.296                  0.9502939     -105.682868
9.297                0.950177911     -105.877983
9.298                0.950061769     -106.073589
9.299                0.949945476     -106.269686
9.3                  0.949829034     -106.466275
9.301                0.949712446     -106.663356
9.302                0.949595712     -106.860931
9.303                0.949478836        -107.059
9.304                 0.94936182     -107.257563
9.305                0.949244664     -107.456622
9.306                0.949127373     -107.656177
9.307                0.949009946      -107.85623
9.308                0.948892388     -108.056779
9.309                  0.9487747     -108.257827
9.31                 0.948656883     -108.459374
9.311                0.948538942     -108.661421
9.312                0.948420877     -108.863968
9.313                0.948302691     -109.067016
9.314                0.948184386     -109.270565
9.315                0.948065966     -109.474617
9.316                0.947947431     -109.679171
9.317                0.947828786     -109.884229
9.318                0.947710031     -110.089791
9.319                 0.94759117     -110.295857
9.32                 0.947472205     -110.502429
9.321                0.947353139     -110.709507
9.322                0.947233974      -110.91709
9.323                0.947114712     -111.125181
9.324                0.946995358      -111.33378
9.325                0.946875912     -111.542886
9.326                0.946756378       -111.7525
9.327                0.946636759     -111.962624
9.328                0.946517058     -112.173257
9.329                0.946397276     -112.384401
9.33                 0.946277418     -112.596054
9.331                0.946157485     -112.808219
9.332                0.946037481     -113.020895
9.333                0.945917409     -113.234083
9.334                0.945797271     -113.447783
9.335                0.945677071     -113.661996
9.336                0.945556811     -113.876722
9.337                0.945436496     -114.091961
9.338                0.945316126     -114.307714
9.339                0.945195707     -114.523982
9.34                 0.945075241     -114.740764
9.341                0.944954731     -114.958061
9.342                 0.94483418     -115.175873
9.343                0.944713592     -115.394201
9.344                 0.94459297     -115.613045
9.345                0.944472317     -115.832405
9.346                0.944351637     -116.052281
9.347                0.944230932     -116.272675
9.348                0.944110207     -116.493585
9.349                0.943989465     -116.715012
9.35                 0.943868709     -116.936957
9.351                0.943747942     -117.159419
9.352                0.943627169     -117.382399
9.353                0.943506392     -117.605898
9.354                0.943385616     -117.829914
9.355                0.943264844     -118.054449
9.356                 0.94314408     -118.279502
9.357                0.943023327     -118.505074
9.358                0.942902589     -118.731165
9.359                0.942781871     -118.957774
9.36                 0.942661175     -119.184902
9.361                0.942540505     -119.412549
9.362                0.942419866     -119.640715
9.363                0.942299261     -119.869401
9.364                0.942178694     -120.098605
9.365                0.942058169     -120.328328
9.366                0.941937691      -120.55857
9.367                0.941817262     -120.789331
9.368                0.941696888     -121.020611
9.369                0.941576573     -121.252409
9.37                 0.941456319     -121.484726
9.371                0.941336132     -121.717562
9.372                0.941216016     -121.950917
9.373                0.941095976      -122.18479
9.374                0.940976014     -122.419181
9.375                0.940856136     -122.654089
9.376                0.940736345     -122.889516
9.377                0.940616647      -123.12546
9.378                0.940497045     -123.361922
9.379                0.940377545     -123.598901
9.38                 0.940258149     -123.836397
9.381                0.940138864     -124.074409
9.382                0.940019693     -124.312937
9.383                0.939900641     -124.551982
9.384                0.939781712     -124.791541
9.385                0.939662912     -125.031617
9.386                0.939544244     -125.272207
9.387                0.939425713     -125.513311
9.388                0.939307325     -125.754929
9.389                0.939189083     -125.997061
9.39                 0.939070993     -126.239706
9.391                0.938953059     -126.482864
9.392                0.938835286     -126.726534
9.393                0.938717679     -126.970715
9.394                0.938600243     -127.215407
9.395                0.938482982      -127.46061
9.396                0.938365902     -127.706323
