! TOUCHSTONE file generated by CST DESIGN STUDIO
! Date and time: Tue Feb  4 13:08:17 2025
! Project name: C:\Work\MatlabApps\UnitCellOptimizationMatlab\CST\unitcell.cst
! Tree item: Tasks\Sweep1\SPara1\S-Parameters
! Header version: 2024
! Port assignment regex: !\s*Touchstone port\s*([0-9]+)\s*=\s*(CST MWS port|CST DES external port|CST DES block port)\s*(.+)\s* \(\"(.*)\"\)(\s*mode\s*([0-9]+))?.*
! Touchstone port assignment:
! Touchstone port 1 = CST DES external port 1 ("")
# GHz S MA R 50
9                    0.975515831     -62.8416858
9.001                0.975464684     -62.9289714
9.002                0.975413382     -63.0164603
9.003                0.975361923     -63.1041531
9.004                0.975310309     -63.1920504
9.005                0.975258537      -63.280153
9.006                0.975206609     -63.3684614
9.007                0.975154522     -63.4569763
9.008                0.975102277     -63.5456984
9.009                0.975049874     -63.6346282
9.01                 0.974997311     -63.7237664
9.011                0.974944588     -63.8131137
9.012                0.974891705     -63.9026707
9.013                0.974838661     -63.9924381
9.014                0.974785456     -64.0824166
9.015                0.974732089     -64.1726067
9.016                 0.97467856     -64.2630092
9.017                0.974624869     -64.3536248
9.018                0.974571013      -64.444454
9.019                0.974516995     -64.5354976
9.02                 0.974462812     -64.6267562
9.021                0.974408464     -64.7182305
9.022                0.974353951     -64.8099212
9.023                0.974299272     -64.9018289
9.024                0.974244427     -64.9939544
9.025                0.974189416     -65.0862983
9.026                0.974134237     -65.1788613
9.027                 0.97407889      -65.271644
9.028                0.974023375     -65.3646473
9.029                0.973967691     -65.4578717
9.03                 0.973911839     -65.5513179
9.031                0.973855816     -65.6449867
9.032                0.973799623     -65.7388788
9.033                0.973743259     -65.8329948
9.034                0.973686724     -65.9273354
9.035                0.973630017     -66.0219014
9.036                0.973573138     -66.1166935
9.037                0.973516086     -66.2117123
9.038                0.973458861     -66.3069586
9.039                0.973401462      -66.402433
9.04                 0.973343888     -66.4981364
9.041                 0.97328614     -66.5940694
9.042                0.973228216     -66.6902328
9.043                0.973170117     -66.7866272
9.044                0.973111841     -66.8832534
9.045                0.973053388     -66.9801121
9.046                0.972994758     -67.0772041
9.047                 0.97293595     -67.1745301
9.048                0.972876963     -67.2720907
9.049                0.972817797     -67.3698868
9.05                 0.972758452     -67.4679191
9.051                0.972698927     -67.5661883
9.052                0.972639221     -67.6646952
9.053                0.972579335     -67.7634405
9.054                0.972519266     -67.8624249
9.055                0.972459016     -67.9616493
9.056                0.972398583     -68.0611143
9.057                0.972337967     -68.1608208
9.058                0.972277168     -68.2607694
9.059                0.972216184     -68.3609609
9.06                 0.972155016     -68.4613962
9.061                0.972093662     -68.5620759
9.062                0.972032123     -68.6630008
9.063                0.971970397     -68.7641718
9.064                0.971908485     -68.8655895
9.065                0.971846386     -68.9672547
9.066                0.971784098     -69.0691683
9.067                0.971721623     -69.1713309
9.068                0.971658959     -69.2737434
9.069                0.971596105     -69.3764066
9.07                 0.971533061     -69.4793212
9.071                0.971469828     -69.5824881
9.072                0.971406403      -69.685908
9.073                0.971342787     -69.7895817
9.074                0.971278979       -69.89351
9.075                0.971214978     -69.9976937
9.076                0.971150785     -70.1021336
9.077                0.971086398     -70.2068305
9.078                0.971021817     -70.3117852
9.079                0.970957042     -70.4169986
9.08                 0.970892071     -70.5224713
9.081                0.970826905     -70.6282043
9.082                0.970761543     -70.7341984
9.083                0.970695985     -70.8404544
9.084                0.970630229      -70.946973
9.085                0.970564276     -71.0537551
9.086                0.970498125     -71.1608016
9.087                0.970431775     -71.2681132
9.088                0.970365225     -71.3756908
9.089                0.970298477     -71.4835353
9.09                 0.970231528     -71.5916473
9.091                0.970164378     -71.7000279
9.092                0.970097027     -71.8086778
9.093                0.970029475     -71.9175979
9.094                 0.96996172     -72.0267889
9.095                0.969893763     -72.1362518
9.096                0.969825602     -72.2459875
9.097                0.969757238     -72.3559966
9.098                 0.96968867     -72.4662802
9.099                0.969619896      -72.576839
9.1                  0.969550918      -72.687674
9.101                0.969481734     -72.7987859
9.102                0.969412343     -72.9101756
9.103                0.969342746     -73.0218441
9.104                0.969272941     -73.1337921
9.105                0.969202929     -73.2460205
9.106                0.969132709     -73.3585303
9.107                 0.96906228     -73.4713222
9.108                0.968991641     -73.5843972
9.109                0.968920793     -73.6977561
9.11                 0.968849735     -73.8113998
9.111                0.968778466     -73.9253293
9.112                0.968706986     -74.0395453
9.113                0.968635294     -74.1540487
9.114                 0.96856339     -74.2688406
9.115                0.968491274     -74.3839217
9.116                0.968418944     -74.4992929
9.117                0.968346401     -74.6149552
9.118                0.968273643     -74.7309094
9.119                0.968200671     -74.8471565
9.12                 0.968127484     -74.9636973
9.121                0.968054082     -75.0805328
9.122                0.967980463     -75.1976638
9.123                0.967906628     -75.3150913
9.124                0.967832576     -75.4328162
9.125                0.967758307     -75.5508394
9.126                 0.96768382     -75.6691619
9.127                0.967609115     -75.7877845
9.128                0.967534191     -75.9067081
9.129                0.967459047     -76.0259337
9.13                 0.967383684     -76.1454623
9.131                0.967308101     -76.2652947
9.132                0.967232298     -76.3854318
9.133                0.967156273     -76.5058747
9.134                0.967080027     -76.6266243
9.135                0.967003559     -76.7476814
9.136                0.966926868      -76.869047
9.137                0.966849955     -76.9907221
9.138                0.966772819     -77.1127077
9.139                0.966695459     -77.2350045
9.14                 0.966617874     -77.3576137
9.141                0.966540066     -77.4805362
9.142                0.966462032     -77.6037729
9.143                0.966383774     -77.7273247
9.144                0.966305289     -77.8511927
9.145                0.966226578     -77.9753778
9.146                0.966147641     -78.0998809
9.147                0.966068477      -78.224703
9.148                0.965989085     -78.3498451
9.149                0.965909465     -78.4753082
9.15                 0.965829618     -78.6010932
9.151                0.965749542     -78.7272011
9.152                0.965669237     -78.8536328
9.153                0.965588702     -78.9803894
9.154                0.965507938     -79.1074718
9.155                0.965426944      -79.234881
9.156                0.965345719     -79.3626181
9.157                0.965264264     -79.4906838
9.158                0.965182577     -79.6190794
9.159                0.965100659     -79.7478057
9.16                 0.965018509     -79.8768637
9.161                0.964936126     -80.0062545
9.162                0.964853511      -80.135979
9.163                0.964770663     -80.2660382
9.164                0.964687582     -80.3964332
9.165                0.964604267     -80.5271648
9.166                0.964520719     -80.6582342
9.167                0.964436936     -80.7896423
9.168                0.964352918     -80.9213902
9.169                0.964268666     -81.0534788
9.17                 0.964184178     -81.1859091
9.171                0.964099455     -81.3186822
9.172                0.964014496     -81.4517991
9.173                0.963929301     -81.5852608
9.174                0.963843869     -81.7190683
9.175                0.963758201     -81.8532226
9.176                0.963672296     -81.9877248
9.177                0.963586154     -82.1225758
9.178                0.963499774     -82.2577768
9.179                0.963413157     -82.3933286
9.18                 0.963326301     -82.5292324
9.181                0.963239208     -82.6654892
9.182                0.963151875     -82.8020999
9.183                0.963064305     -82.9390657
9.184                0.962976495     -83.0763876
9.185                0.962888446     -83.2140665
9.186                0.962800158     -83.3521036
9.187                 0.96271163     -83.4904999
9.188                0.962622862     -83.6292564
9.189                0.962533855     -83.7683741
9.19                 0.962444607     -83.9078541
9.191                0.962355119     -84.0476975
9.192                 0.96226539     -84.1879052
9.193                0.962175421     -84.3284784
9.194                0.962085211      -84.469418
9.195                 0.96199476     -84.6107252
9.196                0.961904068     -84.7524009
9.197                0.961813134     -84.8944462
9.198                0.961721959     -85.0368623
9.199                0.961630543       -85.17965
9.2                  0.961538885     -85.3228105
9.201                0.961446985     -85.4663449
9.202                0.961354844     -85.6102541
9.203                 0.96126246     -85.7545393
9.204                0.961169835     -85.8992015
9.205                0.961076968     -86.0442418
9.206                0.960983858     -86.1896611
9.207                0.960890506     -86.3354607
9.208                0.960796912     -86.4816415
9.209                0.960703076     -86.6282046
9.21                 0.960608997     -86.7751511
9.211                0.960514676      -86.922482
9.212                0.960420113     -87.0701984
9.213                0.960325308     -87.2183014
9.214                 0.96023026      -87.366792
9.215                 0.96013497     -87.5156713
9.216                0.960039438     -87.6649404
9.217                0.959943663     -87.8146003
9.218                0.959847647     -87.9646521
9.219                0.959751388     -88.1150969
9.22                 0.959654888     -88.2659357
9.221                0.959558145     -88.4171696
9.222                 0.95946116     -88.5687997
9.223                0.959363934      -88.720827
9.224                0.959266467     -88.8732527
9.225                0.959168757     -89.0260777
9.226                0.959070807     -89.1793033
9.227                0.958972615     -89.3329303
9.228                0.958874182     -89.4869599
9.229                0.958775508     -89.6413933
9.23                 0.958676594     -89.7962313
9.231                0.958577439     -89.9514752
9.232                0.958478044      -90.107126
9.233                0.958378409     -90.2631847
9.234                0.958278534     -90.4196524
9.235                0.958178419     -90.5765303
9.236                0.958078065     -90.7338193
9.237                0.957977472     -90.8915206
9.238                0.957876641     -91.0496351
9.239                 0.95777557     -91.2081641
9.24                 0.957674262     -91.3671085
9.241                0.957572716     -91.5264694
9.242                0.957470932     -91.6862479
9.243                0.957368911      -91.846445
9.244                0.957266654     -92.0070618
9.245                 0.95716416     -92.1680994
9.246                 0.95706143     -92.3295589
9.247                0.956958464     -92.4914413
9.248                0.956855263     -92.6537476
9.249                0.956751828      -92.816479
9.25                 0.956648158     -92.9796365
9.251                0.956544255     -93.1432211
9.252                0.956440118     -93.3072339
9.253                0.956335748     -93.4716761
9.254                0.956231146     -93.6365485
9.255                0.956126312     -93.8018523
9.256                0.956021246     -93.9675885
9.257                 0.95591595     -94.1337583
9.258                0.955810424     -94.3003625
9.259                0.955704669     -94.4674024
9.26                 0.955598684     -94.6348788
9.261                0.955492471      -94.802793
9.262                0.955386031     -94.9711459
9.263                0.955279363     -95.1399385
9.264                 0.95517247     -95.3091719
9.265                 0.95506535     -95.4788472
9.266                0.954958006     -95.6489654
9.267                0.954850437     -95.8195274
9.268                0.954742645     -95.9905344
9.269                 0.95463463     -96.1619874
9.27                 0.954526394     -96.3338874
9.271                0.954417936     -96.5062354
9.272                0.954309258     -96.6790324
9.273                 0.95420036     -96.8522795
9.274                0.954091244     -97.0259777
9.275                0.953981911     -97.2001279
9.276                 0.95387236     -97.3747313
9.277                0.953762593     -97.5497888
9.278                0.953652612     -97.7253014
9.279                0.953542416     -97.9012702
9.28                 0.953432008      -98.077696
9.281                0.953321387       -98.25458
9.282                0.953210556     -98.4319231
9.283                0.953099514     -98.6097263
9.284                0.952988263     -98.7879905
9.285                0.952876805     -98.9667169
9.286                 0.95276514     -99.1459062
9.287                0.952653269     -99.3255596
9.288                0.952541193     -99.5056781
9.289                0.952428914     -99.6862624
9.29                 0.952316433     -99.8673137
9.291                0.952203752     -100.048833
9.292                 0.95209087     -100.230821
9.293                 0.95197779     -100.413279
9.294                0.951864512     -100.596207
9.295                0.951751039     -100.779607
9.296                0.951637371      -100.96348
9.297                 0.95152351     -101.147827
9.298                0.951409457     -101.332648
9.299                0.951295213     -101.517944
9.3                   0.95118078     -101.703716
9.301                 0.95106616     -101.889966
9.302                0.950951353     -102.076694
9.303                0.950836362     -102.263901
9.304                0.950721187     -102.451588
9.305                0.950605831     -102.639756
9.306                0.950490294     -102.828406
9.307                0.950374579     -103.017538
9.308                0.950258687     -103.207154
9.309                 0.95014262     -103.397254
9.31                 0.950026379     -103.587839
9.311                0.949909966      -103.77891
9.312                0.949793383     -103.970468
9.313                0.949676631     -104.162514
9.314                0.949559712     -104.355049
9.315                0.949442629     -104.548073
9.316                0.949325382     -104.741587
9.317                0.949207974     -104.935593
9.318                0.949090406      -105.13009
9.319                0.948972681      -105.32508
9.32                 0.948854801     -105.520564
9.321                0.948736766     -105.716542
9.322                 0.94861858     -105.913015
9.323                0.948500244     -106.109984
9.324                 0.94838176     -106.307449
9.325                0.948263131     -106.505412
9.326                0.948144358     -106.703873
9.327                0.948025444     -106.902833
9.328                 0.94790639     -107.102293
9.329                0.947787199     -107.302253
9.33                 0.947667874     -107.502714
9.331                0.947548415     -107.703677
9.332                0.947428827     -107.905142
9.333                 0.94730911     -108.107111
9.334                0.947189267     -108.309583
9.335                0.947069301      -108.51256
9.336                0.946949214     -108.716043
9.337                0.946829008     -108.920031
9.338                0.946708685     -109.124526
9.339                0.946588249     -109.329528
9.34                 0.946467702     -109.535037
9.341                0.946347046     -109.741056
9.342                0.946226284     -109.947583
9.343                0.946105418      -110.15462
9.344                0.945984452     -110.362167
9.345                0.945863387     -110.570226
9.346                0.945742226     -110.778795
9.347                0.945620972     -110.987877
9.348                0.945499629     -111.197471
9.349                0.945378198     -111.407578
9.35                 0.945256682     -111.618199
9.351                0.945135085     -111.829334
9.352                0.945013408     -112.040983
9.353                0.944891656     -112.253148
9.354                0.944769831     -112.465828
9.355                0.944647936     -112.679025
9.356                0.944525973     -112.892738
9.357                0.944403947     -113.106968
9.358                 0.94428186     -113.321715
9.359                0.944159715     -113.536981
9.36                 0.944037515     -113.752764
9.361                0.943915264     -113.969067
9.362                0.943792964     -114.185888
9.363                 0.94367062     -114.403229
9.364                0.943548233      -114.62109
9.365                0.943425808      -114.83947
9.366                0.943303348     -115.058372
9.367                0.943180856     -115.277794
9.368                0.943058336     -115.497737
9.369                 0.94293579     -115.718202
9.37                 0.942813224     -115.939189
9.371                0.942690639     -116.160697
9.372                0.942568039     -116.382728
9.373                0.942445429     -116.605281
9.374                0.942322811     -116.828357
9.375                 0.94220019     -117.051956
9.376                0.942077569     -117.276078
9.377                0.941954951     -117.500723
9.378                0.941832341     -117.725892
9.379                0.941709742     -117.951585
9.38                 0.941587158     -118.177801
9.381                0.941464593     -118.404541
9.382                 0.94134205     -118.631805
9.383                0.941219534     -118.859593
9.384                0.941097049     -119.087905
9.385                0.940974598     -119.316742
9.386                0.940852186     -119.546103
9.387                0.940729816     -119.775988
9.388                0.940607493     -120.006397
9.389                0.940485221     -120.237331
9.39                 0.940363004     -120.468789
9.391                0.940240846     -120.700771
9.392                0.940118751     -120.933278
9.393                0.939996723     -121.166308
9.394                0.939874767     -121.399863
9.395                0.939752888     -121.633941
9.396                0.939631089     -121.868543
