! TOUCHSTONE file generated by CST DESIGN STUDIO
! Date and time: Tue Feb  4 13:08:11 2025
! Project name: C:\Work\MatlabApps\UnitCellOptimizationMatlab\CST\unitcell.cst
! Tree item: Tasks\Sweep1\SPara1\S-Parameters
! Header version: 2024
! Port assignment regex: !\s*Touchstone port\s*([0-9]+)\s*=\s*(CST MWS port|CST DES external port|CST DES block port)\s*(.+)\s* \(\"(.*)\"\)(\s*mode\s*([0-9]+))?.*
! Touchstone port assignment:
! Touchstone port 1 = CST DES external port 1 ("")
# GHz S MA R 50
9                    0.974263662     -72.3695591
9.001                0.974202319      -72.477374
9.002                 0.97414079     -72.5854538
9.003                0.974079074     -72.6937994
9.004                 0.97401717     -72.8024116
9.005                0.973955079     -72.9112911
9.006                0.973892799     -73.0204389
9.007                0.973830331     -73.1298557
9.008                0.973767673     -73.2395423
9.009                0.973704826     -73.3494996
9.01                 0.973641788     -73.4597285
9.011                 0.97357856     -73.5702296
9.012                 0.97351514      -73.681004
9.013                0.973451528     -73.7920523
9.014                0.973387725     -73.9033755
9.015                0.973323729     -74.0149744
9.016                0.973259539     -74.1268498
9.017                0.973195156     -74.2390026
9.018                0.973130579     -74.3514336
9.019                0.973065808     -74.4641437
9.02                 0.973000841     -74.5771336
9.021                0.972935679     -74.6904044
9.022                0.972870321     -74.8039568
9.023                0.972804766     -74.9177916
9.024                0.972739014     -75.0319098
9.025                0.972673066     -75.1463122
9.026                0.972606919     -75.2609997
9.027                0.972540574     -75.3759731
9.028                 0.97247403     -75.4912333
9.029                0.972407287     -75.6067812
9.03                 0.972340344     -75.7226176
9.031                0.972273201     -75.8387434
9.032                0.972205858     -75.9551596
9.033                0.972138313     -76.0718669
9.034                0.972070567     -76.1888662
9.035                0.972002619     -76.3061585
9.036                0.971934469     -76.4237447
9.037                0.971866115     -76.5416255
9.038                0.971797559     -76.6598019
9.039                0.971728798     -76.7782749
9.04                 0.971659834     -76.8970452
9.041                0.971590664     -77.0161138
9.042                 0.97152129     -77.1354816
9.043                 0.97145171     -77.2551495
9.044                0.971381924     -77.3751183
9.045                0.971311932     -77.4953891
9.046                0.971241733     -77.6159626
9.047                0.971171327     -77.7368399
9.048                0.971100713     -77.8580217
9.049                 0.97102989     -77.9795091
9.05                  0.97095886     -78.1013029
9.051                 0.97088762     -78.2234041
9.052                0.970816171     -78.3458136
9.053                0.970744513     -78.4685322
9.054                0.970672644      -78.591561
9.055                0.970600564     -78.7149008
9.056                0.970528274     -78.8385526
9.057                0.970455772     -78.9625173
9.058                0.970383058     -79.0867958
9.059                0.970310132     -79.2113891
9.06                 0.970236994     -79.3362981
9.061                0.970163643     -79.4615237
9.062                0.970090078     -79.5870669
9.063                0.970016299     -79.7129286
9.064                0.969942306     -79.8391098
9.065                0.969868099     -79.9656113
9.066                0.969793677     -80.0924342
9.067                 0.96971904     -80.2195794
9.068                0.969644187     -80.3470478
9.069                0.969569118     -80.4748404
9.07                 0.969493832     -80.6029581
9.071                 0.96941833      -80.731402
9.072                0.969342611     -80.8601729
9.073                0.969266674     -80.9892718
9.074                 0.96919052     -81.1186997
9.075                0.969114147     -81.2484575
9.076                0.969037556     -81.3785462
9.077                0.968960747     -81.5089667
9.078                0.968883718     -81.6397201
9.079                0.968806469     -81.7708073
9.08                 0.968729001     -81.9022293
9.081                0.968651313      -82.033987
9.082                0.968573405     -82.1660814
9.083                0.968495276     -82.2985135
9.084                0.968416925     -82.4312843
9.085                0.968338354     -82.5643947
9.086                0.968259561     -82.6978457
9.087                0.968180546     -82.8316383
9.088                0.968101308     -82.9657735
9.089                0.968021849     -83.1002523
9.09                 0.967942166     -83.2350756
9.091                0.967862261     -83.3702445
9.092                0.967782132     -83.5057598
9.093                 0.96770178     -83.6416227
9.094                0.967621204     -83.7778342
9.095                0.967540404     -83.9143951
9.096                 0.96745938     -84.0513065
9.097                0.967378131     -84.1885694
9.098                0.967296657     -84.3261848
9.099                0.967214959     -84.4641536
9.1                  0.967133035      -84.602477
9.101                0.967050886     -84.7411558
9.102                0.966968512     -84.8801911
9.103                0.966885911     -85.0195839
9.104                0.966803085     -85.1593352
9.105                0.966720032      -85.299446
9.106                0.966636753     -85.4399172
9.107                0.966553248       -85.58075
9.108                0.966469515     -85.7219453
9.109                0.966385556     -85.8635041
9.11                  0.96630137     -86.0054274
9.111                0.966216957     -86.1477163
9.112                0.966132316     -86.2903717
9.113                0.966047448     -86.4333947
9.114                0.965962352     -86.5767863
9.115                0.965877029     -86.7205475
9.116                0.965791477     -86.8646792
9.117                0.965705698     -87.0091826
9.118                0.965619691     -87.1540586
9.119                0.965533456     -87.2993083
9.12                 0.965446992     -87.4449327
9.121                0.965360301     -87.5909327
9.122                0.965273381     -87.7373095
9.123                0.965186232     -87.8840639
9.124                0.965098855     -88.0311972
9.125                 0.96501125     -88.1787102
9.126                0.964923416     -88.3266039
9.127                0.964835354     -88.4748795
9.128                0.964747063      -88.623538
9.129                0.964658543     -88.7725802
9.13                 0.964569795     -88.9220074
9.131                0.964480819     -89.0718205
9.132                0.964391614     -89.2220204
9.133                 0.96430218     -89.3726084
9.134                0.964212518     -89.5235852
9.135                0.964122628     -89.6749521
9.136                0.964032509       -89.82671
9.137                0.963942162     -89.9788599
9.138                0.963851587     -90.1314029
9.139                0.963760784       -90.28434
9.14                 0.963669752     -90.4376722
9.141                0.963578493     -90.5914005
9.142                0.963487006      -90.745526
9.143                0.963395292     -90.9000496
9.144                 0.96330335     -91.0549724
9.145                0.963211181     -91.2102955
9.146                0.963118784     -91.3660198
9.147                 0.96302616     -91.5221463
9.148                 0.96293331     -91.6786762
9.149                0.962840233     -91.8356103
9.15                  0.96274693     -91.9929498
9.151                  0.9626534     -92.1506956
9.152                0.962559645     -92.3088487
9.153                0.962465663     -92.4674103
9.154                0.962371457     -92.6263812
9.155                0.962277025     -92.7857625
9.156                0.962182368     -92.9455553
9.157                0.962087486     -93.1057605
9.158                0.961992381     -93.2663791
9.159                0.961897051     -93.4274123
9.16                 0.961801497     -93.5888609
9.161                0.961705721      -93.750726
9.162                0.961609721     -93.9130085
9.163                0.961513499     -94.0757096
9.164                0.961417054     -94.2388302
9.165                0.961320388     -94.4023713
9.166                  0.9612235     -94.5663339
9.167                0.961126391     -94.7307191
9.168                0.961029062     -94.8955277
9.169                0.960931512     -95.0607609
9.17                 0.960833743     -95.2264196
9.171                0.960735755     -95.3925048
9.172                0.960637548     -95.5590175
9.173                0.960539123     -95.7259587
9.174                 0.96044048     -95.8933294
9.175                0.960341621     -96.0611305
9.176                0.960242544     -96.2293632
9.177                0.960143252     -96.3980282
9.178                0.960043744     -96.5671267
9.179                0.959944022     -96.7366596
9.18                 0.959844086     -96.9066279
9.181                0.959743936     -97.0770325
9.182                0.959643573     -97.2478745
9.183                0.959542998     -97.4191547
9.184                0.959442211     -97.5908742
9.185                0.959341214      -97.763034
9.186                0.959240006     -97.9356349
9.187                0.959138589      -98.108678
9.188                0.959036964     -98.2821642
9.189                 0.95893513     -98.4560945
9.19                  0.95883309     -98.6304697
9.191                0.958730843     -98.8052909
9.192                0.958628391      -98.980559
9.193                0.958525734      -99.156275
9.194                0.958422873     -99.3324397
9.195                 0.95831981     -99.5090541
9.196                0.958216544     -99.6861192
9.197                0.958113078     -99.8636358
9.198                0.958009411     -100.041605
9.199                0.957905545     -100.220027
9.2                  0.957801481     -100.398904
9.201                 0.95769722     -100.578236
9.202                0.957592762     -100.758025
9.203                0.957488109      -100.93827
9.204                0.957383262     -101.118973
9.205                0.957278222     -101.300135
9.206                 0.95717299     -101.481757
9.207                0.957067567     -101.663839
9.208                0.956961954     -101.846383
9.209                0.956856152     -102.029389
9.21                 0.956750163     -102.212859
9.211                0.956643988     -102.396792
9.212                0.956537627     -102.581191
9.213                0.956431083     -102.766055
9.214                0.956324356     -102.951386
9.215                0.956217447     -103.137185
9.216                0.956110359     -103.323451
9.217                0.956003092     -103.510188
9.218                0.955895647     -103.697394
9.219                0.955788027     -103.885071
9.22                 0.955680231     -104.073219
9.221                0.955572263      -104.26184
9.222                0.955464123     -104.450935
9.223                0.955355812     -104.640503
9.224                0.955247332     -104.830547
9.225                0.955138685     -105.021066
9.226                0.955029872     -105.212062
9.227                0.954920895     -105.403534
9.228                0.954811755     -105.595485
9.229                0.954702454     -105.787915
9.23                 0.954592993     -105.980824
9.231                0.954483374     -106.174213
9.232                0.954373599     -106.368084
9.233                0.954263669     -106.562436
9.234                0.954153587     -106.757271
9.235                0.954043353     -106.952589
9.236                 0.95393297      -107.14839
9.237                0.953822439     -107.344677
9.238                0.953711762     -107.541449
9.239                0.953600942     -107.738706
9.24                 0.953489979     -107.936451
9.241                0.953378876     -108.134683
9.242                0.953267635     -108.333403
9.243                0.953156258     -108.532611
9.244                0.953044746     -108.732309
9.245                0.952933101     -108.932497
9.246                0.952821327     -109.133176
9.247                0.952709423     -109.334346
9.248                0.952597394     -109.536007
9.249                 0.95248524     -109.738161
9.25                 0.952372965     -109.940809
9.251                0.952260569      -110.14395
9.252                0.952148056     -110.347585
9.253                0.952035427     -110.551715
9.254                0.951922685      -110.75634
9.255                0.951809832     -110.961462
9.256                 0.95169687      -111.16708
9.257                0.951583801     -111.373194
9.258                0.951470629     -111.579807
9.259                0.951357355     -111.786917
9.26                 0.951243981     -111.994526
9.261                0.951130511     -112.202634
9.262                0.951016946     -112.411241
9.263                0.950903289     -112.620349
9.264                0.950789543     -112.829957
9.265                 0.95067571     -113.040066
9.266                0.950561792     -113.250676
9.267                0.950447793     -113.461787
9.268                0.950333715     -113.673402
9.269                 0.95021956     -113.885518
9.27                 0.950105331     -114.098138
9.271                0.949991032     -114.311261
9.272                0.949876664     -114.524887
9.273                 0.94976223     -114.739018
9.274                0.949647734     -114.953653
9.275                0.949533178     -115.168793
9.276                0.949418565     -115.384438
9.277                0.949303897     -115.600588
9.278                0.949189179     -115.817244
9.279                0.949074412     -116.034406
9.28                   0.9489596     -116.252074
9.281                0.948844746     -116.470248
9.282                0.948729852     -116.688929
9.283                0.948614923     -116.908117
9.284                 0.94849996     -117.127813
9.285                0.948384967     -117.348015
9.286                0.948269948     -117.568726
9.287                0.948154905     -117.789943
9.288                0.948039842     -118.011669
9.289                0.947924761     -118.233903
9.29                 0.947809667     -118.456645
9.291                0.947694562     -118.679895
9.292                 0.94757945     -118.903654
9.293                0.947464335      -119.12792
9.294                0.947349219     -119.352696
9.295                0.947234106      -119.57798
9.296                   0.947119     -119.803773
9.297                0.947003903     -120.030074
9.298                0.946888821     -120.256884
9.299                0.946773755     -120.484203
9.3                   0.94665871      -120.71203
9.301                0.946543689     -120.940366
9.302                0.946428697      -121.16921
9.303                0.946313736     -121.398563
9.304                 0.94619881     -121.628424
9.305                0.946083924     -121.858794
9.306                 0.94596908     -122.089671
9.307                0.945854283     -122.321057
9.308                0.945739537     -122.552951
9.309                0.945624845     -122.785352
9.31                 0.945510211     -123.018261
9.311                0.945395639     -123.251677
9.312                0.945281134       -123.4856
9.313                0.945166698      -123.72003
9.314                0.945052337     -123.954967
9.315                0.944938053      -124.19041
9.316                0.944823852     -124.426359
9.317                0.944709738     -124.662813
9.318                0.944595713     -124.899774
9.319                0.944481784     -125.137239
9.32                 0.944367953     -125.375209
9.321                0.944254224     -125.613683
9.322                0.944140604     -125.852661
9.323                0.944027094     -126.092142
9.324                0.943913701     -126.332127
9.325                0.943800427     -126.572614
9.326                0.943687278     -126.813603
9.327                0.943574258     -127.055094
9.328                0.943461371     -127.297085
9.329                0.943348622     -127.539578
9.33                 0.943236014      -127.78257
9.331                0.943123554     -128.026061
9.332                0.943011244     -128.270052
9.333                 0.94289909      -128.51454
9.334                0.942787097     -128.759526
9.335                0.942675268     -129.005009
9.336                0.942563609     -129.250988
9.337                0.942452123     -129.497463
9.338                0.942340817     -129.744432
9.339                0.942229694     -129.991895
9.34                 0.942118759     -130.239852
9.341                0.942008017     -130.488301
9.342                0.941897473     -130.737241
9.343                0.941787131     -130.986673
9.344                0.941676997     -131.236594
9.345                0.941567075     -131.487004
9.346                0.941457369     -131.737903
9.347                0.941347886     -131.989289
9.348                0.941238629     -132.241161
9.349                0.941129604     -132.493518
9.35                 0.941020816      -132.74636
9.351                 0.94091227     -132.999685
9.352                 0.94080397     -133.253493
9.353                0.940695921     -133.507782
9.354                 0.94058813     -133.762551
9.355                  0.9404806     -134.017799
9.356                0.940373337     -134.273525
9.357                0.940266346     -134.529728
9.358                0.940159632     -134.786406
9.359                  0.9400532     -135.043559
9.36                 0.939947055     -135.301186
9.361                0.939841203     -135.559284
9.362                0.939735649     -135.817853
9.363                0.939630397     -136.076892
9.364                0.939525453     -136.336398
9.365                0.939420823     -136.596372
9.366                0.939316511     -136.856811
9.367                0.939212523     -137.117714
9.368                0.939108865      -137.37908
9.369                 0.93900554     -137.640907
9.37                 0.938902555     -137.903194
9.371                0.938799915     -138.165939
9.372                0.938697626     -138.429141
9.373                0.938595692     -138.692799
9.374                0.938494119      -138.95691
9.375                0.938392913     -139.221473
9.376                0.938292078     -139.486487
9.377                0.938191621      -139.75195
9.378                0.938091545      -140.01786
9.379                0.937991858     -140.284216
9.38                 0.937892564     -140.551016
9.381                0.937793669     -140.818258
9.382                0.937695178      -141.08594
9.383                0.937597097     -141.354061
9.384                0.937499431     -141.622619
9.385                0.937402185     -141.891612
9.386                0.937305365     -142.161038
9.387                0.937208976     -142.430896
9.388                0.937113024     -142.701183
9.389                0.937017515     -142.971898
9.39                 0.936922453     -143.243038
9.391                0.936827844     -143.514602
9.392                0.936733694     -143.786587
9.393                0.936640008     -144.058992
9.394                0.936546792     -144.331815
9.395                 0.93645405     -144.605053
9.396                0.936361789     -144.878704
