! TOUCHSTONE file generated by CST DESIGN STUDIO
! Date and time: Tue Feb  4 14:29:02 2025
! Project name: C:\Work\MatlabApps\UnitCellOptimizationMatlab\CST\unitcell.cst
! Tree item: Tasks\Sweep1\SPara1\S-Parameters
! Header version: 2024
! Port assignment regex: !\s*Touchstone port\s*([0-9]+)\s*=\s*(CST MWS port|CST DES external port|CST DES block port)\s*(.+)\s* \(\"(.*)\"\)(\s*mode\s*([0-9]+))?.*
! Touchstone port assignment:
! Touchstone port 1 = CST DES external port 1 ("")
# GHz S MA R 50
9                    0.962835414     -84.9389806
9.001                0.962806785     -85.0913256
9.002                0.962777629     -85.2441201
9.003                0.962747944     -85.3973653
9.004                0.962717727     -85.5510626
9.005                0.962686975     -85.7052132
9.006                0.962655683     -85.8598185
9.007                0.962623849     -86.0148798
9.008                 0.96259147     -86.1703983
9.009                0.962558542     -86.3263754
9.01                 0.962525063     -86.4828123
9.011                0.962491028     -86.6397105
9.012                0.962456435     -86.7970711
9.013                0.962421281     -86.9548955
9.014                0.962385562      -87.113185
9.015                0.962349276     -87.2719409
9.016                0.962312418     -87.4311646
9.017                0.962274986     -87.5908573
9.018                0.962236976     -87.7510203
9.019                0.962198386      -87.911655
9.02                 0.962159211     -88.0727626
9.021                 0.96211945     -88.2343445
9.022                0.962079098     -88.3964019
9.023                0.962038153     -88.5589363
9.024                0.961996611     -88.7219488
9.025                0.961954469     -88.8854408
9.026                0.961911724     -89.0494137
9.027                0.961868372     -89.2138686
9.028                0.961824412      -89.378807
9.029                0.961779838     -89.5442301
9.03                 0.961734649     -89.7101392
9.031                0.961688841     -89.8765357
9.032                0.961642411     -90.0434208
9.033                0.961595356     -90.2107959
9.034                0.961547672     -90.3786622
9.035                0.961499357     -90.5470211
9.036                0.961450408     -90.7158739
9.037                0.961400821     -90.8852218
9.038                0.961350592     -91.0550661
9.039                0.961299721     -91.2254082
9.04                 0.961248202     -91.3962494
9.041                0.961196033     -91.5675909
9.042                0.961143211     -91.7394341
9.043                0.961089732     -91.9117801
9.044                0.961035595     -92.0846304
9.045                0.960980795     -92.2579862
9.046                 0.96092533     -92.4318489
9.047                0.960869197     -92.6062196
9.048                0.960812392     -92.7810996
9.049                0.960754913     -92.9564903
9.05                 0.960696757      -93.132393
9.051                0.960637921     -93.3088088
9.052                0.960578402     -93.4857391
9.053                0.960518196     -93.6631852
9.054                0.960457301     -93.8411483
9.055                0.960395715     -94.0196297
9.056                0.960333434     -94.1986306
9.057                0.960270455     -94.3781523
9.058                0.960206775     -94.5581961
9.059                0.960142392     -94.7387632
9.06                 0.960077303     -94.9198549
9.061                0.960011505     -95.1014725
9.062                0.959944995     -95.2836171
9.063                0.959877771       -95.46629
9.064                0.959809829     -95.6494925
9.065                0.959741167     -95.8332257
9.066                0.959671782      -96.017491
9.067                0.959601672     -96.2022896
9.068                0.959530834     -96.3876226
9.069                0.959459265     -96.5734913
9.07                 0.959386962     -96.7598969
9.071                0.959313924     -96.9468406
9.072                0.959240147     -97.1343237
9.073                0.959165628     -97.3223473
9.074                0.959090366     -97.5109126
9.075                0.959014358     -97.7000208
9.076                0.958937601     -97.8896732
9.077                0.958860092     -98.0798708
9.078                 0.95878183     -98.2706149
9.079                0.958702812     -98.4619067
9.08                 0.958623036     -98.6537473
9.081                0.958542499     -98.8461378
9.082                0.958461198     -99.0390795
9.083                0.958379132     -99.2325735
9.084                0.958296299     -99.4266209
9.085                0.958212695     -99.6212228
9.086                0.958128319     -99.8163805
9.087                0.958043169     -100.012095
9.088                0.957957242     -100.208367
9.089                0.957870537     -100.405199
9.09                 0.957783051     -100.602591
9.091                0.957694782     -100.800544
9.092                0.957605728     -100.999059
9.093                0.957515888     -101.198138
9.094                0.957425258     -101.397781
9.095                0.957333838      -101.59799
9.096                0.957241626     -101.798766
9.097                0.957148619     -102.000109
9.098                0.957054815     -102.202021
9.099                0.956960214     -102.404503
9.1                  0.956864813     -102.607556
9.101                0.956768611      -102.81118
9.102                0.956671605     -103.015378
9.103                0.956573795     -103.220149
9.104                0.956475178     -103.425496
9.105                0.956375754     -103.631418
9.106                 0.95627552     -103.837917
9.107                0.956174476     -104.044994
9.108                0.956072619      -104.25265
9.109                0.955969949     -104.460886
9.11                 0.955866464     -104.669702
9.111                0.955762163       -104.8791
9.112                0.955657045      -105.08908
9.113                0.955551108     -105.299645
9.114                0.955444352     -105.510793
9.115                0.955336775     -105.722527
9.116                0.955228376     -105.934847
9.117                0.955119154     -106.147754
9.118                0.955009109     -106.361249
9.119                0.954898239     -106.575332
9.12                 0.954786544     -106.790005
9.121                0.954674023     -107.005269
9.122                0.954560674     -107.221124
9.123                0.954446499     -107.437571
9.124                0.954331495     -107.654611
9.125                0.954215663     -107.872244
9.126                0.954099001     -108.090472
9.127                 0.95398151     -108.309295
9.128                0.953863188     -108.528714
9.129                0.953744037      -108.74873
9.13                 0.953624054     -108.969343
9.131                0.953503241     -109.190554
9.132                0.953381597     -109.412364
9.133                0.953259122     -109.634773
9.134                0.953135816     -109.857782
9.135                0.953011678     -110.081392
9.136                 0.95288671     -110.305604
9.137                0.952760911     -110.530417
9.138                0.952634281     -110.755833
9.139                0.952506821     -110.981852
9.14                 0.952378532     -111.208475
9.141                0.952249412     -111.435703
9.142                0.952119464     -111.663535
9.143                0.951988687     -111.891972
9.144                0.951857083     -112.121016
9.145                0.951724651     -112.350666
9.146                0.951591393     -112.580923
9.147                 0.95145731     -112.811787
9.148                0.951322401     -113.043259
9.149                 0.95118667      -113.27534
9.15                 0.951050116     -113.508029
9.151                 0.95091274     -113.741327
9.152                0.950774545     -113.975234
9.153                 0.95063553     -114.209752
9.154                0.950495698      -114.44488
9.155                 0.95035505     -114.680618
9.156                0.950213588     -114.916967
9.157                0.950071312     -115.153927
9.158                0.949928225     -115.391498
9.159                0.949784329     -115.629682
9.16                 0.949639625     -115.868477
9.161                0.949494115     -116.107884
9.162                0.949347802     -116.347903
9.163                0.949200686     -116.588535
9.164                0.949052772      -116.82978
9.165                 0.94890406     -117.071637
9.166                0.948754553     -117.314107
9.167                0.948604254     -117.557191
9.168                0.948453164     -117.800887
9.169                0.948301288     -118.045197
9.17                 0.948148626     -118.290119
9.171                0.947995183     -118.535655
9.172                0.947840961     -118.781804
9.173                0.947685962     -119.028567
9.174                0.947530191     -119.275942
9.175                0.947373649      -119.52393
9.176                0.947216341     -119.772532
9.177                0.947058269     -120.021746
9.178                0.946899438     -120.271572
9.179                0.946739849     -120.522012
9.18                 0.946579508     -120.773063
9.181                0.946418418     -121.024727
9.182                0.946256582     -121.277003
9.183                0.946094005      -121.52989
9.184                 0.94593069     -121.783389
9.185                0.945766641     -122.037499
9.186                0.945601863     -122.292219
9.187                 0.94543636      -122.54755
9.188                0.945270136     -122.803491
9.189                0.945103196     -123.060041
9.19                 0.944935544     -123.317201
9.191                0.944767185     -123.574969
9.192                0.944598124     -123.833346
9.193                0.944428365      -124.09233
9.194                0.944257913     -124.351922
9.195                0.944086774      -124.61212
9.196                0.943914953     -124.872924
9.197                0.943742455     -125.134333
9.198                0.943569285     -125.396348
9.199                0.943395448     -125.658966
9.2                  0.943220951     -125.922188
9.201                0.943045799     -126.186013
9.202                0.942869998      -126.45044
9.203                0.942693553     -126.715468
9.204                0.942516471     -126.981096
9.205                0.942338758     -127.247324
9.206                0.942160419     -127.514151
9.207                0.941981462     -127.781575
9.208                0.941801892     -128.049596
9.209                0.941621716     -128.318214
9.21                 0.941440941     -128.587426
9.211                0.941259573     -128.857232
9.212                0.941077619     -129.127632
9.213                0.940895086     -129.398623
9.214                0.940711982     -129.670205
9.215                0.940528312     -129.942376
9.216                0.940344086     -130.215137
9.217                0.940159308     -130.488484
9.218                0.939973989     -130.762418
9.219                0.939788134     -131.036936
9.22                 0.939601751     -131.312038
9.221                0.939414849     -131.587723
9.222                0.939227434     -131.863988
9.223                0.939039516     -132.140833
9.224                0.938851102     -132.418256
9.225                  0.9386622     -132.696256
9.226                0.938472819     -132.974831
9.227                0.938282967      -133.25398
9.228                0.938092652     -133.533702
9.229                0.937901883     -133.813994
9.23                 0.937710669     -134.094855
9.231                0.937519019     -134.376283
9.232                0.937326941     -134.658278
9.233                0.937134445     -134.940836
9.234                 0.93694154     -135.223957
9.235                0.936748234     -135.507639
9.236                0.936554537      -135.79188
9.237                0.936360459     -136.076677
9.238                0.936166009      -136.36203
9.239                0.935971197     -136.647936
9.24                 0.935776033     -136.934394
9.241                0.935580525     -137.221401
9.242                0.935384685     -137.508955
9.243                0.935188522     -137.797055
9.244                0.934992046     -138.085699
9.245                0.934795268     -138.374883
9.246                0.934598198     -138.664607
9.247                0.934400846     -138.954867
9.248                0.934203223     -139.245663
9.249                0.934005339     -139.536991
9.25                 0.933807205     -139.828849
9.251                0.933608832     -140.121236
9.252                 0.93341023     -140.414148
9.253                0.933211412     -140.707583
9.254                0.933012387     -141.001539
9.255                0.932813166     -141.296014
9.256                0.932613762     -141.591005
9.257                0.932414185     -141.886509
9.258                0.932214447     -142.182524
9.259                 0.93201456     -142.479048
9.26                 0.931814534     -142.776077
9.261                0.931614381      -143.07361
9.262                0.931414114     -143.371643
9.263                0.931213744     -143.670174
9.264                0.931013283       -143.9692
9.265                0.930812742     -144.268718
9.266                0.930612135     -144.568725
9.267                0.930411472     -144.869219
9.268                0.930210767     -145.170197
9.269                0.930010032     -145.471655
9.27                 0.929809278     -145.773592
9.271                0.929608519     -146.076003
9.272                0.929407766     -146.378885
9.273                0.929207033     -146.682237
9.274                0.929006332     -146.986054
9.275                0.928805675     -147.290334
9.276                0.928605076     -147.595073
9.277                0.928404547     -147.900268
9.278                0.928204102     -148.205916
9.279                0.928003752     -148.512014
9.28                 0.927803511     -148.818558
9.281                0.927603392     -149.125546
9.282                0.927403409     -149.432972
9.283                0.927203573     -149.740836
9.284                0.927003899     -150.049131
9.285                  0.9268044     -150.357857
9.286                0.926605089     -150.667008
9.287                 0.92640598     -150.976581
9.288                0.926207085     -151.286574
9.289                0.926008418     -151.596981
9.29                 0.925809993       -151.9078
9.291                0.925611823     -152.219027
9.292                0.925413922     -152.530658
9.293                0.925216303     -152.842689
9.294                 0.92501898     -153.155117
9.295                0.924821967     -153.467938
9.296                0.924625277     -153.781148
9.297                0.924428923     -154.094743
9.298                 0.92423292      -154.40872
9.299                0.924037282     -154.723074
9.3                  0.923842022     -155.037801
9.301                0.923647154     -155.352898
9.302                0.923452691      -155.66836
9.303                0.923258648     -155.984183
9.304                0.923065038     -156.300364
9.305                0.922871876     -156.616899
9.306                0.922679175     -156.933782
9.307                0.922486948      -157.25101
9.308                 0.92229521     -157.568579
9.309                0.922103975     -157.886484
9.31                 0.921913257     -158.204722
9.311                0.921723068     -158.523288
9.312                0.921533424     -158.842177
9.313                0.921344338     -159.161386
9.314                0.921155824     -159.480909
9.315                0.920967895     -159.800744
9.316                0.920780566     -160.120884
9.317                0.920593851     -160.441326
9.318                0.920407762     -160.762066
9.319                0.920222315     -161.083098
9.32                 0.920037522     -161.404419
9.321                0.919853397     -161.726023
9.322                0.919669954     -162.047906
9.323                0.919487207     -162.370064
9.324                0.919305169     -162.692492
9.325                0.919123854     -163.015185
9.326                0.918943276     -163.338139
9.327                0.918763447     -163.661349
9.328                0.918584382      -163.98481
9.329                0.918406094     -164.308517
9.33                 0.918228596     -164.632466
9.331                0.918051902     -164.956653
9.332                0.917876025     -165.281071
9.333                0.917700977     -165.605716
9.334                0.917526774     -165.930584
9.335                0.917353426      -166.25567
9.336                0.917180949     -166.580969
9.337                0.917009354     -166.906475
9.338                0.916838654     -167.232184
9.339                0.916668863     -167.558091
9.34                 0.916499993     -167.884192
9.341                0.916332057      -168.21048
9.342                0.916165068     -168.536951
9.343                0.915999038       -168.8636
9.344                0.915833981     -169.190423
9.345                0.915669907     -169.517413
9.346                 0.91550683     -169.844566
9.347                0.915344762     -170.171878
9.348                0.915183716     -170.499341
9.349                0.915023702     -170.826953
9.35                 0.914864734     -171.154707
9.351                0.914706823     -171.482599
9.352                0.914549982     -171.810623
9.353                0.914394221     -172.138773
9.354                0.914239553     -172.467046
9.355                0.914085989     -172.795436
9.356                0.913933541     -173.123937
9.357                 0.91378222     -173.452545
9.358                0.913632036     -173.781254
9.359                0.913483003     -174.110059
9.36                 0.913335129     -174.438955
9.361                0.913188427     -174.767936
9.362                0.913042908     -175.096997
9.363                0.912898581     -175.426134
9.364                0.912755457      -175.75534
9.365                0.912613548     -176.084611
9.366                0.912472863     -176.413941
9.367                0.912333412     -176.743325
9.368                0.912195206     -177.072758
9.369                0.912058255     -177.402234
9.37                 0.911922568     -177.731749
9.371                0.911788156     -178.061296
9.372                0.911655027      -178.39087
9.373                0.911523192     -178.720468
9.374                0.911392659     -179.050081
9.375                0.911263439     -179.379707
9.376                0.911135539     -179.709339
9.377                0.911008969      179.961028
9.378                0.910883739      179.631399
9.379                0.910759855      179.301779
9.38                 0.910637328      178.972175
9.381                0.910516165       178.64259
9.382                0.910396374      178.313031
9.383                0.910277964      177.983503
9.384                0.910160943      177.654011
9.385                0.910045319       177.32456
9.386                0.909931098      176.995155
9.387                 0.90981829      176.665802
9.388                  0.9097069      176.336507
9.389                0.909596937      176.007273
9.39                 0.909488407      175.678107
9.391                0.909381317      175.349015
9.392                0.909275674          175.02
9.393                0.909171485      174.691068
9.394                0.909068757      174.362225
9.395                0.908967494      174.033476
9.396                0.908867704      173.704826
