! TOUCHSTONE file generated by CST DESIGN STUDIO
! Date and time: Tue Feb  4 14:28:59 2025
! Project name: C:\Work\MatlabApps\UnitCellOptimizationMatlab\CST\unitcell.cst
! Tree item: Tasks\Sweep1\SPara1\S-Parameters
! Header version: 2024
! Port assignment regex: !\s*Touchstone port\s*([0-9]+)\s*=\s*(CST MWS port|CST DES external port|CST DES block port)\s*(.+)\s* \(\"(.*)\"\)(\s*mode\s*([0-9]+))?.*
! Touchstone port assignment:
! Touchstone port 1 = CST DES external port 1 ("")
# GHz S MA R 50
9                    0.957618231     -92.2607955
9.001                 0.95758683     -92.4343932
9.002                0.957554964     -92.6085105
9.003                0.957522631      -92.783149
9.004                0.957489827     -92.9583098
9.005                0.957456549     -93.1339946
9.006                0.957422794     -93.3102046
9.007                0.957388559     -93.4869412
9.008                 0.95735384     -93.6642059
9.009                0.957318635     -93.8419999
9.01                 0.957282939     -94.0203248
9.011                0.957246751     -94.1991818
9.012                0.957210066     -94.3785723
9.013                0.957172881     -94.5584977
9.014                0.957135194     -94.7389594
9.015                0.957097001     -94.9199588
9.016                0.957058299     -95.1014972
9.017                0.957019084     -95.2835759
9.018                0.956979353     -95.4661964
9.019                0.956939104     -95.6493599
9.02                 0.956898333     -95.8330679
9.021                0.956857037     -96.0173217
9.022                0.956815213     -96.2021226
9.023                0.956772858     -96.3874719
9.024                0.956729967      -96.573371
9.025                 0.95668654     -96.7598213
9.026                0.956642571      -96.946824
9.027                0.956598058     -97.1343805
9.028                0.956552999      -97.322492
9.029                0.956507389       -97.51116
9.03                 0.956461226     -97.7003857
9.031                0.956414507     -97.8901704
9.032                0.956367228     -98.0805154
9.033                0.956319386      -98.271422
9.034                 0.95627098     -98.4628915
9.035                0.956222004     -98.6549252
9.036                0.956172457     -98.8475244
9.037                0.956122335     -99.0406903
9.038                0.956071636     -99.2344241
9.039                0.956020356     -99.4287273
9.04                 0.955968492     -99.6236009
9.041                0.955916042     -99.8190463
9.042                0.955863002     -100.015065
9.043                 0.95580937     -100.211657
9.044                0.955755143     -100.408825
9.045                0.955700317      -100.60657
9.046                0.955644889     -100.804893
9.047                0.955588858     -101.003794
9.048                 0.95553222     -101.203276
9.049                0.955474972      -101.40334
9.05                 0.955417112     -101.603986
9.051                0.955358636     -101.805216
9.052                0.955299542     -102.007031
9.053                0.955239827     -102.209432
9.054                0.955179489     -102.412421
9.055                0.955118524     -102.615998
9.056                0.955056931     -102.820165
9.057                0.954994705     -103.024922
9.058                0.954931845     -103.230271
9.059                0.954868349     -103.436214
9.06                 0.954804213      -103.64275
9.061                0.954739434     -103.849882
9.062                0.954674011     -104.057609
9.063                0.954607941     -104.265934
9.064                0.954541222     -104.474858
9.065                 0.95447385     -104.684381
9.066                0.954405823     -104.894504
9.067                 0.95433714     -105.105229
9.068                0.954267797     -105.316556
9.069                0.954197793     -105.528487
9.07                 0.954127124     -105.741022
9.071                 0.95405579     -105.954163
9.072                0.953983787     -106.167911
9.073                0.953911113     -106.382266
9.074                0.953837766     -106.597229
9.075                0.953763744     -106.812802
9.076                0.953689045     -107.028985
9.077                0.953613667     -107.245779
9.078                0.953537607     -107.463185
9.079                0.953460864     -107.681204
9.08                 0.953383436     -107.899837
9.081                 0.95330532     -108.119085
9.082                0.953226515     -108.338949
9.083                 0.95314702     -108.559428
9.084                0.953066831     -108.780526
9.085                0.952985948     -109.002241
9.086                0.952904369     -109.224575
9.087                0.952822091     -109.447529
9.088                0.952739114     -109.671103
9.089                0.952655436     -109.895298
9.09                 0.952571055     -110.120115
9.091                 0.95248597     -110.345555
9.092                0.952400179     -110.571619
9.093                0.952313681     -110.798306
9.094                0.952226474     -111.025618
9.095                0.952138557     -111.253555
9.096                0.952049929     -111.482119
9.097                0.951960589     -111.711309
9.098                0.951870535     -111.941126
9.099                0.951779766     -112.171571
9.1                  0.951688282     -112.402645
9.101                0.951596081     -112.634348
9.102                0.951503162      -112.86668
9.103                0.951409525     -113.099642
9.104                0.951315168     -113.333235
9.105                 0.95122009     -113.567459
9.106                0.951124292     -113.802314
9.107                0.951027772     -114.037802
9.108                0.950930529     -114.273922
9.109                0.950832564     -114.510675
9.11                 0.950733875     -114.748061
9.111                0.950634462      -114.98608
9.112                0.950534325     -115.224734
9.113                0.950433464     -115.464022
9.114                0.950331877     -115.703945
9.115                0.950229566     -115.944502
9.116                0.950126529     -116.185695
9.117                0.950022767     -116.427523
9.118                 0.94991828     -116.669987
9.119                0.949813068     -116.913087
9.12                 0.949707131     -117.156823
9.121                0.949600468     -117.401195
9.122                0.949493081     -117.646204
9.123                 0.94938497     -117.891849
9.124                0.949276136     -118.138131
9.125                0.949166577      -118.38505
9.126                0.949056296     -118.632605
9.127                0.948945293     -118.880798
9.128                0.948833568     -119.129627
9.129                0.948721123     -119.379093
9.13                 0.948607958     -119.629195
9.131                0.948494074     -119.879935
9.132                0.948379472     -120.131311
9.133                0.948264153     -120.383324
9.134                0.948148118     -120.635973
9.135                 0.94803137     -120.889258
9.136                0.947913908      -121.14318
9.137                0.947795734     -121.397737
9.138                 0.94767685      -121.65293
9.139                0.947557257     -121.908758
9.14                 0.947436958     -122.165221
9.141                0.947315953     -122.422319
9.142                0.947194245     -122.680052
9.143                0.947071835     -122.938418
9.144                0.946948725     -123.197418
9.145                0.946824918     -123.457052
9.146                0.946700416     -123.717318
9.147                0.946575221     -123.978216
9.148                0.946449334     -124.239746
9.149                 0.94632276     -124.501908
9.15                 0.946195499       -124.7647
9.151                0.946067555     -125.028123
9.152                0.945938931     -125.292174
9.153                0.945809629     -125.556855
9.154                0.945679652     -125.822164
9.155                0.945549003       -126.0881
9.156                0.945417685     -126.354663
9.157                0.945285701     -126.621852
9.158                0.945153055     -126.889666
9.159                0.945019749     -127.158104
9.16                 0.944885788     -127.427166
9.161                0.944751175     -127.696851
9.162                0.944615913     -127.967157
9.163                0.944480006     -128.238084
9.164                0.944343458      -128.50963
9.165                0.944206273     -128.781796
9.166                0.944068455     -129.054578
9.167                0.943930008     -129.327978
9.168                0.943790936     -129.601993
9.169                0.943651243     -129.876622
9.17                 0.943510935     -130.151865
9.171                0.943370015     -130.427719
9.172                0.943228488     -130.704184
9.173                0.943086358     -130.981259
9.174                0.942943632     -131.258941
9.175                0.942800312     -131.537231
9.176                0.942656405     -131.816126
9.177                0.942511916     -132.095624
9.178                 0.94236685     -132.375726
9.179                0.942221211     -132.656428
9.18                 0.942075007      -132.93773
9.181                0.941928241      -133.21963
9.182                 0.94178092     -133.502127
9.183                0.941633049     -133.785218
9.184                0.941484635     -134.068903
9.185                0.941335682     -134.353178
9.186                0.941186198     -134.638044
9.187                0.941036189     -134.923498
9.188                0.940885659     -135.209538
9.189                0.940734617     -135.496162
9.19                 0.940583068     -135.783369
9.191                0.940431019     -136.071157
9.192                0.940278477     -136.359523
9.193                0.940125448     -136.648466
9.194                0.939971939     -136.937983
9.195                0.939817957     -137.228074
9.196                 0.93966351     -137.518735
9.197                0.939508604     -137.809964
9.198                0.939353246      -138.10176
9.199                0.939197445      -138.39412
9.2                  0.939041207     -138.687042
9.201                 0.93888454     -138.980523
9.202                0.938727451     -139.274562
9.203                 0.93856995     -139.569156
9.204                0.938412042     -139.864302
9.205                0.938253737     -140.159999
9.206                0.938095043     -140.456243
9.207                0.937935967     -140.753033
9.208                0.937776517     -141.050365
9.209                0.937616704     -141.348238
9.21                 0.937456533     -141.646648
9.211                0.937296015     -141.945593
9.212                0.937135158     -142.245071
9.213                0.936973971     -142.545078
9.214                0.936812462     -142.845612
9.215                0.936650641      -143.14667
9.216                0.936488516     -143.448249
9.217                0.936326097     -143.750347
9.218                0.936163392      -144.05296
9.219                0.936000412     -144.356085
9.22                 0.935837166      -144.65972
9.221                0.935673662     -144.963862
9.222                0.935509912     -145.268507
9.223                0.935345923     -145.573653
9.224                0.935181707     -145.879295
9.225                0.935017273     -146.185432
9.226                0.934852631      -146.49206
9.227                 0.93468779     -146.799176
9.228                0.934522762     -147.106776
9.229                0.934357556     -147.414857
9.23                 0.934192182     -147.723416
9.231                0.934026652     -148.032449
9.232                0.933860974     -148.341953
9.233                0.933695161     -148.651925
9.234                0.933529222     -148.962361
9.235                0.933363168     -149.273257
9.236                0.933197009      -149.58461
9.237                0.933030758     -149.896417
9.238                0.932864423     -150.208673
9.239                0.932698017     -150.521375
9.24                 0.932531551     -150.834519
9.241                0.932365035     -151.148102
9.242                0.932198481      -151.46212
9.243                  0.9320319     -151.776569
9.244                0.931865303     -152.091444
9.245                0.931698701     -152.406743
9.246                0.931532106     -152.722462
9.247                 0.93136553     -153.038595
9.248                0.931198984      -153.35514
9.249                0.931032479     -153.672092
9.25                 0.930866028     -153.989448
9.251                0.930699641     -154.307202
9.252                0.930533331     -154.625352
9.253                0.930367109     -154.943892
9.254                0.930200988     -155.262819
9.255                0.930034978     -155.582129
9.256                0.929869093     -155.901817
9.257                0.929703343     -156.221878
9.258                0.929537742      -156.54231
9.259                0.929372301     -156.863106
9.26                 0.929207031     -157.184263
9.261                0.929041946     -157.505777
9.262                0.928877058     -157.827642
9.263                0.928712378     -158.149855
9.264                0.928547919     -158.472411
9.265                0.928383693     -158.795306
9.266                0.928219712     -159.118534
9.267                0.928055989     -159.442092
9.268                0.927892536     -159.765974
9.269                0.927729366     -160.090176
9.27                  0.92756649     -160.414693
9.271                0.927403921     -160.739521
9.272                0.927241671     -161.064655
9.273                0.927079753     -161.390089
9.274                 0.92691818      -161.71582
9.275                0.926756963     -162.041843
9.276                0.926596116     -162.368151
9.277                0.926435649     -162.694742
9.278                0.926275577     -163.021609
9.279                0.926115911     -163.348748
9.28                 0.925956664     -163.676155
9.281                0.925797848     -164.003823
9.282                0.925639476     -164.331747
9.283                 0.92548156     -164.659924
9.284                0.925324113     -164.988348
9.285                0.925167146     -165.317013
9.286                0.925010672     -165.645915
9.287                0.924854704     -165.975049
9.288                0.924699254     -166.304409
9.289                0.924544334      -166.63399
9.29                 0.924389957     -166.963788
9.291                0.924236134     -167.293796
9.292                0.924082878      -167.62401
9.293                0.923930202     -167.954424
9.294                0.923778117     -168.285034
9.295                0.923626635     -168.615833
9.296                 0.92347577     -168.946817
9.297                0.923325531     -169.277981
9.298                0.923175933     -169.609318
9.299                0.923026986     -169.940824
9.3                  0.922878703     -170.272493
9.301                0.922731095      -170.60432
9.302                0.922584174       -170.9363
9.303                0.922437953     -171.268427
9.304                0.922292443     -171.600695
9.305                0.922147655       -171.9331
9.306                0.922003601     -172.265636
9.307                0.921860293     -172.598297
9.308                0.921717742     -172.931078
9.309                 0.92157596     -173.263973
9.31                 0.921434958     -173.596977
9.311                0.921294747     -173.930085
9.312                0.921155339     -174.263291
9.313                0.921016745     -174.596589
9.314                0.920878975     -174.929974
9.315                0.920742041      -175.26344
9.316                0.920605954     -175.596983
9.317                0.920470724     -175.930595
9.318                0.920336363     -176.264273
9.319                0.920202881     -176.598009
9.32                 0.920070289     -176.931799
9.321                0.919938596     -177.265638
9.322                0.919807815     -177.599518
9.323                0.919677954     -177.933436
9.324                0.919549024     -178.267385
9.325                0.919421036      -178.60136
9.326                0.919293999     -178.935355
9.327                0.919167924     -179.269364
9.328                 0.91904282     -179.603383
9.329                0.918918696     -179.937405
9.33                 0.918795564      179.728575
9.331                0.918673431      179.394563
9.332                0.918552308      179.060564
9.333                0.918432204      178.726585
9.334                0.918313129      178.392629
9.335                 0.91819509      178.058704
9.336                0.918078098      177.724814
9.337                0.917962161      177.390965
9.338                0.917847289      177.057163
9.339                0.917733488      176.723413
9.34                 0.917620769      176.389722
9.341                 0.91750914      176.056093
9.342                0.917398609      175.722533
9.343                0.917289183      175.389048
9.344                0.917180872      175.055643
9.345                0.917073683      174.722323
9.346                0.916967624      174.389094
9.347                0.916862703      174.055962
9.348                0.916758927      173.722931
9.349                0.916656303      173.390008
9.35                  0.91655484      173.057198
9.351                0.916454544      172.724506
9.352                0.916355421      172.391937
9.353                0.916257481      172.059498
9.354                0.916160727      171.727193
9.355                0.916065169      171.395028
9.356                0.915970811      171.063009
9.357                0.915877661       170.73114
9.358                0.915785725      170.399427
9.359                0.915695009      170.067876
9.36                 0.915605518      169.736491
9.361                0.915517259      169.405278
9.362                0.915430237      169.074242
9.363                0.915344459      168.743389
9.364                0.915259928      168.412724
9.365                0.915176651      168.082251
9.366                0.915094633      167.751977
9.367                0.915013879      167.421906
9.368                0.914934393      167.092043
9.369                0.914856181      166.762394
9.37                 0.914779246      166.432964
9.371                0.914703594      166.103757
9.372                0.914629229       165.77478
9.373                0.914556154      165.446036
9.374                0.914484374      165.117532
9.375                0.914413893      164.789271
9.376                0.914344714       164.46126
9.377                0.914276841      164.133502
9.378                0.914210278      163.806004
9.379                0.914145027      163.478769
9.38                 0.914081092      163.151803
9.381                0.914018476       162.82511
9.382                0.913957182      162.498696
9.383                0.913897212      162.172565
9.384                 0.91383857      161.846721
9.385                0.913781256      161.521171
9.386                0.913725275      161.195918
9.387                0.913670628      160.870966
9.388                0.913617316      160.546322
9.389                0.913565343      160.221989
9.39                 0.913514709      159.897972
9.391                0.913465416      159.574276
9.392                0.913417466      159.250904
9.393                 0.91337086      158.927863
9.394                0.913325599      158.605155
9.395                0.913281685      158.282786
9.396                0.913239117       157.96076
