! TOUCHSTONE file generated by CST DESIGN STUDIO
! Date and time: Tue Feb  4 14:28:57 2025
! Project name: C:\Work\MatlabApps\UnitCellOptimizationMatlab\CST\unitcell.cst
! Tree item: Tasks\Sweep1\SPara1\S-Parameters
! Header version: 2024
! Port assignment regex: !\s*Touchstone port\s*([0-9]+)\s*=\s*(CST MWS port|CST DES external port|CST DES block port)\s*(.+)\s* \(\"(.*)\"\)(\s*mode\s*([0-9]+))?.*
! Touchstone port assignment:
! Touchstone port 1 = CST DES external port 1 ("")
# GHz S MA R 50
9                    0.955090512     -95.7736921
9.001                0.955056841     -95.9575867
9.002                0.955022846     -96.1420316
9.003                0.954988522     -96.3270284
9.004                0.954953867     -96.5125785
9.005                0.954918879     -96.6986834
9.006                0.954883553     -96.8853445
9.007                0.954847887     -97.0725634
9.008                0.954811877     -97.2603414
9.009                0.954775522       -97.44868
9.01                 0.954738816     -97.6375807
9.011                0.954701758     -97.8270448
9.012                0.954664345      -98.017074
9.013                0.954626572     -98.2076694
9.014                0.954588437     -98.3988327
9.015                0.954549937     -98.5905652
9.016                0.954511068     -98.7828683
9.017                0.954471828     -98.9757435
9.018                0.954432213     -99.1691922
9.019                 0.95439222     -99.3632157
9.02                 0.954351845     -99.5578154
9.021                0.954311085     -99.7529928
9.022                0.954269938     -99.9487492
9.023                  0.9542284     -100.145086
9.024                0.954186467     -100.342004
9.025                0.954144136     -100.539506
9.026                0.954101404     -100.737592
9.027                0.954058268     -100.936264
9.028                0.954014725     -101.135523
9.029                 0.95397077     -101.335371
9.03                 0.953926401     -101.535809
9.031                0.953881614     -101.736837
9.032                0.953836406     -101.938458
9.033                0.953790773     -102.140673
9.034                0.953744713     -102.343483
9.035                0.953698222     -102.546889
9.036                0.953651296     -102.750893
9.037                0.953603933     -102.955496
9.038                0.953556128     -103.160699
9.039                0.953507878     -103.366503
9.04                  0.95345918      -103.57291
9.041                0.953410031     -103.779921
9.042                0.953360427     -103.987537
9.043                0.953310364     -104.195759
9.044                 0.95325984     -104.404589
9.045                0.953208851     -104.614027
9.046                0.953157393     -104.824076
9.047                0.953105464     -105.034735
9.048                0.953053059     -105.246006
9.049                0.953000176     -105.457891
9.05                  0.95294681     -105.670391
9.051                0.952892959     -105.883505
9.052                0.952838619     -106.097237
9.053                0.952783787     -106.311587
9.054                0.952728459     -106.526555
9.055                0.952672632     -106.742143
9.056                0.952616302     -106.958353
9.057                0.952559467     -107.175184
9.058                0.952502123     -107.392639
9.059                0.952444266     -107.610718
9.06                 0.952385893     -107.829421
9.061                0.952327001     -108.048751
9.062                0.952267587     -108.268709
9.063                0.952207647     -108.489294
9.064                0.952147177     -108.710508
9.065                0.952086176     -108.932353
9.066                0.952024638     -109.154828
9.067                0.951962562     -109.377935
9.068                0.951899943     -109.601675
9.069                0.951836779     -109.826048
9.07                 0.951773066     -110.051056
9.071                0.951708801     -110.276699
9.072                0.951643981     -110.502978
9.073                0.951578603     -110.729894
9.074                0.951512664     -110.957448
9.075                 0.95144616      -111.18564
9.076                0.951379089     -111.414472
9.077                0.951311447     -111.643944
9.078                0.951243231     -111.874056
9.079                0.951174438      -112.10481
9.08                 0.951105066     -112.336205
9.081                0.951035111     -112.568244
9.082                 0.95096457     -112.800926
9.083                 0.95089344     -113.034252
9.084                0.950821719     -113.268223
9.085                0.950749404     -113.502839
9.086                0.950676491     -113.738101
9.087                0.950602979     -113.974009
9.088                0.950528863     -114.210565
9.089                0.950454142     -114.447767
9.09                 0.950378813     -114.685618
9.091                0.950302873     -114.924117
9.092                0.950226319     -115.163264
9.093                 0.95014915     -115.403062
9.094                0.950071361     -115.643508
9.095                0.949992952     -115.884605
9.096                0.949913919     -116.126352
9.097                 0.94983426      -116.36875
9.098                0.949753972     -116.611799
9.099                0.949673054     -116.855499
9.1                  0.949591502     -117.099851
9.101                0.949509316     -117.344855
9.102                0.949426492      -117.59051
9.103                0.949343029     -117.836818
9.104                0.949258923     -118.083779
9.105                0.949174175     -118.331392
9.106                 0.94908878     -118.579658
9.107                0.949002738     -118.828576
9.108                0.948916046     -119.078147
9.109                0.948828704     -119.328372
9.11                 0.948740708     -119.579249
9.111                0.948652057     -119.830779
9.112                0.948562751     -120.082962
9.113                0.948472786     -120.335797
9.114                0.948382162     -120.589286
9.115                0.948290877     -120.843427
9.116                 0.94819893      -121.09822
9.117                 0.94810632     -121.353666
9.118                0.948013044     -121.609764
9.119                0.947919103     -121.866513
9.12                 0.947824495     -122.123915
9.121                0.947729219     -122.381967
9.122                0.947633274     -122.640671
9.123                0.947536659     -122.900025
9.124                0.947439373     -123.160029
9.125                0.947341416     -123.420683
9.126                0.947242787     -123.681987
9.127                0.947143486     -123.943939
9.128                0.947043511      -124.20654
9.129                0.946942863     -124.469789
9.13                 0.946841542     -124.733685
9.131                0.946739546     -124.998228
9.132                0.946636876     -125.263418
9.133                0.946533533     -125.529252
9.134                0.946429515     -125.795732
9.135                0.946324823     -126.062855
9.136                0.946219457     -126.330622
9.137                0.946113418     -126.599032
9.138                0.946006706     -126.868083
9.139                0.945899321     -127.137775
9.14                 0.945791264     -127.408107
9.141                0.945682536     -127.679078
9.142                0.945573138     -127.950687
9.143                 0.94546307     -128.222934
9.144                0.945352333     -128.495816
9.145                0.945240929     -128.769334
9.146                0.945128858     -129.043485
9.147                0.945016123      -129.31827
9.148                0.944902723     -129.593686
9.149                0.944788662     -129.869733
9.15                  0.94467394     -130.146409
9.151                 0.94455856     -130.423713
9.152                0.944442523     -130.701643
9.153                 0.94432583       -130.9802
9.154                0.944208485      -131.25938
9.155                0.944090489     -131.539182
9.156                0.943971844     -131.819606
9.157                0.943852554      -132.10065
9.158                 0.94373262     -132.382312
9.159                0.943612045      -132.66459
9.16                 0.943490831     -132.947483
9.161                0.943368983      -133.23099
9.162                0.943246502     -133.515109
9.163                0.943123392     -133.799837
9.164                0.942999656     -134.085174
9.165                0.942875297     -134.371117
9.166                0.942750319     -134.657665
9.167                0.942624725     -134.944816
9.168                 0.94249852     -135.232568
9.169                0.942371706     -135.520919
9.17                 0.942244289     -135.809866
9.171                0.942116271     -136.099409
9.172                0.941987657     -136.389545
9.173                0.941858452     -136.680271
9.174                 0.94172866     -136.971587
9.175                0.941598286     -137.263489
9.176                0.941467334     -137.555975
9.177                0.941335809     -137.849044
9.178                0.941203716     -138.142692
9.179                0.941071061     -138.436918
9.18                 0.940937847     -138.731719
9.181                0.940804082     -139.027093
9.182                 0.94066977     -139.323037
9.183                0.940534917      -139.61955
9.184                0.940399529     -139.916627
9.185                0.940263611     -140.214267
9.186                0.940127169     -140.512468
9.187                0.939990211     -140.811226
9.188                0.939852741     -141.110539
9.189                0.939714767     -141.410404
9.19                 0.939576295     -141.710819
9.191                0.939437331      -142.01178
9.192                0.939297883     -142.313285
9.193                0.939157957     -142.615331
9.194                 0.93901756     -142.917915
9.195                  0.9388767     -143.221034
9.196                0.938735384     -143.524685
9.197                0.938593619     -143.828865
9.198                0.938451413     -144.133572
9.199                0.938308773     -144.438801
9.2                  0.938165708     -144.744549
9.201                0.938022225     -145.050815
9.202                0.937878333     -145.357593
9.203                0.937734039     -145.664882
9.204                0.937589352     -145.972678
9.205                0.937444281     -146.280976
9.206                0.937298833     -146.589775
9.207                0.937153018     -146.899071
9.208                0.937006845     -147.208859
9.209                0.936860322     -147.519138
9.21                 0.936713458     -147.829902
9.211                0.936566264     -148.141149
9.212                0.936418747     -148.452875
9.213                0.936270917     -148.765076
9.214                0.936122785     -149.077748
9.215                0.935974359     -149.390889
9.216                 0.93582565     -149.704494
9.217                0.935676666     -150.018559
9.218                0.935527419      -150.33308
9.219                0.935377919     -150.648054
9.22                 0.935228175     -150.963477
9.221                0.935078197     -151.279345
9.222                0.934927997     -151.595653
9.223                0.934777585     -151.912398
9.224                0.934626972     -152.229576
9.225                0.934476167     -152.547182
9.226                0.934325183     -152.865213
9.227                0.934174029     -153.183664
9.228                0.934022718     -153.502531
9.229                0.933871259      -153.82181
9.23                 0.933719665     -154.141497
9.231                0.933567947     -154.461587
9.232                0.933416115     -154.782077
9.233                0.933264183     -155.102961
9.234                 0.93311216     -155.424235
9.235                0.932960059     -155.745895
9.236                0.932807892     -156.067936
9.237                 0.93265567     -156.390354
9.238                0.932503405     -156.713144
9.239                 0.93235111     -157.036303
9.24                 0.932198796     -157.359824
9.241                0.932046475     -157.683704
9.242                 0.93189416     -158.007938
9.243                0.931741863     -158.332521
9.244                0.931589596     -158.657448
9.245                0.931437372     -158.982716
9.246                0.931285203     -159.308318
9.247                0.931133101     -159.634251
9.248                 0.93098108     -159.960509
9.249                0.930829151     -160.287087
9.25                 0.930677328     -160.613981
9.251                0.930525623     -160.941186
9.252                0.930374049     -161.268696
9.253                0.930222619     -161.596508
9.254                0.930071345     -161.924615
9.255                0.929920241     -162.253013
9.256                0.929769319     -162.581696
9.257                0.929618593     -162.910661
9.258                0.929468075     -163.239901
9.259                0.929317778     -163.569411
9.26                 0.929167716     -163.899187
9.261                0.929017902     -164.229222
9.262                0.928868348     -164.559513
9.263                0.928719068     -164.890054
9.264                0.928570075     -165.220839
9.265                0.928421382     -165.551863
9.266                0.928273003     -165.883122
9.267                0.928124949     -166.214609
9.268                0.927977235     -166.546319
9.269                0.927829874     -166.878248
9.27                 0.927682879     -167.210389
9.271                0.927536263     -167.542737
9.272                0.927390039     -167.875288
9.273                 0.92724422     -168.208035
9.274                 0.92709882     -168.540973
9.275                0.926953851     -168.874097
9.276                0.926809327     -169.207401
9.277                0.926665261      -169.54088
9.278                0.926521666     -169.874528
9.279                0.926378555      -170.20834
9.28                  0.92623594      -170.54231
9.281                0.926093836     -170.876432
9.282                0.925952254     -171.210702
9.283                0.925811208     -171.545114
9.284                0.925670711     -171.879661
9.285                0.925530775     -172.214339
9.286                0.925391413     -172.549142
9.287                0.925252638     -172.884064
9.288                0.925114463       -173.2191
9.289                0.924976901     -173.554244
9.29                 0.924839963      -173.88949
9.291                0.924703662     -174.224833
9.292                0.924568012     -174.560268
9.293                0.924433024     -174.895787
9.294                 0.92429871     -175.231387
9.295                0.924165083     -175.567061
9.296                0.924032155     -175.902803
9.297                0.923899939     -176.238609
9.298                0.923768445     -176.574471
9.299                0.923637687     -176.910385
9.3                  0.923507676     -177.246345
9.301                0.923378424     -177.582344
9.302                0.923249943     -177.918379
9.303                0.923122244     -178.254442
9.304                0.922995338     -178.590528
9.305                0.922869238     -178.926631
9.306                0.922743955     -179.262747
9.307                  0.9226195     -179.598868
9.308                0.922495883     -179.934989
9.309                0.922373117      179.728894
9.31                 0.922251212      179.392789
9.311                0.922130179      179.056701
9.312                0.922010029      178.720635
9.313                0.921890772      178.384597
9.314                0.921772419      178.048592
9.315                 0.92165498      177.712627
9.316                0.921538466      177.376707
9.317                0.921422887      177.040838
9.318                0.921308253      176.705025
9.319                0.921194574      176.369274
9.32                 0.921081859      176.033591
9.321                0.920970119      175.697981
9.322                0.920859363      175.362449
9.323                  0.9207496      175.027003
9.324                 0.92064084      174.691646
9.325                0.920533092      174.356384
9.326                0.920426365      174.021224
9.327                0.920320668       173.68617
9.328                 0.92021601      173.351229
9.329                0.920112399      173.016405
9.33                 0.920009844      172.681705
9.331                0.919908354      172.347133
9.332                0.919807936      172.012696
9.333                0.919708599      171.678398
9.334                0.919610351      171.344246
9.335                0.919513199      171.010244
9.336                0.919417151      170.676398
9.337                0.919322215      170.342714
9.338                0.919228398      170.009197
9.339                0.919135708      169.675851
9.34                 0.919044151      169.342684
9.341                0.918953734      169.009699
9.342                0.918864465      168.676902
9.343                0.918776349      168.344299
9.344                0.918689394      168.011895
9.345                0.918603605      167.679694
9.346                 0.91851899      167.347703
9.347                0.918435553      167.015927
9.348                0.918353301       166.68437
9.349                 0.91827224      166.353038
9.35                 0.918192375      166.021936
9.351                0.918113711      165.691069
9.352                0.918036254      165.360442
9.353                 0.91796001       165.03006
9.354                0.917884982      164.699929
9.355                0.917811176      164.370053
9.356                0.917738596      164.040438
9.357                0.917667247      163.711087
9.358                0.917597133      163.382007
9.359                0.917528259      163.053202
9.36                 0.917460629      162.724677
9.361                0.917394245      162.396437
9.362                0.917329113      162.068487
9.363                0.917265235      161.740832
9.364                0.917202615      161.413475
9.365                0.917141257      161.086423
9.366                0.917081163       160.75968
9.367                0.917022336       160.43325
9.368                 0.91696478      160.107138
9.369                0.916908496      159.781349
9.37                 0.916853487      159.455888
9.371                0.916799756      159.130758
9.372                0.916747305      158.805965
9.373                0.916696136      158.481513
9.374                 0.91664625      158.157406
9.375                 0.91659765       157.83365
9.376                0.916550336      157.510247
9.377                0.916504311      157.187204
9.378                0.916459576      156.864523
9.379                0.916416132       156.54221
9.38                 0.916373979      156.220268
9.381                0.916333119      155.898703
9.382                0.916293553      155.577517
9.383                 0.91625528      155.256716
9.384                0.916218302      154.936304
9.385                0.916182619      154.616283
9.386                 0.91614823       154.29666
9.387                0.916115136      153.977437
9.388                0.916083336      153.658619
9.389                0.916052831      153.340209
9.39                 0.916023619      153.022212
9.391                0.915995701      152.704632
9.392                0.915969075      152.387472
9.393                0.915943741      152.070736
9.394                0.915919698      151.754428
9.395                0.915896944      151.438552
9.396                0.915875479      151.123111
