! TOUCHSTONE file generated by CST DESIGN STUDIO
! Date and time: Tue Feb  4 14:29:03 2025
! Project name: C:\Work\MatlabApps\UnitCellOptimizationMatlab\CST\unitcell.cst
! Tree item: Tasks\Sweep1\SPara1\S-Parameters
! Header version: 2024
! Port assignment regex: !\s*Touchstone port\s*([0-9]+)\s*=\s*(CST MWS port|CST DES external port|CST DES block port)\s*(.+)\s* \(\"(.*)\"\)(\s*mode\s*([0-9]+))?.*
! Touchstone port assignment:
! Touchstone port 1 = CST DES external port 1 ("")
# GHz S MA R 50
9                    0.965387555      -81.290888
9.001                 0.96535513     -81.4328608
9.002                0.965322218     -81.5752464
9.003                0.965288816     -81.7180459
9.004                 0.96525492     -81.8612607
9.005                0.965220528      -82.004892
9.006                0.965185635     -82.1489411
9.007                 0.96515024     -82.2934091
9.008                0.965114338     -82.4382974
9.009                0.965077926     -82.5836072
9.01                 0.965041002     -82.7293398
9.011                0.965003562     -82.8754963
9.012                0.964965603     -83.0220781
9.013                0.964927121     -83.1690865
9.014                0.964888114     -83.3165226
9.015                0.964848578     -83.4643878
9.016                 0.96480851     -83.6126833
9.017                0.964767906     -83.7614103
9.018                0.964726764     -83.9105702
9.019                0.964685081     -84.0601642
9.02                 0.964642853     -84.2101936
9.021                0.964600076     -84.3606596
9.022                0.964556748     -84.5115635
9.023                0.964512866     -84.6629066
9.024                0.964468426     -84.8146901
9.025                0.964423424     -84.9669154
9.026                0.964377859     -85.1195836
9.027                0.964331726     -85.2726961
9.028                0.964285023     -85.4262542
9.029                0.964237746     -85.5802591
9.03                 0.964189891     -85.7347121
9.031                0.964141457     -85.8896145
9.032                0.964092439     -86.0449675
9.033                0.964042834     -86.2007724
9.034                 0.96399264     -86.3570306
9.035                0.963941852     -86.5137432
9.036                0.963890468     -86.6709116
9.037                0.963838485     -86.8285371
9.038                0.963785899     -86.9866208
9.039                0.963732708     -87.1451642
9.04                 0.963678907     -87.3041685
9.041                0.963624495     -87.4636349
9.042                0.963569467     -87.6235648
9.043                0.963513821     -87.7839594
9.044                0.963457553     -87.9448201
9.045                0.963400661      -88.106148
9.046                 0.96334314     -88.2679445
9.047                0.963284989     -88.4302109
9.048                0.963226204     -88.5929483
9.049                0.963166781     -88.7561582
9.05                 0.963106719     -88.9198418
9.051                0.963046012     -89.0840004
9.052                 0.96298466     -89.2486352
9.053                0.962922657     -89.4137475
9.054                0.962860002     -89.5793387
9.055                0.962796692     -89.7454099
9.056                0.962732722     -89.9119625
9.057                0.962668091     -90.0789977
9.058                0.962602795     -90.2465169
9.059                0.962536832     -90.4145212
9.06                 0.962470197     -90.5830119
9.061                0.962402889     -90.7519904
9.062                0.962334903     -90.9214579
9.063                0.962266238     -91.0914156
9.064                0.962196891     -91.2618648
9.065                0.962126857     -91.4328069
9.066                0.962056135      -91.604243
9.067                0.961984721     -91.7761744
9.068                0.961912613     -91.9486024
9.069                0.961839808     -92.1215282
9.07                 0.961766303     -92.2949532
9.071                0.961692094     -92.4688784
9.072                0.961617179     -92.6433053
9.073                0.961541556     -92.8182351
9.074                0.961465222     -92.9936689
9.075                0.961388173     -93.1696081
9.076                0.961310407     -93.3460539
9.077                0.961231921     -93.5230075
9.078                0.961152712     -93.7004702
9.079                0.961072779     -93.8784432
9.08                 0.960992117     -94.0569278
9.081                0.960910725     -94.2359251
9.082                0.960828599     -94.4154365
9.083                0.960745738      -94.595463
9.084                0.960662138     -94.7760061
9.085                0.960577797     -94.9570668
9.086                0.960492712     -95.1386464
9.087                0.960406881     -95.3207461
9.088                0.960320301     -95.5033671
9.089                 0.96023297     -95.6865106
9.09                 0.960144885     -95.8701779
9.091                0.960056044       -96.05437
9.092                0.959966445     -96.2390883
9.093                0.959876084     -96.4243339
9.094                 0.95978496      -96.610108
9.095                0.959693071     -96.7964117
9.096                0.959600413     -96.9832463
9.097                0.959506985     -97.1706129
9.098                0.959412785     -97.3585128
9.099                 0.95931781     -97.5469469
9.1                  0.959222058     -97.7359166
9.101                0.959125527      -97.925423
9.102                0.959028214     -98.1154672
9.103                0.958930118     -98.3060503
9.104                0.958831237     -98.4971736
9.105                0.958731568     -98.6888381
9.106                 0.95863111     -98.8810449
9.107                 0.95852986     -99.0737953
9.108                0.958427816     -99.2670902
9.109                0.958324978     -99.4609309
9.11                 0.958221342     -99.6553184
9.111                0.958116907     -99.8502539
9.112                0.958011672     -100.045738
9.113                0.957905634     -100.241773
9.114                0.957798791     -100.438359
9.115                0.957691143     -100.635497
9.116                0.957582687     -100.833188
9.117                0.957473421     -101.031434
9.118                0.957363345     -101.230235
9.119                0.957252457     -101.429593
9.12                 0.957140755     -101.629508
9.121                0.957028237     -101.829982
9.122                0.956914903     -102.031015
9.123                0.956800751     -102.232609
9.124                 0.95668578     -102.434765
9.125                0.956569988     -102.637483
9.126                0.956453375     -102.840765
9.127                0.956335938     -103.044611
9.128                0.956217677     -103.249023
9.129                0.956098592     -103.454002
9.13                  0.95597868     -103.659548
9.131                0.955857941     -103.865662
9.132                0.955736374     -104.072346
9.133                0.955613977       -104.2796
9.134                0.955490752     -104.487426
9.135                0.955366695     -104.695824
9.136                0.955241807     -104.904794
9.137                0.955116088     -105.114339
9.138                0.954989535     -105.324459
9.139                 0.95486215     -105.535154
9.14                 0.954733931     -105.746426
9.141                0.954604877     -105.958275
9.142                 0.95447499     -106.170702
9.143                0.954344267     -106.383709
9.144                0.954212709     -106.597296
9.145                0.954080316     -106.811463
9.146                0.953947088     -107.026212
9.147                0.953813024     -107.241543
9.148                0.953678124     -107.457458
9.149                0.953542388     -107.673956
9.15                 0.953405817     -107.891039
9.151                 0.95326841     -108.108707
9.152                0.953130168     -108.326962
9.153                0.952991092     -108.545803
9.154                 0.95285118     -108.765232
9.155                0.952710435     -108.985249
9.156                0.952568855     -109.205855
9.157                0.952426442      -109.42705
9.158                0.952283197     -109.648836
9.159                 0.95213912     -109.871212
9.16                 0.951994211      -110.09418
9.161                0.951848472      -110.31774
9.162                0.951701904     -110.541893
9.163                0.951554507     -110.766639
9.164                0.951406282     -110.991979
9.165                0.951257231     -111.217914
9.166                0.951107355     -111.444443
9.167                0.950956654     -111.671568
9.168                0.950805131     -111.899289
9.169                0.950652786     -112.127606
9.17                 0.950499622      -112.35652
9.171                0.950345639     -112.586032
9.172                0.950190839     -112.816141
9.173                0.950035225     -113.046849
9.174                0.949878797     -113.278155
9.175                0.949721558     -113.510061
9.176                0.949563509     -113.742566
9.177                0.949404653     -113.975671
9.178                0.949244991     -114.209376
9.179                0.949084527     -114.443682
9.18                 0.948923261     -114.678588
9.181                0.948761197     -114.914096
9.182                0.948598337     -115.150205
9.183                0.948434684     -115.386916
9.184                0.948270239     -115.624229
9.185                0.948105006     -115.862144
9.186                0.947938988     -116.100661
9.187                0.947772187     -116.339781
9.188                0.947604607     -116.579503
9.189                 0.94743625     -116.819829
9.19                 0.947267119     -117.060757
9.191                0.947097218     -117.302289
9.192                 0.94692655     -117.544423
9.193                0.946755119     -117.787161
9.194                0.946582928     -118.030503
9.195                 0.94640998     -118.274447
9.196                0.946236279     -118.518995
9.197                 0.94606183     -118.764147
9.198                0.945886635     -119.009901
9.199                  0.9457107     -119.256259
9.2                  0.945534027      -119.50322
9.201                0.945356621     -119.750785
9.202                0.945178487     -119.998952
9.203                0.944999628     -120.247722
9.204                0.944820049     -120.497094
9.205                0.944639755     -120.747069
9.206                0.944458751     -120.997647
9.207                 0.94427704     -121.248826
9.208                0.944094629     -121.500607
9.209                0.943911521      -121.75299
9.21                 0.943727722     -122.005974
9.211                0.943543237     -122.259559
9.212                0.943358072     -122.513744
9.213                0.943172231     -122.768529
9.214                 0.94298572     -123.023915
9.215                0.942798544     -123.279899
9.216                 0.94261071     -123.536483
9.217                0.942422223     -123.793664
9.218                0.942233089     -124.051444
9.219                0.942043313     -124.309821
9.22                 0.941852903     -124.568796
9.221                0.941661863     -124.828366
9.222                0.941470201     -125.088532
9.223                0.941277922     -125.349293
9.224                0.941085034     -125.610649
9.225                0.940891542     -125.872598
9.226                0.940697454      -126.13514
9.227                0.940502776     -126.398275
9.228                0.940307515     -126.662001
9.229                0.940111678     -126.926318
9.23                 0.939915272     -127.191225
9.231                0.939718305     -127.456721
9.232                0.939520783     -127.722806
9.233                0.939322715     -127.989477
9.234                0.939124107     -128.256736
9.235                0.938924968     -128.524579
9.236                0.938725304     -128.793007
9.237                0.938525125     -129.062019
9.238                0.938324437     -129.331613
9.239                0.938123249     -129.601789
9.24                  0.93792157     -129.872545
9.241                0.937719406      -130.14388
9.242                0.937516768     -130.415793
9.243                0.937313662     -130.688283
9.244                0.937110099     -130.961349
9.245                0.936906086     -131.234989
9.246                0.936701632     -131.509203
9.247                0.936496746     -131.783988
9.248                0.936291437     -132.059344
9.249                0.936085715     -132.335268
9.25                 0.935879588     -132.611761
9.251                0.935673066      -132.88882
9.252                0.935466158     -133.166444
9.253                0.935258874     -133.444631
9.254                0.935051223      -133.72338
9.255                0.934843216      -134.00269
9.256                0.934634861     -134.282558
9.257                0.934426169     -134.562984
9.258                 0.93421715     -134.843965
9.259                0.934007814       -135.1255
9.26                  0.93379817     -135.407586
9.261                0.933588231     -135.690224
9.262                0.933378005      -135.97341
9.263                0.933167504     -136.257143
9.264                0.932956738     -136.541421
9.265                0.932745718     -136.826242
9.266                0.932534454     -137.111604
9.267                0.932322958     -137.397505
9.268                 0.93211124     -137.683944
9.269                0.931899312     -137.970918
9.27                 0.931687184     -138.258426
9.271                0.931474869     -138.546465
9.272                0.931262377     -138.835033
9.273                0.931049719     -139.124128
9.274                0.930836909     -139.413747
9.275                0.930623956      -139.70389
9.276                0.930410872     -139.994553
9.277                0.930197671     -140.285734
9.278                0.929984363     -140.577431
9.279                 0.92977096     -140.869642
9.28                 0.929557475     -141.162363
9.281                0.929343919     -141.455594
9.282                0.929130305     -141.749331
9.283                0.928916645     -142.043572
9.284                0.928702951     -142.338314
9.285                0.928489237     -142.633555
9.286                0.928275514     -142.929293
9.287                0.928061795     -143.225524
9.288                0.927848093     -143.522246
9.289                 0.92763442     -143.819457
9.29                  0.92742079     -144.117154
9.291                0.927207214     -144.415333
9.292                0.926993707     -144.713993
9.293                0.926780281      -145.01313
9.294                 0.92656695     -145.312742
9.295                0.926353726     -145.612825
9.296                0.926140622     -145.913377
9.297                0.925927652     -146.214395
9.298                 0.92571483     -146.515877
9.299                0.925502168     -146.817818
9.3                   0.92528968     -147.120216
9.301                 0.92507738     -147.423067
9.302                0.924865281      -147.72637
9.303                0.924653397      -148.03012
9.304                0.924441741     -148.334314
9.305                0.924230328      -148.63895
9.306                 0.92401917     -148.944024
9.307                0.923808282     -149.249532
9.308                0.923597677     -149.555472
9.309                 0.92338737      -149.86184
9.31                 0.923177373     -150.168633
9.311                0.922967703     -150.475847
9.312                0.922758371     -150.783479
9.313                0.922549393     -151.091525
9.314                0.922340781     -151.399982
9.315                0.922132552     -151.708847
9.316                0.921924717     -152.018116
9.317                0.921717293     -152.327784
9.318                0.921510292      -152.63785
9.319                0.921303728     -152.948308
9.32                 0.921097618     -153.259156
9.321                0.920891973      -153.57039
9.322                0.920686809     -153.882005
9.323                 0.92048214     -154.193998
9.324                0.920277979     -154.506366
9.325                0.920074342     -154.819104
9.326                0.919871243     -155.132208
9.327                0.919668696     -155.445676
9.328                0.919466714     -155.759502
9.329                0.919265313     -156.073683
9.33                 0.919064507     -156.388214
9.331                 0.91886431     -156.703093
9.332                0.918664735     -157.018314
9.333                0.918465799     -157.333874
9.334                0.918267514     -157.649768
9.335                0.918069895     -157.965993
9.336                0.917872956     -158.282544
9.337                0.917676711     -158.599417
9.338                0.917481175     -158.916608
9.339                0.917286361     -159.234113
9.34                 0.917092285     -159.551927
9.341                0.916898959     -159.870047
9.342                0.916706398     -160.188467
9.343                0.916514617     -160.507183
9.344                0.916323628     -160.826192
9.345                0.916133446     -161.145488
9.346                0.915944085     -161.465067
9.347                 0.91575556     -161.784926
9.348                0.915567882     -162.105058
9.349                0.915381068     -162.425461
9.35                 0.915195129     -162.746128
9.351                0.915010081     -163.067057
9.352                0.914825936     -163.388242
9.353                0.914642709     -163.709678
9.354                0.914460412     -164.031361
9.355                 0.91427906     -164.353287
9.356                0.914098665     -164.675451
9.357                0.913919242     -164.997847
9.358                0.913740803     -165.320472
9.359                0.913563361     -165.643321
9.36                 0.913386931     -165.966389
9.361                0.913211524     -166.289671
9.362                0.913037154     -166.613162
9.363                0.912863834     -166.936858
9.364                0.912691577     -167.260753
9.365                0.912520396     -167.584844
9.366                0.912350303     -167.909124
9.367                 0.91218131      -168.23359
9.368                0.912013431     -168.558237
9.369                0.911846678     -168.883059
9.37                 0.911681063     -169.208051
9.371                0.911516599     -169.533209
9.372                0.911353297     -169.858528
9.373                 0.91119117     -170.184002
9.374                0.911030229     -170.509627
9.375                0.910870487     -170.835398
9.376                0.910711956      -171.16131
9.377                0.910554646     -171.487358
9.378                0.910398569     -171.813536
9.379                0.910243738      -172.13984
9.38                 0.910090163     -172.466265
9.381                0.909937855     -172.792805
9.382                0.909786825     -173.119455
9.383                0.909637086     -173.446212
9.384                0.909488646     -173.773068
9.385                0.909341518      -174.10002
9.386                0.909195711     -174.427062
9.387                0.909051236     -174.754189
9.388                0.908908104     -175.081395
9.389                0.908766325     -175.408677
9.39                 0.908625909     -175.736028
9.391                0.908486865     -176.063443
9.392                0.908349205     -176.390918
9.393                0.908212936     -176.718447
9.394                 0.90807807     -177.046025
9.395                0.907944615     -177.373647
9.396                0.907812581     -177.701308
