! TOUCHSTONE file generated by CST DESIGN STUDIO
! Date and time: Tue Feb  4 14:22:59 2025
! Project name: C:\Work\MatlabApps\UnitCellOptimizationMatlab\CST\unitcell.cst
! Tree item: Tasks\Sweep1\SPara1\S-Parameters
! Header version: 2024
! Port assignment regex: !\s*Touchstone port\s*([0-9]+)\s*=\s*(CST MWS port|CST DES external port|CST DES block port)\s*(.+)\s* \(\"(.*)\"\)(\s*mode\s*([0-9]+))?.*
! Touchstone port assignment:
! Touchstone port 1 = CST DES external port 1 ("")
# GHz S MA R 50
9                    0.967491253     -81.7366075
9.001                0.967408625     -81.8694317
9.002                0.967325791     -82.0026051
9.003                0.967242748     -82.1361288
9.004                0.967159498     -82.2700038
9.005                0.967076039     -82.4042313
9.006                0.966992372     -82.5388122
9.007                0.966908496     -82.6737476
9.008                0.966824411     -82.8090387
9.009                0.966740116     -82.9446863
9.01                 0.966655611     -83.0806917
9.011                0.966570896     -83.2170559
9.012                 0.96648597     -83.3537798
9.013                0.966400833     -83.4908647
9.014                0.966315485     -83.6283116
9.015                0.966229925     -83.7661215
9.016                0.966144153     -83.9042956
9.017                 0.96605817     -84.0428348
9.018                0.965971974     -84.1817404
9.019                0.965885565     -84.3210132
9.02                 0.965798943     -84.4606546
9.021                0.965712108     -84.6006654
9.022                0.965625059     -84.7410468
9.023                0.965537796     -84.8817999
9.024                 0.96545032     -85.0229258
9.025                0.965362629     -85.1644256
9.026                0.965274723     -85.3063002
9.027                0.965186603      -85.448551
9.028                0.965098267     -85.5911788
9.029                0.965009716     -85.7341849
9.03                  0.96492095     -85.8775703
9.031                0.964831969     -86.0213361
9.032                0.964742771     -86.1654834
9.033                0.964653357     -86.3100133
9.034                0.964563727     -86.4549269
9.035                 0.96447388     -86.6002253
9.036                0.964383817     -86.7459096
9.037                0.964293537      -86.891981
9.038                0.964203041     -87.0384404
9.039                0.964112327      -87.185289
9.04                 0.964021395      -87.332528
9.041                0.963930247     -87.4801584
9.042                0.963838881     -87.6281813
9.043                0.963747297     -87.7765979
9.044                0.963655496     -87.9254092
9.045                0.963563476     -88.0746163
9.046                0.963471239     -88.2242205
9.047                0.963378784     -88.3742227
9.048                0.963286111     -88.5246241
9.049                 0.96319322     -88.6754257
9.05                  0.96310011     -88.8266288
9.051                0.963006782     -88.9782345
9.052                0.962913236     -89.1302437
9.053                0.962819472     -89.2826578
9.054                0.962725489     -89.4354777
9.055                0.962631288     -89.5887045
9.056                0.962536868     -89.7423395
9.057                0.962442231     -89.8963837
9.058                0.962347375     -90.0508382
9.059                  0.9622523     -90.2057041
9.06                 0.962157008     -90.3609826
9.061                0.962061497     -90.5166748
9.062                0.961965768     -90.6727818
9.063                0.961869821     -90.8293047
9.064                0.961773656     -90.9862446
9.065                0.961677273     -91.1436026
9.066                0.961580672     -91.3013799
9.067                0.961483854     -91.4595776
9.068                0.961386818     -91.6181968
9.069                0.961289565     -91.7772385
9.07                 0.961192095      -91.936704
9.071                0.961094407     -92.0965943
9.072                0.960996503     -92.2569105
9.073                0.960898382     -92.4176539
9.074                0.960800044     -92.5788253
9.075                 0.96070149     -92.7404261
9.076                 0.96060272     -92.9024572
9.077                0.960503734     -93.0649199
9.078                0.960404533     -93.2278151
9.079                0.960305116     -93.3911441
9.08                 0.960205485     -93.5549079
9.081                0.960105638     -93.7191077
9.082                0.960005577     -93.8837445
9.083                0.959905302     -94.0488194
9.084                0.959804813     -94.2143336
9.085                0.959704111     -94.3802882
9.086                0.959603196     -94.5466842
9.087                0.959502068     -94.7135227
9.088                0.959400727     -94.8808049
9.089                0.959299175     -95.0485319
9.09                 0.959197411     -95.2167047
9.091                0.959095436     -95.3853244
9.092                 0.95899325     -95.5543922
9.093                0.958890855     -95.7239091
9.094                0.958788249     -95.8938762
9.095                0.958685435     -96.0642946
9.096                0.958582412     -96.2351653
9.097                 0.95847918     -96.4064896
9.098                0.958375741     -96.5782683
9.099                0.958272095     -96.7505027
9.1                  0.958168243     -96.9231938
9.101                0.958064184     -97.0963427
9.102                0.957959921     -97.2699504
9.103                0.957855452      -97.444018
9.104                 0.95775078     -97.6185466
9.105                0.957645905     -97.7935372
9.106                0.957540826     -97.9689909
9.107                0.957435546     -98.1449088
9.108                0.957330065     -98.3212919
9.109                0.957224383     -98.4981412
9.11                 0.957118501     -98.6754579
9.111                 0.95701242     -98.8532429
9.112                0.956906141     -99.0314973
9.113                0.956799665     -99.2102222
9.114                0.956692992     -99.3894185
9.115                0.956586123     -99.5690873
9.116                0.956479059     -99.7492297
9.117                0.956371802     -99.9298466
9.118                0.956264351     -100.110939
9.119                0.956156708     -100.292508
9.12                 0.956048874     -100.474555
9.121                 0.95594085      -100.65708
9.122                0.955832636     -100.840085
9.123                0.955724234     -101.023571
9.124                0.955615645     -101.207538
9.125                0.955506869     -101.391988
9.126                0.955397909     -101.576921
9.127                0.955288764     -101.762339
9.128                0.955179437     -101.948242
9.129                0.955069927     -102.134632
9.13                 0.954960237      -102.32151
9.131                0.954850368     -102.508876
9.132                 0.95474032     -102.696731
9.133                0.954630095     -102.885077
9.134                0.954519694     -103.073914
9.135                0.954409119     -103.263243
9.136                 0.95429837     -103.453066
9.137                 0.95418745     -103.643383
9.138                0.954076359     -103.834194
9.139                0.953965098     -104.025502
9.14                  0.95385367     -104.217307
9.141                0.953742075     -104.409609
9.142                0.953630315      -104.60241
9.143                0.953518391      -104.79571
9.144                0.953406306     -104.989511
9.145                0.953294059     -105.183814
9.146                0.953181654     -105.378618
9.147                0.953069091     -105.573926
9.148                0.952956372     -105.769738
9.149                0.952843499     -105.966054
9.15                 0.952730472     -106.162876
9.151                0.952617295     -106.360205
9.152                0.952503969     -106.558041
9.153                0.952390494     -106.756385
9.154                0.952276874     -106.955238
9.155                 0.95216311       -107.1546
9.156                0.952049203     -107.354474
9.157                0.951935155     -107.554858
9.158                0.951820969     -107.755755
9.159                0.951706645     -107.957165
9.16                 0.951592187     -108.159088
9.161                0.951477596     -108.361526
9.162                0.951362873     -108.564479
9.163                0.951248022     -108.767948
9.164                0.951133043     -108.971933
9.165                0.951017939     -109.176436
9.166                0.950902712     -109.381457
9.167                0.950787364     -109.586997
9.168                0.950671897     -109.793056
9.169                0.950556313     -109.999636
9.17                 0.950440615     -110.206736
9.171                0.950324804     -110.414358
9.172                0.950208883     -110.622502
9.173                0.950092855     -110.831168
9.174                0.949976721     -111.040359
9.175                0.949860483     -111.250073
9.176                0.949744145     -111.460312
9.177                0.949627708     -111.671076
9.178                0.949511175     -111.882366
9.179                0.949394549     -112.094183
9.18                 0.949277831     -112.306527
9.181                0.949161025     -112.519398
9.182                0.949044132     -112.732797
9.183                0.948927156     -112.946725
9.184                0.948810099     -113.161182
9.185                0.948692963     -113.376169
9.186                0.948575752     -113.591686
9.187                0.948458468     -113.807734
9.188                0.948341113     -114.024313
9.189                0.948223691     -114.241423
9.19                 0.948106204     -114.459066
9.191                0.947988656     -114.677241
9.192                0.947871048     -114.895949
9.193                0.947753383      -115.11519
9.194                0.947635666     -115.334965
9.195                0.947517898     -115.555274
9.196                0.947400083     -115.776118
9.197                0.947282223     -115.997496
9.198                0.947164322      -116.21941
9.199                0.947046383     -116.441859
9.2                  0.946928408     -116.664844
9.201                0.946810402     -116.888365
9.202                0.946692366     -117.112422
9.203                0.946574305     -117.337016
9.204                0.946456222     -117.562147
9.205                0.946338119     -117.787816
9.206                    0.94622     -118.014021
9.207                0.946101869     -118.240764
9.208                0.945983729     -118.468045
9.209                0.945865582     -118.695864
9.21                 0.945747434      -118.92422
9.211                0.945629286     -119.153115
9.212                0.945511143     -119.382549
9.213                0.945393009     -119.612521
9.214                0.945274886     -119.843031
9.215                0.945156778     -120.074081
9.216                0.945038689     -120.305668
9.217                0.944920623     -120.537795
9.218                0.944802583     -120.770461
9.219                0.944684573     -121.003665
9.22                 0.944566596     -121.237408
9.221                0.944448657      -121.47169
9.222                 0.94433076      -121.70651
9.223                0.944212908     -121.941869
9.224                0.944095105     -122.177767
9.225                0.943977355     -122.414203
9.226                0.943859662     -122.651178
9.227                 0.94374203     -122.888691
9.228                0.943624463     -123.126741
9.229                0.943506965      -123.36533
9.23                 0.943389541     -123.604457
9.231                0.943272193     -123.844121
9.232                0.943154927     -124.084322
9.233                0.943037747      -124.32506
9.234                0.942920656     -124.566335
9.235                 0.94280366     -124.808146
9.236                0.942686762     -125.050494
9.237                0.942569967     -125.293377
9.238                0.942453278     -125.536796
9.239                0.942336701      -125.78075
9.24                  0.94222024     -126.025238
9.241                0.942103899     -126.270261
9.242                0.941987683     -126.515817
9.243                0.941871596     -126.761907
9.244                0.941755643      -127.00853
9.245                0.941639828     -127.255685
9.246                0.941524156     -127.503372
9.247                0.941408632     -127.751591
9.248                0.941293259      -128.00034
9.249                0.941178044     -128.249619
9.25                  0.94106299     -128.499428
9.251                0.940948102     -128.749766
9.252                0.940833385     -129.000632
9.253                0.940718845     -129.252025
9.254                0.940604485     -129.503946
9.255                 0.94049031     -129.756392
9.256                0.940376326     -130.009364
9.257                0.940262537     -130.262861
9.258                0.940148949     -130.516881
9.259                0.940035565     -130.771425
9.26                 0.939922392      -131.02649
9.261                0.939809435     -131.282077
9.262                0.939696697     -131.538185
9.263                0.939584185     -131.794811
9.264                0.939471903     -132.051957
9.265                0.939359857      -132.30962
9.266                0.939248051     -132.567799
9.267                0.939136492     -132.826495
9.268                0.939025183     -133.085704
9.269                0.938914131     -133.345428
9.27                  0.93880334     -133.605663
9.271                0.938692816      -133.86641
9.272                0.938582564     -134.127667
9.273                0.938472589     -134.389433
9.274                0.938362897     -134.651707
9.275                0.938253493     -134.914487
9.276                0.938144383     -135.177773
9.277                0.938035571     -135.441563
9.278                0.937927064     -135.705855
9.279                0.937818866     -135.970649
9.28                 0.937710983     -136.235943
9.281                0.937603421     -136.501736
9.282                0.937496185     -136.768026
9.283                0.937389281     -137.034812
9.284                0.937282713     -137.302092
9.285                0.937176488     -137.569866
9.286                0.937070612     -137.838131
9.287                0.936965089     -138.106886
9.288                0.936859925     -138.376129
9.289                0.936755126     -138.645859
9.29                 0.936650698     -138.916074
9.291                0.936546646     -139.186772
9.292                0.936442975     -139.457953
9.293                0.936339692     -139.729613
9.294                0.936236803     -140.001752
9.295                0.936134311     -140.274368
9.296                0.936032225     -140.547458
9.297                0.935930548     -140.821022
9.298                0.935829287     -141.095057
9.299                0.935728448     -141.369561
9.3                  0.935628036     -141.644533
9.301                0.935528057      -141.91997
9.302                0.935428517     -142.195871
9.303                0.935329421     -142.472234
9.304                0.935230775     -142.749056
9.305                0.935132585     -143.026336
9.306                0.935034857     -143.304072
9.307                0.934937596     -143.582261
9.308                0.934840809     -143.860901
9.309                  0.9347445      -144.13999
9.31                 0.934648676     -144.419527
9.311                0.934553342     -144.699508
9.312                0.934458504     -144.979933
9.313                0.934364169     -145.260797
9.314                0.934270341     -145.542099
9.315                0.934177026     -145.823838
9.316                0.934084231     -146.106009
9.317                 0.93399196     -146.388612
9.318                 0.93390022     -146.671644
9.319                0.933809017     -146.955101
9.32                 0.933718355     -147.238983
9.321                0.933628242     -147.523286
9.322                0.933538681     -147.808007
9.323                0.933449681     -148.093145
9.324                0.933361244     -148.378697
9.325                0.933273379     -148.664659
9.326                0.933186089      -148.95103
9.327                0.933099382     -149.237807
9.328                0.933013262     -149.524988
9.329                0.932927735     -149.812568
9.33                 0.932842807     -150.100546
9.331                0.932758483      -150.38892
9.332                0.932674769     -150.677685
9.333                0.932591671      -150.96684
9.334                0.932509194     -151.256381
9.335                0.932427343     -151.546306
9.336                0.932346124     -151.836612
9.337                0.932265543     -152.127296
9.338                0.932185604     -152.418354
9.339                0.932106314     -152.709785
9.34                 0.932027678     -153.001584
9.341                0.931949701     -153.293749
9.342                0.931872389     -153.586277
9.343                0.931795747     -153.879165
9.344                 0.93171978      -154.17241
9.345                0.931644493     -154.466007
9.346                0.931569892     -154.759956
9.347                0.931495982     -155.054251
9.348                0.931422769      -155.34889
9.349                0.931350257      -155.64387
9.35                 0.931278451     -155.939188
9.351                0.931207357     -156.234839
9.352                0.931136979     -156.530822
9.353                0.931067324     -156.827131
9.354                0.930998394     -157.123765
9.355                0.930930197      -157.42072
9.356                0.930862736     -157.717992
9.357                0.930796017     -158.015578
9.358                0.930730044     -158.313474
9.359                0.930664822     -158.611677
9.36                 0.930600356     -158.910184
9.361                 0.93053665      -159.20899
9.362                 0.93047371     -159.508093
9.363                 0.93041154     -159.807488
9.364                0.930350144     -160.107173
9.365                0.930289528     -160.407143
9.366                0.930229695     -160.707395
9.367                 0.93017065     -161.007925
9.368                0.930112397     -161.308729
9.369                0.930054942     -161.609805
9.37                 0.929998287     -161.911147
9.371                0.929942438     -162.212753
9.372                0.929887399     -162.514618
9.373                0.929833173     -162.816738
9.374                0.929779765     -163.119111
9.375                0.929727179     -163.421732
9.376                0.929675419     -163.724597
9.377                0.929624489     -164.027702
9.378                0.929574393     -164.331043
9.379                0.929525134     -164.634617
9.38                 0.929476717     -164.938419
9.381                0.929429145     -165.242446
9.382                0.929382421     -165.546694
9.383                 0.92933655     -165.851158
9.384                0.929291536     -166.155835
9.385                 0.92924738      -166.46072
9.386                0.929204087      -166.76581
9.387                0.929161661       -167.0711
9.388                0.929120104     -167.376587
9.389                 0.92907942     -167.682265
9.39                 0.929039612     -167.988132
9.391                0.929000683     -168.294183
9.392                0.928962636     -168.600414
9.393                0.928925475      -168.90682
9.394                0.928889201     -169.213398
9.395                0.928853818     -169.520144
9.396                0.928819329     -169.827052
