! TOUCHSTONE file generated by CST DESIGN STUDIO
! Date and time: Tue Feb  4 14:23:10 2025
! Project name: C:\Work\MatlabApps\UnitCellOptimizationMatlab\CST\unitcell.cst
! Tree item: Tasks\Sweep1\SPara1\S-Parameters
! Header version: 2024
! Port assignment regex: !\s*Touchstone port\s*([0-9]+)\s*=\s*(CST MWS port|CST DES external port|CST DES block port)\s*(.+)\s* \(\"(.*)\"\)(\s*mode\s*([0-9]+))?.*
! Touchstone port assignment:
! Touchstone port 1 = CST DES external port 1 ("")
# GHz S MA R 50
9                    0.973718199     -63.8052287
9.001                0.973666007     -63.8959629
9.002                0.973613663     -63.9869164
9.003                0.973561167     -64.0780898
9.004                0.973508518     -64.1694838
9.005                0.973455716     -64.2610992
9.006                0.973402761     -64.3529365
9.007                0.973349651     -64.4449966
9.008                0.973296386     -64.5372802
9.009                0.973242966     -64.6297879
9.01                  0.97318939     -64.7225205
9.011                0.973135658     -64.8154787
9.012                0.973081769     -64.9086633
9.013                0.973027722     -65.0020749
9.014                0.972973517     -65.0957143
9.015                0.972919153     -65.1895822
9.016                0.972864629     -65.2836794
9.017                0.972809946     -65.3780066
9.018                0.972755103     -65.4725644
9.019                0.972700098     -65.5673538
9.02                 0.972644932     -65.6623754
9.021                0.972589604     -65.7576299
9.022                0.972534113     -65.8531181
9.023                0.972478459     -65.9488408
9.024                0.972422641     -66.0447987
9.025                0.972366659     -66.1409925
9.026                0.972310511     -66.2374231
9.027                0.972254198     -66.3340911
9.028                0.972197719     -66.4309974
9.029                0.972141074     -66.5281428
9.03                 0.972084261     -66.6255278
9.031                 0.97202728     -66.7231535
9.032                 0.97197013     -66.8210204
9.033                0.971912812     -66.9191295
9.034                0.971855324     -67.0174814
9.035                0.971797666      -67.116077
9.036                0.971739837     -67.2149171
9.037                0.971681837     -67.3140023
9.038                0.971623665     -67.4133336
9.039                 0.97156532     -67.5129117
9.04                 0.971506802     -67.6127374
9.041                0.971448111     -67.7128115
9.042                0.971389245     -67.8131347
9.043                0.971330205      -67.913708
9.044                0.971270989     -68.0145321
9.045                0.971211597     -68.1156078
9.046                0.971152028     -68.2169359
9.047                0.971092282     -68.3185172
9.048                0.971032359     -68.4203526
9.049                0.970972257     -68.5224428
9.05                 0.970911976     -68.6247887
9.051                0.970851516     -68.7273912
9.052                0.970790875     -68.8302509
9.053                0.970730054     -68.9333688
9.054                0.970669052     -69.0367457
9.055                0.970607867     -69.1403824
9.056                  0.9705465     -69.2442797
9.057                 0.97048495     -69.3484385
9.058                0.970423217     -69.4528597
9.059                0.970361299      -69.557544
9.06                 0.970299196     -69.6624924
9.061                0.970236908     -69.7677056
9.062                0.970174434     -69.8731846
9.063                0.970111773     -69.9789301
9.064                0.970048925      -70.084943
9.065                0.969985889     -70.1912242
9.066                0.969922664     -70.2977746
9.067                0.969859251      -70.404595
9.068                0.969795648     -70.5116863
9.069                0.969731855     -70.6190493
9.07                 0.969667871     -70.7266849
9.071                0.969603696      -70.834594
9.072                0.969539329     -70.9427775
9.073                0.969474769     -71.0512363
9.074                0.969410016     -71.1599712
9.075                0.969345069     -71.2689831
9.076                0.969279928     -71.3782729
9.077                0.969214592     -71.4878415
9.078                0.969149061     -71.5976898
9.079                0.969083333     -71.7078187
9.08                 0.969017409     -71.8182291
9.081                0.968951288     -71.9289219
9.082                0.968884968     -72.0398979
9.083                0.968818451     -72.1511582
9.084                0.968751734     -72.2627036
9.085                0.968684817      -72.374535
9.086                0.968617701     -72.4866533
9.087                0.968550383     -72.5990595
9.088                0.968482864     -72.7117544
9.089                0.968415143     -72.8247391
9.09                  0.96834722     -72.9380143
9.091                0.968279093     -73.0515811
9.092                0.968210763     -73.1654404
9.093                0.968142229     -73.2795931
9.094                0.968073489     -73.3940401
9.095                0.968004544     -73.5087824
9.096                0.967935393      -73.623821
9.097                0.967866036     -73.7391567
9.098                0.967796471     -73.8547905
9.099                0.967726698     -73.9707234
9.1                  0.967656717     -74.0869563
9.101                0.967586527     -74.2034902
9.102                0.967516128      -74.320326
9.103                0.967445519     -74.4374647
9.104                0.967374699     -74.5549072
9.105                0.967303667     -74.6726545
9.106                0.967232424     -74.7907076
9.107                0.967160969     -74.9090675
9.108                0.967089301      -75.027735
9.109                0.967017419     -75.1467113
9.11                 0.966945323     -75.2659973
9.111                0.966873013     -75.3855938
9.112                0.966800488     -75.5055021
9.113                0.966727747     -75.6257229
9.114                0.966654789     -75.7462574
9.115                0.966581615     -75.8671064
9.116                0.966508224      -75.988271
9.117                0.966434614     -76.1097522
9.118                0.966360787      -76.231551
9.119                 0.96628674     -76.3536684
9.12                 0.966212474     -76.4761054
9.121                0.966137987     -76.5988629
9.122                 0.96606328     -76.7219421
9.123                0.965988352     -76.8453438
9.124                0.965913203     -76.9690692
9.125                0.965837831     -77.0931192
9.126                0.965762236     -77.2174949
9.127                0.965686419     -77.3421972
9.128                0.965610377     -77.4672273
9.129                0.965534111      -77.592586
9.13                 0.965457621     -77.7182745
9.131                0.965380905     -77.8442938
9.132                0.965303963     -77.9706449
9.133                0.965226795     -78.0973288
9.134                0.965149401     -78.2243467
9.135                0.965071779     -78.3516994
9.136                0.964993929     -78.4793881
9.137                 0.96491585     -78.6074138
9.138                0.964837544     -78.7357776
9.139                0.964759007     -78.8644804
9.14                 0.964680241     -78.9935235
9.141                0.964601245     -79.1229077
9.142                0.964522018     -79.2526342
9.143                 0.96444256      -79.382704
9.144                 0.96436287     -79.5131182
9.145                0.964282948     -79.6438778
9.146                0.964202794     -79.7749839
9.147                0.964122406     -79.9064376
9.148                0.964041785       -80.03824
9.149                 0.96396093     -80.1703921
9.15                 0.963879841     -80.3028949
9.151                0.963798517     -80.4357496
9.152                0.963716957     -80.5689573
9.153                0.963635162     -80.7025189
9.154                0.963553131     -80.8364357
9.155                0.963470863     -80.9707087
9.156                0.963388358     -81.1053389
9.157                0.963305616     -81.2403275
9.158                0.963222637     -81.3756755
9.159                0.963139419     -81.5113841
9.16                 0.963055962     -81.6474543
9.161                0.962972267     -81.7838873
9.162                0.962888332     -81.9206841
9.163                0.962804157     -82.0578458
9.164                0.962719743     -82.1953735
9.165                0.962635088     -82.3332684
9.166                0.962550192     -82.4715315
9.167                0.962465055     -82.6101639
9.168                0.962379676     -82.7491668
9.169                0.962294056     -82.8885413
9.17                 0.962208193     -83.0282884
9.171                0.962122088     -83.1684094
9.172                 0.96203574     -83.3089052
9.173                0.961949148     -83.4497771
9.174                0.961862314     -83.5910261
9.175                0.961775235     -83.7326534
9.176                0.961687912       -83.87466
9.177                0.961600345     -84.0170472
9.178                0.961512534      -84.159816
9.179                0.961424477     -84.3029676
9.18                 0.961336175     -84.4465031
9.181                0.961247628     -84.5904236
9.182                0.961158834     -84.7347303
9.183                0.961069795     -84.8794242
9.184                 0.96098051     -85.0245065
9.185                0.960890978     -85.1699785
9.186                0.960801199     -85.3158411
9.187                0.960711174     -85.4620955
9.188                0.960620901     -85.6087429
9.189                0.960530381     -85.7557845
9.19                 0.960439614     -85.9032212
9.191                0.960348598     -86.0510544
9.192                0.960257335     -86.1992851
9.193                0.960165824     -86.3479145
9.194                0.960074065     -86.4969437
9.195                0.959982057      -86.646374
9.196                0.959889801     -86.7962063
9.197                0.959797296     -86.9464419
9.198                0.959704543     -87.0970819
9.199                0.959611541     -87.2481275
9.2                  0.959518289     -87.3995799
9.201                0.959424789     -87.5514401
9.202                 0.95933104     -87.7037093
9.203                0.959237041     -87.8563887
9.204                0.959142793     -88.0094795
9.205                0.959048296     -88.1629828
9.206                0.958953549     -88.3168997
9.207                0.958858554     -88.4712314
9.208                0.958763308      -88.625979
9.209                0.958667814     -88.7811438
9.21                  0.95857207     -88.9367269
9.211                0.958476076     -89.0927294
9.212                0.958379833     -89.2491525
9.213                0.958283341     -89.4059973
9.214                  0.9581866      -89.563265
9.215                 0.95808961     -89.7209568
9.216                 0.95799237     -89.8790739
9.217                0.957894881     -90.0376172
9.218                0.957797144     -90.1965882
9.219                0.957699157     -90.3559878
9.22                 0.957600922     -90.5158173
9.221                0.957502439     -90.6760778
9.222                0.957403706     -90.8367704
9.223                0.957304726     -90.9978964
9.224                0.957205498     -91.1594569
9.225                0.957106021      -91.321453
9.226                0.957006298     -91.4838859
9.227                0.956906326     -91.6467567
9.228                0.956806107     -91.8100667
9.229                0.956705642     -91.9738169
9.23                  0.95660493     -92.1380085
9.231                0.956503971     -92.3026427
9.232                0.956402766     -92.4677206
9.233                0.956301315     -92.6332434
9.234                0.956199619     -92.7992122
9.235                0.956097677     -92.9656281
9.236                0.955995491     -93.1324924
9.237                 0.95589306     -93.2998061
9.238                0.955790385     -93.4675705
9.239                0.955687467     -93.6357865
9.24                 0.955584305     -93.8044555
9.241                  0.9554809     -93.9735785
9.242                0.955377253     -94.1431567
9.243                0.955273364     -94.3131912
9.244                0.955169233     -94.4836832
9.245                0.955064862     -94.6546337
9.246                 0.95496025      -94.826044
9.247                0.954855398     -94.9979151
9.248                0.954750307     -95.1702482
9.249                0.954644976     -95.3430444
9.25                 0.954539408     -95.5163048
9.251                0.954433602     -95.6900306
9.252                0.954327559     -95.8642228
9.253                 0.95422128     -96.0388827
9.254                0.954114765     -96.2140112
9.255                0.954008015     -96.3896096
9.256                0.953901031     -96.5656789
9.257                0.953793813     -96.7422203
9.258                0.953686362     -96.9192348
9.259                0.953578679     -97.0967236
9.26                 0.953470765     -97.2746877
9.261                 0.95336262     -97.4531283
9.262                0.953254245     -97.6320464
9.263                0.953145642     -97.8114431
9.264                 0.95303681     -97.9913196
9.265                0.952927752     -98.1716769
9.266                0.952818467      -98.352516
9.267                0.952708956     -98.5338382
9.268                0.952599222     -98.7156443
9.269                0.952489264     -98.8979356
9.27                 0.952379083     -99.0807131
9.271                0.952268681     -99.2639777
9.272                0.952158059     -99.4477307
9.273                0.952047217      -99.631973
9.274                0.951936157     -99.8167058
9.275                 0.95182488      -100.00193
9.276                0.951713387     -100.187647
9.277                0.951601679     -100.373857
9.278                0.951489757     -100.560561
9.279                0.951377623     -100.747762
9.28                 0.951265277     -100.935459
9.281                0.951152721     -101.123653
9.282                0.951039957     -101.312346
9.283                0.950926985     -101.501539
9.284                0.950813806     -101.691233
9.285                0.950700423     -101.881428
9.286                0.950586836     -102.072125
9.287                0.950473047     -102.263327
9.288                0.950359058     -102.455033
9.289                0.950244869     -102.647244
9.29                 0.950130483     -102.839962
9.291                  0.9500159     -103.033188
9.292                0.949901122     -103.226922
9.293                0.949786151     -103.421165
9.294                0.949670989     -103.615919
9.295                0.949555637     -103.811184
9.296                0.949440096     -104.006961
9.297                0.949324368     -104.203251
9.298                0.949208455     -104.400056
9.299                0.949092359     -104.597375
9.3                  0.948976082      -104.79521
9.301                0.948859624     -104.993562
9.302                0.948742989     -105.192432
9.303                0.948626177      -105.39182
9.304                0.948509191     -105.591728
9.305                0.948392033     -105.792156
9.306                0.948274704     -105.993104
9.307                0.948157206     -106.194575
9.308                0.948039542     -106.396569
9.309                0.947921714     -106.599086
9.31                 0.947803722     -106.802128
9.311                 0.94768557     -107.005695
9.312                 0.94756726     -107.209789
9.313                0.947448794     -107.414409
9.314                0.947330173     -107.619556
9.315                  0.9472114     -107.825233
9.316                0.947092478     -108.031438
9.317                0.946973408     -108.238173
9.318                0.946854194      -108.44544
9.319                0.946734836     -108.653237
9.32                 0.946615338     -108.861567
9.321                0.946495701      -109.07043
9.322                0.946375929     -109.279826
9.323                0.946256024     -109.489757
9.324                0.946135988     -109.700222
9.325                0.946015824     -109.911224
9.326                0.945895534     -110.122762
9.327                0.945775121     -110.334836
9.328                0.945654587     -110.547449
9.329                0.945533935       -110.7606
9.33                 0.945413169     -110.974289
9.331                 0.94529229     -111.188519
9.332                0.945171301     -111.403288
9.333                0.945050205     -111.618598
9.334                0.944929005      -111.83445
9.335                0.944807704     -112.050843
9.336                0.944686304     -112.267779
9.337                0.944564809     -112.485258
9.338                0.944443221      -112.70328
9.339                0.944321544     -112.921847
9.34                  0.94419978     -113.140958
9.341                0.944077933     -113.360613
9.342                0.943956006     -113.580815
9.343                0.943834002     -113.801562
9.344                0.943711923     -114.022856
9.345                0.943589774     -114.244696
9.346                0.943467557     -114.467084
9.347                0.943345275      -114.69002
9.348                0.943222933     -114.913503
9.349                0.943100533     -115.137535
9.35                 0.942978079     -115.362116
9.351                0.942855574     -115.587246
9.352                0.942733022     -115.812925
9.353                0.942610426     -116.039154
9.354                 0.94248779     -116.265933
9.355                0.942365117     -116.493263
9.356                 0.94224241     -116.721143
9.357                0.942119674     -116.949575
9.358                0.941996913     -117.178557
9.359                0.941874129     -117.408091
9.36                 0.941751327     -117.638176
9.361                 0.94162851     -117.868813
9.362                0.941505683     -118.100002
9.363                0.941382849     -118.331743
9.364                0.941260011     -118.564037
9.365                0.941137175     -118.796883
9.366                0.941014344     -119.030281
9.367                0.940891522     -119.264232
9.368                0.940768712     -119.498735
9.369                 0.94064592     -119.733791
9.37                 0.940523149       -119.9694
9.371                0.940400404     -120.205562
9.372                0.940277688     -120.442276
9.373                0.940155006     -120.679543
9.374                0.940032362     -120.917363
9.375                0.939909761     -121.155736
9.376                0.939787206     -121.394661
9.377                0.939664703     -121.634138
9.378                0.939542255     -121.874168
9.379                0.939419867      -122.11475
9.38                 0.939297544     -122.355884
9.381                 0.93917529      -122.59757
9.382                0.939053109     -122.839807
9.383                0.938931007     -123.082596
9.384                0.938808988     -123.325937
9.385                0.938687056     -123.569828
9.386                0.938565217      -123.81427
9.387                0.938443475     -124.059262
9.388                0.938321834     -124.304805
9.389                0.938200301     -124.550897
9.39                 0.938078878     -124.797538
9.391                0.937957573     -125.044729
9.392                0.937836388     -125.292468
9.393                 0.93771533     -125.540755
9.394                0.937594403      -125.78959
9.395                0.937473613     -126.038972
9.396                0.937352964     -126.288901
