! TOUCHSTONE file generated by CST DESIGN STUDIO
! Date and time: Tue Feb  4 14:23:12 2025
! Project name: C:\Work\MatlabApps\UnitCellOptimizationMatlab\CST\unitcell.cst
! Tree item: Tasks\Sweep1\SPara1\S-Parameters
! Header version: 2024
! Port assignment regex: !\s*Touchstone port\s*([0-9]+)\s*=\s*(CST MWS port|CST DES external port|CST DES block port)\s*(.+)\s* \(\"(.*)\"\)(\s*mode\s*([0-9]+))?.*
! Touchstone port assignment:
! Touchstone port 1 = CST DES external port 1 ("")
# GHz S MA R 50
9                    0.974607857     -61.3096601
9.001                0.974561628     -61.3953431
9.002                0.974515243     -61.4812293
9.003                0.974468703     -61.5673191
9.004                0.974422006     -61.6536134
9.005                0.974375152     -61.7401126
9.006                0.974328142     -61.8268176
9.007                0.974280973     -61.9137289
9.008                0.974233646     -62.0008472
9.009                 0.97418616     -62.0881732
9.01                 0.974138515     -62.1757075
9.011                 0.97409071     -62.2634508
9.012                0.974042744     -62.3514038
9.013                0.973994617     -62.4395671
9.014                0.973946329     -62.5279414
9.015                0.973897879     -62.6165274
9.016                0.973849266     -62.7053258
9.017                 0.97380049     -62.7943372
9.018                0.973751551     -62.8835623
9.019                0.973702447     -62.9730019
9.02                 0.973653178     -63.0626565
9.021                0.973603744     -63.1525269
9.022                0.973554145     -63.2426138
9.023                0.973504379     -63.3329179
9.024                0.973454446     -63.4234399
9.025                0.973404346     -63.5141804
9.026                0.973354078     -63.6051402
9.027                0.973303641       -63.69632
9.028                0.973253035     -63.7877204
9.029                0.973202259     -63.8793423
9.03                 0.973151314     -63.9711862
9.031                0.973100197      -64.063253
9.032                 0.97304891     -64.1555433
9.033                 0.97299745     -64.2480578
9.034                0.972945818     -64.3407974
9.035                0.972894014     -64.4337626
9.036                0.972842035     -64.5269542
9.037                0.972789883      -64.620373
9.038                0.972737556     -64.7140197
9.039                0.972685054      -64.807895
9.04                 0.972632376     -64.9019997
9.041                0.972579522     -64.9963344
9.042                0.972526491        -65.0909
9.043                0.972473283     -65.1856971
9.044                0.972419897     -65.2807266
9.045                0.972366332     -65.3759891
9.046                0.972312588     -65.4714855
9.047                0.972258664     -65.5672164
9.048                 0.97220456     -65.6631827
9.049                0.972150275     -65.7593851
9.05                 0.972095809     -65.8558243
9.051                0.972041161     -65.9525011
9.052                0.971986331     -66.0494163
9.053                0.971931317     -66.1465707
9.054                 0.97187612     -66.2439649
9.055                0.971820739     -66.3415999
9.056                0.971765172     -66.4394763
9.057                0.971709421      -66.537595
9.058                0.971653483     -66.6359567
9.059                0.971597359     -66.7345623
9.06                 0.971541048     -66.8334124
9.061                0.971484549      -66.932508
9.062                0.971427861     -67.0318497
9.063                0.971370985     -67.1314384
9.064                 0.97131392     -67.2312748
9.065                0.971256664     -67.3313599
9.066                0.971199218     -67.4316943
9.067                0.971141581     -67.5322789
9.068                0.971083752     -67.6331145
9.069                0.971025731      -67.734202
9.07                 0.970967517      -67.835542
9.071                0.970909109     -67.9371354
9.072                0.970850507     -68.0389831
9.073                0.970791711     -68.1410859
9.074                0.970732719     -68.2434446
9.075                0.970673531     -68.3460599
9.076                0.970614147     -68.4489329
9.077                0.970554567     -68.5520642
9.078                0.970494788     -68.6554547
9.079                0.970434811     -68.7591053
9.08                 0.970374636     -68.8630167
9.081                0.970314261     -68.9671899
9.082                0.970253686     -69.0716257
9.083                0.970192911     -69.1763249
9.084                0.970131935     -69.2812884
9.085                0.970070757     -69.3865169
9.086                0.970009376     -69.4920115
9.087                0.969947793     -69.5977729
9.088                0.969886006     -69.7038021
9.089                0.969824016     -69.8100997
9.09                  0.96976182     -69.9166668
9.091                 0.96969942     -70.0235043
9.092                0.969636813     -70.1306128
9.093                   0.969574     -70.2379935
9.094                 0.96951098      -70.345647
9.095                0.969447753     -70.4535744
9.096                0.969384318     -70.5617764
9.097                0.969320673      -70.670254
9.098                 0.96925682     -70.7790081
9.099                0.969192756     -70.8880395
9.1                  0.969128482     -70.9973491
9.101                0.969063997     -71.1069379
9.102                  0.9689993     -71.2168067
9.103                0.968934391     -71.3269565
9.104                0.968869269     -71.4373881
9.105                0.968803933     -71.5481024
9.106                0.968738384     -71.6591004
9.107                 0.96867262      -71.770383
9.108                0.968606641      -71.881951
9.109                0.968540446     -71.9938055
9.11                 0.968474034     -72.1059472
9.111                0.968407406     -72.2183772
9.112                 0.96834056     -72.3310964
9.113                0.968273496     -72.4441057
9.114                0.968206213      -72.557406
9.115                0.968138712     -72.6709982
9.116                 0.96807099     -72.7848834
9.117                0.968003048     -72.8990624
9.118                0.967934885     -73.0135362
9.119                  0.9678665     -73.1283057
9.12                 0.967797893     -73.2433718
9.121                0.967729064     -73.3587356
9.122                0.967660011      -73.474398
9.123                0.967590735     -73.5903598
9.124                0.967521234     -73.7066222
9.125                0.967451508      -73.823186
9.126                0.967381556     -73.9400522
9.127                0.967311378     -74.0572218
9.128                0.967240974     -74.1746958
9.129                0.967170343      -74.292475
9.13                 0.967099483     -74.4105605
9.131                0.967028396     -74.5289533
9.132                0.966957079     -74.6476544
9.133                0.966885533     -74.7666646
9.134                0.966813757     -74.8859851
9.135                 0.96674175     -75.0056167
9.136                0.966669513     -75.1255606
9.137                0.966597043     -75.2458176
9.138                0.966524342     -75.3663888
9.139                0.966451407     -75.4872752
9.14                  0.96637824     -75.6084777
9.141                0.966304838     -75.7299974
9.142                0.966231202     -75.8518353
9.143                0.966157331     -75.9739924
9.144                0.966083225     -76.0964696
9.145                0.966008883     -76.2192681
9.146                0.965934304     -76.3423888
9.147                0.965859488     -76.4658327
9.148                0.965784435     -76.5896009
9.149                0.965709144     -76.7136944
9.15                 0.965633614     -76.8381142
9.151                0.965557845     -76.9628614
9.152                0.965481836     -77.0879369
9.153                0.965405587     -77.2133418
9.154                0.965329098     -77.3390771
9.155                0.965252367     -77.4651439
9.156                0.965175395     -77.5915433
9.157                0.965098181     -77.7182762
9.158                0.965020724     -77.8453437
9.159                0.964943024     -77.9727468
9.16                  0.96486508     -78.1004867
9.161                0.964786892     -78.2285643
9.162                 0.96470846     -78.3569808
9.163                0.964629783     -78.4857371
9.164                 0.96455086     -78.6148343
9.165                0.964471691     -78.7442735
9.166                0.964392276     -78.8740558
9.167                0.964312613     -79.0041822
9.168                0.964232704     -79.1346538
9.169                0.964152546     -79.2654717
9.17                  0.96407214     -79.3966369
9.171                0.963991486     -79.5281505
9.172                0.963910582     -79.6600136
9.173                0.963829429     -79.7922273
9.174                0.963748026     -79.9247926
9.175                0.963666372     -80.0577107
9.176                0.963584468     -80.1909826
9.177                0.963502312     -80.3246095
9.178                0.963419904     -80.4585923
9.179                0.963337244     -80.5929323
9.18                 0.963254332     -80.7276304
9.181                0.963171167     -80.8626879
9.182                0.963087748     -80.9981057
9.183                0.963004076     -81.1338851
9.184                 0.96292015      -81.270027
9.185                0.962835969     -81.4065327
9.186                0.962751533     -81.5434032
9.187                0.962666842     -81.6806396
9.188                0.962581896     -81.8182431
9.189                0.962496694     -81.9562147
9.19                 0.962411235     -82.0945556
9.191                 0.96232552     -82.2332669
9.192                0.962239548     -82.3723498
9.193                0.962153319     -82.5118052
9.194                0.962066832     -82.6516344
9.195                0.961980087     -82.7918385
9.196                0.961893084     -82.9324186
9.197                0.961805822     -83.0733758
9.198                0.961718301     -83.2147113
9.199                0.961630522     -83.3564262
9.2                  0.961542483     -83.4985217
9.201                0.961454184     -83.6409988
9.202                0.961365626     -83.7838587
9.203                0.961276807     -83.9271026
9.204                0.961187728     -84.0707316
9.205                0.961098388     -84.2147468
9.206                0.961008787     -84.3591494
9.207                0.960918925     -84.5039405
9.208                0.960828801     -84.6491213
9.209                0.960738416     -84.7946929
9.21                 0.960647769     -84.9406564
9.211                0.960556861     -85.0870131
9.212                 0.96046569      -85.233764
9.213                0.960374256     -85.3809104
9.214                 0.96028256     -85.5284533
9.215                0.960190602      -85.676394
9.216                 0.96009838     -85.8247336
9.217                0.960005896     -85.9734732
9.218                0.959913148      -86.122614
9.219                0.959820137     -86.2721572
9.22                 0.959726863     -86.4221039
9.221                0.959633325     -86.5724553
9.222                0.959539523     -86.7232126
9.223                0.959445458     -86.8743768
9.224                 0.95935113     -87.0259493
9.225                0.959256537     -87.1779311
9.226                 0.95916168     -87.3303235
9.227                 0.95906656     -87.4831275
9.228                0.958971176     -87.6363443
9.229                0.958875527     -87.7899752
9.23                 0.958779615     -87.9440213
9.231                0.958683439     -88.0984838
9.232                0.958586998     -88.2533637
9.233                0.958490294     -88.4086624
9.234                0.958393326      -88.564381
9.235                0.958296094     -88.7205206
9.236                0.958198598     -88.8770824
9.237                0.958100838     -89.0340676
9.238                0.958002815     -89.1914774
9.239                0.957904528     -89.3493129
9.24                 0.957805978     -89.5075754
9.241                0.957707164     -89.6662659
9.242                0.957608087     -89.8253857
9.243                0.957508747     -89.9849359
9.244                0.957409144     -90.1449177
9.245                0.957309278     -90.3053323
9.246                 0.95720915     -90.4661809
9.247                0.957108759     -90.6274646
9.248                0.957008106     -90.7891846
9.249                0.956907191      -90.951342
9.25                 0.956806014     -91.1139381
9.251                0.956704576      -91.276974
9.252                0.956602877     -91.4404509
9.253                0.956500917       -91.60437
9.254                0.956398696     -91.7687324
9.255                0.956296215     -91.9335393
9.256                0.956193474     -92.0987918
9.257                0.956090473     -92.2644912
9.258                0.955987213     -92.4306386
9.259                0.955883694     -92.5972352
9.26                 0.955779917      -92.764282
9.261                0.955675882     -92.9317804
9.262                0.955571588     -93.0997315
9.263                0.955467038     -93.2681363
9.264                0.955362231     -93.4369962
9.265                0.955257167     -93.6063121
9.266                0.955151848     -93.7760854
9.267                0.955046274     -93.9463172
9.268                0.954940444     -94.1170085
9.269                0.954834361     -94.2881606
9.27                 0.954728023     -94.4597746
9.271                0.954621433     -94.6318517
9.272                 0.95451459      -94.804393
9.273                0.954407495     -94.9773996
9.274                0.954300149     -95.1508727
9.275                0.954192553     -95.3248135
9.276                0.954084706     -95.4992231
9.277                 0.95397661     -95.6741025
9.278                0.953868266     -95.8494531
9.279                0.953759674     -96.0252758
9.28                 0.953650834     -96.2015718
9.281                0.953541749     -96.3783423
9.282                0.953432418     -96.5555883
9.283                0.953322842      -96.733311
9.284                0.953213023     -96.9115115
9.285                 0.95310296      -97.090191
9.286                0.952992655     -97.2693505
9.287                 0.95288211     -97.4489911
9.288                0.952771323      -97.629114
9.289                0.952660298     -97.8097203
9.29                 0.952549034      -97.990811
9.291                0.952437532     -98.1723873
9.292                0.952325794     -98.3544502
9.293                0.952213821     -98.5370009
9.294                0.952101613     -98.7200403
9.295                0.951989172     -98.9035697
9.296                0.951876499     -99.0875901
9.297                0.951763595     -99.2721026
9.298                0.951650461     -99.4571081
9.299                0.951537098     -99.6426079
9.3                  0.951423507      -99.828603
9.301                 0.95130969     -100.015094
9.302                0.951195648     -100.202083
9.303                0.951081382      -100.38957
9.304                0.950966894     -100.577557
9.305                0.950852184     -100.766044
9.306                0.950737254     -100.955032
9.307                0.950622106     -101.144524
9.308                0.950506741     -101.334518
9.309                 0.95039116     -101.525018
9.31                 0.950275364     -101.716023
9.311                0.950159356     -101.907534
9.312                0.950043136     -102.099553
9.313                0.949926707     -102.292081
9.314                0.949810069     -102.485119
9.315                0.949693225     -102.678667
9.316                0.949576176     -102.872726
9.317                0.949458923     -103.067298
9.318                0.949341468     -103.262384
9.319                0.949223813     -103.457984
9.32                  0.94910596       -103.6541
9.321                 0.94898791     -103.850731
9.322                0.948869666     -104.047881
9.323                0.948751228     -104.245548
9.324                0.948632599     -104.443734
9.325                0.948513781     -104.642441
9.326                0.948394775     -104.841669
9.327                0.948275584     -105.041418
9.328                0.948156209      -105.24169
9.329                0.948036652     -105.442486
9.33                 0.947916916     -105.643806
9.331                0.947797002     -105.845652
9.332                0.947676913     -106.048024
9.333                0.947556651     -106.250923
9.334                0.947436217     -106.454351
9.335                0.947315614     -106.658306
9.336                0.947194844     -106.862792
9.337                 0.94707391     -107.067808
9.338                0.946952813     -107.273355
9.339                0.946831556     -107.479435
9.34                 0.946710141     -107.686047
9.341                0.946588571     -107.893193
9.342                0.946466848     -108.100873
9.343                0.946344975     -108.309089
9.344                0.946222953      -108.51784
9.345                0.946100786     -108.727128
9.346                0.945978476     -108.936953
9.347                0.945856025     -109.147317
9.348                0.945733436     -109.358219
9.349                0.945610712     -109.569661
9.35                 0.945487855     -109.781644
9.351                0.945364869     -109.994167
9.352                0.945241755     -110.207232
9.353                0.945118517     -110.420839
9.354                0.944995157     -110.634988
9.355                0.944871678     -110.849682
9.356                0.944748084     -111.064919
9.357                0.944624377     -111.280702
9.358                0.944500559     -111.497029
9.359                0.944376634     -111.713903
9.36                 0.944252606     -111.931323
9.361                0.944128476      -112.14929
9.362                0.944004249     -112.367805
9.363                0.943879927     -112.586868
9.364                0.943755513      -112.80648
9.365                0.943631011      -113.02664
9.366                0.943506423     -113.247351
9.367                0.943381754     -113.468612
9.368                0.943257006     -113.690423
9.369                0.943132183     -113.912786
9.37                 0.943007288       -114.1357
9.371                0.942882325     -114.359166
9.372                0.942757296     -114.583185
9.373                0.942632207     -114.807756
9.374                0.942507059      -115.03288
9.375                0.942381857     -115.258558
9.376                0.942256604      -115.48479
9.377                0.942131304     -115.711576
9.378                0.942005961     -115.938917
9.379                0.941880578     -116.166813
9.38                 0.941755159     -116.395264
9.381                0.941629708      -116.62427
9.382                0.941504229     -116.853832
9.383                0.941378726      -117.08395
9.384                0.941253202     -117.314624
9.385                0.941127661     -117.545854
9.386                0.941002108     -117.777641
9.387                0.940876546     -118.009985
9.388                0.940750981     -118.242886
9.389                0.940625414     -118.476344
9.39                 0.940499852     -118.710359
9.391                0.940374298     -118.944931
9.392                0.940248755     -119.180061
9.393                 0.94012323     -119.415748
9.394                0.939997725     -119.651993
9.395                0.939872246     -119.888795
9.396                0.939746796     -120.126155
