! TOUCHSTONE file generated by CST DESIGN STUDIO
! Date and time: Tue Feb  4 14:23:01 2025
! Project name: C:\Work\MatlabApps\UnitCellOptimizationMatlab\CST\unitcell.cst
! Tree item: Tasks\Sweep1\SPara1\S-Parameters
! Header version: 2024
! Port assignment regex: !\s*Touchstone port\s*([0-9]+)\s*=\s*(CST MWS port|CST DES external port|CST DES block port)\s*(.+)\s* \(\"(.*)\"\)(\s*mode\s*([0-9]+))?.*
! Touchstone port assignment:
! Touchstone port 1 = CST DES external port 1 ("")
# GHz S MA R 50
9                    0.968334372     -79.2232258
9.001                0.968254372     -79.3499955
9.002                0.968174148     -79.4770924
9.003                0.968093702     -79.6045173
9.004                0.968013033     -79.7322714
9.005                0.967932141     -79.8603555
9.006                0.967851025     -79.9887708
9.007                0.967769687     -80.1175183
9.008                0.967688125     -80.2465989
9.009                0.967606339     -80.3760137
9.01                  0.96752433     -80.5057637
9.011                0.967442098     -80.6358499
9.012                0.967359642     -80.7662734
9.013                0.967276962     -80.8970351
9.014                0.967194059     -81.0281362
9.015                0.967110932     -81.1595776
9.016                0.967027581     -81.2913603
9.017                0.966944007     -81.4234855
9.018                0.966860208     -81.5559541
9.019                0.966776186     -81.6887672
9.02                  0.96669194     -81.8219258
9.021                 0.96660747      -81.955431
9.022                0.966522776     -82.0892839
9.023                0.966437858     -82.2234854
9.024                0.966352717     -82.3580366
9.025                0.966267351     -82.4929386
9.026                0.966181762     -82.6281924
9.027                0.966095948     -82.7637991
9.028                0.966009911     -82.8997598
9.029                 0.96592365     -83.0360754
9.03                 0.965837166     -83.1727472
9.031                0.965750457      -83.309776
9.032                0.965663525     -83.4471631
9.033                0.965576369     -83.5849094
9.034                 0.96548899     -83.7230161
9.035                0.965401387     -83.8614842
9.036                0.965313561     -84.0003147
9.037                0.965225512     -84.1395089
9.038                0.965137239     -84.2790676
9.039                0.965048743     -84.4189921
9.04                 0.964960024     -84.5592834
9.041                0.964871082     -84.6999426
9.042                0.964781917     -84.8409707
9.043                0.964692529     -84.9823688
9.044                0.964602919     -85.1241382
9.045                0.964513086     -85.2662797
9.046                0.964423031     -85.4087946
9.047                0.964332753     -85.5516838
9.048                0.964242254     -85.6949486
9.049                0.964151532     -85.8385899
9.05                 0.964060589      -85.982609
9.051                0.963969424     -86.1270068
9.052                0.963878038     -86.2717846
9.053                0.963786431     -86.4169433
9.054                0.963694602     -86.5624841
9.055                0.963602553     -86.7084081
9.056                0.963510283     -86.8547165
9.057                0.963417792     -87.0014102
9.058                0.963325081     -87.1484904
9.059                0.963232151     -87.2959583
9.06                    0.963139     -87.4438149
9.061                 0.96304563     -87.5920613
9.062                0.962952041     -87.7406987
9.063                0.962858233     -87.8897281
9.064                0.962764206     -88.0391507
9.065                 0.96266996     -88.1889676
9.066                0.962575497     -88.3391799
9.067                0.962480815     -88.4897887
9.068                0.962385916     -88.6407952
9.069                0.962290799     -88.7922004
9.07                 0.962195466     -88.9440055
9.071                0.962099916     -89.0962116
9.072                0.962004149     -89.2488197
9.073                0.961908167     -89.4018311
9.074                0.961811969     -89.5552469
9.075                0.961715556     -89.7090681
9.076                0.961618927     -89.8632959
9.077                0.961522085     -90.0179315
9.078                0.961425028     -90.1729758
9.079                0.961327757     -90.3284302
9.08                 0.961230273     -90.4842956
9.081                0.961132577     -90.6405732
9.082                0.961034667     -90.7972641
9.083                0.960936546     -90.9543695
9.084                0.960838213     -91.1118904
9.085                0.960739669     -91.2698281
9.086                0.960640914     -91.4281835
9.087                0.960541949      -91.586958
9.088                0.960442774     -91.7461524
9.089                 0.96034339     -91.9057681
9.09                 0.960243797     -92.0658061
9.091                0.960143996     -92.2262675
9.092                0.960043987     -92.3871535
9.093                0.959943771     -92.5484651
9.094                0.959843349     -92.7102036
9.095                 0.95974272     -92.8723699
9.096                0.959641886     -93.0349653
9.097                0.959540847     -93.1979909
9.098                0.959439604     -93.3614478
9.099                0.959338157      -93.525337
9.1                  0.959236507     -93.6896598
9.101                0.959134655     -93.8544172
9.102                  0.9590326     -94.0196103
9.103                0.958930345     -94.1852403
9.104                0.958827889     -94.3513083
9.105                0.958725233     -94.5178154
9.106                0.958622378     -94.6847626
9.107                0.958519325     -94.8521512
9.108                0.958416073     -95.0199822
9.109                0.958312625     -95.1882567
9.11                 0.958208981     -95.3569758
9.111                0.958105141     -95.5261407
9.112                0.958001106     -95.6957524
9.113                0.957896878     -95.8658121
9.114                0.957792456     -96.0363208
9.115                0.957687842     -96.2072796
9.116                0.957583036     -96.3786897
9.117                 0.95747804     -96.5505521
9.118                0.957372853     -96.7228679
9.119                0.957267478     -96.8956382
9.12                 0.957161915     -97.0688641
9.121                0.957056164     -97.2425466
9.122                0.956950227      -97.416687
9.123                0.956844104     -97.5912861
9.124                0.956737797     -97.7663452
9.125                0.956631307     -97.9418653
9.126                0.956524634     -98.1178474
9.127                0.956417779     -98.2942927
9.128                0.956310743     -98.4712022
9.129                0.956203528     -98.6485769
9.13                 0.956096135      -98.826418
9.131                0.955988564     -99.0047264
9.132                0.955880816     -99.1835033
9.133                0.955772893     -99.3627497
9.134                0.955664796     -99.5424666
9.135                0.955556525      -99.722655
9.136                0.955448082     -99.9033161
9.137                0.955339469     -100.084451
9.138                0.955230685      -100.26606
9.139                0.955121733     -100.448145
9.14                 0.955012614     -100.630707
9.141                0.954903328     -100.813747
9.142                0.954793877     -100.997265
9.143                0.954684262     -101.181264
9.144                0.954574485     -101.365743
9.145                0.954464547     -101.550704
9.146                0.954354449     -101.736147
9.147                0.954244192     -101.922075
9.148                0.954133777     -102.108487
9.149                0.954023207     -102.295385
9.15                 0.953912482      -102.48277
9.151                0.953801604     -102.670642
9.152                0.953690575     -102.859003
9.153                0.953579395     -103.047854
9.154                0.953468065     -103.237196
9.155                0.953356589     -103.427029
9.156                0.953244967     -103.617354
9.157                  0.9531332     -103.808173
9.158                 0.95302129     -103.999487
9.159                0.952909238     -104.191296
9.16                 0.952797047     -104.383601
9.161                0.952684718     -104.576403
9.162                0.952572252     -104.769703
9.163                0.952459651     -104.963503
9.164                0.952346917     -105.157802
9.165                0.952234051     -105.352602
9.166                0.952121055     -105.547904
9.167                0.952007931     -105.743708
9.168                 0.95189468     -105.940016
9.169                0.951781304     -106.136828
9.17                 0.951667806     -106.334145
9.171                0.951554186     -106.531968
9.172                0.951440447     -106.730298
9.173                 0.95132659     -106.929136
9.174                0.951212617     -107.128482
9.175                0.951098531     -107.328337
9.176                0.950984333     -107.528703
9.177                0.950870025      -107.72958
9.178                0.950755609     -107.930968
9.179                0.950641088     -108.132869
9.18                 0.950526462     -108.335283
9.181                0.950411734     -108.538211
9.182                0.950296906     -108.741654
9.183                0.950181981     -108.945613
9.184                 0.95006696     -109.150088
9.185                0.949951845      -109.35508
9.186                0.949836639     -109.560589
9.187                0.949721343     -109.766617
9.188                0.949605961     -109.973165
9.189                0.949490494     -110.180232
9.19                 0.949374944      -110.38782
9.191                0.949259314     -110.595929
9.192                0.949143606      -110.80456
9.193                0.949027823     -111.013714
9.194                0.948911966     -111.223391
9.195                0.948796038     -111.433591
9.196                0.948680042     -111.644317
9.197                0.948563979     -111.855567
9.198                0.948447854     -112.067343
9.199                0.948331667     -112.279645
9.2                  0.948215421     -112.492474
9.201                0.948099119      -112.70583
9.202                0.947982764     -112.919715
9.203                0.947866358     -113.134128
9.204                0.947749904      -113.34907
9.205                0.947633404     -113.564541
9.206                0.947516862     -113.780543
9.207                0.947400279     -113.997075
9.208                0.947283658     -114.214138
9.209                0.947167003     -114.431732
9.21                 0.947050316     -114.649859
9.211                0.946933599     -114.868518
9.212                0.946816857      -115.08771
9.213                0.946700091     -115.307435
9.214                0.946583304     -115.527694
9.215                  0.9464665     -115.748486
9.216                0.946349681     -115.969813
9.217                0.946232851     -116.191675
9.218                0.946116011     -116.414072
9.219                0.945999167     -116.637005
9.22                  0.94588232     -116.860473
9.221                0.945765473     -117.084477
9.222                 0.94564863     -117.309018
9.223                0.945531794     -117.534095
9.224                0.945414968     -117.759709
9.225                0.945298155      -117.98586
9.226                0.945181359     -118.212549
9.227                0.945064582     -118.439775
9.228                0.944947829     -118.667539
9.229                0.944831102     -118.895841
9.23                 0.944714405     -119.124681
9.231                0.944597741     -119.354059
9.232                0.944481113     -119.583975
9.233                0.944364526      -119.81443
9.234                0.944247982     -120.045424
9.235                0.944131486     -120.276956
9.236                0.944015039     -120.509027
9.237                0.943898647     -120.741636
9.238                0.943782313     -120.974785
9.239                 0.94366604     -121.208472
9.24                 0.943549832     -121.442698
9.241                0.943433693     -121.677463
9.242                0.943317626     -121.912766
9.243                0.943201636     -122.148608
9.244                0.943085725     -122.384989
9.245                0.942969898     -122.621908
9.246                0.942854159     -122.859366
9.247                0.942738511     -123.097361
9.248                0.942622959     -123.335895
9.249                0.942507506     -123.574967
9.25                 0.942392156     -123.814576
9.251                0.942276913     -124.054723
9.252                0.942161782     -124.295407
9.253                0.942046766     -124.536628
9.254                0.941931869     -124.778385
9.255                0.941817096      -125.02068
9.256                 0.94170245      -125.26351
9.257                0.941587935     -125.506875
9.258                0.941473557     -125.750777
9.259                0.941359319     -125.995213
9.26                 0.941245225     -126.240184
9.261                 0.94113128     -126.485689
9.262                0.941017488     -126.731728
9.263                0.940903853       -126.9783
9.264                0.940790379     -127.225404
9.265                0.940677071     -127.473042
9.266                0.940563934      -127.72121
9.267                0.940450972      -127.96991
9.268                0.940338189     -128.219141
9.269                0.940225589     -128.468902
9.27                 0.940113178     -128.719192
9.271                0.940000959     -128.970011
9.272                0.939888938     -129.221358
9.273                0.939777119     -129.473232
9.274                0.939665507     -129.725633
9.275                0.939554105      -129.97856
9.276                 0.93944292     -130.232012
9.277                0.939331955     -130.485988
9.278                0.939221215     -130.740489
9.279                0.939110706     -130.995511
9.28                 0.939000431     -131.251056
9.281                0.938890395     -131.507122
9.282                0.938780605     -131.763708
9.283                0.938671063     -132.020813
9.284                0.938561775     -132.278437
9.285                0.938452747     -132.536577
9.286                0.938343982     -132.795234
9.287                0.938235486     -133.054406
9.288                0.938127264     -133.314093
9.289                0.938019321     -133.574292
9.29                 0.937911661     -133.835003
9.291                 0.93780429     -134.096226
9.292                0.937697213     -134.357958
9.293                0.937590435     -134.620198
9.294                 0.93748396     -134.882946
9.295                0.937377795       -135.1462
9.296                0.937271943     -135.409959
9.297                0.937166411     -135.674221
9.298                0.937061203     -135.938985
9.299                0.936956325     -136.204251
9.3                  0.936851782     -136.470016
9.301                0.936747578     -136.736279
9.302                0.936643719     -137.003038
9.303                0.936540211     -137.270293
9.304                0.936437059     -137.538042
9.305                0.936334267     -137.806283
9.306                0.936231841     -138.075015
9.307                0.936129787     -138.344236
9.308                 0.93602811     -138.613944
9.309                0.935926814     -138.884139
9.31                 0.935825906     -139.154818
9.311                0.935725391      -139.42598
9.312                0.935625273     -139.697623
9.313                0.935525559     -139.969745
9.314                0.935426254     -140.242344
9.315                0.935327363     -140.515419
9.316                0.935228892     -140.788969
9.317                0.935130845      -141.06299
9.318                0.935033229     -141.337482
9.319                0.934936048     -141.612442
9.32                 0.934839309     -141.887869
9.321                0.934743016      -142.16376
9.322                0.934647175     -142.440114
9.323                0.934551792     -142.716928
9.324                0.934456871     -142.994201
9.325                0.934362419      -143.27193
9.326                 0.93426844     -143.550114
9.327                0.934174941      -143.82875
9.328                0.934081927     -144.107836
9.329                0.933989402      -144.38737
9.33                 0.933897373      -144.66735
9.331                0.933805845     -144.947773
9.332                0.933714823     -145.228638
9.333                0.933624313     -145.509941
9.334                0.933534321     -145.791682
9.335                0.933444851     -146.073857
9.336                0.933355909     -146.356463
9.337                0.933267501       -146.6395
9.338                0.933179632     -146.922963
9.339                0.933092308     -147.206851
9.34                 0.933005533     -147.491162
9.341                0.932919313     -147.775892
9.342                0.932833654     -148.061039
9.343                0.932748561     -148.346601
9.344                 0.93266404     -148.632575
9.345                0.932580095     -148.918959
9.346                0.932496732     -149.205749
9.347                0.932413957     -149.492943
9.348                0.932331774     -149.780539
9.349                0.932250189     -150.068533
9.35                 0.932169208     -150.356923
9.351                0.932088835     -150.645706
9.352                0.932009077      -150.93488
9.353                0.931929937     -151.224441
9.354                0.931851422     -151.514386
9.355                0.931773536     -151.804713
9.356                0.931696285     -152.095419
9.357                0.931619674     -152.386501
9.358                0.931543708     -152.677955
9.359                0.931468392     -152.969779
9.36                 0.931393731      -153.26197
9.361                0.931319731     -153.554525
9.362                0.931246396      -153.84744
9.363                0.931173732     -154.140713
9.364                0.931101743      -154.43434
9.365                0.931030434     -154.728318
9.366                0.930959811     -155.022644
9.367                0.930889878     -155.317315
9.368                 0.93082064     -155.612327
9.369                0.930752103     -155.907678
9.37                  0.93068427     -156.203363
9.371                0.930617147      -156.49938
9.372                0.930550738     -156.795726
9.373                0.930485048     -157.092396
9.374                0.930420082     -157.389388
9.375                0.930355845     -157.686698
9.376                0.930292341     -157.984322
9.377                0.930229574     -158.282258
9.378                 0.93016755     -158.580502
9.379                0.930106272     -158.879049
9.38                 0.930045746     -159.177897
9.381                0.929985975     -159.477042
9.382                0.929926965     -159.776481
9.383                0.929868719     -160.076209
9.384                0.929811241     -160.376224
9.385                0.929754536     -160.676521
9.386                0.929698609     -160.977097
9.387                0.929643463     -161.277948
9.388                0.929589102     -161.579071
9.389                0.929535531     -161.880461
9.39                 0.929482754     -162.182115
9.391                0.929430774      -162.48403
9.392                0.929379595       -162.7862
9.393                0.929329222     -163.088624
9.394                0.929279659     -163.391295
9.395                0.929230908     -163.694212
9.396                0.929182974     -163.997369
