! TOUCHSTONE file generated by CST DESIGN STUDIO
! Date and time: Tue Feb  4 14:22:56 2025
! Project name: C:\Work\MatlabApps\UnitCellOptimizationMatlab\CST\unitcell.cst
! Tree item: Tasks\Sweep1\SPara1\S-Parameters
! Header version: 2024
! Port assignment regex: !\s*Touchstone port\s*([0-9]+)\s*=\s*(CST MWS port|CST DES external port|CST DES block port)\s*(.+)\s* \(\"(.*)\"\)(\s*mode\s*([0-9]+))?.*
! Touchstone port assignment:
! Touchstone port 1 = CST DES external port 1 ("")
# GHz S MA R 50
9                    0.965948959     -86.4511154
9.001                0.965858595     -86.5962476
9.002                 0.96576802     -86.7417656
9.003                0.965677234     -86.8876705
9.004                0.965586238     -87.0339635
9.005                0.965495032     -87.1806457
9.006                0.965403614     -87.3277181
9.007                0.965311986     -87.4751819
9.008                0.965220146     -87.6230382
9.009                0.965128096     -87.7712881
9.01                 0.965035834     -87.9199327
9.011                 0.96494336     -88.0689732
9.012                0.964850675     -88.2184105
9.013                0.964757778      -88.368246
9.014                0.964664669     -88.5184806
9.015                0.964571349     -88.6691155
9.016                0.964477817     -88.8201518
9.017                0.964384073     -88.9715906
9.018                0.964290117      -89.123433
9.019                0.964195949     -89.2756802
9.02                 0.964101568     -89.4283333
9.021                0.964006976     -89.5813934
9.022                0.963912172     -89.7348616
9.023                0.963817156      -89.888739
9.024                0.963721927     -90.0430267
9.025                0.963626487      -90.197726
9.026                0.963530835     -90.3528378
9.027                0.963434971     -90.5083633
9.028                0.963338894     -90.6643037
9.029                0.963242606       -90.82066
9.03                 0.963146107     -90.9774334
9.031                0.963049395      -91.134625
9.032                0.962952472     -91.2922359
9.033                0.962855338     -91.4502672
9.034                0.962757992     -91.6087201
9.035                0.962660435     -91.7675957
9.036                0.962562667      -91.926895
9.037                0.962464688     -92.0866193
9.038                0.962366498     -92.2467696
9.039                0.962268098      -92.407347
9.04                 0.962169487     -92.5683528
9.041                0.962070666     -92.7297878
9.042                0.961971635     -92.8916534
9.043                0.961872395     -93.0539506
9.044                0.961772945     -93.2166806
9.045                0.961673285     -93.3798444
9.046                0.961573417     -93.5434431
9.047                0.961473339     -93.7074779
9.048                0.961373054     -93.8719499
9.049                 0.96127256     -94.0368602
9.05                 0.961171858     -94.2022098
9.051                0.961070949         -94.368
9.052                0.960969833     -94.5342318
9.053                 0.96086851     -94.7009063
9.054                0.960766981     -94.8680247
9.055                0.960665245     -95.0355879
9.056                0.960563304     -95.2035972
9.057                0.960461158     -95.3720536
9.058                0.960358807     -95.5409583
9.059                0.960256251     -95.7103122
9.06                 0.960153492     -95.8801166
9.061                0.960050529     -96.0503725
9.062                0.959947364     -96.2210809
9.063                0.959843996     -96.3922431
9.064                0.959740426       -96.56386
9.065                0.959636655     -96.7359328
9.066                0.959532683     -96.9084625
9.067                 0.95942851     -97.0814502
9.068                0.959324139      -97.254897
9.069                0.959219568      -97.428804
9.07                 0.959114799     -97.6031723
9.071                0.959009832     -97.7780028
9.072                0.958904668     -97.9532967
9.073                0.958799307      -98.129055
9.074                0.958693751     -98.3052789
9.075                   0.958588     -98.4819693
9.076                0.958482054     -98.6591273
9.077                0.958375915      -98.836754
9.078                0.958269583     -99.0148504
9.079                0.958163059     -99.1934176
9.08                 0.958056344     -99.3724565
9.081                0.957949439     -99.5519684
9.082                0.957842344      -99.731954
9.083                 0.95773506     -99.9124146
9.084                0.957627588     -100.093351
9.085                 0.95751993     -100.274765
9.086                0.957412086     -100.456656
9.087                0.957304056     -100.639027
9.088                0.957195842     -100.821877
9.089                0.957087445     -101.005208
9.09                 0.956978866     -101.189022
9.091                0.956870106     -101.373318
9.092                0.956761166     -101.558099
9.093                0.956652047     -101.743365
9.094                0.956542749     -101.929116
9.095                0.956433275     -102.115355
9.096                0.956323625     -102.302081
9.097                0.956213801     -102.489296
9.098                0.956103803     -102.677001
9.099                0.955993633     -102.865197
9.1                  0.955883292     -103.053885
9.101                0.955772781     -103.243066
9.102                0.955662101      -103.43274
9.103                0.955551254     -103.622909
9.104                0.955440241     -103.813573
9.105                0.955329064     -104.004734
9.106                0.955217723     -104.196393
9.107                 0.95510622     -104.388549
9.108                0.954994557     -104.581205
9.109                0.954882735     -104.774361
9.11                 0.954770754     -104.968018
9.111                0.954658618     -105.162177
9.112                0.954546327     -105.356839
9.113                0.954433883     -105.552004
9.114                0.954321287     -105.747674
9.115                 0.95420854     -105.943849
9.116                0.954095646     -106.140531
9.117                0.953982604     -106.337719
9.118                0.953869417     -106.535416
9.119                0.953756087     -106.733621
9.12                 0.953642614     -106.932336
9.121                0.953529002     -107.131562
9.122                 0.95341525     -107.331298
9.123                0.953301363     -107.531547
9.124                 0.95318734     -107.732308
9.125                0.953073184     -107.933583
9.126                0.952958897     -108.135373
9.127                 0.95284448     -108.337677
9.128                0.952729937     -108.540497
9.129                0.952615267     -108.743834
9.13                 0.952500474     -108.947689
9.131                 0.95238556     -109.152061
9.132                0.952270525     -109.356953
9.133                0.952155374     -109.562364
9.134                0.952040107     -109.768295
9.135                0.951924726     -109.974747
9.136                0.951809234     -110.181721
9.137                0.951693633     -110.389217
9.138                0.951577926     -110.597236
9.139                0.951462113     -110.805779
9.14                 0.951346198     -111.014846
9.141                0.951230183     -111.224438
9.142                 0.95111407     -111.434555
9.143                0.950997862     -111.645199
9.144                 0.95088156     -111.856369
9.145                0.950765168     -112.068067
9.146                0.950648687     -112.280292
9.147                 0.95053212     -112.493047
9.148                 0.95041547      -112.70633
9.149                0.950298739     -112.920142
9.15                 0.950181929     -113.134485
9.151                0.950065044     -113.349359
9.152                0.949948085     -113.564763
9.153                0.949831056     -113.780699
9.154                0.949713959     -113.997168
9.155                0.949596796     -114.214169
9.156                0.949479571     -114.431702
9.157                0.949362286      -114.64977
9.158                0.949244944     -114.868371
9.159                0.949127549     -115.087507
9.16                 0.949010101     -115.307178
9.161                0.948892605     -115.527383
9.162                0.948775064     -115.748124
9.163                 0.94865748     -115.969401
9.164                0.948539857     -116.191215
9.165                0.948422197     -116.413565
9.166                0.948304503     -116.636451
9.167                0.948186779     -116.859875
9.168                0.948069028     -117.083837
9.169                0.947951252     -117.308336
9.17                 0.947833455     -117.533374
9.171                 0.94771564     -117.758949
9.172                0.947597811     -117.985063
9.173                 0.94747997     -118.211716
9.174                0.947362121     -118.438908
9.175                0.947244268     -118.666639
9.176                0.947126413      -118.89491
9.177                 0.94700856     -119.123719
9.178                0.946890712     -119.353069
9.179                0.946772874     -119.582958
9.18                 0.946655047     -119.813387
9.181                0.946537237     -120.044356
9.182                0.946419446     -120.275865
9.183                0.946301678     -120.507913
9.184                0.946183937     -120.740502
9.185                0.946066226     -120.973632
9.186                 0.94594855     -121.207301
9.187                0.945830911      -121.44151
9.188                0.945713313     -121.676259
9.189                0.945595761     -121.911549
9.19                 0.945478258     -122.147378
9.191                0.945360807     -122.383747
9.192                0.945243414     -122.620656
9.193                0.945126082     -122.858105
9.194                0.945008814     -123.096093
9.195                0.944891615      -123.33462
9.196                0.944774488     -123.573686
9.197                0.944657438     -123.813292
9.198                0.944540469     -124.053436
9.199                0.944423585     -124.294119
9.2                  0.944306791     -124.535339
9.201                0.944190089     -124.777098
9.202                0.944073485     -125.019394
9.203                0.943956982     -125.262228
9.204                0.943840585     -125.505599
9.205                0.943724299     -125.749506
9.206                0.943608127     -125.993949
9.207                0.943492074     -126.238929
9.208                0.943376145     -126.484443
9.209                0.943260343     -126.730493
9.21                 0.943144673     -126.977077
9.211                 0.94302914     -127.224195
9.212                0.942913748     -127.471846
9.213                0.942798502     -127.720031
9.214                0.942683406     -127.968748
9.215                0.942568465     -128.217996
9.216                0.942453684     -128.467776
9.217                0.942339066     -128.718087
9.218                0.942224618     -128.968927
9.219                0.942110343     -129.220297
9.22                 0.941996246     -129.472195
9.221                0.941882333     -129.724621
9.222                0.941768607     -129.977575
9.223                0.941655074     -130.231054
9.224                0.941541739     -130.485059
9.225                0.941428606     -130.739589
9.226                 0.94131568     -130.994643
9.227                0.941202967      -131.25022
9.228                0.941090471      -131.50632
9.229                0.940978197      -131.76294
9.23                  0.94086615     -132.020081
9.231                0.940754335     -132.277741
9.232                0.940642758      -132.53592
9.233                0.940531423     -132.794616
9.234                0.940420336     -133.053829
9.235                0.940309501     -133.313557
9.236                0.940198924     -133.573799
9.237                0.940088611     -133.834555
9.238                0.939978565     -134.095822
9.239                0.939868792       -134.3576
9.24                 0.939759299     -134.619888
9.241                0.939650089     -134.882685
9.242                0.939541168     -135.145989
9.243                0.939432542     -135.409799
9.244                0.939324215     -135.674113
9.245                0.939216194     -135.938931
9.246                0.939108483     -136.204251
9.247                0.939001088     -136.470072
9.248                0.938894014     -136.736392
9.249                0.938787267      -137.00321
9.25                 0.938680852     -137.270525
9.251                0.938574775     -137.538334
9.252                0.938469041     -137.806637
9.253                0.938363655     -138.075432
9.254                0.938258624     -138.344717
9.255                0.938153951     -138.614491
9.256                0.938049644     -138.884753
9.257                0.937945708       -139.1555
9.258                0.937842147     -139.426731
9.259                0.937738969     -139.698444
9.26                 0.937636177     -139.970638
9.261                0.937533779      -140.24331
9.262                0.937431779      -140.51646
9.263                0.937330183     -140.790084
9.264                0.937228997     -141.064183
9.265                0.937128226     -141.338752
9.266                0.937027876     -141.613792
9.267                0.936927952     -141.889299
9.268                0.936828461     -142.165272
9.269                0.936729407     -142.441708
9.27                 0.936630798     -142.718607
9.271                0.936532637     -142.995965
9.272                0.936434931     -143.273782
9.273                0.936337686     -143.552054
9.274                0.936240906     -143.830779
9.275                0.936144599     -144.109956
9.276                0.936048769     -144.389582
9.277                0.935953423     -144.669655
9.278                0.935858565     -144.950174
9.279                0.935764202     -145.231134
9.28                 0.935670339     -145.512535
9.281                0.935576981     -145.794375
9.282                0.935484136      -146.07665
9.283                0.935391807     -146.359358
9.284                0.935300002     -146.642497
9.285                0.935208725     -146.926065
9.286                0.935117982     -147.210058
9.287                0.935027778     -147.494476
9.288                0.934938121     -147.779314
9.289                0.934849014     -148.064571
9.29                 0.934760464     -148.350245
9.291                0.934672476     -148.636331
9.292                0.934585056     -148.922828
9.293                0.934498209     -149.209734
9.294                0.934411941     -149.497045
9.295                0.934326258     -149.784759
9.296                0.934241165     -150.072873
9.297                0.934156667     -150.361384
9.298                0.934072771      -150.65029
9.299                0.933989481     -150.939587
9.3                  0.933906803     -151.229273
9.301                0.933824742     -151.519346
9.302                0.933743305     -151.809801
9.303                0.933662495     -152.100637
9.304                 0.93358232      -152.39185
9.305                0.933502783     -152.683437
9.306                0.933423891     -152.975396
9.307                0.933345649     -153.267722
9.308                0.933268062     -153.560414
9.309                0.933191135     -153.853468
9.31                 0.933114874     -154.146881
9.311                0.933039283      -154.44065
9.312                0.932964368     -154.734772
9.313                0.932890135     -155.029243
9.314                0.932816588     -155.324061
9.315                0.932743732     -155.619221
9.316                0.932671573     -155.914721
9.317                0.932600115     -156.210558
9.318                0.932529364     -156.506728
9.319                0.932459324     -156.803228
9.32                 0.932390001     -157.100055
9.321                0.932321398     -157.397204
9.322                0.932253523     -157.694673
9.323                0.932186378     -157.992459
9.324                0.932119969     -158.290557
9.325                  0.9320543     -158.588964
9.326                0.931989377     -158.887678
9.327                0.931925204     -159.186693
9.328                0.931861785     -159.486007
9.329                0.931799125     -159.785617
9.33                  0.93173723     -160.085518
9.331                0.931676102     -160.385706
9.332                0.931615747     -160.686179
9.333                0.931556169     -160.986932
9.334                0.931497373     -161.287963
9.335                0.931439362     -161.589266
9.336                0.931382142     -161.890839
9.337                0.931325715     -162.192677
9.338                0.931270087     -162.494777
9.339                0.931215262     -162.797135
9.34                 0.931161243     -163.099747
9.341                0.931108035      -163.40261
9.342                0.931055641     -163.705719
9.343                0.931004066     -164.009071
9.344                0.930953313     -164.312661
9.345                0.930903387     -164.616487
9.346                 0.93085429     -164.920542
9.347                0.930806027     -165.224825
9.348                0.930758601     -165.529331
9.349                0.930712016     -165.834056
9.35                 0.930666276     -166.138995
9.351                0.930621383     -166.444145
9.352                0.930577341     -166.749502
9.353                0.930534154     -167.055062
9.354                0.930491824      -167.36082
9.355                0.930450356     -167.666772
9.356                0.930409751     -167.972915
9.357                0.930370014     -168.279245
9.358                0.930331148     -168.585756
9.359                0.930293154     -168.892445
9.36                 0.930256037     -169.199308
9.361                0.930219798      -169.50634
9.362                0.930184441     -169.813538
9.363                0.930149969     -170.120897
9.364                0.930116383     -170.428412
9.365                0.930083688      -170.73608
9.366                0.930051884     -171.043897
9.367                0.930020975     -171.351857
9.368                0.929990963     -171.659957
9.369                0.929961849     -171.968193
9.37                 0.929933638     -172.276559
9.371                0.929906329     -172.585053
9.372                0.929879927     -172.893668
9.373                0.929854431     -173.202402
9.374                0.929829846      -173.51125
9.375                0.929806172     -173.820207
9.376                 0.92978341     -174.129269
9.377                0.929761564     -174.438432
9.378                0.929740635      -174.74769
9.379                0.929720623     -175.057041
9.38                 0.929701531     -175.366479
9.381                 0.92968336        -175.676
9.382                0.929666111     -175.985599
9.383                0.929649785     -176.295273
9.384                0.929634385     -176.605016
9.385                 0.92961991     -176.914824
9.386                0.929606362     -177.224694
9.387                0.929593742     -177.534619
9.388                0.929582051     -177.844596
9.389                 0.92957129     -178.154621
9.39                 0.929561458     -178.464689
9.391                0.929552558     -178.774795
9.392                0.929544589     -179.084934
9.393                0.929537552     -179.395104
9.394                0.929531448     -179.705298
9.395                0.929526276      179.984487
9.396                0.929522038      179.674256
