! TOUCHSTONE file generated by CST DESIGN STUDIO
! Date and time: Tue Feb  4 12:50:26 2025
! Project name: C:\Work\MatlabApps\UnitCellOptimizationMatlab\CST\unitcell.cst
! Tree item: Tasks\Sweep1\SPara1\S-Parameters
! Header version: 2024
! Port assignment regex: !\s*Touchstone port\s*([0-9]+)\s*=\s*(CST MWS port|CST DES external port|CST DES block port)\s*(.+)\s* \(\"(.*)\"\)(\s*mode\s*([0-9]+))?.*
! Touchstone port assignment:
! Touchstone port 1 = CST DES external port 1 ("")
# GHz S MA R 50
9                    0.978615948     -59.9632598
9.001                0.978561076     -60.0488337
9.002                0.978505926     -60.1346069
9.003                0.978450498     -60.2205801
9.004                0.978394791     -60.3067538
9.005                0.978338803     -60.3931286
9.006                0.978282535     -60.4797053
9.007                0.978225986     -60.5664844
9.008                0.978169154     -60.6534666
9.009                0.978112039     -60.7406525
9.01                 0.978054641     -60.8280428
9.011                0.977996958     -60.9156381
9.012                0.977938989      -61.003439
9.013                0.977880735     -61.0914462
9.014                0.977822193     -61.1796604
9.015                0.977763364     -61.2680821
9.016                0.977704246     -61.3567121
9.017                0.977644839      -61.445551
9.018                0.977585143     -61.5345995
9.019                0.977525155     -61.6238581
9.02                 0.977464875     -61.7133277
9.021                0.977404304     -61.8030089
9.022                0.977343439     -61.8929022
9.023                 0.97728228     -61.9830085
9.024                0.977220827     -62.0733283
9.025                0.977159078     -62.1638624
9.026                0.977097032     -62.2546114
9.027                 0.97703469      -62.345576
9.028                 0.97697205     -62.4367569
9.029                0.976909111     -62.5281547
9.03                 0.976845872     -62.6197703
9.031                0.976782333     -62.7116041
9.032                0.976718493      -62.803657
9.033                0.976654352     -62.8959297
9.034                0.976589907     -62.9884228
9.035                 0.97652516      -63.081137
9.036                0.976460107      -63.174073
9.037                 0.97639475     -63.2672316
9.038                0.976329087     -63.3606135
9.039                0.976263118     -63.4542193
9.04                 0.976196841     -63.5480498
9.041                0.976130255     -63.6421056
9.042                0.976063361     -63.7363876
9.043                0.975996157     -63.8308964
9.044                0.975928642     -63.9256327
9.045                0.975860816     -64.0205973
9.046                0.975792677     -64.1157909
9.047                0.975724225     -64.2112142
9.048                 0.97565546      -64.306868
9.049                 0.97558638      -64.402753
9.05                 0.975516984     -64.4988699
9.051                0.975447272     -64.5952195
9.052                0.975377243     -64.6918025
9.053                0.975306896     -64.7886197
9.054                 0.97523623     -64.8856717
9.055                0.975165245     -64.9829595
9.056                0.975093939     -65.0804836
9.057                0.975022312     -65.1782449
9.058                0.974950364     -65.2762441
9.059                0.974878092      -65.374482
9.06                 0.974805497     -65.4729594
9.061                0.974732578     -65.5716769
9.062                0.974659333     -65.6706355
9.063                0.974585762     -65.7698358
9.064                0.974511865     -65.8692786
9.065                 0.97443764     -65.9689647
9.066                0.974363086      -66.068895
9.067                0.974288204       -66.16907
9.068                0.974212991     -66.2694907
9.069                0.974137447     -66.3701579
9.07                 0.974061572     -66.4710723
9.071                0.973985364     -66.5722347
9.072                0.973908823     -66.6736459
9.073                0.973831947     -66.7753067
9.074                0.973754737     -66.8772179
9.075                0.973677191     -66.9793803
9.076                0.973599309     -67.0817947
9.077                0.973521089      -67.184462
9.078                0.973442531     -67.2873829
9.079                0.973363633     -67.3905582
9.08                 0.973284397     -67.4939889
9.081                0.973204819     -67.5976756
9.082                  0.9731249     -67.7016192
9.083                0.973044639     -67.8058205
9.084                0.972964035     -67.9102804
9.085                0.972883087     -68.0149996
9.086                0.972801794     -68.1199791
9.087                0.972720156     -68.2252197
9.088                0.972638172     -68.3307221
9.089                0.972555841     -68.4364873
9.09                 0.972473161      -68.542516
9.091                0.972390134     -68.6488092
9.092                0.972306756     -68.7553677
9.093                0.972223028     -68.8621922
9.094                 0.97213895     -68.9692838
9.095                0.972054519     -69.0766431
9.096                0.971969736     -69.1842712
9.097                0.971884599     -69.2921689
9.098                0.971799108     -69.4003369
9.099                0.971713262     -69.5087763
9.1                   0.97162706     -69.6174878
9.101                0.971540501     -69.7264723
9.102                0.971453585     -69.8357308
9.103                 0.97136631      -69.945264
9.104                0.971278677     -70.0550729
9.105                0.971190684     -70.1651584
9.106                 0.97110233     -70.2755213
9.107                0.971013614     -70.3861626
9.108                0.970924537     -70.4970831
9.109                0.970835096     -70.6082837
9.11                 0.970745292     -70.7197654
9.111                0.970655123      -70.831529
9.112                0.970564589     -70.9435754
9.113                0.970473689     -71.0559055
9.114                0.970382422     -71.1685203
9.115                0.970290787     -71.2814207
9.116                0.970198784     -71.3946075
9.117                0.970106412     -71.5080817
9.118                0.970013669     -71.6218443
9.119                0.969920556      -71.735896
9.12                 0.969827072      -71.850238
9.121                0.969733215      -71.964871
9.122                0.969638985     -72.0797961
9.123                0.969544382     -72.1950141
9.124                0.969449404     -72.3105261
9.125                0.969354051     -72.4263329
9.126                0.969258321     -72.5424354
9.127                0.969162215     -72.6588347
9.128                0.969065731     -72.7755317
9.129                 0.96896887     -72.8925273
9.13                 0.968871629     -73.0098225
9.131                0.968774008     -73.1274182
9.132                0.968676007     -73.2453155
9.133                0.968577625     -73.3635152
9.134                0.968478861     -73.4820183
9.135                0.968379714     -73.6008259
9.136                0.968280184     -73.7199388
9.137                0.968180269      -73.839358
9.138                 0.96807997     -73.9590846
9.139                0.967979286     -74.0791195
9.14                 0.967878215     -74.1994637
9.141                0.967776757     -74.3201181
9.142                0.967674912     -74.4410838
9.143                0.967572678     -74.5623618
9.144                0.967470056      -74.683953
9.145                0.967367043     -74.8058584
9.146                0.967263641     -74.9280791
9.147                0.967159847      -75.050616
9.148                0.967055661     -75.1734701
9.149                0.966951083     -75.2966425
9.15                 0.966846112     -75.4201342
9.151                0.966740748     -75.5439461
9.152                0.966634988     -75.6680793
9.153                0.966528834     -75.7925348
9.154                0.966422284     -75.9173136
9.155                0.966315338     -76.0424168
9.156                0.966207995     -76.1678454
9.157                0.966100254     -76.2936003
9.158                0.965992115     -76.4196827
9.159                0.965883577     -76.5460935
9.16                 0.965774639     -76.6728339
9.161                0.965665301     -76.7999048
9.162                0.965555563     -76.9273072
9.163                0.965445423     -77.0550423
9.164                0.965334882     -77.1831111
9.165                0.965223937     -77.3115146
9.166                 0.96511259     -77.4402538
9.167                0.965000839     -77.5693299
9.168                0.964888684     -77.6987439
9.169                0.964776124     -77.8284968
9.17                 0.964663158     -77.9585897
9.171                0.964549787     -78.0890237
9.172                0.964436009     -78.2197998
9.173                0.964321824     -78.3509192
9.174                0.964207231     -78.4823828
9.175                0.964092231     -78.6141917
9.176                0.963976821     -78.7463471
9.177                0.963861003     -78.8788501
9.178                0.963744775     -79.0117016
9.179                0.963628137     -79.1449027
9.18                 0.963511088     -79.2784547
9.181                0.963393628     -79.4123585
9.182                0.963275756     -79.5466152
9.183                0.963157472      -79.681226
9.184                0.963038776     -79.8161919
9.185                0.962919667     -79.9515141
9.186                0.962800144     -80.0871936
9.187                0.962680208     -80.2232315
9.188                0.962559857      -80.359629
9.189                0.962439091     -80.4963871
9.19                 0.962317911      -80.633507
9.191                0.962196314     -80.7709897
9.192                0.962074302     -80.9088365
9.193                0.961951874     -81.0470483
9.194                0.961829028     -81.1856264
9.195                0.961705766     -81.3245718
9.196                0.961582086     -81.4638857
9.197                0.961457989     -81.6035691
9.198                0.961333473     -81.7436233
9.199                0.961208539     -81.8840494
9.2                  0.961083186     -82.0248484
9.201                0.960957415     -82.1660215
9.202                0.960831224     -82.3075699
9.203                0.960704613     -82.4494947
9.204                0.960577582     -82.5917969
9.205                0.960450131     -82.7344779
9.206                 0.96032226     -82.8775387
9.207                0.960193968     -83.0209804
9.208                0.960065255     -83.1648042
9.209                0.959936121     -83.3090113
9.21                 0.959806566     -83.4536028
9.211                0.959676589     -83.5985798
9.212                 0.95954619     -83.7439436
9.213                 0.95941537     -83.8896952
9.214                0.959284128     -84.0358358
9.215                0.959152463     -84.1823666
9.216                0.959020376     -84.3292887
9.217                0.958887867     -84.4766034
9.218                0.958754935     -84.6243117
9.219                0.958621581     -84.7724148
9.22                 0.958487804      -84.920914
9.221                0.958353604     -85.0698103
9.222                0.958218981     -85.2191049
9.223                0.958083936     -85.3687991
9.224                0.957948467     -85.5188939
9.225                0.957812576     -85.6693906
9.226                0.957676262     -85.8202903
9.227                0.957539524     -85.9715942
9.228                0.957402365     -86.1233035
9.229                0.957264782     -86.2754194
9.23                 0.957126777      -86.427943
9.231                0.956988349     -86.5808755
9.232                0.956849498     -86.7342181
9.233                0.956710225     -86.8879721
9.234                 0.95657053     -87.0421385
9.235                0.956430412     -87.1967185
9.236                0.956289873     -87.3517134
9.237                0.956148912     -87.5071243
9.238                0.956007529     -87.6629525
9.239                0.955865725      -87.819199
9.24                   0.9557235     -87.9758652
9.241                0.955580854     -88.1329521
9.242                0.955437787      -88.290461
9.243                0.955294299     -88.4483931
9.244                0.955150392     -88.6067495
9.245                0.955006065     -88.7655315
9.246                0.954861319     -88.9247402
9.247                0.954716153     -89.0843769
9.248                0.954570569     -89.2444427
9.249                0.954424567     -89.4049388
9.25                 0.954278147     -89.5658664
9.251                0.954131309     -89.7272268
9.252                0.953984055      -89.889021
9.253                0.953836384     -90.0512504
9.254                0.953688297     -90.2139161
9.255                0.953539795     -90.3770192
9.256                0.953390878      -90.540561
9.257                0.953241546     -90.7045427
9.258                0.953091801     -90.8689655
9.259                0.952941642     -91.0338305
9.26                 0.952791071      -91.199139
9.261                0.952640088     -91.3648922
9.262                0.952488694     -91.5310912
9.263                 0.95233689     -91.6977372
9.264                0.952184676     -91.8648315
9.265                0.952032052     -92.0323752
9.266                0.951879021     -92.2003695
9.267                0.951725582     -92.3688156
9.268                0.951571736     -92.5377146
9.269                0.951417485     -92.7070679
9.27                 0.951262828     -92.8768765
9.271                0.951107768     -93.0471417
9.272                0.950952304     -93.2178646
9.273                0.950796438     -93.3890465
9.274                0.950640171     -93.5606884
9.275                0.950483504     -93.7327916
9.276                0.950326437     -93.9053573
9.277                0.950168972     -94.0783867
9.278                 0.95001111     -94.2518808
9.279                0.949852852      -94.425841
9.28                 0.949694199     -94.6002683
9.281                0.949535153     -94.7751639
9.282                0.949375714     -94.9505291
9.283                0.949215883      -95.126365
9.284                0.949055663     -95.3026727
9.285                0.948895053     -95.4794534
9.286                0.948734056     -95.6567083
9.287                0.948572673     -95.8344385
9.288                0.948410905     -96.0126452
9.289                0.948248753     -96.1913296
9.29                 0.948086219     -96.3704927
9.291                0.947923305     -96.5501358
9.292                0.947760012     -96.7302601
9.293                 0.94759634     -96.9108665
9.294                0.947432293     -97.0919564
9.295                0.947267871     -97.2735307
9.296                0.947103077     -97.4555908
9.297                0.946937911     -97.6381376
9.298                0.946772375     -97.8211723
9.299                0.946606472     -98.0046962
9.3                  0.946440202     -98.1887101
9.301                0.946273568     -98.3732154
9.302                0.946106571     -98.5582131
9.303                0.945939214     -98.7437043
9.304                0.945771497     -98.9296902
9.305                0.945603424     -99.1161718
9.306                0.945434995     -99.3031502
9.307                0.945266213     -99.4906266
9.308                 0.94509708      -99.678602
9.309                0.944927599     -99.8670776
9.31                  0.94475777     -100.056054
9.311                0.944587596     -100.245533
9.312                 0.94441708     -100.435516
9.313                0.944246223     -100.626002
9.314                0.944075028     -100.816995
9.315                0.943903496     -101.008494
9.316                0.943731632       -101.2005
9.317                0.943559435     -101.393015
9.318                 0.94338691      -101.58604
9.319                0.943214058     -101.779576
9.32                 0.943040882     -101.973623
9.321                0.942867385     -102.168183
9.322                0.942693568     -102.363257
9.323                0.942519435     -102.558846
9.324                0.942344988     -102.754951
9.325                 0.94217023     -102.951573
9.326                0.941995164     -103.148712
9.327                0.941819791      -103.34637
9.328                0.941644116     -103.544549
9.329                 0.94146814     -103.743248
9.33                 0.941291868     -103.942468
9.331                  0.9411153     -104.142212
9.332                0.940938442     -104.342479
9.333                0.940761295     -104.543271
9.334                0.940583862     -104.744589
9.335                0.940406147     -104.946433
9.336                0.940228154     -105.148805
9.337                0.940049884     -105.351705
9.338                0.939871341     -105.555134
9.339                0.939692529     -105.759094
9.34                  0.93951345     -105.963584
9.341                0.939334109     -106.168607
9.342                0.939154508     -106.374163
9.343                0.938974651     -106.580252
9.344                0.938794541     -106.786876
9.345                0.938614183     -106.994036
9.346                0.938433579     -107.201731
9.347                0.938252733     -107.409964
9.348                0.938071649     -107.618735
9.349                0.937890331     -107.828045
9.35                 0.937708782     -108.037895
9.351                0.937527006     -108.248285
9.352                0.937345007     -108.459216
9.353                0.937162789     -108.670689
9.354                0.936980356     -108.882705
9.355                0.936797712     -109.095264
9.356                0.936614861     -109.308368
9.357                0.936431807     -109.522017
9.358                0.936248554     -109.736212
9.359                0.936065107     -109.950952
9.36                 0.935881469     -110.166241
9.361                0.935697645     -110.382077
9.362                 0.93551364     -110.598461
9.363                0.935329458     -110.815395
9.364                0.935145102     -111.032879
9.365                0.934960579     -111.250913
9.366                0.934775892     -111.469498
9.367                0.934591046     -111.688635
9.368                0.934406045     -111.908325
9.369                0.934220895     -112.128567
9.37                   0.9340356     -112.349364
9.371                0.933850165     -112.570714
9.372                0.933664594     -112.792619
9.373                0.933478894     -113.015079
9.374                0.933293068     -113.238095
9.375                0.933107121     -113.461668
9.376                 0.93292106     -113.685797
9.377                0.932734888     -113.910483
9.378                0.932548612     -114.135728
9.379                0.932362236      -114.36153
9.38                 0.932175766     -114.587892
9.381                0.931989207     -114.814812
9.382                0.931802564     -115.042292
9.383                0.931615843     -115.270332
9.384                 0.93142905     -115.498932
9.385                0.931242189     -115.728094
9.386                0.931055268     -115.957816
9.387                 0.93086829     -116.188099
9.388                0.930681263     -116.418945
9.389                0.930494191     -116.650352
9.39                 0.930307081     -116.882322
9.391                0.930119939     -117.114854
9.392                 0.92993277      -117.34795
9.393                 0.92974558     -117.581608
9.394                0.929558376      -117.81583
9.395                0.929371164     -118.050616
9.396                 0.92918395     -118.285965
