! TOUCHSTONE file generated by CST DESIGN STUDIO
! Date and time: Tue Feb  4 12:50:23 2025
! Project name: C:\Work\MatlabApps\UnitCellOptimizationMatlab\CST\unitcell.cst
! Tree item: Tasks\Sweep1\SPara1\S-Parameters
! Header version: 2024
! Port assignment regex: !\s*Touchstone port\s*([0-9]+)\s*=\s*(CST MWS port|CST DES external port|CST DES block port)\s*(.+)\s* \(\"(.*)\"\)(\s*mode\s*([0-9]+))?.*
! Touchstone port assignment:
! Touchstone port 1 = CST DES external port 1 ("")
# GHz S MA R 50
9                    0.976821096     -65.5927047
9.001                0.976762759     -65.6906977
9.002                0.976704079     -65.7889303
9.003                0.976645054     -65.8874031
9.004                0.976585684      -65.986117
9.005                0.976525969     -66.0850727
9.006                0.976465906      -66.184271
9.007                0.976405496     -66.2837126
9.008                0.976344736     -66.3833983
9.009                0.976283627     -66.4833288
9.01                 0.976222168     -66.5835049
9.011                0.976160356     -66.6839273
9.012                0.976098192      -66.784597
9.013                0.976035675     -66.8855145
9.014                0.975972803     -66.9866808
9.015                0.975909576     -67.0880965
9.016                0.975845992     -67.1897624
9.017                0.975782051     -67.2916795
9.018                0.975717752     -67.3938483
9.019                0.975653094     -67.4962698
9.02                 0.975588075     -67.5989446
9.021                0.975522696     -67.7018737
9.022                0.975456954     -67.8050578
9.023                 0.97539085     -67.9084977
9.024                0.975324382     -68.0121941
9.025                0.975257549      -68.116148
9.026                 0.97519035     -68.2203601
9.027                0.975122785     -68.3248313
9.028                0.975054852     -68.4295622
9.029                0.974986551     -68.5345539
9.03                  0.97491788      -68.639807
9.031                0.974848838     -68.7453224
9.032                0.974779426     -68.8511009
9.033                0.974709641     -68.9571433
9.034                0.974639483     -69.0634506
9.035                 0.97456895     -69.1700234
9.036                0.974498043     -69.2768627
9.037                0.974426759     -69.3839692
9.038                0.974355099     -69.4913439
9.039                0.974283061     -69.5989875
9.04                 0.974210644     -69.7069009
9.041                0.974137847      -69.815085
9.042                0.974064669     -69.9235406
9.043                 0.97399111     -70.0322685
9.044                0.973917169     -70.1412696
9.045                0.973842844     -70.2505448
9.046                0.973768134     -70.3600949
9.047                 0.97369304     -70.4699208
9.048                0.973617559     -70.5800234
9.049                0.973541691     -70.6904035
9.05                 0.973465435      -70.801062
9.051                 0.97338879     -70.9119998
9.052                0.973311755     -71.0232177
9.053                0.973234329     -71.1347166
9.054                0.973156512     -71.2464975
9.055                0.973078302     -71.3585611
9.056                0.972999699     -71.4709084
9.057                0.972920701     -71.5835403
9.058                0.972841307     -71.6964577
9.059                0.972761518     -71.8096614
9.06                 0.972681331     -71.9231524
9.061                0.972600746     -72.0369315
9.062                0.972519762     -72.1509998
9.063                0.972438379     -72.2653579
9.064                0.972356595      -72.380007
9.065                0.972274409     -72.4949479
9.066                 0.97219182     -72.6101814
9.067                0.972108828     -72.7257086
9.068                0.972025432     -72.8415304
9.069                 0.97194163     -72.9576476
9.07                 0.971857423     -73.0740612
9.071                0.971772808     -73.1907721
9.072                0.971687786     -73.3077813
9.073                0.971602355     -73.4250896
9.074                0.971516514     -73.5426981
9.075                0.971430263     -73.6606076
9.076                0.971343601     -73.7788192
9.077                0.971256526     -73.8973336
9.078                0.971169038      -74.016152
9.079                0.971081137     -74.1352752
9.08                  0.97099282     -74.2547042
9.081                0.970904088       -74.37444
9.082                 0.97081494     -74.4944834
9.083                0.970725374     -74.6148356
9.084                 0.97063539     -74.7354973
9.085                0.970544987     -74.8564697
9.086                0.970454164     -74.9777536
9.087                 0.97036292       -75.09935
9.088                0.970271255     -75.2212599
9.089                0.970179168     -75.3434843
9.09                 0.970086657     -75.4660242
9.091                0.969993723     -75.5888805
9.092                0.969900364     -75.7120543
9.093                0.969806579     -75.8355464
9.094                0.969712367     -75.9593579
9.095                0.969617729     -76.0834899
9.096                0.969522662     -76.2079432
9.097                0.969427167     -76.3327189
9.098                0.969331242     -76.4578179
9.099                0.969234886     -76.5832414
9.1                    0.9691381     -76.7089902
9.101                0.969040881     -76.8350654
9.102                 0.96894323      -76.961468
9.103                0.968845145      -77.088199
9.104                0.968746627     -77.2152595
9.105                0.968647673     -77.3426504
9.106                0.968548283     -77.4703727
9.107                0.968448457     -77.5984275
9.108                0.968348193     -77.7268159
9.109                0.968247492     -77.8555387
9.11                 0.968146352     -77.9845971
9.111                0.968044772     -78.1139922
9.112                0.967942753     -78.2437248
9.113                0.967840292     -78.3737961
9.114                 0.96773739     -78.5042071
9.115                0.967634045     -78.6349588
9.116                0.967530258     -78.7660524
9.117                0.967426027     -78.8974887
9.118                0.967321352     -79.0292689
9.119                0.967216231     -79.1613941
9.12                 0.967110665     -79.2938652
9.121                0.967004653     -79.4266834
9.122                0.966898193     -79.5598497
9.123                0.966791286     -79.6933651
9.124                0.966683931     -79.8272308
9.125                0.966576126     -79.9614477
9.126                0.966467872     -80.0960169
9.127                0.966359168     -80.2309396
9.128                0.966250013     -80.3662168
9.129                0.966140407     -80.5018495
9.13                 0.966030349     -80.6378388
9.131                0.965919838     -80.7741859
9.132                0.965808874     -80.9108917
9.133                0.965697456     -81.0479575
9.134                0.965585584     -81.1853841
9.135                0.965473257     -81.3231728
9.136                0.965360475     -81.4613247
9.137                0.965247236     -81.5998407
9.138                0.965133542     -81.7387221
9.139                 0.96501939     -81.8779699
9.14                  0.96490478     -82.0175851
9.141                0.964789713      -82.157569
9.142                0.964674187     -82.2979225
9.143                0.964558202     -82.4386469
9.144                0.964441758     -82.5797431
9.145                0.964324854     -82.7212124
9.146                0.964207489     -82.8630558
9.147                0.964089663     -83.0052743
9.148                0.963971377     -83.1478693
9.149                0.963852628     -83.2908416
9.15                 0.963733418     -83.4341925
9.151                0.963613745     -83.5779231
9.152                0.963493609     -83.7220345
9.153                0.963373009     -83.8665278
9.154                0.963251946     -84.0114041
9.155                0.963130419     -84.1566646
9.156                0.963008428     -84.3023104
9.157                0.962885972     -84.4483426
9.158                0.962763051     -84.5947622
9.159                0.962639665     -84.7415706
9.16                 0.962515813     -84.8887687
9.161                0.962391495     -85.0363578
9.162                0.962266711     -85.1843389
9.163                0.962141461     -85.3327132
9.164                0.962015744     -85.4814818
9.165                 0.96188956     -85.6306459
9.166                0.961762908     -85.7802066
9.167                 0.96163579      -85.930165
9.168                0.961508204     -86.0805223
9.169                 0.96138015     -86.2312796
9.17                 0.961251629     -86.3824381
9.171                0.961122639     -86.5339988
9.172                0.960993181     -86.6859631
9.173                0.960863255     -86.8383319
9.174                0.960732861     -86.9911064
9.175                0.960601998     -87.1442879
9.176                0.960470666     -87.2978774
9.177                0.960338866      -87.451876
9.178                0.960206597     -87.6062851
9.179                0.960073859     -87.7611056
9.18                 0.959940653     -87.9163387
9.181                0.959806978     -88.0719856
9.182                0.959672835     -88.2280475
9.183                0.959538222     -88.3845255
9.184                0.959403141     -88.5414207
9.185                0.959267592     -88.6987344
9.186                0.959131574     -88.8564676
9.187                0.958995088     -89.0146215
9.188                0.958858133     -89.1731973
9.189                0.958720711     -89.3321961
9.19                 0.958582821     -89.4916191
9.191                0.958444462     -89.6514675
9.192                0.958305637     -89.8117424
9.193                0.958166344     -89.9724449
9.194                0.958026584     -90.1335762
9.195                0.957886357     -90.2951376
9.196                0.957745663       -90.45713
9.197                0.957604504     -90.6195547
9.198                0.957462878     -90.7824129
9.199                0.957320787     -90.9457057
9.2                   0.95717823     -91.1094342
9.201                0.957035209     -91.2735997
9.202                0.956891723     -91.4382032
9.203                0.956747773     -91.6032459
9.204                0.956603359      -91.768729
9.205                0.956458482     -91.9346537
9.206                0.956313143      -92.101021
9.207                0.956167341     -92.2678322
9.208                0.956021078     -92.4350883
9.209                0.955874353     -92.6027907
9.21                 0.955727168     -92.7709403
9.211                0.955579523     -92.9395383
9.212                0.955431419     -93.1085859
9.213                0.955282856     -93.2780843
9.214                0.955133835     -93.4480346
9.215                0.954984357     -93.6184379
9.216                0.954834422     -93.7892954
9.217                0.954684032     -93.9606081
9.218                0.954533186     -94.1323774
9.219                0.954381886     -94.3046042
9.22                 0.954230133     -94.4772898
9.221                0.954077927     -94.6504353
9.222                0.953925269     -94.8240418
9.223                 0.95377216     -94.9981104
9.224                0.953618602     -95.1726423
9.225                0.953464594     -95.3476386
9.226                0.953310139     -95.5231004
9.227                0.953155237     -95.6990289
9.228                0.952999888     -95.8754252
9.229                0.952844095     -96.0522903
9.23                 0.952687858     -96.2296255
9.231                0.952531178     -96.4074319
9.232                0.952374057     -96.5857104
9.233                0.952216496     -96.7644624
9.234                0.952058495     -96.9436888
9.235                0.951900057     -97.1233908
9.236                0.951741182     -97.3035695
9.237                0.951581871     -97.4842259
9.238                0.951422127     -97.6653613
9.239                 0.95126195     -97.8469766
9.24                 0.951101342     -98.0290729
9.241                0.950940304     -98.2116515
9.242                0.950778838     -98.3947132
9.243                0.950616945     -98.5782593
9.244                0.950454626     -98.7622908
9.245                0.950291884     -98.9468087
9.246                 0.95012872     -99.1318142
9.247                0.949965135     -99.3173083
9.248                0.949801131     -99.5032921
9.249                 0.94963671     -99.6897666
9.25                 0.949471874     -99.8767329
9.251                0.949306624     -100.064192
9.252                0.949140962     -100.252145
9.253                 0.94897489     -100.440593
9.254                 0.94880841     -100.629537
9.255                0.948641523     -100.818978
9.256                0.948474232     -101.008916
9.257                0.948306539     -101.199354
9.258                0.948138445     -101.390292
9.259                0.947969954     -101.581731
9.26                 0.947801065     -101.773672
9.261                0.947631783     -101.966117
9.262                0.947462109     -102.159065
9.263                0.947292045     -102.352518
9.264                0.947121594     -102.546478
9.265                0.946950757     -102.740944
9.266                0.946779538     -102.935918
9.267                0.946607938     -103.131402
9.268                 0.94643596     -103.327395
9.269                0.946263606     -103.523899
9.27                 0.946090879     -103.720915
9.271                0.945917782     -103.918444
9.272                0.945744316     -104.116487
9.273                0.945570485     -104.315044
9.274                0.945396291     -104.514117
9.275                0.945221737     -104.713706
9.276                0.945046825     -104.913813
9.277                0.944871559     -105.114438
9.278                0.944695941     -105.315582
9.279                0.944519974     -105.517246
9.28                 0.944343661     -105.719431
9.281                0.944167005     -105.922138
9.282                0.943990008     -106.125368
9.283                0.943812675     -106.329121
9.284                0.943635008     -106.533399
9.285                 0.94345701     -106.738202
9.286                0.943278684     -106.943531
9.287                0.943100034     -107.149387
9.288                0.942921062      -107.35577
9.289                0.942741773     -107.562683
9.29                 0.942562169     -107.770124
9.291                0.942382254     -107.978095
9.292                0.942202032     -108.186598
9.293                0.942021505     -108.395632
9.294                0.941840678     -108.605198
9.295                0.941659553     -108.815298
9.296                0.941478136     -109.025931
9.297                0.941296428     -109.237099
9.298                0.941114435     -109.448802
9.299                 0.94093216     -109.661042
9.3                  0.940749606     -109.873818
9.301                0.940566778     -110.087131
9.302                 0.94038368     -110.300983
9.303                0.940200315     -110.515373
9.304                0.940016688     -110.730303
9.305                0.939832802     -110.945773
9.306                0.939648663     -111.161784
9.307                0.939464273     -111.378336
9.308                0.939279638     -111.595429
9.309                0.939094761     -111.813066
9.31                 0.938909647     -112.031245
9.311                  0.9387243     -112.249968
9.312                0.938538725     -112.469236
9.313                0.938352927     -112.689048
9.314                0.938166909     -112.909405
9.315                0.937980677     -113.130309
9.316                0.937794234     -113.351758
9.317                0.937607587     -113.573755
9.318                0.937420739     -113.796299
9.319                0.937233696     -114.019391
9.32                 0.937046462      -114.24303
9.321                0.936859042     -114.467219
9.322                0.936671442     -114.691957
9.323                0.936483665     -114.917244
9.324                0.936295718     -115.143082
9.325                0.936107606     -115.369469
9.326                0.935919333     -115.596408
9.327                0.935730905     -115.823897
9.328                0.935542327     -116.051938
9.329                0.935353605      -116.28053
9.33                 0.935164744     -116.509675
9.331                 0.93497575     -116.739372
9.332                0.934786627     -116.969621
9.333                0.934597383     -117.200424
9.334                0.934408021     -117.431779
9.335                0.934218549     -117.663688
9.336                0.934028971      -117.89615
9.337                0.933839294     -118.129166
9.338                0.933649523     -118.362737
9.339                0.933459664     -118.596861
9.34                 0.933269724     -118.831539
9.341                0.933079708     -119.066772
9.342                0.932889622      -119.30256
9.343                0.932699474     -119.538901
9.344                0.932509267     -119.775798
9.345                 0.93231901     -120.013249
9.346                0.932128708     -120.251256
9.347                0.931938368     -120.489817
9.348                0.931747996     -120.728932
9.349                0.931557598     -120.968603
9.35                 0.931367182     -121.208828
9.351                0.931176753     -121.449608
9.352                0.930986319     -121.690943
9.353                0.930795885     -121.932832
9.354                 0.93060546     -122.175275
9.355                0.930415048     -122.418273
9.356                0.930224659     -122.661825
9.357                0.930034298     -122.905931
9.358                0.929843972      -123.15059
9.359                0.929653688     -123.395804
9.36                 0.929463454      -123.64157
9.361                0.929273276      -123.88789
9.362                0.929083163     -124.134762
9.363                 0.92889312     -124.382187
9.364                0.928703155     -124.630164
9.365                0.928513276     -124.878693
9.366                0.928323491     -125.127774
9.367                0.928133805     -125.377405
9.368                0.927944228     -125.627587
9.369                0.927754766      -125.87832
9.37                 0.927565428     -126.129602
9.371                 0.92737622     -126.381434
9.372                0.927187151     -126.633814
9.373                0.926998228     -126.886743
9.374                0.926809459     -127.140219
9.375                0.926620852     -127.394243
9.376                0.926432416     -127.648814
9.377                0.926244157      -127.90393
9.378                0.926056084     -128.159592
9.379                0.925868205     -128.415798
9.38                 0.925680528     -128.672549
9.381                0.925493061     -128.929843
9.382                0.925305813     -129.187679
9.383                0.925118791     -129.446058
9.384                0.924932004     -129.704977
9.385                0.924745461     -129.964437
9.386                 0.92455917     -130.224436
9.387                0.924373139     -130.484973
9.388                0.924187376     -130.746049
9.389                0.924001891     -131.007661
9.39                 0.923816691     -131.269809
9.391                0.923631786     -131.532491
9.392                0.923447184     -131.795708
9.393                0.923262893     -132.059457
9.394                0.923078924     -132.323739
9.395                0.922895283     -132.588551
9.396                 0.92271198     -132.853892
