! TOUCHSTONE file generated by CST DESIGN STUDIO
! Date and time: Tue Feb  4 12:50:16 2025
! Project name: C:\Work\MatlabApps\UnitCellOptimizationMatlab\CST\unitcell.cst
! Tree item: Tasks\Sweep1\SPara1\S-Parameters
! Header version: 2024
! Port assignment regex: !\s*Touchstone port\s*([0-9]+)\s*=\s*(CST MWS port|CST DES external port|CST DES block port)\s*(.+)\s* \(\"(.*)\"\)(\s*mode\s*([0-9]+))?.*
! Touchstone port assignment:
! Touchstone port 1 = CST DES external port 1 ("")
# GHz S MA R 50
9                    0.971926062     -80.5878135
9.001                0.971857432     -80.7232713
9.002                0.971788355     -80.8590933
9.003                0.971718829     -80.9952806
9.004                0.971648853     -81.1318343
9.005                0.971578426     -81.2687554
9.006                0.971507546      -81.406045
9.007                0.971436211     -81.5437042
9.008                0.971364421     -81.6817341
9.009                0.971292174     -81.8201357
9.01                 0.971219469     -81.9589101
9.011                0.971146304     -82.0980585
9.012                0.971072678     -82.2375819
9.013                 0.97099859     -82.3774813
9.014                0.970924038      -82.517758
9.015                0.970849021     -82.6584129
9.016                0.970773537     -82.7994472
9.017                0.970697586      -82.940862
9.018                0.970621165     -83.0826583
9.019                0.970544274     -83.2248373
9.02                 0.970466912        -83.3674
9.021                0.970389076     -83.5103476
9.022                0.970310766     -83.6536812
9.023                0.970231981     -83.7974018
9.024                0.970152718     -83.9415106
9.025                0.970072977     -84.0860086
9.026                0.969992757     -84.2308971
9.027                0.969912057     -84.3761771
9.028                0.969830874     -84.5218496
9.029                0.969749208     -84.6679159
9.03                 0.969667058     -84.8143771
9.031                0.969584422     -84.9612341
9.032                0.969501299     -85.1084883
9.033                0.969417688     -85.2561406
9.034                0.969333588     -85.4041922
9.035                0.969248997     -85.5526443
9.036                0.969163915     -85.7014979
9.037                 0.96907834     -85.8507542
9.038                0.968992271     -86.0004142
9.039                0.968905707     -86.1504792
9.04                 0.968818646     -86.3009502
9.041                0.968731088     -86.4518283
9.042                0.968643032     -86.6031148
9.043                0.968554476     -86.7548107
9.044                0.968465419     -86.9069171
9.045                 0.96837586     -87.0594352
9.046                0.968285799      -87.212366
9.047                0.968195233     -87.3657109
9.048                0.968104163     -87.5194708
9.049                0.968012586     -87.6736468
9.05                 0.967920502     -87.8282402
9.051                0.967827911     -87.9832521
9.052                 0.96773481     -88.1386836
9.053                0.967641198     -88.2945357
9.054                0.967547076     -88.4508098
9.055                0.967452442     -88.6075068
9.056                0.967357294      -88.764628
9.057                0.967261633     -88.9221744
9.058                0.967165457     -89.0801472
9.059                0.967068765     -89.2385476
9.06                 0.966971556     -89.3973766
9.061                0.966873829     -89.5566354
9.062                0.966775584     -89.7163251
9.063                 0.96667682      -89.876447
9.064                0.966577535      -90.037002
9.065                0.966477729     -90.1979913
9.066                0.966377402     -90.3594162
9.067                0.966276552     -90.5212776
9.068                0.966175178     -90.6835768
9.069                 0.96607328     -90.8463148
9.07                 0.965970857     -91.0094929
9.071                0.965867909     -91.1731121
9.072                0.965764434     -91.3371736
9.073                0.965660431     -91.5016784
9.074                0.965555901     -91.6666278
9.075                0.965450843     -91.8320229
9.076                0.965345255     -91.9978647
9.077                0.965239138     -92.1641545
9.078                 0.96513249     -92.3308933
9.079                0.965025312     -92.4980822
9.08                 0.964917601     -92.6657225
9.081                0.964809359     -92.8338152
9.082                0.964700584     -93.0023614
9.083                0.964591276     -93.1713623
9.084                0.964481434     -93.3408189
9.085                0.964371058     -93.5107325
9.086                0.964260147     -93.6811041
9.087                0.964148701     -93.8519348
9.088                 0.96403672     -94.0232258
9.089                0.963924203     -94.1949781
9.09                  0.96381115     -94.3671929
9.091                 0.96369756     -94.5398712
9.092                0.963583433     -94.7130143
9.093                0.963468769     -94.8866231
9.094                0.963353567     -95.0606988
9.095                0.963237828     -95.2352426
9.096                 0.96312155     -95.4102554
9.097                0.963004734     -95.5857384
9.098                 0.96288738     -95.7616927
9.099                0.962769487     -95.9381193
9.1                  0.962651055     -96.1150195
9.101                0.962532084     -96.2923941
9.102                0.962412575     -96.4702444
9.103                0.962292526     -96.6485715
9.104                0.962171938     -96.8273763
9.105                0.962050811       -97.00666
9.106                0.961929145     -97.1864236
9.107                0.961806939     -97.3666682
9.108                0.961684195     -97.5473949
9.109                0.961560911     -97.7286047
9.11                 0.961437089     -97.9102988
9.111                0.961312728     -98.0924781
9.112                0.961187828     -98.2751437
9.113                 0.96106239     -98.4582966
9.114                0.960936414      -98.641938
9.115                0.960809899     -98.8260688
9.116                0.960682848       -99.01069
9.117                0.960555259     -99.1958028
9.118                0.960427132     -99.3814081
9.119                 0.96029847      -99.567507
9.12                 0.960169271     -99.7541005
9.121                0.960039536     -99.9411895
9.122                0.959909266     -100.128775
9.123                0.959778461     -100.316859
9.124                0.959647122      -100.50544
9.125                0.959515249     -100.694522
9.126                0.959382843     -100.884104
9.127                0.959249904     -101.074188
9.128                0.959116434     -101.264774
9.129                0.958982432     -101.455864
9.13                   0.9588479     -101.647459
9.131                0.958712838     -101.839558
9.132                0.958577247     -102.032165
9.133                0.958441129     -102.225279
9.134                0.958304482     -102.418901
9.135                 0.95816731     -102.613032
9.136                0.958029612     -102.807674
9.137                 0.95789139     -103.002827
9.138                0.957752645     -103.198492
9.139                0.957613377      -103.39467
9.14                 0.957473588     -103.591362
9.141                0.957333278     -103.788568
9.142                 0.95719245     -103.986291
9.143                0.957051104      -104.18453
9.144                0.956909241     -104.383287
9.145                0.956766863     -104.582562
9.146                0.956623971     -104.782356
9.147                0.956480567      -104.98267
9.148                0.956336651     -105.183506
9.149                0.956192226     -105.384863
9.15                 0.956047292     -105.586743
9.151                0.955901851     -105.789146
9.152                0.955755905     -105.992074
9.153                0.955609456     -106.195527
9.154                0.955462505     -106.399505
9.155                0.955315053     -106.604011
9.156                0.955167103     -106.809044
9.157                0.955018656     -107.014605
9.158                0.954869714     -107.220696
9.159                0.954720278     -107.427316
9.16                 0.954570352     -107.634467
9.161                0.954419937     -107.842149
9.162                0.954269034     -108.050363
9.163                0.954117646     -108.259111
9.164                0.953965775     -108.468391
9.165                0.953813423     -108.678206
9.166                0.953660592     -108.888556
9.167                0.953507284     -109.099442
9.168                0.953353502     -109.310863
9.169                0.953199249     -109.522822
9.17                 0.953044525     -109.735319
9.171                0.952889335     -109.948353
9.172                 0.95273368     -110.161927
9.173                0.952577563      -110.37604
9.174                0.952420986     -110.590693
9.175                0.952263952     -110.805887
9.176                0.952106463     -111.021623
9.177                0.951948524       -111.2379
9.178                0.951790135      -111.45472
9.179                  0.9516313     -111.672082
9.18                 0.951472022     -111.889989
9.181                0.951312304     -112.108439
9.182                0.951152149     -112.327434
9.183                 0.95099156     -112.546975
9.184                0.950830539     -112.767061
9.185                0.950669091     -112.987693
9.186                0.950507217     -113.208871
9.187                0.950344922     -113.430597
9.188                0.950182209      -113.65287
9.189                0.950019081     -113.875691
9.19                 0.949855541      -114.09906
9.191                0.949691594     -114.322978
9.192                0.949527241     -114.547445
9.193                0.949362488     -114.772462
9.194                0.949197338     -114.998028
9.195                0.949031794     -115.224144
9.196                 0.94886586     -115.450811
9.197                0.948699539     -115.678029
9.198                0.948532837     -115.905798
9.199                0.948365756     -116.134118
9.2                  0.948198301      -116.36299
9.201                0.948030475     -116.592414
9.202                0.947862283      -116.82239
9.203                0.947693729     -117.052918
9.204                0.947524817     -117.283999
9.205                0.947355551     -117.515633
9.206                0.947185936      -117.74782
9.207                0.947015976     -117.980559
9.208                0.946845675     -118.213852
9.209                0.946675038     -118.447698
9.21                  0.94650407     -118.682098
9.211                0.946332774     -118.917051
9.212                0.946161157     -119.152558
9.213                0.945989221     -119.388618
9.214                0.945816973     -119.625232
9.215                0.945644418       -119.8624
9.216                0.945471559     -120.100122
9.217                0.945298402     -120.338397
9.218                0.945124952     -120.577226
9.219                0.944951214     -120.816608
9.22                 0.944777193     -121.056544
9.221                0.944602895     -121.297034
9.222                0.944428324     -121.538076
9.223                0.944253487     -121.779672
9.224                0.944078388     -122.021821
9.225                0.943903033     -122.264523
9.226                0.943727427     -122.507777
9.227                0.943551577     -122.751584
9.228                0.943375487     -122.995943
9.229                0.943199163     -123.240854
9.23                 0.943022611     -123.486316
9.231                0.942845838      -123.73233
9.232                0.942668848     -123.978895
9.233                0.942491648     -124.226011
9.234                0.942314243     -124.473677
9.235                0.942136641     -124.721894
9.236                0.941958846     -124.970659
9.237                0.941780866     -125.219974
9.238                0.941602706     -125.469838
9.239                0.941424373      -125.72025
9.24                 0.941245873      -125.97121
9.241                0.941067212     -126.222717
9.242                0.940888398     -126.474771
9.243                0.940709436     -126.727371
9.244                0.940530334     -126.980516
9.245                0.940351097     -127.234207
9.246                0.940171733     -127.488442
9.247                0.939992248      -127.74322
9.248                 0.93981265     -127.998542
9.249                0.939632945     -128.254406
9.25                  0.93945314     -128.510812
9.251                0.939273242     -128.767759
9.252                0.939093259     -129.025245
9.253                0.938913197     -129.283271
9.254                0.938733064     -129.541836
9.255                0.938552867     -129.800938
9.256                0.938372613     -130.060578
9.257                 0.93819231     -130.320753
9.258                0.938011966     -130.581463
9.259                0.937831586     -130.842707
9.26                 0.937651181     -131.104484
9.261                0.937470756     -131.366794
9.262                0.937290319     -131.629634
9.263                0.937109879     -131.893004
9.264                0.936929443     -132.156904
9.265                0.936749018     -132.421331
9.266                0.936568614     -132.686286
9.267                0.936388237     -132.951765
9.268                0.936207896     -133.217769
9.269                0.936027599     -133.484297
9.27                 0.935847353     -133.751346
9.271                0.935667168     -134.018917
9.272                0.935487051     -134.287006
9.273                 0.93530701     -134.555614
9.274                0.935127055     -134.824739
9.275                0.934947192     -135.094379
9.276                0.934767432     -135.364533
9.277                0.934587781       -135.6352
9.278                0.934408249     -135.906378
9.279                0.934228844     -136.178066
9.28                 0.934049575     -136.450262
9.281                0.933870451     -136.722965
9.282                0.933691479     -136.996173
9.283                 0.93351267     -137.269885
9.284                0.933334031     -137.544098
9.285                0.933155571     -137.818812
9.286                  0.9329773     -138.094024
9.287                0.932799227     -138.369734
9.288                0.932621359     -138.645939
9.289                0.932443707     -138.922637
9.29                 0.932266279     -139.199826
9.291                0.932089085     -139.477506
9.292                0.931912133     -139.755674
9.293                0.931735432     -140.034327
9.294                0.931558993     -140.313465
9.295                0.931382823     -140.593086
9.296                0.931206933     -140.873186
9.297                0.931031332     -141.153765
9.298                0.930856029     -141.434821
9.299                0.930681033     -141.716351
9.3                  0.930506353     -141.998353
9.301                   0.930332     -142.280825
9.302                0.930157982     -142.563765
9.303                 0.92998431      -142.84717
9.304                0.929810992      -143.13104
9.305                0.929638038     -143.415371
9.306                0.929465458     -143.700161
9.307                0.929293261     -143.985408
9.308                0.929121457     -144.271109
9.309                0.928950056     -144.557263
9.31                 0.928779067     -144.843866
9.311                  0.9286085     -145.130917
9.312                0.928438364     -145.418413
9.313                0.928268669     -145.706352
9.314                0.928099426      -145.99473
9.315                0.927930643     -146.283547
9.316                0.927762331     -146.572798
9.317                0.927594499     -146.862481
9.318                0.927427157     -147.152595
9.319                0.927260314     -147.443135
9.32                 0.927093982       -147.7341
9.321                0.926928169     -148.025487
9.322                0.926762885     -148.317293
9.323                 0.92659814     -148.609515
9.324                0.926433944     -148.902151
9.325                0.926270307     -149.195197
9.326                0.926107238     -149.488652
9.327                0.925944748     -149.782511
9.328                0.925782846     -150.076773
9.329                0.925621543     -150.371434
9.33                 0.925460847     -150.666491
9.331                0.925300769     -150.961941
9.332                0.925141318     -151.257781
9.333                0.924982505     -151.554009
9.334                0.924824339     -151.850621
9.335                 0.92466683     -152.147614
9.336                0.924509987     -152.444984
9.337                0.924353822      -152.74273
9.338                0.924198342     -153.040847
9.339                0.924043559     -153.339332
9.34                 0.923889481     -153.638182
9.341                0.923736119     -153.937395
9.342                0.923583482     -154.236966
9.343                0.923431579     -154.536892
9.344                0.923280422     -154.837169
9.345                0.923130018     -155.137796
9.346                0.922980378     -155.438767
9.347                0.922831511      -155.74008
9.348                0.922683427     -156.041731
9.349                0.922536135     -156.343717
9.35                 0.922389645     -156.646035
9.351                0.922243967      -156.94868
9.352                0.922099109     -157.251648
9.353                0.921955081     -157.554938
9.354                0.921811892     -157.858544
9.355                0.921669552     -158.162464
9.356                 0.92152807     -158.466693
9.357                0.921387455     -158.771228
9.358                0.921247716     -159.076066
9.359                0.921108863     -159.381202
9.36                 0.920970905     -159.686632
9.361                 0.92083385     -159.992354
9.362                0.920697708     -160.298362
9.363                0.920562487     -160.604654
9.364                0.920428197     -160.911226
9.365                0.920294846     -161.218072
9.366                0.920162443     -161.525191
9.367                0.920030997     -161.832577
9.368                0.919900516     -162.140227
9.369                 0.91977101     -162.448137
9.37                 0.919642486     -162.756303
9.371                0.919514954      -163.06472
9.372                0.919388421     -163.373385
9.373                0.919262896     -163.682294
9.374                0.919138387     -163.991443
9.375                0.919014903     -164.300827
9.376                0.918892452     -164.610443
9.377                0.918771041     -164.920286
9.378                0.918650679     -165.230352
9.379                0.918531374     -165.540637
9.38                 0.918413134     -165.851137
9.381                0.918295966     -166.161847
9.382                0.918179878     -166.472764
9.383                0.918064878     -166.783883
9.384                0.917950974       -167.0952
9.385                0.917838173      -167.40671
9.386                0.917726482      -167.71841
9.387                0.917615908     -168.030294
9.388                 0.91750646      -168.34236
9.389                0.917398144     -168.654601
9.39                 0.917290966     -168.967015
9.391                0.917184936     -169.279596
9.392                0.917080058      -169.59234
9.393                 0.91697634     -169.905243
9.394                0.916873788       -170.2183
9.395                 0.91677241     -170.531507
9.396                0.916672212      -170.84486
