! TOUCHSTONE file generated by CST DESIGN STUDIO
! Date and time: Tue Feb  4 12:50:15 2025
! Project name: C:\Work\MatlabApps\UnitCellOptimizationMatlab\CST\unitcell.cst
! Tree item: Tasks\Sweep1\SPara1\S-Parameters
! Header version: 2024
! Port assignment regex: !\s*Touchstone port\s*([0-9]+)\s*=\s*(CST MWS port|CST DES external port|CST DES block port)\s*(.+)\s* \(\"(.*)\"\)(\s*mode\s*([0-9]+))?.*
! Touchstone port assignment:
! Touchstone port 1 = CST DES external port 1 ("")
# GHz S MA R 50
9                    0.970942773     -83.6040156
9.001                0.970868553      -83.747605
9.002                0.970793929     -83.8915845
9.003                  0.9707189     -84.0359552
9.004                0.970643464     -84.1807184
9.005                 0.97056762     -84.3258751
9.006                0.970491366     -84.4714265
9.007                0.970414701     -84.6173738
9.008                0.970337623     -84.7637181
9.009                0.970260131     -84.9104605
9.01                 0.970182223     -85.0576022
9.011                0.970103897     -85.2051444
9.012                0.970025153     -85.3530881
9.013                0.969945988     -85.5014347
9.014                0.969866401     -85.6501851
9.015                0.969786391     -85.7993407
9.016                0.969705956     -85.9489024
9.017                0.969625095     -86.0988716
9.018                0.969543806     -86.2492493
9.019                0.969462087     -86.4000367
9.02                 0.969379937      -86.551235
9.021                0.969297355     -86.7028454
9.022                 0.96921434     -86.8548689
9.023                0.969130889     -87.0073068
9.024                0.969047001     -87.1601602
9.025                0.968962675     -87.3134303
9.026                 0.96887791     -87.4671183
9.027                0.968792704     -87.6212253
9.028                0.968707055     -87.7757524
9.029                0.968620962      -87.930701
9.03                 0.968534424      -88.086072
9.031                 0.96844744     -88.2418667
9.032                0.968360007     -88.3980863
9.033                0.968272125     -88.5547319
9.034                0.968183793     -88.7118047
9.035                0.968095008     -88.8693058
9.036                0.968005769     -89.0272365
9.037                0.967916076     -89.1855978
9.038                0.967825926      -89.344391
9.039                0.967735319     -89.5036172
9.04                 0.967644253     -89.6632776
9.041                0.967552727     -89.8233733
9.042                0.967460739     -89.9839055
9.043                0.967368289     -90.1448755
9.044                0.967275374     -90.3062843
9.045                0.967181994      -90.468133
9.046                0.967088148      -90.630423
9.047                0.966993834     -90.7931553
9.048                 0.96689905     -90.9563311
9.049                0.966803797     -91.1199516
9.05                 0.966708072     -91.2840179
9.051                0.966611874     -91.4485312
9.052                0.966515203     -91.6134927
9.053                0.966418056     -91.7789034
9.054                0.966320434     -91.9447646
9.055                0.966222334     -92.1110774
9.056                0.966123755      -92.277843
9.057                0.966024697     -92.4450626
9.058                0.965925158     -92.6127372
9.059                0.965825138      -92.780868
9.06                 0.965724635     -92.9494563
9.061                0.965623647      -93.118503
9.062                0.965522175     -93.2880095
9.063                0.965420217     -93.4579768
9.064                0.965317772      -93.628406
9.065                 0.96521484     -93.7992984
9.066                0.965111418      -93.970655
9.067                0.965007506      -94.142477
9.068                0.964903104     -94.3147655
9.069                 0.96479821     -94.4875217
9.07                 0.964692823     -94.6607467
9.071                0.964586942     -94.8344416
9.072                0.964480568     -95.0086076
9.073                0.964373698     -95.1832457
9.074                0.964266332     -95.3583572
9.075                0.964158469      -95.533943
9.076                0.964050109     -95.7100044
9.077                 0.96394125     -95.8865425
9.078                0.963831892     -96.0635583
9.079                0.963722034      -96.241053
9.08                 0.963611675     -96.4190277
9.081                0.963500815     -96.5974835
9.082                0.963389453     -96.7764215
9.083                0.963277589     -96.9558427
9.084                0.963165221     -97.1357483
9.085                 0.96305235     -97.3161394
9.086                0.962938974     -97.4970171
9.087                0.962825093     -97.6783824
9.088                0.962710707     -97.8602364
9.089                0.962595815     -98.0425802
9.09                 0.962480416     -98.2254149
9.091                0.962364511     -98.4087415
9.092                0.962248098     -98.5925611
9.093                0.962131177     -98.7768748
9.094                0.962013749     -98.9616835
9.095                0.961895812     -99.1469885
9.096                0.961777366     -99.3327907
9.097                0.961658412     -99.5190911
9.098                0.961538947     -99.7058908
9.099                0.961418974     -99.8931909
9.1                  0.961298491     -100.080992
9.101                0.961177497     -100.269296
9.102                0.961055994     -100.458103
9.103                0.960933981     -100.647415
9.104                0.960811457     -100.837232
9.105                0.960688423     -101.027555
9.106                0.960564878     -101.218386
9.107                0.960440823     -101.409726
9.108                0.960316258     -101.601574
9.109                0.960191183     -101.793933
9.11                 0.960065597     -101.986804
9.111                0.959939501     -102.180187
9.112                0.959812896     -102.374083
9.113                 0.95968578     -102.568493
9.114                0.959558156     -102.763418
9.115                0.959430022      -102.95886
9.116                0.959301379     -103.154819
9.117                0.959172227     -103.351295
9.118                0.959042567     -103.548291
9.119                  0.9589124     -103.745806
9.12                 0.958781725     -103.943843
9.121                0.958650543       -104.1424
9.122                0.958518855     -104.341481
9.123                0.958386661     -104.541085
9.124                0.958253962     -104.741213
9.125                0.958120758     -104.941866
9.126                 0.95798705     -105.143045
9.127                0.957852839     -105.344751
9.128                0.957718126     -105.546985
9.129                 0.95758291     -105.749748
9.13                 0.957447194      -105.95304
9.131                0.957310978     -106.156862
9.132                0.957174263     -106.361215
9.133                0.957037049       -106.5661
9.134                0.956899339     -106.771518
9.135                0.956761132     -106.977469
9.136                 0.95662243     -107.183954
9.137                0.956483234     -107.390975
9.138                0.956343546     -107.598531
9.139                0.956203365     -107.806623
9.14                 0.956062695     -108.015253
9.141                0.955921535     -108.224421
9.142                0.955779888     -108.434127
9.143                0.955637755     -108.644373
9.144                0.955495136     -108.855159
9.145                0.955352034     -109.066485
9.146                 0.95520845     -109.278353
9.147                0.955064386     -109.490763
9.148                0.954919844     -109.703716
9.149                0.954774824     -109.917213
9.15                 0.954629329     -110.131253
9.151                 0.95448336     -110.345838
9.152                 0.95433692     -110.560968
9.153                0.954190009     -110.776644
9.154                0.954042631     -110.992867
9.155                0.953894787     -111.209636
9.156                0.953746479     -111.426954
9.157                0.953597709     -111.644819
9.158                0.953448479     -111.863233
9.159                0.953298792     -112.082196
9.16                 0.953148649     -112.301709
9.161                0.952998054     -112.521772
9.162                0.952847007     -112.742386
9.163                0.952695512     -112.963551
9.164                0.952543571     -113.185267
9.165                0.952391187     -113.407536
9.166                0.952238362     -113.630357
9.167                0.952085098     -113.853731
9.168                0.951931399     -114.077659
9.169                0.951777267      -114.30214
9.17                 0.951622704     -114.527175
9.171                0.951467715     -114.752765
9.172                0.951312301     -114.978909
9.173                0.951156465     -115.205608
9.174                0.951000211     -115.432863
9.175                0.950843542     -115.660674
9.176                 0.95068646     -115.889041
9.177                0.950528969     -116.117964
9.178                0.950371072     -116.347443
9.179                0.950212772      -116.57748
9.18                 0.950054073     -116.808073
9.181                0.949894978     -117.039223
9.182                0.949735491     -117.270931
9.183                0.949575615     -117.503197
9.184                0.949415354      -117.73602
9.185                 0.94925471     -117.969401
9.186                0.949093689      -118.20334
9.187                0.948932294     -118.437837
9.188                0.948770529     -118.672892
9.189                0.948608397     -118.908505
9.19                 0.948445902     -119.144677
9.191                 0.94828305     -119.381407
9.192                0.948119842     -119.618695
9.193                0.947956285     -119.856541
9.194                0.947792382     -120.094946
9.195                0.947628136     -120.333909
9.196                0.947463554     -120.573431
9.197                0.947298638      -120.81351
9.198                0.947133394     -121.054147
9.199                0.946967826     -121.295342
9.2                  0.946801939     -121.537095
9.201                0.946635737     -121.779406
9.202                0.946469224     -122.022274
9.203                0.946302407     -122.265699
9.204                0.946135289     -122.509681
9.205                0.945967876      -122.75422
9.206                0.945800172     -122.999315
9.207                0.945632183     -123.244967
9.208                0.945463914     -123.491175
9.209                0.945295369     -123.737938
9.21                 0.945126555     -123.985256
9.211                0.944957475     -124.233129
9.212                0.944788137     -124.481557
9.213                0.944618545     -124.730538
9.214                0.944448705     -124.980074
9.215                0.944278622     -125.230162
9.216                0.944108302     -125.480803
9.217                 0.94393775     -125.731997
9.218                0.943766973     -125.983742
9.219                0.943595976     -126.236038
9.22                 0.943424766     -126.488885
9.221                0.943253347     -126.742282
9.222                0.943081727     -126.996228
9.223                0.942909911     -127.250723
9.224                0.942737905     -127.505766
9.225                0.942565716     -127.761356
9.226                 0.94239335     -128.017493
9.227                0.942220813     -128.274177
9.228                0.942048112     -128.531405
9.229                0.941875253     -128.789177
9.23                 0.941702243     -129.047494
9.231                0.941529088     -129.306353
9.232                0.941355795     -129.565753
9.233                0.941182371     -129.825695
9.234                0.941008823     -130.086177
9.235                0.940835157     -130.347199
9.236                0.940661381     -130.608758
9.237                0.940487501     -130.870855
9.238                0.940313524     -131.133488
9.239                0.940139458     -131.396656
9.24                  0.93996531     -131.660358
9.241                0.939791087     -131.924594
9.242                0.939616796     -132.189361
9.243                0.939442445     -132.454659
9.244                0.939268041     -132.720487
9.245                0.939093591     -132.986844
9.246                0.938919104     -133.253727
9.247                0.938744587     -133.521137
9.248                0.938570047     -133.789071
9.249                0.938395492     -134.057528
9.25                 0.938220931     -134.326508
9.251                 0.93804637     -134.596009
9.252                0.937871818     -134.866029
9.253                0.937697283     -135.136566
9.254                0.937522772     -135.407621
9.255                0.937348294      -135.67919
9.256                0.937173857     -135.951273
9.257                 0.93699947     -136.223868
9.258                0.936825139     -136.496973
9.259                0.936650875     -136.770587
9.26                 0.936476684     -137.044708
9.261                0.936302576     -137.319336
9.262                0.936128558     -137.594467
9.263                 0.93595464       -137.8701
9.264                 0.93578083     -138.146234
9.265                0.935607136     -138.422867
9.266                0.935433568     -138.699997
9.267                0.935260133     -138.977622
9.268                0.935086841      -139.25574
9.269                0.934913701      -139.53435
9.27                  0.93474072      -139.81345
9.271                0.934567909     -140.093037
9.272                0.934395276      -140.37311
9.273                 0.93422283     -140.653667
9.274                0.934050579     -140.934705
9.275                0.933878534     -141.216223
9.276                0.933706704     -141.498219
9.277                0.933535096     -141.780691
9.278                0.933363721     -142.063635
9.279                0.933192588     -142.347051
9.28                 0.933021706     -142.630937
9.281                0.932851084     -142.915289
9.282                0.932680731     -143.200105
9.283                0.932510658     -143.485384
9.284                0.932340873     -143.771123
9.285                0.932171386     -144.057319
9.286                0.932002206     -144.343971
9.287                0.931833343     -144.631076
9.288                0.931664806     -144.918631
9.289                0.931496605     -145.206634
9.29                 0.931328749     -145.495083
9.291                0.931161248     -145.783974
9.292                0.930994112     -146.073306
9.293                 0.93082735     -146.363076
9.294                0.930660972     -146.653282
9.295                0.930494987      -146.94392
9.296                0.930329406     -147.234988
9.297                0.930164238     -147.526483
9.298                0.929999493     -147.818402
9.299                 0.92983518     -148.110744
9.3                   0.92967131     -148.403505
9.301                0.929507892     -148.696681
9.302                0.929344936     -148.990271
9.303                0.929182451     -149.284272
9.304                0.929020449      -149.57868
9.305                0.928858937     -149.873493
9.306                0.928697927     -150.168708
9.307                0.928537428     -150.464321
9.308                0.928377451      -150.76033
9.309                0.928218004     -151.056732
9.31                 0.928059097     -151.353523
9.311                0.927900742     -151.650701
9.312                0.927742947     -151.948262
9.313                0.927585722     -152.246204
9.314                0.927429078     -152.544522
9.315                0.927273023     -152.843215
9.316                0.927117569     -153.142277
9.317                0.926962724     -153.441707
9.318                0.926808499     -153.741501
9.319                0.926654903     -154.041656
9.32                 0.926501947     -154.342168
9.321                 0.92634964     -154.643034
9.322                0.926197991     -154.944251
9.323                0.926047012     -155.245815
9.324                 0.92589671     -155.547722
9.325                0.925747097     -155.849969
9.326                0.925598181     -156.152553
9.327                0.925449973     -156.455471
9.328                0.925302483     -156.758717
9.329                0.925155719      -157.06229
9.33                 0.925009691     -157.366185
9.331                 0.92486441     -157.670399
9.332                0.924719884     -157.974927
9.333                0.924576124     -158.279768
9.334                0.924433138     -158.584915
9.335                0.924290936     -158.890367
9.336                0.924149528     -159.196118
9.337                0.924008923     -159.502166
9.338                 0.92386913     -159.808507
9.339                0.923730159     -160.115136
9.34                 0.923592019      -160.42205
9.341                0.923454719     -160.729244
9.342                0.923318268     -161.036716
9.343                0.923182676     -161.344461
9.344                0.923047951     -161.652475
9.345                0.922914103     -161.960754
9.346                 0.92278114     -162.269294
9.347                0.922649073     -162.578092
9.348                0.922517908     -162.887142
9.349                0.922387656     -163.196442
9.35                 0.922258326     -163.505986
9.351                0.922129925     -163.815771
9.352                0.922002462     -164.125793
9.353                0.921875947     -164.436048
9.354                0.921750387     -164.746531
9.355                0.921625792     -165.057238
9.356                0.921502169     -165.368165
9.357                0.921379527     -165.679308
9.358                0.921257874     -165.990662
9.359                0.921137219     -166.302224
9.36                 0.921017569     -166.613989
9.361                0.920898933     -166.925953
9.362                0.920781318     -167.238111
9.363                0.920664734     -167.550459
9.364                0.920549186     -167.862993
9.365                0.920434684     -168.175708
9.366                0.920321235       -168.4886
9.367                0.920208846     -168.801665
9.368                0.920097525     -169.114899
9.369                 0.91998728     -169.428296
9.37                 0.919878118     -169.741852
9.371                0.919770046     -170.055563
9.372                0.919663071     -170.369425
9.373                0.919557201     -170.683433
9.374                0.919452442     -170.997583
9.375                0.919348802     -171.311869
9.376                0.919246287     -171.626288
9.377                0.919144904     -171.940835
9.378                 0.91904466     -172.255505
9.379                0.918945561     -172.570294
9.38                 0.918847614     -172.885198
9.381                0.918750824     -173.200211
9.382                  0.9186552      -173.51533
9.383                0.918560746     -173.830549
9.384                0.918467468     -174.145864
9.385                0.918375373     -174.461271
9.386                0.918284467     -174.776765
9.387                0.918194755      -175.09234
9.388                0.918106243     -175.407994
9.389                0.918018937      -175.72372
9.39                 0.917932841     -176.039514
9.391                0.917847962     -176.355373
9.392                0.917764304      -176.67129
9.393                0.917681873     -176.987261
9.394                0.917600674     -177.303282
9.395                0.917520712     -177.619349
9.396                0.917441991     -177.935455
