! TOUCHSTONE file generated by CST DESIGN STUDIO
! Date and time: Tue Feb  4 17:49:29 2025
! Project name: C:\Work\MatlabApps\UnitCellOptimizationMatlab\CST\unitcell.cst
! Tree item: Tasks\Sweep1\SPara1\S-Parameters
! Header version: 2024
! Port assignment regex: !\s*Touchstone port\s*([0-9]+)\s*=\s*(CST MWS port|CST DES external port|CST DES block port)\s*(.+)\s* \(\"(.*)\"\)(\s*mode\s*([0-9]+))?.*
! Touchstone port assignment:
! Touchstone port 1 = CST DES external port 1 ("")
# GHz S MA R 50
9                    0.861518927     -103.673796
9.001                0.861083327      -103.89202
9.002                0.860646652     -104.110908
9.003                0.860208907     -104.330461
9.004                0.859770099     -104.550682
9.005                0.859330232     -104.771572
9.006                0.858889314     -104.993133
9.007                0.858447351     -105.215365
9.008                0.858004348     -105.438272
9.009                0.857560312     -105.661853
9.01                  0.85711525     -105.886112
9.011                0.856669168     -106.111049
9.012                0.856222074     -106.336666
9.013                0.855773974     -106.562964
9.014                0.855324875     -106.789945
9.015                0.854874786     -107.017611
9.016                0.854423713     -107.245963
9.017                0.853971664     -107.475003
9.018                0.853518646     -107.704732
9.019                0.853064669     -107.935151
9.02                 0.852609739     -108.166262
9.021                0.852153865     -108.398067
9.022                0.851697056     -108.630567
9.023                 0.85123932     -108.863763
9.024                0.850780665     -109.097657
9.025                0.850321101     -109.332249
9.026                0.849860637     -109.567543
9.027                0.849399281     -109.803538
9.028                0.848937044     -110.040237
9.029                0.848473935      -110.27764
9.03                 0.848009963     -110.515749
9.031                0.847545138     -110.754566
9.032                 0.84707947     -110.994091
9.033                 0.84661297     -111.234326
9.034                0.846145648     -111.475272
9.035                0.845677515     -111.716931
9.036                 0.84520858     -111.959303
9.037                0.844738856      -112.20239
9.038                0.844268353     -112.446194
9.039                0.843797082     -112.690714
9.04                 0.843325055     -112.935953
9.041                0.842852283     -113.181912
9.042                0.842378779     -113.428591
9.043                0.841904554     -113.675993
9.044                 0.84142962     -113.924117
9.045                 0.84095399     -114.172965
9.046                0.840477676     -114.422539
9.047                 0.84000069     -114.672838
9.048                0.839523047     -114.923865
9.049                0.839044758      -115.17562
9.05                 0.838565837     -115.428104
9.051                0.838086298     -115.681319
9.052                0.837606153     -115.935264
9.053                0.837125418     -116.189942
9.054                0.836644105     -116.445352
9.055                 0.83616223     -116.701496
9.056                0.835679806     -116.958375
9.057                0.835196848      -117.21599
9.058                0.834713371      -117.47434
9.059                 0.83422939     -117.733428
9.06                  0.83374492     -117.993254
9.061                0.833259976     -118.253818
9.062                0.832774574     -118.515121
9.063                0.832288729     -118.777164
9.064                0.831802458     -119.039948
9.065                0.831315777     -119.303473
9.066                0.830828702     -119.567741
9.067                0.830341249      -119.83275
9.068                0.829853436     -120.098502
9.069                0.829365278     -120.364999
9.07                 0.828876795     -120.632239
9.071                0.828388001     -120.900223
9.072                0.827898916     -121.168953
9.073                0.827409557     -121.438427
9.074                0.826919942     -121.708648
9.075                0.826430089     -121.979614
9.076                0.825940016     -122.251327
9.077                0.825449741     -122.523787
9.078                0.824959285     -122.796994
9.079                0.824468664     -123.070948
9.08                   0.8239779     -123.345649
9.081                 0.82348701     -123.621098
9.082                0.822996014     -123.897294
9.083                0.822504933     -124.174238
9.084                0.822013786     -124.451931
9.085                0.821522592     -124.730371
9.086                0.821031374     -125.009559
9.087                 0.82054015     -125.289494
9.088                0.820048942     -125.570178
9.089                 0.81955777     -125.851609
9.09                 0.819066656     -126.133788
9.091                0.818575621     -126.416714
9.092                0.818084687     -126.700388
9.093                0.817593874     -126.984808
9.094                0.817103206     -127.269975
9.095                0.816612704     -127.555888
9.096                 0.81612239     -127.842547
9.097                0.815632287     -128.129952
9.098                0.815142417     -128.418101
9.099                0.814652803     -128.706996
9.1                  0.814163469     -128.996634
9.101                0.813674437     -129.287016
9.102                0.813185732     -129.578141
9.103                0.812697375     -129.870008
9.104                0.812209392     -130.162617
9.105                0.811721806     -130.455967
9.106                0.811234641     -130.750056
9.107                0.810747922     -131.044885
9.108                0.810261673     -131.340453
9.109                0.809775919     -131.636758
9.11                 0.809290684       -131.9338
9.111                0.808805994     -132.231577
9.112                0.808321873     -132.530089
9.113                0.807838348     -132.829335
9.114                0.807355443     -133.129313
9.115                0.806873185     -133.430022
9.116                0.806391598     -133.731461
9.117                 0.80591071     -134.033629
9.118                0.805430545     -134.336524
9.119                0.804951132     -134.640146
9.12                 0.804472495     -134.944492
9.121                0.803994662     -135.249562
9.122                 0.80351766     -135.555353
9.123                0.803041514     -135.861864
9.124                0.802566253     -136.169095
9.125                0.802091904     -136.477042
9.126                0.801618494     -136.785704
9.127                 0.80114605      -137.09508
9.128                  0.8006746     -137.405168
9.129                0.800204172     -137.715966
9.13                 0.799734794     -138.027471
9.131                0.799266493     -138.339683
9.132                0.798799299     -138.652599
9.133                0.798333238     -138.966217
9.134                0.797868339     -139.280535
9.135                0.797404632     -139.595551
9.136                0.796942144     -139.911262
9.137                0.796480904     -140.227666
9.138                0.796020941     -140.544762
9.139                0.795562284     -140.862546
9.14                 0.795104961     -141.181016
9.141                0.794649003      -141.50017
9.142                0.794194438     -141.820006
9.143                0.793741295     -142.140519
9.144                0.793289603     -142.461709
9.145                0.792839393     -142.783572
9.146                0.792390693     -143.106106
9.147                0.791943533     -143.429307
9.148                0.791497943     -143.753173
9.149                0.791053953     -144.077701
9.15                 0.790611591     -144.402888
9.151                0.790170888      -144.72873
9.152                0.789731874     -145.055226
9.153                0.789294579     -145.382371
9.154                0.788859032     -145.710163
9.155                0.788425264     -146.038597
9.156                0.787993304     -146.367672
9.157                0.787563183     -146.697383
9.158                 0.78713493     -147.027727
9.159                0.786708576     -147.358701
9.16                  0.78628415     -147.690301
9.161                0.785861683     -148.022523
9.162                0.785441205     -148.355364
9.163                0.785022745      -148.68882
9.164                0.784606334     -149.022887
9.165                0.784192003     -149.357561
9.166                 0.78377978     -149.692839
9.167                0.783369696     -150.028717
9.168                0.782961781     -150.365189
9.169                0.782556064     -150.702254
9.17                 0.782152577     -151.039905
9.171                0.781751348      -151.37814
9.172                0.781352407     -151.716953
9.173                0.780955785     -152.056341
9.174                 0.78056151       -152.3963
9.175                0.780169613     -152.736824
9.176                0.779780123     -153.077909
9.177                0.779393069     -153.419551
9.178                0.779008481     -153.761745
9.179                0.778626389     -154.104486
9.18                  0.77824682      -154.44777
9.181                0.777869806     -154.791592
9.182                0.777495374     -155.135947
9.183                0.777123553     -155.480831
9.184                0.776754373     -155.826238
9.185                0.776387862     -156.172163
9.186                0.776024048     -156.518601
9.187                 0.77566296     -156.865547
9.188                0.775304626     -157.212997
9.189                0.774949074     -157.560944
9.19                 0.774596333     -157.909383
9.191                 0.77424643      -158.25831
9.192                0.773899393     -158.607719
9.193                0.773555249     -158.957603
9.194                0.773214026     -159.307959
9.195                 0.77287575     -159.658779
9.196                0.772540449     -160.010059
9.197                 0.77220815     -160.361794
9.198                0.771878879     -160.713976
9.199                0.771552662     -161.066601
9.2                  0.771229526     -161.419662
9.201                0.770909497     -161.773155
9.202                  0.7705926     -162.127072
9.203                0.770278862     -162.481408
9.204                0.769968306     -162.836157
9.205                0.769660959     -163.191312
9.206                0.769356845     -163.546869
9.207                0.769055988     -163.902819
9.208                0.768758414     -164.259159
9.209                0.768464146      -164.61588
9.21                 0.768173208     -164.972976
9.211                0.767885623     -165.330442
9.212                0.767601415     -165.688271
9.213                0.767320607     -166.046457
9.214                0.767043222     -166.404992
9.215                0.766769281     -166.763871
9.216                0.766498808     -167.123087
9.217                0.766231824     -167.482633
9.218                 0.76596835     -167.842502
9.219                0.765708408     -168.202689
9.22                 0.765452019     -168.563185
9.221                0.765199202     -168.923985
9.222                 0.76494998     -169.285081
9.223                0.764704371     -169.646467
9.224                0.764462395     -170.008135
9.225                0.764224072     -170.370079
9.226                 0.76398942     -170.732292
9.227                0.763758458     -171.094767
9.228                0.763531205     -171.457497
9.229                0.763307677     -171.820474
9.23                 0.763087894     -172.183691
9.231                0.762871871     -172.547142
9.232                0.762659626     -172.910819
9.233                0.762451176     -173.274715
9.234                0.762246535     -173.638822
9.235                0.762045721     -174.003135
9.236                0.761848748     -174.367644
9.237                0.761655632     -174.732343
9.238                0.761466386     -175.097224
9.239                0.761281025     -175.462281
9.24                 0.761099563     -175.827505
9.241                0.760922014     -176.192889
9.242                0.760748389     -176.558427
9.243                0.760578702     -176.924109
9.244                0.760412965      -177.28993
9.245                 0.76025119      -177.65588
9.246                0.760093388     -178.021954
9.247                0.759939569     -178.388143
9.248                0.759789745     -178.754439
9.249                0.759643926     -179.120836
9.25                 0.759502121     -179.487325
9.251                0.759364339     -179.853899
9.252                 0.75923059       179.77945
9.253                0.759100881      179.412729
9.254                0.758975221      179.045946
9.255                0.758853618      178.679108
9.256                0.758736077      178.312224
9.257                0.758622607      177.945301
9.258                0.758513213      177.578347
9.259                0.758407901      177.211369
9.26                 0.758306677      176.844375
9.261                0.758209544      176.477372
9.262                0.758116509      176.110369
9.263                0.758027575      175.743373
9.264                0.757942745      175.376392
9.265                0.757862023      175.009433
9.266                0.757785412      174.642505
9.267                0.757712913      174.275614
9.268                0.757644529      173.908769
9.269                0.757580261      173.541977
9.27                 0.757520109      173.175246
9.271                0.757464076      172.808583
9.272                 0.75741216      172.441997
9.273                0.757364361      172.075494
9.274                0.757320679      171.709083
9.275                0.757281113      171.342771
9.276                0.757245659      170.976566
9.277                0.757214318      170.610475
9.278                0.757187085      170.244507
9.279                0.757163959      169.878667
9.28                 0.757144935      169.512965
9.281                0.757130009      169.147407
9.282                0.757119179      168.782002
9.283                0.757112438      168.416756
9.284                0.757109782      168.051677
9.285                0.757111205      167.686773
9.286                0.757116702      167.322051
9.287                0.757126265      166.957518
9.288                0.757139888      166.593182
9.289                0.757157565      166.229051
9.29                 0.757179286      165.865131
9.291                0.757205045      165.501429
9.292                0.757234832      165.137954
9.293                0.757268639      164.774713
9.294                0.757306457      164.411712
9.295                0.757348276      164.048959
9.296                0.757394086      163.686461
9.297                0.757443876      163.324225
9.298                0.757497636      162.962258
9.299                0.757555354      162.600568
9.3                   0.75761702      162.239161
9.301                0.757682619      161.878045
9.302                0.757752142      161.517226
9.303                0.757825574      161.156711
9.304                0.757902903      160.796507
9.305                0.757984114      160.436622
9.306                0.758069196      160.077061
9.307                0.758158132      159.717832
9.308                0.758250909      159.358941
9.309                0.758347511      159.000396
9.31                 0.758447924      158.642202
9.311                0.758552132      158.284366
9.312                0.758660118      157.926895
9.313                0.758771868      157.569796
9.314                0.758887363      157.213074
9.315                0.759006588      156.856737
9.316                0.759129525       156.50079
9.317                0.759256156       156.14524
9.318                0.759386463      155.790094
9.319                 0.75952043      155.435357
9.32                 0.759658036      155.081036
9.321                0.759799263      154.727136
9.322                0.759944093      154.373665
9.323                0.760092505      154.020628
9.324                0.760244481       153.66803
9.325                0.760400001      153.315879
9.326                0.760559043      152.964179
9.327                0.760721589      152.612937
9.328                0.760887616      152.262158
9.329                0.761057105      151.911848
9.33                 0.761230034      151.562013
9.331                0.761406382      151.212659
9.332                0.761586127      150.863791
9.333                0.761769247      150.515414
9.334                0.761955719      150.167534
9.335                0.762145523      149.820156
9.336                0.762338634      149.473286
9.337                0.762535031      149.126929
9.338                0.762734691       148.78109
9.339                0.762937589      148.435775
9.34                 0.763143703      148.090988
9.341                0.763353009      147.746735
9.342                0.763565484       147.40302
9.343                0.763781103      147.059849
9.344                0.763999842      146.717226
9.345                0.764221678      146.375156
9.346                0.764446585      146.033644
9.347                0.764674539      145.692695
9.348                0.764905515      145.352314
9.349                0.765139488      145.012504
9.35                 0.765376434      144.673271
9.351                0.765616326      144.334618
9.352                0.765859141      143.996551
9.353                0.766104851      143.659074
9.354                0.766353432      143.322191
9.355                0.766604858      142.985905
9.356                0.766859103      142.650223
9.357                0.767116141      142.315146
9.358                0.767375946      141.980681
9.359                0.767638492       141.64683
9.36                 0.767903753      141.313597
9.361                0.768171702      140.980987
9.362                0.768442313      140.649003
9.363                 0.76871556      140.317649
9.364                0.768991416      139.986928
9.365                0.769269855      139.656845
9.366                0.769550849      139.327403
9.367                0.769834373      138.998605
9.368                0.770120398      138.670455
9.369                0.770408899      138.342956
9.37                 0.770699849      138.016112
9.371                 0.77099322      137.689925
9.372                0.771288986        137.3644
9.373                 0.77158712      137.039539
9.374                0.771887595      136.715345
9.375                0.772190383      136.391821
9.376                0.772495458      136.068971
9.377                0.772802793      135.746797
9.378                0.773112361      135.425302
9.379                0.773424134       135.10449
9.38                 0.773738085      134.784362
9.381                0.774054188      134.464921
9.382                0.774372416       134.14617
9.383                0.774692741      133.828113
9.384                0.775015137       133.51075
9.385                0.775339576      133.194085
9.386                0.775666031       132.87812
9.387                0.775994477      132.562857
9.388                0.776324885      132.248299
9.389                0.776657228      131.934448
9.39                 0.776991481      131.621306
9.391                0.777327616      131.308875
9.392                0.777665607      130.997158
9.393                0.778005427      130.686156
9.394                0.778347049      130.375872
9.395                0.778690447      130.066307
9.396                0.779035594      129.757462
