! TOUCHSTONE file generated by CST DESIGN STUDIO
! Date and time: Tue Feb  4 17:49:46 2025
! Project name: C:\Work\MatlabApps\UnitCellOptimizationMatlab\CST\unitcell.cst
! Tree item: Tasks\Sweep1\SPara1\S-Parameters
! Header version: 2024
! Port assignment regex: !\s*Touchstone port\s*([0-9]+)\s*=\s*(CST MWS port|CST DES external port|CST DES block port)\s*(.+)\s* \(\"(.*)\"\)(\s*mode\s*([0-9]+))?.*
! Touchstone port assignment:
! Touchstone port 1 = CST DES external port 1 ("")
# GHz S MA R 50
9                    0.967213444     -42.0431004
9.001                0.967150388     -42.0924549
9.002                0.967087131     -42.1419001
9.003                0.967023671     -42.1914362
9.004                0.966960009     -42.2410635
9.005                0.966896143     -42.2907822
9.006                0.966832074     -42.3405926
9.007                  0.9667678      -42.390495
9.008                0.966703321     -42.4404896
9.009                0.966638637     -42.4905767
9.01                 0.966573747     -42.5407565
9.011                0.966508651     -42.5910294
9.012                0.966443347     -42.6413956
9.013                0.966377836     -42.6918553
9.014                0.966312117     -42.7424089
9.015                 0.96624619     -42.7930566
9.016                0.966180053     -42.8437986
9.017                0.966113707     -42.8946353
9.018                0.966047151     -42.9455669
9.019                0.965980383     -42.9965937
9.02                 0.965913405     -43.0477159
9.021                0.965846215     -43.0989339
9.022                0.965778812      -43.150248
9.023                0.965711197     -43.2016583
9.024                0.965643368     -43.2531652
9.025                0.965575325      -43.304769
9.026                0.965507067     -43.3564699
9.027                0.965438594     -43.4082682
9.028                0.965369906     -43.4601643
9.029                0.965301001     -43.5121583
9.03                  0.96523188     -43.5642506
9.031                 0.96516254     -43.6164415
9.032                0.965092983     -43.6687313
9.033                0.965023208     -43.7211202
9.034                0.964953213     -43.7736085
9.035                0.964882999     -43.8261965
9.036                0.964812564     -43.8788846
9.037                0.964741908      -43.931673
9.038                0.964671031      -43.984562
9.039                0.964599931     -44.0375519
9.04                 0.964528609     -44.0906429
9.041                0.964457064     -44.1438355
9.042                0.964385295     -44.1971299
9.043                0.964313301     -44.2505264
9.044                0.964241082     -44.3040252
9.045                0.964168638     -44.3576268
9.046                0.964095967     -44.4113314
9.047                0.964023069     -44.4651392
9.048                0.963949944     -44.5190507
9.049                 0.96387659     -44.5730661
9.05                 0.963803008     -44.6271857
9.051                0.963729197     -44.6814099
9.052                0.963655155     -44.7357389
9.053                0.963580883     -44.7901731
9.054                0.963506379     -44.8447127
9.055                0.963431644     -44.8993581
9.056                0.963356676     -44.9541096
9.057                0.963281474     -45.0089676
9.058                0.963206039     -45.0639322
9.059                 0.96313037     -45.1190039
9.06                 0.963054465      -45.174183
9.061                0.962978324     -45.2294698
9.062                0.962901948     -45.2848645
9.063                0.962825333     -45.3403677
9.064                0.962748482     -45.3959794
9.065                0.962671392     -45.4517002
9.066                0.962594062     -45.5075303
9.067                0.962516493       -45.56347
9.068                0.962438684     -45.6195197
9.069                0.962360633     -45.6756796
9.07                 0.962282341     -45.7319503
9.071                0.962203806     -45.7883318
9.072                0.962125028     -45.8448247
9.073                0.962046007     -45.9014292
9.074                 0.96196674     -45.9581457
9.075                0.961887229     -46.0149745
9.076                0.961807472     -46.0719159
9.077                0.961727468     -46.1289704
9.078                0.961647217     -46.1861381
9.079                0.961566718     -46.2434196
9.08                  0.96148597      -46.300815
9.081                0.961404973     -46.3583249
9.082                0.961323725     -46.4159494
9.083                0.961242227      -46.473689
9.084                0.961160477      -46.531544
9.085                0.961078475     -46.5895148
9.086                0.960996221     -46.6476017
9.087                0.960913712      -46.705805
9.088                0.960830949     -46.7641252
9.089                 0.96074793     -46.8225625
9.09                 0.960664656     -46.8811174
9.091                0.960581125     -46.9397902
9.092                0.960497337     -46.9985813
9.093                 0.96041329     -47.0574909
9.094                0.960328985     -47.1165196
9.095                 0.96024442     -47.1756675
9.096                0.960159595     -47.2349352
9.097                0.960074508      -47.294323
9.098                 0.95998916     -47.3538312
9.099                0.959903548     -47.4134603
9.1                  0.959817674     -47.4732105
9.101                0.959731535     -47.5330823
9.102                0.959645131     -47.5930761
9.103                0.959558461     -47.6531921
9.104                0.959471525     -47.7134308
9.105                0.959384321     -47.7737926
9.106                0.959296849     -47.8342779
9.107                0.959209109      -47.894887
9.108                0.959121098     -47.9556203
9.109                0.959032817     -48.0164781
9.11                 0.958944265      -48.077461
9.111                 0.95885544     -48.1385693
9.112                0.958766343     -48.1998033
9.113                0.958676972     -48.2611634
9.114                0.958587326     -48.3226501
9.115                0.958497405     -48.3842637
9.116                0.958407207     -48.4460047
9.117                0.958316733     -48.5078734
9.118                0.958225981     -48.5698702
9.119                 0.95813495     -48.6319955
9.12                 0.958043639     -48.6942498
9.121                0.957952048     -48.7566333
9.122                0.957860176     -48.8191467
9.123                0.957768022     -48.8817901
9.124                0.957675585     -48.9445641
9.125                0.957582864      -49.007469
9.126                0.957489858     -49.0705053
9.127                0.957396567     -49.1336734
9.128                0.957302989     -49.1969736
9.129                0.957209125     -49.2604065
9.13                 0.957114972     -49.3239724
9.131                 0.95702053     -49.3876717
9.132                0.956925798     -49.4515048
9.133                0.956830776     -49.5154723
9.134                0.956735462     -49.5795744
9.135                0.956639855     -49.6438117
9.136                0.956543955     -49.7081845
9.137                 0.95644776     -49.7726933
9.138                0.956351271     -49.8373385
9.139                0.956254485     -49.9021205
9.14                 0.956157402     -49.9670398
9.141                0.956060022     -50.0320968
9.142                0.955962342     -50.0972919
9.143                0.955864363     -50.1626256
9.144                0.955766082     -50.2280984
9.145                0.955667501     -50.2937106
9.146                0.955568616     -50.3594627
9.147                0.955469428     -50.4253551
9.148                0.955369936     -50.4913883
9.149                0.955270138     -50.5575628
9.15                 0.955170034     -50.6238789
9.151                0.955069623     -50.6903372
9.152                0.954968903     -50.7569381
9.153                0.954867874     -50.8236821
9.154                0.954766535     -50.8905695
9.155                0.954664885     -50.9576009
9.156                0.954562923     -51.0247767
9.157                0.954460648     -51.0920974
9.158                0.954358058     -51.1595635
9.159                0.954255154     -51.2271753
9.16                 0.954151933     -51.2949335
9.161                0.954048395     -51.3628383
9.162                 0.95394454     -51.4308905
9.163                0.953840365     -51.4990903
9.164                 0.95373587     -51.5674382
9.165                0.953631055     -51.6359348
9.166                0.953525917     -51.7045805
9.167                0.953420456     -51.7733759
9.168                0.953314671     -51.8423213
9.169                0.953208561     -51.9114172
9.17                 0.953102125     -51.9806643
9.171                0.952995361     -52.0500628
9.172                 0.95288827     -52.1196134
9.173                0.952780849     -52.1893165
9.174                0.952673097     -52.2591726
9.175                0.952565015     -52.3291822
9.176                  0.9524566     -52.3993458
9.177                0.952347852      -52.469664
9.178                0.952238769     -52.5401371
9.179                 0.95212935     -52.6107657
9.18                 0.952019595     -52.6815503
9.181                0.951909502     -52.7524915
9.182                0.951799071     -52.8235897
9.183                0.951688299     -52.8948454
9.184                0.951577187     -52.9662591
9.185                0.951465732     -53.0378314
9.186                0.951353934     -53.1095628
9.187                0.951241792     -53.1814538
9.188                0.951129305     -53.2535049
9.189                0.951016471     -53.3257166
9.19                  0.95090329     -53.3980895
9.191                 0.95078976     -53.4706241
9.192                 0.95067588     -53.5433209
9.193                0.950561649     -53.6161804
9.194                0.950447066     -53.6892032
9.195                 0.95033213     -53.7623898
9.196                 0.95021684     -53.8357408
9.197                0.950101194     -53.9092567
9.198                0.949985191      -53.982938
9.199                0.949868831     -54.0567852
9.2                  0.949752111      -54.130799
9.201                0.949635032     -54.2049799
9.202                0.949517591     -54.2793283
9.203                0.949399788     -54.3538449
9.204                0.949281621     -54.4285303
9.205                 0.94916309     -54.5033849
9.206                0.949044192     -54.5784093
9.207                0.948924928     -54.6536041
9.208                0.948805295     -54.7289699
9.209                0.948685292     -54.8045072
9.21                 0.948564919     -54.8802166
9.211                0.948444173     -54.9560986
9.212                0.948323055     -55.0321538
9.213                0.948201562     -55.1083829
9.214                0.948079694     -55.1847863
9.215                0.947957449     -55.2613646
9.216                0.947834826     -55.3381185
9.217                0.947711823     -55.4150485
9.218                 0.94758844     -55.4921552
9.219                0.947464676     -55.5694392
9.22                 0.947340528      -55.646901
9.221                0.947215996     -55.7245413
9.222                0.947091078     -55.8023606
9.223                0.946965774     -55.8803596
9.224                0.946840082     -55.9585388
9.225                0.946714001     -56.0368989
9.226                0.946587529     -56.1154404
9.227                0.946460665     -56.1941639
9.228                0.946333408     -56.2730701
9.229                0.946205757     -56.3521596
9.23                  0.94607771      -56.431433
9.231                0.945949266     -56.5108908
9.232                0.945820423     -56.5905338
9.233                0.945691181     -56.6703625
9.234                0.945561539     -56.7503776
9.235                0.945431494     -56.8305796
9.236                0.945301045     -56.9109692
9.237                0.945170192      -56.991547
9.238                0.945038933     -57.0723137
9.239                0.944907266     -57.1532699
9.24                  0.94477519     -57.2344162
9.241                0.944642704     -57.3157533
9.242                0.944509806     -57.3972818
9.243                0.944376496     -57.4790023
9.244                0.944242772     -57.5609156
9.245                0.944108631     -57.6430221
9.246                0.943974074     -57.7253227
9.247                0.943839099     -57.8078179
9.248                0.943703704     -57.8905084
9.249                0.943567888     -57.9733949
9.25                 0.943431649      -58.056478
9.251                0.943294987     -58.1397584
9.252                0.943157899     -58.2232367
9.253                0.943020385     -58.3069137
9.254                0.942882443     -58.3907899
9.255                0.942744071     -58.4748661
9.256                0.942605269     -58.5591429
9.257                0.942466034     -58.6436211
9.258                0.942326366     -58.7283012
9.259                0.942186263      -58.813184
9.26                 0.942045723     -58.8982702
9.261                0.941904745     -58.9835605
9.262                0.941763328     -59.0690555
9.263                0.941621471     -59.1547559
9.264                 0.94147917     -59.2406625
9.265                0.941336427     -59.3267759
9.266                0.941193238     -59.4130969
9.267                0.941049602     -59.4996261
9.268                0.940905519     -59.5863643
9.269                0.940760986     -59.6733121
9.27                 0.940616002     -59.7604703
9.271                0.940470565     -59.8478396
9.272                0.940324675     -59.9354207
9.273                0.940178329     -60.0232144
9.274                0.940031526     -60.1112213
9.275                0.939884265     -60.1994422
9.276                0.939736544     -60.2878778
9.277                0.939588362     -60.3765289
9.278                0.939439716     -60.4653961
9.279                0.939290607     -60.5544803
9.28                 0.939141031     -60.6437821
9.281                0.938990988     -60.7333023
9.282                0.938840476     -60.8230417
9.283                0.938689493      -60.913001
9.284                0.938538039      -61.003181
9.285                0.938386111     -61.0935823
9.286                0.938233707     -61.1842058
9.287                0.938080828     -61.2750523
9.288                 0.93792747     -61.3661224
9.289                0.937773632      -61.457417
9.29                 0.937619313     -61.5489368
9.291                0.937464511     -61.6406827
9.292                0.937309225     -61.7326553
9.293                0.937153453     -61.8248554
9.294                0.936997193     -61.9172839
9.295                0.936840444     -62.0099415
9.296                0.936683205      -62.102829
9.297                0.936525473     -62.1959472
9.298                0.936367247     -62.2892969
9.299                0.936208526     -62.3828789
9.3                  0.936049308      -62.476694
9.301                0.935889592     -62.5707429
9.302                0.935729375     -62.6650266
9.303                0.935568656     -62.7595457
9.304                0.935407434     -62.8543012
9.305                0.935245706     -62.9492938
9.306                0.935083473     -63.0445243
9.307                 0.93492073     -63.1399936
9.308                0.934757478     -63.2357025
9.309                0.934593714     -63.3316518
9.31                 0.934429438     -63.4278423
9.311                0.934264646     -63.5242749
9.312                0.934099338     -63.6209504
9.313                0.933933512     -63.7178697
9.314                0.933767166     -63.8150336
9.315                0.933600298     -63.9124429
9.316                0.933432908     -64.0100984
9.317                0.933264993     -64.1080011
9.318                0.933096552     -64.2061519
9.319                0.932927583     -64.3045514
9.32                 0.932758084     -64.4032007
9.321                0.932588054     -64.5021005
9.322                 0.93241749     -64.6012518
9.323                0.932246392     -64.7006554
9.324                0.932074758     -64.8003122
9.325                0.931902586      -64.900223
9.326                0.931729874     -65.0003888
9.327                0.931556621     -65.1008104
9.328                0.931382825     -65.2014887
9.329                0.931208483     -65.3024246
9.33                 0.931033596      -65.403619
9.331                 0.93085816     -65.5050728
9.332                0.930682175     -65.6067869
9.333                0.930505638     -65.7087622
9.334                0.930328548     -65.8109996
9.335                0.930150903        -65.9135
9.336                0.929972701     -66.0162643
9.337                0.929793941     -66.1192935
9.338                0.929614621     -66.2225884
9.339                0.929434739       -66.32615
9.34                 0.929254293     -66.4299792
9.341                0.929073283      -66.534077
9.342                0.928891705     -66.6384442
9.343                0.928709559     -66.7430818
9.344                0.928526842     -66.8479908
9.345                0.928343554      -66.953172
9.346                0.928159692     -67.0586265
9.347                0.927975254     -67.1643552
9.348                0.927790239      -67.270359
9.349                0.927604644     -67.3766389
9.35                  0.92741847     -67.4831959
9.351                0.927231712     -67.5900309
9.352                0.927044371     -67.6971448
9.353                0.926856443     -67.8045388
9.354                0.926667928     -67.9122136
9.355                0.926478824     -68.0201704
9.356                0.926289128       -68.12841
9.357                 0.92609884     -68.2369336
9.358                0.925907957     -68.3457419
9.359                0.925716478     -68.4548362
9.36                   0.9255244     -68.5642172
9.361                0.925331723     -68.6738862
9.362                0.925138444     -68.7838439
9.363                0.924944562     -68.8940915
9.364                0.924750075       -69.00463
9.365                0.924554981     -69.1154603
9.366                0.924359279     -69.2265836
9.367                0.924162966     -69.3380007
9.368                0.923966041     -69.4497128
9.369                0.923768503     -69.5617208
9.37                 0.923570349     -69.6740258
9.371                0.923371577     -69.7866288
9.372                0.923172187     -69.8995308
9.373                0.922972176      -70.012733
9.374                0.922771543     -70.1262363
9.375                0.922570286     -70.2400418
9.376                0.922368402     -70.3541505
9.377                0.922165891     -70.4685635
9.378                0.921962751     -70.5832818
9.379                0.921758979     -70.6983066
9.38                 0.921554575     -70.8136388
9.381                0.921349536     -70.9292796
9.382                0.921143861       -71.04523
9.383                0.920937547     -71.1614911
9.384                0.920730594      -71.278064
9.385                   0.920523     -71.3949497
9.386                0.920314762     -71.5121494
9.387                 0.92010588     -71.6296641
9.388                 0.91989635     -71.7474949
9.389                0.919686173      -71.865643
9.39                 0.919475345     -71.9841093
9.391                0.919263866     -72.1028951
9.392                0.919051733     -72.2220015
9.393                0.918838946     -72.3414295
9.394                0.918625501     -72.4611803
9.395                0.918411398     -72.5812549
9.396                0.918196634     -72.7016546
