! TOUCHSTONE file generated by CST DESIGN STUDIO
! Date and time: Tue Feb  4 17:49:40 2025
! Project name: C:\Work\MatlabApps\UnitCellOptimizationMatlab\CST\unitcell.cst
! Tree item: Tasks\Sweep1\SPara1\S-Parameters
! Header version: 2024
! Port assignment regex: !\s*Touchstone port\s*([0-9]+)\s*=\s*(CST MWS port|CST DES external port|CST DES block port)\s*(.+)\s* \(\"(.*)\"\)(\s*mode\s*([0-9]+))?.*
! Touchstone port assignment:
! Touchstone port 1 = CST DES external port 1 ("")
# GHz S MA R 50
9                    0.947786708     -55.1249351
9.001                0.947661903     -55.1998046
9.002                0.947536648     -55.2748458
9.003                0.947410939      -55.350059
9.004                0.947284775      -55.425445
9.005                0.947158155     -55.5010042
9.006                0.947031076     -55.5767371
9.007                0.946903539     -55.6526445
9.008                 0.94677554     -55.7287268
9.009                0.946647079     -55.8049845
9.01                 0.946518154     -55.8814183
9.011                0.946388762     -55.9580287
9.012                0.946258904     -56.0348163
9.013                0.946128576     -56.1117817
9.014                0.945997778     -56.1889254
9.015                0.945866508     -56.2662481
9.016                0.945734764     -56.3437502
9.017                0.945602544     -56.4214324
9.018                0.945469848     -56.4992952
9.019                0.945336673     -56.5773394
9.02                 0.945203017     -56.6555653
9.021                 0.94506888     -56.7339737
9.022                0.944934259     -56.8125651
9.023                0.944799153     -56.8913401
9.024                 0.94466356     -56.9702993
9.025                0.944527478     -57.0494434
9.026                0.944390907     -57.1287729
9.027                0.944253843     -57.2082884
9.028                0.944116286     -57.2879905
9.029                0.943978234     -57.3678798
9.03                 0.943839685     -57.4479571
9.031                0.943700638     -57.5282227
9.032                 0.94356109     -57.6086775
9.033                0.943421041      -57.689322
9.034                0.943280487     -57.7701568
9.035                0.943139429     -57.8511825
9.036                0.942997863     -57.9323998
9.037                0.942855789     -58.0138093
9.038                0.942713204     -58.0954117
9.039                0.942570107     -58.1772075
9.04                 0.942426497     -58.2591974
9.041                 0.94228237     -58.3413821
9.042                0.942137726     -58.4237621
9.043                0.941992563     -58.5063382
9.044                 0.94184688     -58.5891109
9.045                0.941700673      -58.672081
9.046                0.941553942      -58.755249
9.047                0.941406685     -58.8386157
9.048                  0.9412589     -58.9221816
9.049                0.941110586     -59.0059475
9.05                  0.94096174      -59.089914
9.051                 0.94081236     -59.1740818
9.052                0.940662446     -59.2584514
9.053                0.940511995     -59.3430237
9.054                0.940361005     -59.4277993
9.055                0.940209475     -59.5127788
9.056                0.940057403     -59.5979629
9.057                0.939904786     -59.6833523
9.058                0.939751624     -59.7689477
9.059                0.939597914     -59.8547498
9.06                 0.939443654     -59.9407592
9.061                0.939288844     -60.0269766
9.062                 0.93913348     -60.1134028
9.063                0.938977561     -60.2000385
9.064                0.938821085     -60.2868842
9.065                 0.93866405     -60.3739408
9.066                0.938506455     -60.4612089
9.067                0.938348298     -60.5486893
9.068                0.938189576     -60.6363826
9.069                0.938030288     -60.7242895
9.07                 0.937870432     -60.8124109
9.071                0.937710006     -60.9007473
9.072                0.937549009     -60.9892995
9.073                0.937387437     -61.0780683
9.074                0.937225291     -61.1670543
9.075                0.937062566     -61.2562583
9.076                0.936899263      -61.345681
9.077                0.936735378     -61.4353231
9.078                 0.93657091     -61.5251855
9.079                0.936405857     -61.6152687
9.08                 0.936240217     -61.7055736
9.081                0.936073988      -61.796101
9.082                0.935907168     -61.8868514
9.083                0.935739755     -61.9778258
9.084                0.935571748     -62.0690249
9.085                0.935403144     -62.1604493
9.086                0.935233941        -62.2521
9.087                0.935064138     -62.3439776
9.088                0.934893732     -62.4360828
9.089                0.934722722     -62.5284166
9.09                 0.934551106     -62.6209796
9.091                0.934378881     -62.7137725
9.092                0.934206046     -62.8067963
9.093                0.934032598     -62.9000517
9.094                0.933858536     -62.9935394
9.095                0.933683858     -63.0872602
9.096                0.933508561      -63.181215
9.097                0.933332645     -63.2754045
9.098                0.933156105     -63.3698295
9.099                0.932978942     -63.4644908
9.1                  0.932801153     -63.5593892
9.101                0.932622735     -63.6545256
9.102                0.932443687     -63.7499006
9.103                0.932264006     -63.8455152
9.104                0.932083692     -63.9413701
9.105                0.931902741     -64.0374662
9.106                0.931721151     -64.1338043
9.107                0.931538921     -64.2303851
9.108                0.931356049     -64.3272096
9.109                0.931172533     -64.4242785
9.11                 0.930988369     -64.5215927
9.111                0.930803558     -64.6191531
9.112                0.930618095     -64.7169604
9.113                 0.93043198     -64.8150155
9.114                0.930245211     -64.9133192
9.115                0.930057785     -65.0118724
9.116                0.929869699     -65.1106759
9.117                0.929680953     -65.2097307
9.118                0.929491544     -65.3090375
9.119                 0.92930147     -65.4085972
9.12                 0.929110729     -65.5084106
9.121                0.928919319     -65.6084787
9.122                0.928727238     -65.7088023
9.123                0.928534483     -65.8093823
9.124                0.928341053     -65.9102196
9.125                0.928146945     -66.0113149
9.126                0.927952158     -66.1126693
9.127                0.927756689     -66.2142836
9.128                0.927560537     -66.3161587
9.129                0.927363698     -66.4182955
9.13                 0.927166172     -66.5206948
9.131                0.926967956     -66.6233576
9.132                0.926769047     -66.7262848
9.133                0.926569444     -66.8294773
9.134                0.926369145      -66.932936
9.135                0.926168147     -67.0366618
9.136                0.925966449     -67.1406556
9.137                0.925764048     -67.2449183
9.138                0.925560942     -67.3494509
9.139                 0.92535713     -67.4542543
9.14                 0.925152608     -67.5593294
9.141                0.924947375     -67.6646772
9.142                0.924741429     -67.7702986
9.143                0.924534767     -67.8761944
9.144                0.924327388     -67.9823658
9.145                0.924119289     -68.0888136
9.146                0.923910468     -68.1955387
9.147                0.923700923     -68.3025421
9.148                0.923490652     -68.4098249
9.149                0.923279653     -68.5173878
9.15                 0.923067924      -68.625232
9.151                0.922855462     -68.7333583
9.152                0.922642266     -68.8417677
9.153                0.922428333     -68.9504613
9.154                0.922213661     -69.0594399
9.155                0.921998248     -69.1687046
9.156                0.921782092     -69.2782564
9.157                 0.92156519     -69.3880962
9.158                0.921347541      -69.498225
9.159                0.921129143     -69.6086439
9.16                 0.920909993     -69.7193537
9.161                0.920690089     -69.8303556
9.162                0.920469429     -69.9416506
9.163                0.920248011     -70.0532395
9.164                0.920025833     -70.1651236
9.165                0.919802892     -70.2773037
9.166                0.919579187     -70.3897808
9.167                0.919354716     -70.5025561
9.168                0.919129475     -70.6156306
9.169                0.918903464     -70.7290052
9.17                  0.91867668      -70.842681
9.171                 0.91844912      -70.956659
9.172                0.918220784     -71.0709403
9.173                0.917991667      -71.185526
9.174                 0.91776177      -71.300417
9.175                0.917531089     -71.4156145
9.176                0.917299622     -71.5311194
9.177                0.917067367     -71.6469329
9.178                0.916834322      -71.763056
9.179                0.916600485     -71.8794897
9.18                 0.916365854     -71.9962352
9.181                0.916130426     -72.1132936
9.182                0.915894201     -72.2306658
9.183                0.915657174      -72.348353
9.184                0.915419345     -72.4663562
9.185                0.915180712     -72.5846766
9.186                0.914941271     -72.7033153
9.187                0.914701022     -72.8222733
9.188                0.914459962     -72.9415517
9.189                0.914218089     -73.0611516
9.19                   0.9139754     -73.1810743
9.191                0.913731895     -73.3013206
9.192                 0.91348757     -73.4218919
9.193                0.913242424     -73.5427891
9.194                0.912996455     -73.6640134
9.195                 0.91274966      -73.785566
9.196                0.912502038      -73.907448
9.197                0.912253586     -74.0296604
9.198                0.912004303     -74.1522045
9.199                0.911754187     -74.2750814
9.2                  0.911503234     -74.3982921
9.201                0.911251445      -74.521838
9.202                0.910998815     -74.6457201
9.203                0.910745344     -74.7699395
9.204                 0.91049103     -74.8944975
9.205                 0.91023587     -75.0193951
9.206                0.909979862     -75.1446337
9.207                0.909723005     -75.2702142
9.208                0.909465297      -75.396138
9.209                0.909206735     -75.5224061
9.21                 0.908947318     -75.6490198
9.211                0.908687043     -75.7759803
9.212                0.908425909     -75.9032887
9.213                0.908163914     -76.0309462
9.214                0.907901056      -76.158954
9.215                0.907637333     -76.2873133
9.216                0.907372743     -76.4160254
9.217                0.907107284     -76.5450914
9.218                0.906840955     -76.6745126
9.219                0.906573753       -76.80429
9.22                 0.906305676     -76.9344251
9.221                0.906036724      -77.064919
9.222                0.905766894     -77.1957728
9.223                0.905496183      -77.326988
9.224                0.905224591     -77.4585656
9.225                0.904952116     -77.5905069
9.226                0.904678755     -77.7228131
9.227                0.904404507     -77.8554856
9.228                0.904129371     -77.9885255
9.229                0.903853344     -78.1219341
9.23                 0.903576425     -78.2557126
9.231                0.903298611     -78.3898623
9.232                0.903019902     -78.5243845
9.233                0.902740296     -78.6592805
9.234                0.902459791     -78.7945514
9.235                0.902178384     -78.9301986
9.236                0.901896076     -79.0662233
9.237                0.901612863     -79.2026269
9.238                0.901328745     -79.3394105
9.239                 0.90104372     -79.4765756
9.24                 0.900757786     -79.6141233
9.241                0.900470941      -79.752055
9.242                0.900183185     -79.8903719
9.243                0.899894515     -80.0290755
9.244                 0.89960493     -80.1681668
9.245                0.899314429     -80.3076474
9.246                0.899023009     -80.4475185
9.247                0.898730671     -80.5877813
9.248                0.898437411     -80.7284373
9.249                0.898143229     -80.8694877
9.25                 0.897848123     -81.0109339
9.251                0.897552093     -81.1527771
9.252                0.897255135     -81.2950188
9.253                 0.89695725     -81.4376602
9.254                0.896658436     -81.5807027
9.255                0.896358692     -81.7241477
9.256                0.896058016     -81.8679964
9.257                0.895756407     -82.0122502
9.258                0.895453863     -82.1569105
9.259                0.895150385     -82.3019786
9.26                 0.894845969     -82.4474558
9.261                0.894540616     -82.5933437
9.262                0.894234324     -82.7396434
9.263                0.893927092     -82.8863563
9.264                0.893618919     -83.0334839
9.265                0.893309804     -83.1810275
9.266                0.892999746     -83.3289885
9.267                0.892688743     -83.4773683
9.268                0.892376796     -83.6261681
9.269                0.892063902     -83.7753895
9.27                 0.891750061     -83.9250338
9.271                0.891435272     -84.0751024
9.272                0.891119534     -84.2255967
9.273                0.890802847     -84.3765181
9.274                0.890485209      -84.527868
9.275                0.890166619     -84.6796477
9.276                0.889847078     -84.8318587
9.277                0.889526584     -84.9845025
9.278                0.889205137     -85.1375803
9.279                0.888882735     -85.2910936
9.28                 0.888559378     -85.4450439
9.281                0.888235067     -85.5994325
9.282                0.887909799     -85.7542609
9.283                0.887583575     -85.9095305
9.284                0.887256394     -86.0652427
9.285                0.886928256     -86.2213989
9.286                0.886599159     -86.3780006
9.287                0.886269105     -86.5350493
9.288                0.885938092     -86.6925462
9.289                 0.88560612      -86.850493
9.29                 0.885273189     -87.0088909
9.291                0.884939299     -87.1677415
9.292                0.884604449     -87.3270462
9.293                 0.88426864     -87.4868065
9.294                 0.88393187     -87.6470237
9.295                0.883594141     -87.8076994
9.296                0.883255451      -87.968835
9.297                0.882915802      -88.130432
9.298                0.882575193     -88.2924917
9.299                0.882233624     -88.4550158
9.3                  0.881891095     -88.6180055
9.301                0.881547606     -88.7814625
9.302                0.881203159      -88.945388
9.303                0.880857752     -89.1097838
9.304                0.880511387      -89.274651
9.305                0.880164063     -89.4399914
9.306                0.879815781     -89.6058062
9.307                0.879466541     -89.7720971
9.308                0.879116345     -89.9388654
9.309                0.878765192     -90.1061127
9.31                 0.878413083     -90.2738404
9.311                0.878060019     -90.4420499
9.312                   0.877706     -90.6107429
9.313                0.877351028     -90.7799207
9.314                0.876995102     -90.9495848
9.315                0.876638224     -91.1197367
9.316                0.876280395      -91.290378
9.317                0.875921616       -91.46151
9.318                0.875561887     -91.6331342
9.319                 0.87520121     -91.8052522
9.32                 0.874839586     -91.9778655
9.321                0.874477016     -92.1509754
9.322                0.874113501     -92.3245836
9.323                0.873749043     -92.4986915
9.324                0.873383643     -92.6733005
9.325                0.873017302     -92.8484122
9.326                0.872650022      -93.024028
9.327                0.872281804     -93.2001495
9.328                 0.87191265     -93.3767781
9.329                0.871542562     -93.5539154
9.33                 0.871171541     -93.7315627
9.331                0.870799589     -93.9097217
9.332                0.870426708     -94.0883937
9.333                  0.8700529     -94.2675803
9.334                0.869678167      -94.447283
9.335                 0.86930251     -94.6275032
9.336                0.868925933     -94.8082424
9.337                0.868548436     -94.9895022
9.338                0.868170023     -95.1712839
9.339                0.867790696     -95.3535891
9.34                 0.867410457     -95.5364194
9.341                0.867029308      -95.719776
9.342                0.866647253     -95.9036606
9.343                0.866264293     -96.0880746
9.344                0.865880431     -96.2730195
9.345                0.865495671     -96.4584968
9.346                0.865110015     -96.6445079
9.347                0.864723465     -96.8310544
9.348                0.864336025     -97.0181376
9.349                0.863947698     -97.2057591
9.35                 0.863558487     -97.3939203
9.351                0.863168395     -97.5826227
9.352                0.862777426     -97.7718678
9.353                0.862385582     -97.9616571
9.354                0.861992868     -98.1519919
9.355                0.861599287     -98.3428737
9.356                0.861204842      -98.534304
9.357                0.860809537     -98.7262843
9.358                0.860413376      -98.918816
9.359                0.860016363     -99.1119006
9.36                 0.859618502     -99.3055394
9.361                0.859219796      -99.499734
9.362                 0.85882025     -99.6944858
9.363                0.858419869     -99.8897961
9.364                0.858018656     -100.085666
9.365                0.857616616     -100.282098
9.366                0.857213753     -100.479093
9.367                0.856810072     -100.676652
9.368                0.856405577     -100.874777
9.369                0.856000274     -101.073469
9.37                 0.855594168     -101.272729
9.371                0.855187262     -101.472559
9.372                0.854779562     -101.672961
9.373                0.854371074     -101.873936
9.374                0.853961803     -102.075484
9.375                0.853551753     -102.277608
9.376                0.853140931     -102.480309
9.377                0.852729342     -102.683588
9.378                0.852316992     -102.887447
9.379                0.851903885     -103.091887
9.38                 0.851490029     -103.296909
9.381                 0.85107543     -103.502514
9.382                0.850660092     -103.708705
9.383                0.850244023     -103.915482
9.384                0.849827228     -104.122847
9.385                0.849409714     -104.330801
9.386                0.848991488     -104.539345
9.387                0.848572556     -104.748481
9.388                0.848152925      -104.95821
9.389                0.847732601     -105.168533
9.39                 0.847311592     -105.379451
9.391                0.846889904     -105.590966
9.392                0.846467545      -105.80308
9.393                0.846044522     -106.015793
9.394                0.845620842     -106.229106
9.395                0.845196513     -106.443021
9.396                0.844771543     -106.657539
