! TOUCHSTONE file generated by CST DESIGN STUDIO
! Date and time: Tue Feb  4 17:49:38 2025
! Project name: C:\Work\MatlabApps\UnitCellOptimizationMatlab\CST\unitcell.cst
! Tree item: Tasks\Sweep1\SPara1\S-Parameters
! Header version: 2024
! Port assignment regex: !\s*Touchstone port\s*([0-9]+)\s*=\s*(CST MWS port|CST DES external port|CST DES block port)\s*(.+)\s* \(\"(.*)\"\)(\s*mode\s*([0-9]+))?.*
! Touchstone port assignment:
! Touchstone port 1 = CST DES external port 1 ("")
# GHz S MA R 50
9                    0.938324363     -60.8475118
9.001                0.938166116     -60.9358602
9.002                0.938007276     -61.0244264
9.003                 0.93784784      -61.113211
9.004                0.937687808     -61.2022148
9.005                0.937527176     -61.2914385
9.006                0.937365942     -61.3808829
9.007                0.937204105     -61.4705487
9.008                0.937041663     -61.5604366
9.009                0.936878612     -61.6505474
9.01                 0.936714952     -61.7408818
9.011                0.936550679     -61.8314406
9.012                0.936385793     -61.9222245
9.013                 0.93622029     -62.0132343
9.014                0.936054169     -62.1044708
9.015                0.935887428     -62.1959347
9.016                0.935720064     -62.2876267
9.017                0.935552076     -62.3795477
9.018                 0.93538346     -62.4716984
9.019                0.935214215     -62.5640796
9.02                  0.93504434      -62.656692
9.021                0.934873831     -62.7495365
9.022                0.934702686     -62.8426138
9.023                0.934530904     -62.9359247
9.024                0.934358482     -63.0294701
9.025                0.934185418     -63.1232506
9.026                 0.93401171     -63.2172671
9.027                0.933837356     -63.3115204
9.028                0.933662353     -63.4060112
9.029                0.933486699     -63.5007405
9.03                 0.933310392     -63.5957089
9.031                0.933133431     -63.6909173
9.032                0.932955812     -63.7863666
9.033                0.932777533     -63.8820575
9.034                0.932598592     -63.9779908
9.035                0.932418988     -64.0741674
9.036                0.932238717     -64.1705881
9.037                0.932057778     -64.2672538
9.038                0.931876168     -64.3641652
9.039                0.931693886     -64.4613231
9.04                 0.931510928     -64.5587285
9.041                0.931327292     -64.6563822
9.042                0.931142978      -64.754285
9.043                0.930957981     -64.8524378
9.044                  0.9307723     -64.9508413
9.045                0.930585932     -65.0494965
9.046                0.930398876     -65.1484043
9.047                0.930211129     -65.2475654
9.048                0.930022689     -65.3469808
9.049                0.929833553     -65.4466512
9.05                 0.929643719     -65.5465777
9.051                0.929453186      -65.646761
9.052                 0.92926195      -65.747202
9.053                0.929070009     -65.8479017
9.054                0.928877361     -65.9488608
9.055                0.928684004     -66.0500803
9.056                0.928489936     -66.1515611
9.057                0.928295154      -66.253304
9.058                0.928099655       -66.35531
9.059                0.927903438     -66.4575799
9.06                 0.927706501     -66.5601147
9.061                 0.92750884     -66.6629153
9.062                0.927310454     -66.7659825
9.063                 0.92711134     -66.8693173
9.064                0.926911496     -66.9729206
9.065                 0.92671092     -67.0767933
9.066                0.926509609     -67.1809364
9.067                0.926307561     -67.2853507
9.068                0.926104773     -67.3900372
9.069                0.925901244     -67.4949969
9.07                 0.925696971     -67.6002306
9.071                0.925491951     -67.7057393
9.072                0.925286183      -67.811524
9.073                0.925079663     -67.9175855
9.074                0.924872391     -68.0239249
9.075                0.924664362     -68.1305432
9.076                0.924455575     -68.2374411
9.077                0.924246028     -68.3446198
9.078                0.924035718     -68.4520801
9.079                0.923824643     -68.5598231
9.08                   0.9236128     -68.6678497
9.081                0.923400187     -68.7761609
9.082                0.923186802     -68.8847577
9.083                0.922972642      -68.993641
9.084                0.922757706     -69.1028119
9.085                 0.92254199     -69.2122713
9.086                0.922325492     -69.3220202
9.087                 0.92210821     -69.4320596
9.088                0.921890142     -69.5423905
9.089                0.921671285     -69.6530139
9.09                 0.921451637     -69.7639309
9.091                0.921231195     -69.8751424
9.092                0.921009958     -69.9866494
9.093                0.920787922      -70.098453
9.094                0.920565085     -70.2105542
9.095                0.920341446     -70.3229539
9.096                0.920117001     -70.4356533
9.097                0.919891748     -70.5486534
9.098                0.919665685     -70.6619552
9.099                 0.91943881     -70.7755597
9.1                   0.91921112     -70.8894679
9.101                0.918982613      -71.003681
9.102                0.918753286        -71.1182
9.103                0.918523138     -71.2330259
9.104                0.918292165     -71.3481598
9.105                0.918060365     -71.4636028
9.106                0.917827737     -71.5793558
9.107                0.917594277     -71.6954201
9.108                0.917359983     -71.8117966
9.109                0.917124854     -71.9284864
9.11                 0.916888886     -72.0454906
9.111                0.916652077     -72.1628103
9.112                0.916414426     -72.2804465
9.113                0.916175928     -72.3984005
9.114                0.915936584     -72.5166732
9.115                0.915696389     -72.6352657
9.116                0.915455342     -72.7541792
9.117                 0.91521344     -72.8734148
9.118                0.914970681     -72.9929735
9.119                0.914727062     -73.1128565
9.12                 0.914482582      -73.233065
9.121                0.914237238     -73.3535999
9.122                0.913991028     -73.4744625
9.123                0.913743949     -73.5956538
9.124                0.913495999      -73.717175
9.125                0.913247176     -73.8390273
9.126                0.912997478     -73.9612117
9.127                0.912746902     -74.0837295
9.128                0.912495445     -74.2065817
9.129                0.912243107     -74.3297696
9.13                 0.911989884     -74.4532941
9.131                0.911735774     -74.5771567
9.132                0.911480775     -74.7013583
9.133                0.911224885     -74.8259001
9.134                0.910968101     -74.9507834
9.135                0.910710421     -75.0760092
9.136                0.910451843     -75.2015788
9.137                0.910192366     -75.3274933
9.138                0.909931985      -75.453754
9.139                  0.9096707      -75.580362
9.14                 0.909408508     -75.7073185
9.141                0.909145407     -75.8346247
9.142                0.908881395     -75.9622818
9.143                 0.90861647     -76.0902909
9.144                0.908350629     -76.2186534
9.145                 0.90808387     -76.3473704
9.146                0.907816191     -76.4764432
9.147                0.907547591     -76.6058728
9.148                0.907278066     -76.7356607
9.149                0.907007615     -76.8658079
9.15                 0.906736236     -76.9963157
9.151                0.906463927     -77.1271854
9.152                0.906190685     -77.2584182
9.153                0.905916508     -77.3900153
9.154                0.905641395      -77.521978
9.155                0.905365343     -77.6543074
9.156                0.905088351      -77.787005
9.157                0.904810415     -77.9200718
9.158                0.904531535     -78.0535093
9.159                0.904251709     -78.1873185
9.16                 0.903970933     -78.3215009
9.161                0.903689207     -78.4560577
9.162                0.903406529       -78.59099
9.163                0.903122896     -78.7262993
9.164                0.902838306     -78.8619868
9.165                0.902552758     -78.9980538
9.166                0.902266249     -79.1345016
9.167                0.901978779     -79.2713314
9.168                0.901690344     -79.4085445
9.169                0.901400944     -79.5461424
9.17                 0.901110576     -79.6841261
9.171                0.900819238     -79.8224971
9.172                0.900526929     -79.9612567
9.173                0.900233647     -80.1004062
9.174                 0.89993939     -80.2399468
9.175                0.899644157       -80.37988
9.176                0.899347945      -80.520207
9.177                0.899050753     -80.6609291
9.178                0.898752579     -80.8020477
9.179                0.898453422     -80.9435642
9.18                  0.89815328     -81.0854798
9.181                0.897852151     -81.2277959
9.182                0.897550034     -81.3705138
9.183                0.897246927     -81.5136349
9.184                0.896942829     -81.6571606
9.185                0.896637737     -81.8010921
9.186                0.896331651     -81.9454309
9.187                0.896024569     -82.0901783
9.188                 0.89571649     -82.2353356
9.189                0.895407412     -82.3809043
9.19                 0.895097333     -82.5268857
9.191                0.894786253     -82.6732811
9.192                 0.89447417      -82.820092
9.193                0.894161082     -82.9673198
9.194                0.893846988     -83.1149657
9.195                0.893531887     -83.2630313
9.196                0.893215778     -83.4115178
9.197                0.892898659     -83.5604267
9.198                 0.89258053     -83.7097594
9.199                0.892261388     -83.8595172
9.2                  0.891941233     -84.0097016
9.201                0.891620064      -84.160314
9.202                 0.89129788     -84.3113558
9.203                0.890974679     -84.4628283
9.204                 0.89065046     -84.6147331
9.205                0.890325223     -84.7670715
9.206                0.889998967     -84.9198449
9.207                0.889671689     -85.0730548
9.208                0.889343391     -85.2267025
9.209                 0.88901407     -85.3807896
9.21                 0.888683726     -85.5353174
9.211                0.888352359     -85.6902874
9.212                0.888019966      -85.845701
9.213                0.887686548     -86.0015596
9.214                0.887352104     -86.1578647
9.215                0.887016633     -86.3146178
9.216                0.886680135     -86.4718202
9.217                0.886342608     -86.6294734
9.218                0.886004053     -86.7875789
9.219                0.885664468     -86.9461381
9.22                 0.885323854     -87.1051525
9.221                 0.88498221     -87.2646236
9.222                0.884639536     -87.4245527
9.223                 0.88429583     -87.5849414
9.224                0.883951093     -87.7457911
9.225                0.883605325     -87.9071033
9.226                0.883258525     -88.0688795
9.227                0.882910693     -88.2311211
9.228                0.882561829     -88.3938296
9.229                0.882211933     -88.5570064
9.23                 0.881861005     -88.7206531
9.231                0.881509044     -88.8847711
9.232                0.881156051      -89.049362
9.233                0.880802026     -89.2144271
9.234                0.880446969      -89.379968
9.235                0.880090879     -89.5459862
9.236                0.879733759     -89.7124831
9.237                0.879375606     -89.8794602
9.238                0.879016423     -90.0469191
9.239                0.878656209     -90.2148612
9.24                 0.878294965      -90.383288
9.241                0.877932691      -90.552201
9.242                0.877569387     -90.7216017
9.243                0.877205055     -90.8914916
9.244                0.876839694     -91.0618722
9.245                0.876473307     -91.2327449
9.246                0.876105892     -91.4041114
9.247                0.875737452     -91.5759731
9.248                0.875367986     -91.7483314
9.249                0.874997497      -91.921188
9.25                 0.874625984     -92.0945443
9.251                0.874253449     -92.2684017
9.252                0.873879893     -92.4427619
9.253                0.873505317     -92.6176263
9.254                0.873129722     -92.7929964
9.255                 0.87275311     -92.9688738
9.256                0.872375482     -93.1452599
9.257                0.871996839     -93.3221562
9.258                0.871617183     -93.4995643
9.259                0.871236515     -93.6774857
9.26                 0.870854837     -93.8559218
9.261                0.870472151     -94.0348741
9.262                0.870088457     -94.2143443
9.263                0.869703759     -94.3943338
9.264                0.869318058      -94.574844
9.265                0.868931355     -94.7558766
9.266                0.868543653     -94.9374329
9.267                0.868154954     -95.1195146
9.268                 0.86776526     -95.3021231
9.269                0.867374574     -95.4852599
9.27                 0.866982897     -95.6689265
9.271                0.866590232     -95.8531245
9.272                0.866196581     -96.0378553
9.273                0.865801947     -96.2231204
9.274                0.865406332     -96.4089213
9.275                0.865009739     -96.5952596
9.276                0.864612172     -96.7821367
9.277                0.864213632     -96.9695541
9.278                0.863814122     -97.1575133
9.279                0.863413646     -97.3460158
9.28                 0.863012207     -97.5350631
9.281                0.862609808     -97.7246567
9.282                0.862206451     -97.9147981
9.283                0.861802141     -98.1054886
9.284                0.861396881       -98.29673
9.285                0.860990674     -98.4885235
9.286                0.860583523     -98.6808707
9.287                0.860175433      -98.873773
9.288                0.859766408      -99.067232
9.289                 0.85935645     -99.2612491
9.29                 0.858945565     -99.4558258
9.291                0.858533755     -99.6509634
9.292                0.858121026     -99.8466636
9.293                0.857707381     -100.042928
9.294                0.857292824     -100.239757
9.295                0.856877361     -100.437153
9.296                0.856460995     -100.635118
9.297                0.856043732     -100.833652
9.298                0.855625575     -101.032758
9.299                 0.85520653     -101.232436
9.3                  0.854786601     -101.432688
9.301                0.854365794     -101.633515
9.302                0.853944113      -101.83492
9.303                0.853521564     -102.036902
9.304                0.853098152     -102.239465
9.305                0.852673883     -102.442608
9.306                0.852248762     -102.646334
9.307                0.851822794     -102.850644
9.308                0.851395985     -103.055539
9.309                0.850968342     -103.261021
9.31                  0.85053987     -103.467091
9.311                0.850110574      -103.67375
9.312                0.849680462        -103.881
9.313                0.849249539     -104.088842
9.314                0.848817812     -104.297277
9.315                0.848385288     -104.506308
9.316                0.847951972     -104.715934
9.317                0.847517872     -104.926158
9.318                0.847082994     -105.136981
9.319                0.846647346     -105.348404
9.32                 0.846210934     -105.560429
9.321                0.845773766     -105.773056
9.322                0.845335848     -105.986287
9.323                0.844897189     -106.200124
9.324                0.844457796     -106.414567
9.325                0.844017676     -106.629619
9.326                0.843576838     -106.845279
9.327                0.843135289      -107.06155
9.328                0.842693036     -107.278432
9.329                 0.84225009     -107.495927
9.33                 0.841806456     -107.714037
9.331                0.841362145     -107.932761
9.332                0.840917164     -108.152103
9.333                0.840471523     -108.372062
9.334                0.840025229      -108.59264
9.335                0.839578293     -108.813838
9.336                0.839130722     -109.035657
9.337                0.838682526     -109.258099
9.338                0.838233715     -109.481164
9.339                0.837784297     -109.704854
9.34                 0.837334283      -109.92917
9.341                0.836883682     -110.154112
9.342                0.836432504     -110.379683
9.343                0.835980758     -110.605883
9.344                0.835528456     -110.832713
9.345                0.835075607     -111.060175
9.346                0.834622222     -111.288268
9.347                 0.83416831     -111.516995
9.348                0.833713884     -111.746357
9.349                0.833258953     -111.976353
9.35                 0.832803528     -112.206986
9.351                0.832347622     -112.438257
9.352                0.831891244     -112.670166
9.353                0.831434406     -112.902714
9.354                 0.83097712     -113.135902
9.355                0.830519397     -113.369732
9.356                0.830061249     -113.604203
9.357                0.829602689     -113.839318
9.358                0.829143727     -114.075076
9.359                0.828684377     -114.311479
9.36                  0.82822465     -114.548527
9.361                 0.82776456     -114.786222
9.362                0.827304119     -115.024564
9.363                0.826843339     -115.263554
9.364                0.826382235     -115.503193
9.365                0.825920817     -115.743482
9.366                0.825459101      -115.98442
9.367                  0.8249971      -116.22601
9.368                0.824534826     -116.468251
9.369                0.824072294     -116.711145
9.37                 0.823609517     -116.954692
9.371                 0.82314651     -117.198892
9.372                0.822683287     -117.443747
9.373                0.822219862     -117.689257
9.374                0.821756249     -117.935422
9.375                0.821292463     -118.182244
9.376                0.820828518     -118.429722
9.377                0.820364431     -118.677858
9.378                0.819900215     -118.926651
9.379                0.819435886     -119.176103
9.38                  0.81897146     -119.426213
9.381                0.818506951     -119.676982
9.382                0.818042376     -119.928411
9.383                 0.81757775       -120.1805
9.384                0.817113089      -120.43325
9.385                0.816648409      -120.68666
9.386                0.816183728     -120.940731
9.387                 0.81571906     -121.195463
9.388                0.815254423     -121.450857
9.389                0.814789833     -121.706913
9.39                 0.814325307     -121.963632
9.391                0.813860863     -122.221012
9.392                0.813396516     -122.479056
9.393                0.812932286     -122.737762
9.394                0.812468189      -122.99713
9.395                0.812004243     -123.257162
9.396                0.811540465     -123.517857
