! TOUCHSTONE file generated by CST DESIGN STUDIO
! Date and time: Tue Feb  4 17:59:49 2025
! Project name: C:\Work\MatlabApps\UnitCellOptimizationMatlab\CST\unitcell.cst
! Tree item: Tasks\Sweep1\SPara1\S-Parameters
! Header version: 2024
! Port assignment regex: !\s*Touchstone port\s*([0-9]+)\s*=\s*(CST MWS port|CST DES external port|CST DES block port)\s*(.+)\s* \(\"(.*)\"\)(\s*mode\s*([0-9]+))?.*
! Touchstone port assignment:
! Touchstone port 1 = CST DES external port 1 ("")
# GHz S MA R 50
9                    0.953170292     -63.3649797
9.001                0.953062871     -63.4552328
9.002                0.952955108      -63.545704
9.003                0.952847001     -63.6363941
9.004                0.952738548     -63.7273036
9.005                0.952629749     -63.8184334
9.006                0.952520602     -63.9097841
9.007                0.952411107     -64.0013565
9.008                0.952301262     -64.0931512
9.009                0.952191066      -64.185169
9.01                 0.952080517     -64.2774107
9.011                0.951969616     -64.3698769
9.012                 0.95185836     -64.4625683
9.013                0.951746749     -64.5554858
9.014                0.951634781     -64.6486299
9.015                0.951522455     -64.7420016
9.016                 0.95140977     -64.8356014
9.017                0.951296725     -64.9294302
9.018                0.951183319     -65.0234887
9.019                 0.95106955     -65.1177776
9.02                 0.950955417     -65.2122978
9.021                 0.95084092     -65.3070498
9.022                0.950726057     -65.4020345
9.023                0.950610826     -65.4972527
9.024                0.950495227     -65.5927051
9.025                0.950379259     -65.6883925
9.026                 0.95026292     -65.7843155
9.027                 0.95014621     -65.8804751
9.028                0.950029126      -65.976872
9.029                0.949911668     -66.0735069
9.03                 0.949793834     -66.1703806
9.031                0.949675624     -66.2674938
9.032                0.949557037     -66.3648475
9.033                 0.94943807     -66.4624423
9.034                0.949318723     -66.5602791
9.035                0.949198995     -66.6583585
9.036                0.949078884     -66.7566815
9.037                 0.94895839     -66.8552488
9.038                 0.94883751     -66.9540612
9.039                0.948716245     -67.0531195
9.04                 0.948594592     -67.1524245
9.041                0.948472551     -67.2519771
9.042                 0.94835012     -67.3517779
9.043                0.948227298     -67.4518279
9.044                0.948104084     -67.5521277
9.045                0.947980477     -67.6526784
9.046                0.947856475     -67.7534806
9.047                0.947732077     -67.8545352
9.048                0.947607283      -67.955843
9.049                 0.94748209     -68.0574049
9.05                 0.947356498     -68.1592216
9.051                0.947230505      -68.261294
9.052                0.947104111     -68.3636229
9.053                0.946977313     -68.4662092
9.054                0.946850112     -68.5690537
9.055                0.946722504     -68.6721573
9.056                0.946594491     -68.7755207
9.057                0.946466069     -68.8791449
9.058                0.946337238     -68.9830307
9.059                0.946207997     -69.0871789
9.06                 0.946078345     -69.1915904
9.061                 0.94594828     -69.2962661
9.062                0.945817801     -69.4012068
9.063                0.945686906     -69.5064133
9.064                0.945555596     -69.6118867
9.065                0.945423867     -69.7176276
9.066                 0.94529172      -69.823637
9.067                0.945159153     -69.9299158
9.068                0.945026165     -70.0364649
9.069                0.944892754      -70.143285
9.07                 0.944758919     -70.2503772
9.071                0.944624659     -70.3577423
9.072                0.944489974     -70.4653812
9.073                0.944354861     -70.5732947
9.074                0.944219319     -70.6814838
9.075                0.944083348     -70.7899494
9.076                0.943946945     -70.8986923
9.077                 0.94381011     -71.0077135
9.078                0.943672842      -71.117014
9.079                0.943535139     -71.2265944
9.08                 0.943397001     -71.3364559
9.081                0.943258425     -71.4465993
9.082                0.943119411     -71.5570256
9.083                0.942979957     -71.6677356
9.084                0.942840063     -71.7787302
9.085                0.942699727     -71.8900105
9.086                0.942558947     -72.0015773
9.087                0.942417723     -72.1134316
9.088                0.942276054     -72.2255742
9.089                0.942133938     -72.3380062
9.09                 0.941991373     -72.4507285
9.091                 0.94184836      -72.563742
9.092                0.941704896     -72.6770477
9.093                0.941560981     -72.7906464
9.094                0.941416613     -72.9045393
9.095                0.941271791     -73.0187271
9.096                0.941126513     -73.1332109
9.097                 0.94098078     -73.2479917
9.098                0.940834588     -73.3630703
9.099                0.940687938     -73.4784479
9.1                  0.940540828     -73.5941252
9.101                0.940393257     -73.7101034
9.102                0.940245224     -73.8263833
9.103                0.940096727      -73.942966
9.104                0.939947766     -74.0598524
9.105                0.939798338     -74.1770435
9.106                0.939648444     -74.2945404
9.107                0.939498082     -74.4123439
9.108                 0.93934725     -74.5304551
9.109                0.939195948      -74.648875
9.11                 0.939044174     -74.7676046
9.111                0.938891927     -74.8866448
9.112                0.938739206     -75.0059967
9.113                0.938586011     -75.1256613
9.114                0.938432339     -75.2456396
9.115                0.938278189     -75.3659325
9.116                0.938123561     -75.4865412
9.117                0.937968454     -75.6074666
9.118                0.937812866     -75.7287098
9.119                0.937656796     -75.8502717
9.12                 0.937500242     -75.9721534
9.121                0.937343205     -76.0943559
9.122                0.937185683     -76.2168803
9.123                0.937027674     -76.3397276
9.124                0.936869178     -76.4628987
9.125                0.936710193     -76.5863949
9.126                0.936550718      -76.710217
9.127                0.936390753     -76.8343662
9.128                0.936230296     -76.9588434
9.129                0.936069347     -77.0836498
9.13                 0.935907903     -77.2087864
9.131                0.935745965     -77.3342542
9.132                 0.93558353     -77.4600543
9.133                0.935420598     -77.5861878
9.134                0.935257168     -77.7126557
9.135                 0.93509324      -77.839459
9.136                 0.93492881      -77.966599
9.137                 0.93476388     -78.0940765
9.138                0.934598447     -78.2218928
9.139                0.934432512     -78.3500488
9.14                 0.934266072     -78.4785457
9.141                0.934099126     -78.6073845
9.142                0.933931675     -78.7365663
9.143                0.933763716     -78.8660923
9.144                0.933595249     -78.9959634
9.145                0.933426273     -79.1261808
9.146                0.933256787     -79.2567456
9.147                 0.93308679     -79.3876588
9.148                0.932916281     -79.5189216
9.149                0.932745259     -79.6505351
9.15                 0.932573723     -79.7825004
9.151                0.932401673     -79.9148185
9.152                0.932229106     -80.0474906
9.153                0.932056024     -80.1805179
9.154                0.931882423     -80.3139013
9.155                0.931708305     -80.4476421
9.156                0.931533667     -80.5817413
9.157                 0.93135851     -80.7162001
9.158                0.931182831     -80.8510196
9.159                0.931006631     -80.9862009
9.16                 0.930829908     -81.1217451
9.161                0.930652662     -81.2576534
9.162                0.930474892      -81.393927
9.163                0.930296597     -81.5305668
9.164                0.930117776     -81.6675742
9.165                0.929938429     -81.8049501
9.166                0.929758554     -81.9426958
9.167                0.929578152     -82.0808125
9.168                 0.92939722     -82.2193011
9.169                 0.92921576      -82.358163
9.17                 0.929033769     -82.4973992
9.171                0.928851247     -82.6370109
9.172                0.928668194     -82.7769993
9.173                0.928484609     -82.9173654
9.174                 0.92830049     -83.0581106
9.175                0.928115839     -83.1992358
9.176                0.927930653     -83.3407423
9.177                0.927744932     -83.4826313
9.178                0.927558676      -83.624904
9.179                0.927371885     -83.7675613
9.18                 0.927184556     -83.9106047
9.181                0.926996691     -84.0540352
9.182                0.926808288      -84.197854
9.183                0.926619347     -84.3420622
9.184                0.926429867     -84.4866611
9.185                0.926239849     -84.6316519
9.186                 0.92604929     -84.7770357
9.187                0.925858192     -84.9228136
9.188                0.925666553      -85.068987
9.189                0.925474373     -85.2155569
9.19                 0.925281652     -85.3625245
9.191                0.925088389     -85.5098911
9.192                0.924894584     -85.6576579
9.193                0.924700237     -85.8058259
9.194                0.924505347     -85.9543965
9.195                0.924309914     -86.1033708
9.196                0.924113937       -86.25275
9.197                0.923917417     -86.4025353
9.198                0.923720352      -86.552728
9.199                0.923522744     -86.7033291
9.2                  0.923324591     -86.8543399
9.201                0.923125894     -87.0057617
9.202                0.922926651     -87.1575955
9.203                0.922726864     -87.3098427
9.204                0.922526532     -87.4625044
9.205                0.922325654     -87.6155819
9.206                0.922124231     -87.7690762
9.207                0.921922263     -87.9229888
9.208                 0.92171975     -88.0773207
9.209                 0.92151669     -88.2320731
9.21                 0.921313086     -88.3872474
9.211                0.921108936     -88.5428446
9.212                 0.92090424     -88.6988661
9.213                0.920698999      -88.855313
9.214                0.920493213     -89.0121865
9.215                0.920286882     -89.1694879
9.216                0.920080006     -89.3272184
9.217                0.919872584     -89.4853791
9.218                0.919664619     -89.6439714
9.219                0.919456108     -89.8029964
9.22                 0.919247054     -89.9624553
9.221                0.919037455     -90.1223494
9.222                0.918827313     -90.2826799
9.223                0.918616628     -90.4434479
9.224                0.918405399     -90.6046548
9.225                0.918193628     -90.7663017
9.226                0.917981314     -90.9283899
9.227                0.917768459     -91.0909206
9.228                0.917555063     -91.2538949
9.229                0.917341125     -91.4173142
9.23                 0.917126647     -91.5811796
9.231                 0.91691163     -91.7454923
9.232                0.916696073     -91.9102537
9.233                0.916479978     -92.0754648
9.234                0.916263344     -92.2411269
9.235                0.916046174     -92.4072412
9.236                0.915828466      -92.573809
9.237                0.915610223     -92.7408315
9.238                0.915391445     -92.9083098
9.239                0.915172132     -93.0762452
9.24                 0.914952286     -93.2446389
9.241                0.914731908     -93.4134921
9.242                0.914510997     -93.5828061
9.243                0.914289556      -93.752582
9.244                0.914067585      -93.922821
9.245                0.913845085     -94.0935244
9.246                0.913622057     -94.2646934
9.247                0.913398503     -94.4363291
9.248                0.913174423     -94.6084328
9.249                0.912949819     -94.7810057
9.25                 0.912724691      -94.954049
9.251                0.912499041     -95.1275639
9.252                0.912272871     -95.3015516
9.253                0.912046181     -95.4760132
9.254                0.911818972     -95.6509501
9.255                0.911591247     -95.8263633
9.256                0.911363007     -96.0022541
9.257                0.911134253     -96.1786236
9.258                0.910904986     -96.3554731
9.259                0.910675208     -96.5328037
9.26                 0.910444921     -96.7106166
9.261                0.910214126      -96.888913
9.262                0.909982825     -97.0676941
9.263                 0.90975102      -97.246961
9.264                0.909518712     -97.4267149
9.265                0.909285903     -97.6069571
9.266                0.909052595     -97.7876886
9.267                 0.90881879     -97.9689106
9.268                 0.90858449     -98.1506243
9.269                0.908349696     -98.3328309
9.27                 0.908114412     -98.5155314
9.271                0.907878638     -98.6987271
9.272                0.907642376     -98.8824191
9.273                 0.90740563     -99.0666086
9.274                0.907168401     -99.2512966
9.275                0.906930692     -99.4364844
9.276                0.906692504      -99.622173
9.277                 0.90645384     -99.8083636
9.278                0.906214703     -99.9950573
9.279                0.905975095     -100.182255
9.28                 0.905735017     -100.369959
9.281                0.905494474     -100.558168
9.282                0.905253467     -100.746886
9.283                   0.905012     -100.936112
9.284                0.904770074     -101.125848
9.285                0.904527692     -101.316094
9.286                0.904284858     -101.506853
9.287                0.904041574     -101.698125
9.288                0.903797843     -101.889911
9.289                0.903553668     -102.082212
9.29                 0.903309052     -102.275029
9.291                0.903063998     -102.468364
9.292                0.902818509     -102.662217
9.293                0.902572588     -102.856589
9.294                0.902326239     -103.051482
9.295                0.902079465     -103.246897
9.296                0.901832268     -103.442834
9.297                0.901584653     -103.639295
9.298                0.901336623      -103.83628
9.299                0.901088182     -104.033791
9.3                  0.900839332     -104.231829
9.301                0.900590078     -104.430395
9.302                0.900340424     -104.629489
9.303                0.900090372     -104.829112
9.304                0.899839927     -105.029267
9.305                0.899589093     -105.229952
9.306                0.899337873     -105.431171
9.307                0.899086272     -105.632923
9.308                0.898834294     -105.835209
9.309                0.898581942     -106.038031
9.31                 0.898329221     -106.241389
9.311                0.898076136     -106.445285
9.312                0.897822689     -106.649719
9.313                0.897568886     -106.854692
9.314                0.897314732     -107.060204
9.315                 0.89706023     -107.266258
9.316                0.896805385     -107.472854
9.317                0.896550203     -107.679992
9.318                0.896294686     -107.887674
9.319                0.896038841       -108.0959
9.32                 0.895782672     -108.304672
9.321                0.895526183     -108.513989
9.322                0.895269381     -108.723854
9.323                0.895012269     -108.934266
9.324                0.894754854     -109.145227
9.325                0.894497139     -109.356737
9.326                0.894239131     -109.568797
9.327                0.893980834     -109.781409
9.328                0.893722254     -109.994572
9.329                0.893463397     -110.208287
9.33                 0.893204267     -110.422556
9.331                0.892944871     -110.637378
9.332                0.892685214     -110.852755
9.333                0.892425301     -111.068688
9.334                0.892165139     -111.285176
9.335                0.891904734     -111.502222
9.336                 0.89164409     -111.719825
9.337                0.891383215     -111.937985
9.338                0.891122114     -112.156705
9.339                0.890860794     -112.375984
9.34                  0.89059926     -112.595823
9.341                 0.89033752     -112.816223
9.342                0.890075578     -113.037184
9.343                0.889813443     -113.258707
9.344                0.889551119     -113.480792
9.345                0.889288615      -113.70344
9.346                0.889025936     -113.926652
9.347                0.888763089     -114.150427
9.348                0.888500081     -114.374768
9.349                0.888236918     -114.599673
9.35                 0.887973609     -114.825144
9.351                 0.88771016     -115.051181
9.352                0.887446577     -115.277784
9.353                0.887182869     -115.504954
9.354                0.886919042     -115.732692
9.355                0.886655104     -115.960998
9.356                0.886391061     -116.189871
9.357                0.886126923     -116.419314
9.358                0.885862695     -116.649325
9.359                0.885598387     -116.879905
9.36                 0.885334005     -117.111056
9.361                0.885069557     -117.342776
9.362                0.884805051     -117.575066
9.363                0.884540496     -117.807927
9.364                0.884275899     -118.041359
9.365                0.884011268     -118.275362
9.366                0.883746611     -118.509936
9.367                0.883481937     -118.745081
9.368                0.883217254     -118.980799
9.369                 0.88295257     -119.217088
9.37                 0.882687895     -119.453949
9.371                0.882423236     -119.691383
9.372                0.882158602     -119.929388
9.373                0.881894001     -120.167967
9.374                0.881629444     -120.407117
9.375                0.881364938     -120.646841
9.376                0.881100492     -120.887137
9.377                0.880836116     -121.128005
9.378                0.880571819     -121.369447
9.379                0.880307609     -121.611461
9.38                 0.880043496     -121.854047
9.381                 0.87977949     -122.097206
9.382                0.879515599     -122.340938
9.383                0.879251834     -122.585242
9.384                0.878988203     -122.830119
9.385                0.878724717     -123.075567
9.386                0.878461386     -123.321588
9.387                0.878198218      -123.56818
9.388                0.877935224     -123.815344
9.389                0.877672414      -124.06308
9.39                 0.877409797     -124.311386
9.391                0.877147385     -124.560264
9.392                0.876885186     -124.809712
9.393                0.876623212      -125.05973
9.394                0.876361473     -125.310319
9.395                0.876099978     -125.561477
9.396                0.875838739     -125.813204
