! TOUCHSTONE file generated by CST DESIGN STUDIO
! Date and time: Tue Feb  4 17:59:41 2025
! Project name: C:\Work\MatlabApps\UnitCellOptimizationMatlab\CST\unitcell.cst
! Tree item: Tasks\Sweep1\SPara1\S-Parameters
! Header version: 2024
! Port assignment regex: !\s*Touchstone port\s*([0-9]+)\s*=\s*(CST MWS port|CST DES external port|CST DES block port)\s*(.+)\s* \(\"(.*)\"\)(\s*mode\s*([0-9]+))?.*
! Touchstone port assignment:
! Touchstone port 1 = CST DES external port 1 ("")
# GHz S MA R 50
9                    0.940543442     -82.0679283
9.001                0.940380954      -82.205137
9.002                0.940217971      -82.342715
9.003                 0.94005449     -82.4806636
9.004                0.939890511     -82.6189837
9.005                0.939726032     -82.7576766
9.006                0.939561054     -82.8967435
9.007                0.939395575     -83.0361854
9.008                0.939229595     -83.1760035
9.009                0.939063113      -83.316199
9.01                 0.938896127      -83.456773
9.011                0.938728638     -83.5977267
9.012                0.938560644     -83.7390612
9.013                0.938392145     -83.8807777
9.014                 0.93822314     -84.0228774
9.015                0.938053628     -84.1653614
9.016                0.937883609     -84.3082309
9.017                0.937713081     -84.4514871
9.018                0.937542045     -84.5951311
9.019                0.937370499     -84.7391641
9.02                 0.937198443     -84.8835873
9.021                0.937025876     -85.0284018
9.022                0.936852798     -85.1736088
9.023                0.936679208     -85.3192096
9.024                0.936505105     -85.4652052
9.025                0.936330489      -85.611597
9.026                0.936155359     -85.7583859
9.027                0.935979715     -85.9055733
9.028                0.935803556     -86.0531604
9.029                0.935626881     -86.2011482
9.03                 0.935449691      -86.349538
9.031                0.935271984     -86.4983311
9.032                 0.93509376     -86.6475285
9.033                0.934915019     -86.7971315
9.034                 0.93473576     -86.9471412
9.035                0.934555983     -87.0975589
9.036                0.934375687     -87.2483858
9.037                0.934194872     -87.3996231
9.038                0.934013538     -87.5512719
9.039                0.933831683     -87.7033335
9.04                 0.933649309      -87.855809
9.041                0.933466414     -88.0086998
9.042                0.933282999     -88.1620069
9.043                0.933099062     -88.3157315
9.044                0.932914604      -88.469875
9.045                0.932729625     -88.6244384
9.046                0.932544124      -88.779423
9.047                0.932358101     -88.9348301
9.048                0.932171555     -89.0906607
9.049                0.931984488     -89.2469162
9.05                 0.931796897     -89.4035977
9.051                0.931608784     -89.5607065
9.052                0.931420149     -89.7182437
9.053                 0.93123099     -89.8762106
9.054                0.931041309     -90.0346084
9.055                0.930851105     -90.1934382
9.056                0.930660378     -90.3527014
9.057                0.930469128     -90.5123991
9.058                0.930277355     -90.6725325
9.059                0.930085059     -90.8331028
9.06                  0.92989224     -90.9941114
9.061                0.929698899     -91.1555593
9.062                0.929505035     -91.3174478
9.063                0.929310649     -91.4797781
9.064                0.929115741     -91.6425514
9.065                 0.92892031     -91.8057689
9.066                0.928724358     -91.9694319
9.067                0.928527885     -92.1335416
9.068                 0.92833089     -92.2980991
9.069                0.928133374     -92.4631057
9.07                 0.927935337     -92.6285626
9.071                0.927736781     -92.7944711
9.072                0.927537704     -92.9608322
9.073                0.927338108     -93.1276473
9.074                0.927137993     -93.2949175
9.075                 0.92693736     -93.4626441
9.076                0.926736208     -93.6308282
9.077                0.926534539     -93.7994711
9.078                0.926332353      -93.968574
9.079                0.926129651     -94.1381381
9.08                 0.925926433     -94.3081645
9.081                0.925722699     -94.4786546
9.082                0.925518452     -94.6496094
9.083                0.925313691     -94.8210302
9.084                0.925108417     -94.9929182
9.085                 0.92490263     -95.1652746
9.086                0.924696333     -95.3381006
9.087                0.924489525     -95.5113974
9.088                0.924282207     -95.6851661
9.089                0.924074381      -95.859408
9.09                 0.923866047     -96.0341243
9.091                0.923657206     -96.2093161
9.092                0.923447859     -96.3849846
9.093                0.923238008     -96.5611311
9.094                0.923027653     -96.7377566
9.095                0.922816796     -96.9148625
9.096                0.922605437     -97.0924497
9.097                0.922393578     -97.2705196
9.098                 0.92218122     -97.4490733
9.099                0.921968365      -97.628112
9.1                  0.921755013     -97.8076368
9.101                0.921541167     -97.9876489
9.102                0.921326826     -98.1681495
9.103                0.921111994     -98.3491397
9.104                0.920896671     -98.5306206
9.105                0.920680859     -98.7125935
9.106                0.920464559     -98.8950594
9.107                0.920247773     -99.0780196
9.108                0.920030503     -99.2614752
9.109                0.919812749     -99.4454272
9.11                 0.919594515     -99.6298769
9.111                0.919375802     -99.8148253
9.112                0.919156611     -100.000274
9.113                0.918936944     -100.186223
9.114                0.918716804     -100.372675
9.115                0.918496192     -100.559629
9.116                 0.91827511     -100.747088
9.117                 0.91805356     -100.935053
9.118                0.917831544     -101.123524
9.119                0.917609065     -101.312503
9.12                 0.917386124     -101.501991
9.121                0.917162724     -101.691988
9.122                0.916938866     -101.882496
9.123                0.916714554     -102.073517
9.124                 0.91648979      -102.26505
9.125                0.916264575     -102.457098
9.126                0.916038913     -102.649661
9.127                0.915812806      -102.84274
9.128                0.915586256     -103.036336
9.129                0.915359266     -103.230451
9.13                 0.915131839     -103.425086
9.131                0.914903977      -103.62024
9.132                0.914675683     -103.815917
9.133                 0.91444696     -104.012115
9.134                0.914217811     -104.208837
9.135                0.913988239     -104.406084
9.136                0.913758246     -104.603856
9.137                0.913527835     -104.802155
9.138                0.913297011     -105.000982
9.139                0.913065775     -105.200336
9.14                  0.91283413     -105.400221
9.141                0.912602081     -105.600635
9.142                0.912369631     -105.801581
9.143                0.912136782      -106.00306
9.144                0.911903538     -106.205072
9.145                0.911669903     -106.407618
9.146                 0.91143588     -106.610699
9.147                0.911201472     -106.814316
9.148                0.910966684      -107.01847
9.149                0.910731519     -107.223162
9.15                  0.91049598     -107.428393
9.151                0.910260072     -107.634164
9.152                0.910023798     -107.840475
9.153                0.909787162     -108.047328
9.154                0.909550168     -108.254723
9.155                0.909312821     -108.462661
9.156                0.909075124     -108.671143
9.157                0.908837081     -108.880169
9.158                0.908598697     -109.089742
9.159                0.908359976     -109.299861
9.16                 0.908120922     -109.510527
9.161                 0.90788154     -109.721742
9.162                0.907641834     -109.933505
9.163                0.907401809     -110.145817
9.164                0.907161469     -110.358681
9.165                0.906920818     -110.572095
9.166                0.906679863     -110.786061
9.167                0.906438607      -111.00058
9.168                0.906197055     -111.215652
9.169                0.905955213     -111.431278
9.17                 0.905713085     -111.647459
9.171                0.905470675     -111.864195
9.172                0.905227991     -112.081487
9.173                0.904985036     -112.299336
9.174                0.904741815     -112.517742
9.175                0.904498335     -112.736707
9.176                  0.9042546      -112.95623
9.177                0.904010616     -113.176312
9.178                0.903766389     -113.396954
9.179                0.903521923     -113.618156
9.18                 0.903277226      -113.83992
9.181                0.903032302     -114.062245
9.182                0.902787157     -114.285132
9.183                0.902541797     -114.508582
9.184                0.902296228     -114.732594
9.185                0.902050456     -114.957171
9.186                0.901804488     -115.182311
9.187                0.901558329     -115.408016
9.188                0.901311985     -115.634287
9.189                0.901065463     -115.861122
9.19                 0.900818769     -116.088524
9.191                 0.90057191     -116.316492
9.192                0.900324891     -116.545026
9.193                0.900077721     -116.774128
9.194                0.899830405     -117.003797
9.195                0.899582949     -117.234034
9.196                0.899335362     -117.464839
9.197                0.899087649     -117.696213
9.198                0.898839818     -117.928155
9.199                0.898591876     -118.160667
9.2                  0.898343829     -118.393747
9.201                0.898095685     -118.627398
9.202                0.897847452     -118.861618
9.203                0.897599135     -119.096408
9.204                0.897350744     -119.331768
9.205                0.897102285     -119.567698
9.206                0.896853765     -119.804199
9.207                0.896605193     -120.041271
9.208                0.896356576     -120.278914
9.209                0.896107921     -120.517127
9.21                 0.895859237     -120.755912
9.211                0.895610532     -120.995267
9.212                0.895361813     -121.235194
9.213                0.895113089     -121.475691
9.214                0.894864367      -121.71676
9.215                0.894615656       -121.9584
9.216                0.894366964     -122.200611
9.217                0.894118299     -122.443393
9.218                 0.89386967     -122.686746
9.219                0.893621085      -122.93067
9.22                 0.893372553     -123.175164
9.221                0.893124082      -123.42023
9.222                0.892875681     -123.665865
9.223                 0.89262736     -123.912071
9.224                0.892379126     -124.158847
9.225                0.892130988     -124.406193
9.226                0.891882956     -124.654108
9.227                0.891635038     -124.902593
9.228                0.891387245     -125.151647
9.229                0.891139584      -125.40127
9.23                 0.890892065     -125.651461
9.231                0.890644698      -125.90222
9.232                0.890397492     -126.153546
9.233                0.890150456      -126.40544
9.234                  0.8899036     -126.657901
9.235                0.889656934     -126.910928
9.236                0.889410467     -127.164521
9.237                0.889164209      -127.41868
9.238                0.888918169     -127.673403
9.239                0.888672358     -127.928691
9.24                 0.888426786     -128.184543
9.241                0.888181463     -128.440957
9.242                0.887936398     -128.697935
9.243                0.887691602     -128.955474
9.244                0.887447086     -129.213574
9.245                0.887202858     -129.472235
9.246                0.886958931     -129.731456
9.247                0.886715313     -129.991236
9.248                0.886472016     -130.251574
9.249                 0.88622905      -130.51247
9.25                 0.885986426     -130.773922
9.251                0.885744154      -131.03593
9.252                0.885502246     -131.298493
9.253                0.885260711      -131.56161
9.254                0.885019561      -131.82528
9.255                0.884778806     -132.089502
9.256                0.884538458     -132.354275
9.257                0.884298528     -132.619599
9.258                0.884059026     -132.885471
9.259                0.883819964     -133.151892
9.26                 0.883581353     -133.418859
9.261                0.883343204     -133.686372
9.262                0.883105529     -133.954429
9.263                0.882868338      -134.22303
9.264                0.882631643     -134.492174
9.265                0.882395456     -134.761858
9.266                0.882159788     -135.032081
9.267                0.881924651     -135.302843
9.268                0.881690056     -135.574143
9.269                0.881456014     -135.845977
9.27                 0.881222538     -136.118346
9.271                0.880989639     -136.391248
9.272                 0.88075733     -136.664682
9.273                0.880525621     -136.938645
9.274                0.880294524     -137.213136
9.275                0.880064052     -137.488155
9.276                0.879834217     -137.763699
9.277                0.879605029     -138.039766
9.278                0.879376503     -138.316355
9.279                0.879148648     -138.593465
9.28                 0.878921478     -138.871094
9.281                0.878695005     -139.149239
9.282                 0.87846924       -139.4279
9.283                0.878244197     -139.707074
9.284                0.878019886      -139.98676
9.285                0.877796321     -140.266955
9.286                0.877573513     -140.547659
9.287                0.877351475     -140.828868
9.288                0.877130219     -141.110581
9.289                0.876909758     -141.392797
9.29                 0.876690103     -141.675512
9.291                0.876471267     -141.958725
9.292                0.876253263     -142.242435
9.293                0.876036104     -142.526638
9.294                  0.8758198     -142.811332
9.295                0.875604365     -143.096517
9.296                0.875389811     -143.382188
9.297                0.875176152     -143.668345
9.298                0.874963398     -143.954985
9.299                0.874751563     -144.242105
9.3                  0.874540659     -144.529703
9.301                0.874330698     -144.817777
9.302                0.874121694     -145.106324
9.303                0.873913658     -145.395343
9.304                0.873706603      -145.68483
9.305                0.873500542     -145.974783
9.306                0.873295487       -146.2652
9.307                0.873091451     -146.556078
9.308                0.872888445     -146.847414
9.309                0.872686483     -147.139206
9.31                 0.872485577     -147.431451
9.311                0.872285739     -147.724147
9.312                0.872086983      -148.01729
9.313                0.871889319     -148.310878
9.314                0.871692761     -148.604909
9.315                0.871497321     -148.899379
9.316                0.871303012     -149.194286
9.317                0.871109845     -149.489626
9.318                0.870917833     -149.785397
9.319                0.870726989     -150.081596
9.32                 0.870537324      -150.37822
9.321                0.870348852     -150.675265
9.322                0.870161583      -150.97273
9.323                0.869975531      -151.27061
9.324                0.869790707     -151.568903
9.325                0.869607123     -151.867606
9.326                0.869424792     -152.166715
9.327                0.869243726     -152.466227
9.328                0.869063936      -152.76614
9.329                0.868885435     -153.066448
9.33                 0.868708235     -153.367151
9.331                0.868532346     -153.668243
9.332                0.868357782     -153.969723
9.333                0.868184553     -154.271585
9.334                0.868012672     -154.573828
9.335                0.867842151     -154.876447
9.336                0.867672999      -155.17944
9.337                0.867505231     -155.482802
9.338                0.867338856      -155.78653
9.339                0.867173886     -156.090621
9.34                 0.867010332      -156.39507
9.341                0.866848206     -156.699875
9.342                0.866687519     -157.005031
9.343                0.866528283     -157.310536
9.344                0.866370507     -157.616385
9.345                0.866214203     -157.922574
9.346                0.866059383       -158.2291
9.347                0.865906056     -158.535959
9.348                0.865754234     -158.843148
9.349                0.865603927     -159.150662
9.35                 0.865455145     -159.458497
9.351                  0.8653079      -159.76665
9.352                0.865162202     -160.075116
9.353                0.865018061     -160.383893
9.354                0.864875487     -160.692974
9.355                0.864734491     -161.002358
9.356                0.864595082      -161.31204
9.357                 0.86445727     -161.622015
9.358                0.864321065     -161.932279
9.359                0.864186478     -162.242829
9.36                 0.864053517     -162.553661
9.361                0.863922192     -162.864769
9.362                0.863792513     -163.176151
9.363                0.863664488     -163.487801
9.364                0.863538128     -163.799716
9.365                0.863413441     -164.111891
9.366                0.863290436     -164.424323
9.367                0.863169122     -164.737006
9.368                0.863049508     -165.049936
9.369                0.862931603      -165.36311
9.37                 0.862815414     -165.676522
9.371                0.862700951     -165.990168
9.372                0.862588222     -166.304045
9.373                0.862477234     -166.618147
9.374                0.862367997      -166.93247
9.375                0.862260517     -167.247009
9.376                0.862154802     -167.561761
9.377                0.862050861      -167.87672
9.378                0.861948701     -168.191882
9.379                0.861848328     -168.507243
9.38                 0.861749751     -168.822798
9.381                0.861652977     -169.138542
9.382                0.861558012     -169.454471
9.383                0.861464863      -169.77058
9.384                0.861373537     -170.086864
9.385                 0.86128404      -170.40332
9.386                 0.86119638     -170.719941
9.387                0.861110561     -171.036724
9.388                0.861026591     -171.353664
9.389                0.860944475     -171.670756
9.39                  0.86086422     -171.987996
9.391                0.860785829     -172.305378
9.392                0.860709311     -172.622898
9.393                0.860634669     -172.940551
9.394                0.860561908     -173.258333
9.395                0.860491035     -173.576238
9.396                0.860422054     -173.894262
