! TOUCHSTONE file generated by CST DESIGN STUDIO
! Date and time: Tue Feb  4 17:59:58 2025
! Project name: C:\Work\MatlabApps\UnitCellOptimizationMatlab\CST\unitcell.cst
! Tree item: Tasks\Sweep1\SPara1\S-Parameters
! Header version: 2024
! Port assignment regex: !\s*Touchstone port\s*([0-9]+)\s*=\s*(CST MWS port|CST DES external port|CST DES block port)\s*(.+)\s* \(\"(.*)\"\)(\s*mode\s*([0-9]+))?.*
! Touchstone port assignment:
! Touchstone port 1 = CST DES external port 1 ("")
# GHz S MA R 50
9                    0.967089794     -43.3810825
9.001                0.967038486     -43.4335344
9.002                0.966987022     -43.4860872
9.003                0.966935401     -43.5387411
9.004                0.966883624     -43.5914965
9.005                0.966831689     -43.6443536
9.006                0.966779596     -43.6973128
9.007                0.966727344     -43.7503742
9.008                0.966674934     -43.8035384
9.009                0.966622364     -43.8568054
9.01                 0.966569634     -43.9101756
9.011                0.966516744     -43.9636495
9.012                0.966463692     -44.0172271
9.013                0.966410479     -44.0709089
9.014                0.966357104     -44.1246951
9.015                0.966303567     -44.1785861
9.016                0.966249866     -44.2325822
9.017                0.966196001     -44.2866836
9.018                0.966141972     -44.3408907
9.019                0.966087778     -44.3952038
9.02                 0.966033419     -44.4496233
9.021                0.965978894     -44.5041493
9.022                0.965924203     -44.5587823
9.023                0.965869345     -44.6135226
9.024                0.965814319     -44.6683704
9.025                0.965759125     -44.7233261
9.026                0.965703763     -44.7783901
9.027                0.965648231     -44.8335625
9.028                 0.96559253     -44.8888439
9.029                0.965536658     -44.9442344
9.03                 0.965480616     -44.9997344
9.031                0.965424402     -45.0553442
9.032                0.965368016     -45.1110642
9.033                0.965311457     -45.1668947
9.034                0.965254726      -45.222836
9.035                 0.96519782     -45.2788884
9.036                0.965140741     -45.3350523
9.037                0.965083486      -45.391328
9.038                0.965026057     -45.4477158
9.039                0.964968451     -45.5042162
9.04                 0.964910668     -45.5608293
9.041                0.964852708     -45.6175556
9.042                0.964794571     -45.6743954
9.043                0.964736255      -45.731349
9.044                 0.96467776     -45.7884167
9.045                0.964619086      -45.845599
9.046                0.964560231     -45.9028962
9.047                0.964501196     -45.9603085
9.048                 0.96444198     -46.0178364
9.049                0.964382581     -46.0754802
9.05                    0.964323     -46.1332402
9.051                0.964263235     -46.1911168
9.052                0.964203287     -46.2491104
9.053                0.964143155     -46.3072213
9.054                0.964082837     -46.3654498
9.055                0.964022334     -46.4237963
9.056                0.963961644     -46.4822612
9.057                0.963900768     -46.5408448
9.058                0.963839704     -46.5995475
9.059                0.963778452     -46.6583696
9.06                 0.963717011     -46.7173115
9.061                 0.96365538     -46.7763736
9.062                 0.96359356     -46.8355562
9.063                0.963531549     -46.8948597
9.064                0.963469346     -46.9542845
9.065                0.963406952     -47.0138309
9.066                0.963344365     -47.0734993
9.067                0.963281585     -47.1332901
9.068                 0.96321861     -47.1932036
9.069                0.963155442     -47.2532403
9.07                 0.963092078     -47.3134004
9.071                0.963028518     -47.3736844
9.072                0.962964761     -47.4340926
9.073                0.962900807     -47.4946255
9.074                0.962836656     -47.5552834
9.075                0.962772306     -47.6160667
9.076                0.962707756     -47.6769757
9.077                0.962643007     -47.7380109
9.078                0.962578057     -47.7991726
9.079                0.962512906     -47.8604613
9.08                 0.962447553     -47.9218773
9.081                0.962381997      -47.983421
9.082                0.962316238     -48.0450929
9.083                0.962250275     -48.1068932
9.084                0.962184108     -48.1688224
9.085                0.962117735     -48.2308809
9.086                0.962051156     -48.2930691
9.087                 0.96198437     -48.3553873
9.088                0.961917376     -48.4178361
9.089                0.961850175     -48.4804158
9.09                 0.961782764     -48.5431267
9.091                0.961715144     -48.6059694
9.092                0.961647314     -48.6689441
9.093                0.961579272     -48.7320514
9.094                0.961511019     -48.7952916
9.095                0.961442554     -48.8586651
9.096                0.961373875     -48.9221724
9.097                0.961304982     -48.9858138
9.098                0.961235875     -49.0495898
9.099                0.961166552     -49.1135009
9.1                  0.961097013     -49.1775473
9.101                0.961027257     -49.2417296
9.102                0.960957284     -49.3060481
9.103                0.960887092     -49.3705033
9.104                0.960816681     -49.4350957
9.105                0.960746051     -49.4998255
9.106                  0.9606752     -49.5646933
9.107                0.960604127     -49.6296996
9.108                0.960532833     -49.6948446
9.109                0.960461315     -49.7601289
9.11                 0.960389574     -49.8255529
9.111                0.960317609      -49.891117
9.112                0.960245418     -49.9568218
9.113                0.960173002     -50.0226675
9.114                0.960100358     -50.0886546
9.115                0.960027488     -50.1547837
9.116                0.959954389     -50.2210551
9.117                0.959881061     -50.2874692
9.118                0.959807503     -50.3540267
9.119                0.959733715     -50.4207278
9.12                 0.959659695      -50.487573
9.121                0.959585443     -50.5545628
9.122                0.959510958     -50.6216977
9.123                 0.95943624      -50.688978
9.124                0.959361286     -50.7564043
9.125                0.959286098     -50.8239771
9.126                0.959210673     -50.8916967
9.127                0.959135011     -50.9595636
9.128                0.959059112     -51.0275784
9.129                0.958982973     -51.0957414
9.13                 0.958906596     -51.1640532
9.131                0.958829978     -51.2325142
9.132                0.958753119     -51.3011249
9.133                0.958676018     -51.3698857
9.134                0.958598674     -51.4387972
9.135                0.958521087     -51.5078598
9.136                0.958443255     -51.5770739
9.137                0.958365178     -51.6464402
9.138                0.958286855      -51.715959
9.139                0.958208285     -51.7856308
9.14                 0.958129467     -51.8554562
9.141                  0.9580504     -51.9254356
9.142                0.957971084     -51.9955695
9.143                0.957891518     -52.0658584
9.144                  0.9578117     -52.1363028
9.145                 0.95773163     -52.2069031
9.146                0.957651307       -52.27766
9.147                0.957570731     -52.3485738
9.148                  0.9574899     -52.4196451
9.149                0.957408813     -52.4908744
9.15                 0.957327469     -52.5622622
9.151                0.957245869      -52.633809
9.152                 0.95716401     -52.7055154
9.153                0.957081892     -52.7773817
9.154                0.956999514     -52.8494085
9.155                0.956916875     -52.9215965
9.156                0.956833974     -52.9939459
9.157                0.956750811     -53.0664575
9.158                0.956667384     -53.1391316
9.159                0.956583692     -53.2119689
9.16                 0.956499735     -53.2849699
9.161                0.956415512      -53.358135
9.162                0.956331022     -53.4314648
9.163                0.956246263     -53.5049598
9.164                0.956161235     -53.5786206
9.165                0.956075937     -53.6524477
9.166                0.955990369     -53.7264417
9.167                0.955904528      -53.800603
9.168                0.955818415     -53.8749322
9.169                0.955732028     -53.9494299
9.17                 0.955645366     -54.0240966
9.171                0.955558428     -54.0989329
9.172                0.955471214     -54.1739392
9.173                0.955383723     -54.2491162
9.174                0.955295953     -54.3244644
9.175                0.955207903     -54.3999843
9.176                0.955119573     -54.4756766
9.177                0.955030962     -54.5515417
9.178                0.954942068     -54.6275803
9.179                0.954852892     -54.7037928
9.18                  0.95476343     -54.7801799
9.181                0.954673684     -54.8567422
9.182                0.954583651     -54.9334801
9.183                0.954493332     -55.0103943
9.184                0.954402724     -55.0874853
9.185                0.954311826     -55.1647538
9.186                0.954220639     -55.2422002
9.187                0.954129161     -55.3198253
9.188                 0.95403739     -55.3976295
9.189                0.953945326     -55.4756134
9.19                 0.953852968     -55.5537776
9.191                0.953760315     -55.6321228
9.192                0.953667366     -55.7106495
9.193                0.953574119     -55.7893583
9.194                0.953480575     -55.8682498
9.195                0.953386731     -55.9473246
9.196                0.953292587     -56.0265832
9.197                0.953198141     -56.1060264
9.198                0.953103393     -56.1856547
9.199                0.953008342     -56.2654687
9.2                  0.952912987      -56.345469
9.201                0.952817326     -56.4256563
9.202                0.952721359      -56.506031
9.203                0.952625084      -56.586594
9.204                0.952528501     -56.6673457
9.205                0.952431608     -56.7482869
9.206                0.952334404      -56.829418
9.207                0.952236889     -56.9107398
9.208                0.952139061     -56.9922529
9.209                0.952040919     -57.0739579
9.21                 0.951942462     -57.1558554
9.211                 0.95184369     -57.2379461
9.212                  0.9517446     -57.3202306
9.213                0.951645192     -57.4027095
9.214                0.951545465     -57.4853836
9.215                0.951445418     -57.5682534
9.216                0.951345049     -57.6513195
9.217                0.951244358     -57.7345827
9.218                0.951143344     -57.8180436
9.219                0.951042005     -57.9017028
9.22                  0.95094034      -57.985561
9.221                0.950838348     -58.0696189
9.222                0.950736028     -58.1538771
9.223                0.950633379     -58.2383362
9.224                0.950530401      -58.322997
9.225                0.950427091     -58.4078602
9.226                0.950323448     -58.4929263
9.227                0.950219472      -58.578196
9.228                0.950115162     -58.6636701
9.229                0.950010515     -58.7493492
9.23                 0.949905532      -58.835234
9.231                0.949800211     -58.9213252
9.232                0.949694551     -59.0076234
9.233                 0.94958855     -59.0941294
9.234                0.949482208     -59.1808439
9.235                0.949375524     -59.2677674
9.236                0.949268496     -59.3549009
9.237                0.949161123     -59.4422448
9.238                0.949053404        -59.5298
9.239                0.948945338     -59.6175671
9.24                 0.948836924     -59.7055469
9.241                 0.94872816     -59.7937401
9.242                0.948619046     -59.8821473
9.243                 0.94850958     -59.9707693
9.244                 0.94839976     -60.0596068
9.245                0.948289587     -60.1486605
9.246                0.948179059     -60.2379312
9.247                0.948068174     -60.3274195
9.248                0.947956931     -60.4171262
9.249                 0.94784533     -60.5070521
9.25                 0.947733369     -60.5971978
9.251                0.947621046     -60.6875642
9.252                0.947508361     -60.7781519
9.253                0.947395313     -60.8689616
9.254                0.947281899     -60.9599942
9.255                 0.94716812     -61.0512504
9.256                0.947053974     -61.1427308
9.257                0.946939459     -61.2344364
9.258                0.946824575     -61.3263678
9.259                0.946709319     -61.4185258
9.26                 0.946593692     -61.5109111
9.261                0.946477692     -61.6035245
9.262                0.946361317     -61.6963669
9.263                0.946244567     -61.7894388
9.264                 0.94612744     -61.8827412
9.265                0.946009935     -61.9762748
9.266                 0.94589205     -62.0700404
9.267                0.945773785     -62.1640387
9.268                0.945655138     -62.2582706
9.269                0.945536109     -62.3527368
9.27                 0.945416695     -62.4474381
9.271                0.945296895     -62.5423753
9.272                0.945176709     -62.6375492
9.273                0.945056135     -62.7329606
9.274                0.944935172     -62.8286103
9.275                0.944813818     -62.9244991
9.276                0.944692073     -63.0206279
9.277                0.944569935     -63.1169973
9.278                0.944447402     -63.2136083
9.279                0.944324474     -63.3104616
9.28                  0.94420115     -63.4075581
9.281                0.944077427     -63.5048986
9.282                0.943953306     -63.6024839
9.283                0.943828784     -63.7003148
9.284                 0.94370386     -63.7983922
9.285                0.943578533     -63.8967169
9.286                0.943452803     -63.9952897
9.287                0.943326666     -64.0941115
9.288                0.943200123     -64.1931831
9.289                0.943073172     -64.2925054
9.29                 0.942945811     -64.3920792
9.291                 0.94281804     -64.4919053
9.292                0.942689857     -64.5919847
9.293                0.942561261     -64.6923182
9.294                 0.94243225     -64.7929065
9.295                0.942302824     -64.8937507
9.296                0.942172981     -64.9948515
9.297                0.942042719     -65.0962099
9.298                0.941912038     -65.1978266
9.299                0.941780936     -65.2997027
9.3                  0.941649412     -65.4018389
9.301                0.941517464     -65.5042361
9.302                0.941385092     -65.6068952
9.303                0.941252294     -65.7098172
9.304                0.941119069     -65.8130029
9.305                0.940985415     -65.9164531
9.306                0.940851331     -66.0201689
9.307                0.940716816      -66.124151
9.308                0.940581869     -66.2284004
9.309                0.940446487      -66.332918
9.31                 0.940310671     -66.4377048
9.311                0.940174419     -66.5427615
9.312                0.940037729     -66.6480892
9.313                0.939900599     -66.7536888
9.314                 0.93976303     -66.8595611
9.315                0.939625019     -66.9657072
9.316                0.939486566     -67.0721278
9.317                0.939347668     -67.1788241
9.318                0.939208325     -67.2857968
9.319                0.939068535     -67.3930469
9.32                 0.938928297     -67.5005755
9.321                 0.93878761     -67.6083834
9.322                0.938646472     -67.7164715
9.323                0.938504882     -67.8248408
9.324                0.938362839     -67.9334924
9.325                0.938220342      -68.042427
9.326                0.938077389     -68.1516458
9.327                0.937933978     -68.2611496
9.328                 0.93779011     -68.3709394
9.329                0.937645781     -68.4810162
9.33                 0.937500992      -68.591381
9.331                 0.93735574     -68.7020347
9.332                0.937210025     -68.8129784
9.333                0.937063845     -68.9242129
9.334                0.936917199     -69.0357394
9.335                0.936770085     -69.1475587
9.336                0.936622502     -69.2596719
9.337                 0.93647445     -69.3720799
9.338                0.936325926     -69.4847839
9.339                 0.93617693     -69.5977847
9.34                  0.93602746     -69.7110834
9.341                0.935877514     -69.8246809
9.342                0.935727092     -69.9385784
9.343                0.935576193     -70.0527767
9.344                0.935424814      -70.167277
9.345                0.935272955     -70.2820803
9.346                0.935120615     -70.3971875
9.347                0.934967792     -70.5125998
9.348                0.934814484     -70.6283181
9.349                0.934660691     -70.7443434
9.35                 0.934506412     -70.8606769
9.351                0.934351645     -70.9773195
9.352                0.934196388     -71.0942723
9.353                0.934040642     -71.2115364
9.354                0.933884403     -71.3291128
9.355                0.933727672     -71.4470025
9.356                0.933570446     -71.5652067
9.357                0.933412725     -71.6837263
9.358                0.933254508     -71.8025625
9.359                0.933095792     -71.9217163
9.36                 0.932936578     -72.0411887
9.361                0.932776863     -72.1609809
9.362                0.932616646      -72.281094
9.363                0.932455927     -72.4015289
9.364                0.932294704     -72.5222869
9.365                0.932132975     -72.6433689
9.366                 0.93197074     -72.7647761
9.367                0.931807998     -72.8865096
9.368                0.931644746     -73.0085705
9.369                0.931480985     -73.1309598
9.37                 0.931316712     -73.2536787
9.371                0.931151927     -73.3767283
9.372                0.930986628     -73.5001097
9.373                0.930820814      -73.623824
9.374                0.930654485     -73.7478723
9.375                0.930487638     -73.8722558
9.376                0.930320273     -73.9969755
9.377                0.930152389     -74.1220326
9.378                0.929983983     -74.2474282
9.379                0.929815057     -74.3731635
9.38                 0.929645607     -74.4992396
9.381                0.929475633     -74.6256577
9.382                0.929305135     -74.7524188
9.383                0.929134109     -74.8795241
9.384                0.928962557     -75.0069748
9.385                0.928790476      -75.134772
9.386                0.928617866      -75.262917
9.387                0.928444724     -75.3914107
9.388                0.928271052     -75.5202545
9.389                0.928096846     -75.6494494
9.39                 0.927922106     -75.7789967
9.391                0.927746832     -75.9088974
9.392                0.927571021     -76.0391529
9.393                0.927394674     -76.1697642
9.394                0.927217788     -76.3007325
9.395                0.927040363     -76.4320591
9.396                0.926862398     -76.5637451
