! TOUCHSTONE file generated by CST DESIGN STUDIO
! Date and time: Tue Feb  4 17:59:43 2025
! Project name: C:\Work\MatlabApps\UnitCellOptimizationMatlab\CST\unitcell.cst
! Tree item: Tasks\Sweep1\SPara1\S-Parameters
! Header version: 2024
! Port assignment regex: !\s*Touchstone port\s*([0-9]+)\s*=\s*(CST MWS port|CST DES external port|CST DES block port)\s*(.+)\s* \(\"(.*)\"\)(\s*mode\s*([0-9]+))?.*
! Touchstone port assignment:
! Touchstone port 1 = CST DES external port 1 ("")
# GHz S MA R 50
9                    0.943626311     -77.3326566
9.001                0.943477059     -77.4571827
9.002                0.943327339     -77.5820378
9.003                0.943177149     -77.7072228
9.004                0.943026488      -77.832739
9.005                0.942875355     -77.9585873
9.006                0.942723749     -78.0847687
9.007                0.942571669     -78.2112843
9.008                0.942419114     -78.3381353
9.009                0.942266083     -78.4653226
9.01                 0.942112575     -78.5928473
9.011                0.941958588     -78.7207105
9.012                0.941804122     -78.8489133
9.013                0.941649176     -78.9774566
9.014                0.941493748     -79.1063417
9.015                0.941337838     -79.2355696
9.016                0.941181444     -79.3651413
9.017                0.941024567      -79.495058
9.018                0.940867203     -79.6253207
9.019                0.940709353     -79.7559306
9.02                 0.940551016     -79.8868886
9.021                 0.94039219      -80.018196
9.022                0.940232875     -80.1498537
9.023                 0.94007307      -80.281863
9.024                0.939912773     -80.4142248
9.025                0.939751984     -80.5469404
9.026                0.939590702     -80.6800107
9.027                0.939428926      -80.813437
9.028                0.939266654     -80.9472203
9.029                0.939103887     -81.0813617
9.03                 0.938940623     -81.2158624
9.031                 0.93877686     -81.3507234
9.032                  0.9386126     -81.4859459
9.033                0.938447839     -81.6215311
9.034                0.938282578     -81.7574799
9.035                0.938116816     -81.8937936
9.036                0.937950552     -82.0304734
9.037                0.937783784     -82.1675202
9.038                0.937616513     -82.3049353
9.039                0.937448737     -82.4427197
9.04                 0.937280455     -82.5808747
9.041                0.937111668     -82.7194013
9.042                0.936942373     -82.8583008
9.043                 0.93677257     -82.9975741
9.044                0.936602259     -83.1372226
9.045                0.936431438     -83.2772473
9.046                0.936260107     -83.4176494
9.047                0.936088265       -83.55843
9.048                0.935915911     -83.6995903
9.049                0.935743046     -83.8411315
9.05                 0.935569667     -83.9830546
9.051                0.935395774     -84.1253609
9.052                0.935221367     -84.2680515
9.053                0.935046445     -84.4111276
9.054                0.934871007     -84.5545904
9.055                0.934695053      -84.698441
9.056                0.934518582     -84.8426805
9.057                0.934341594     -84.9873102
9.058                0.934164087     -85.1323312
9.059                0.933986061     -85.2777447
9.06                 0.933807517     -85.4235519
9.061                0.933628452     -85.5697539
9.062                0.933448867     -85.7163519
9.063                0.933268761     -85.8633472
9.064                0.933088134     -86.0107408
9.065                0.932906985      -86.158534
9.066                0.932725313     -86.3067279
9.067                0.932543119     -86.4553237
9.068                0.932360401     -86.6043227
9.069                 0.93217716      -86.753726
9.07                 0.931993395     -86.9035348
9.071                0.931809105     -87.0537502
9.072                0.931624291     -87.2043736
9.073                0.931438951      -87.355406
9.074                0.931253086     -87.5068486
9.075                0.931066695     -87.6587027
9.076                0.930879778     -87.8109695
9.077                0.930692335     -87.9636501
9.078                0.930504364     -88.1167458
9.079                0.930315868     -88.2702577
9.08                 0.930126844      -88.424187
9.081                0.929937292      -88.578535
9.082                0.929747213     -88.7333029
9.083                0.929556607     -88.8884918
9.084                0.929365473     -89.0441029
9.085                0.929173811     -89.2001375
9.086                0.928981621     -89.3565968
9.087                0.928788903     -89.5134819
9.088                0.928595657     -89.6707942
9.089                0.928401883     -89.8285346
9.09                  0.92820758     -89.9867046
9.091                 0.92801275     -90.1453053
9.092                0.927817392     -90.3043378
9.093                0.927621505     -90.4638035
9.094                0.927425091     -90.6237035
9.095                0.927228149      -90.784039
9.096                0.927030679     -90.9448112
9.097                0.926832682     -91.1060213
9.098                0.926634158     -91.2676706
9.099                0.926435106     -91.4297603
9.1                  0.926235528     -91.5922915
9.101                0.926035423     -91.7552655
9.102                0.925834792     -91.9186835
9.103                0.925633635     -92.0825466
9.104                0.925431952     -92.2468562
9.105                0.925229744     -92.4116133
9.106                0.925027011     -92.5768193
9.107                0.924823754     -92.7424753
9.108                0.924619973     -92.9085824
9.109                0.924415668     -93.0751421
9.11                 0.924210841     -93.2421553
9.111                0.924005491     -93.4096233
9.112                0.923799619     -93.5775474
9.113                0.923593226     -93.7459288
9.114                0.923386313     -93.9147685
9.115                0.923178879     -94.0840679
9.116                0.922970927     -94.2538282
9.117                0.922762456     -94.4240504
9.118                0.922553467     -94.5947359
9.119                0.922343961     -94.7658858
9.12                  0.92213394     -94.9375014
9.121                0.921923403     -95.1095837
9.122                0.921712351     -95.2821341
9.123                0.921500787     -95.4551536
9.124                 0.92128871     -95.6286435
9.125                0.921076121      -95.802605
9.126                0.920863022     -95.9770392
9.127                0.920649414     -96.1519474
9.128                0.920435297     -96.3273306
9.129                0.920220674     -96.5031902
9.13                 0.920005544     -96.6795272
9.131                 0.91978991     -96.8563428
9.132                0.919573772     -97.0336383
9.133                0.919357132     -97.2114147
9.134                0.919139992     -97.3896733
9.135                0.918922352     -97.5684152
9.136                0.918704213     -97.7476415
9.137                0.918485579     -97.9273535
9.138                0.918266449     -98.1075523
9.139                0.918046825      -98.288239
9.14                 0.917826709     -98.4694148
9.141                0.917606103     -98.6510808
9.142                0.917385008     -98.8332383
9.143                0.917163426     -99.0158882
9.144                0.916941359     -99.1990318
9.145                0.916718808     -99.3826701
9.146                0.916495775     -99.5668044
9.147                0.916272262     -99.7514358
9.148                0.916048271     -99.9365653
9.149                0.915823805     -100.122194
9.15                 0.915598864     -100.308323
9.151                 0.91537345     -100.494954
9.152                0.915147567     -100.682087
9.153                0.914921217     -100.869724
9.154                  0.9146944     -101.057866
9.155                 0.91446712     -101.246514
9.156                0.914239379     -101.435669
9.157                0.914011179     -101.625332
9.158                0.913782522     -101.815504
9.159                0.913553411     -102.006186
9.16                 0.913323849     -102.197379
9.161                0.913093838     -102.389085
9.162                 0.91286338     -102.581305
9.163                0.912632478     -102.774038
9.164                0.912401134     -102.967288
9.165                0.912169352     -103.161054
9.166                0.911937135     -103.355337
9.167                0.911704484     -103.550139
9.168                0.911471403     -103.745461
9.169                0.911237895     -103.941303
9.17                 0.911003963     -104.137668
9.171                0.910769609     -104.334554
9.172                0.910534837     -104.531965
9.173                 0.91029965       -104.7299
9.174                0.910064052     -104.928361
9.175                0.909828044     -105.127349
9.176                0.909591632     -105.326864
9.177                0.909354818     -105.526908
9.178                0.909117605     -105.727481
9.179                0.908879996     -105.928585
9.18                 0.908641997      -106.13022
9.181                0.908403609     -106.332387
9.182                0.908164837     -106.535088
9.183                0.907925685     -106.738323
9.184                0.907686156     -106.942093
9.185                0.907446253       -107.1464
9.186                0.907205982     -107.351243
9.187                0.906965345     -107.556624
9.188                0.906724347     -107.762543
9.189                0.906482992     -107.969002
9.19                 0.906241283     -108.176002
9.191                0.905999226     -108.383543
9.192                0.905756824     -108.591625
9.193                0.905514082     -108.800251
9.194                0.905271004     -109.009421
9.195                0.905027594     -109.219135
9.196                0.904783857     -109.429394
9.197                0.904539798       -109.6402
9.198                0.904295421     -109.851552
9.199                0.904050731     -110.063452
9.2                  0.903805732     -110.275901
9.201                0.903560429     -110.488899
9.202                0.903314828     -110.702447
9.203                0.903068933     -110.916545
9.204                0.902822749     -111.131195
9.205                0.902576282     -111.346397
9.206                0.902329535     -111.562152
9.207                0.902082516      -111.77846
9.208                0.901835228     -111.995322
9.209                0.901587678      -112.21274
9.21                  0.90133987     -112.430712
9.211                0.901091811     -112.649241
9.212                0.900843505     -112.868326
9.213                0.900594958     -113.087969
9.214                0.900346177     -113.308169
9.215                0.900097166     -113.528928
9.216                0.899847932     -113.750247
9.217                 0.89959848     -113.972124
9.218                0.899348817     -114.194562
9.219                0.899098948     -114.417561
9.22                  0.89884888      -114.64112
9.221                0.898598619     -114.865242
9.222                0.898348171     -115.089925
9.223                0.898097542     -115.315172
9.224                0.897846739     -115.540981
9.225                0.897595769     -115.767354
9.226                0.897344637     -115.994291
9.227                 0.89709335     -116.221792
9.228                0.896841916     -116.449858
9.229                 0.89659034      -116.67849
9.23                  0.89633863     -116.907686
9.231                0.896086793     -117.137449
9.232                0.895834835     -117.367778
9.233                0.895582763     -117.598673
9.234                0.895330586     -117.830136
9.235                0.895078309     -118.062165
9.236                0.894825941     -118.294762
9.237                0.894573488     -118.527926
9.238                0.894320958     -118.761659
9.239                0.894068358     -118.995959
9.24                 0.893815697     -119.230828
9.241                0.893562981     -119.466265
9.242                0.893310218     -119.702271
9.243                0.893057417     -119.938846
9.244                0.892804585     -120.175989
9.245                0.892551729     -120.413702
9.246                0.892298859     -120.651983
9.247                0.892045981     -120.890834
9.248                0.891793105     -121.130254
9.249                0.891540238     -121.370243
9.25                 0.891287389     -121.610802
9.251                0.891034565      -121.85193
9.252                0.890781777     -122.093627
9.253                0.890529031     -122.335893
9.254                0.890276337     -122.578728
9.255                0.890023704     -122.822132
9.256                0.889771139     -123.066106
9.257                0.889518653     -123.310648
9.258                0.889266253     -123.555758
9.259                0.889013949     -123.801437
9.26                 0.888761749     -124.047685
9.261                0.888509664       -124.2945
9.262                0.888257701     -124.541883
9.263                0.888005871     -124.789834
9.264                0.887754183     -125.038352
9.265                0.887502646     -125.287437
9.266                0.887251269     -125.537089
9.267                0.887000062     -125.787307
9.268                0.886749035     -126.038091
9.269                0.886498197      -126.28944
9.27                 0.886247558     -126.541355
9.271                0.885997128     -126.793834
9.272                0.885746917     -127.046877
9.273                0.885496934     -127.300485
9.274                0.885247191     -127.554655
9.275                0.884997696     -127.809388
9.276                 0.88474846     -128.064683
9.277                0.884499493     -128.320539
9.278                0.884250806     -128.576957
9.279                0.884002409     -128.833934
9.28                 0.883754312     -129.091472
9.281                0.883506525     -129.349568
9.282                 0.88325906     -129.608222
9.283                0.883011927     -129.867434
9.284                0.882765137     -130.127202
9.285                  0.8825187     -130.387527
9.286                0.882272627     -130.648406
9.287                0.882026929      -130.90984
9.288                0.881781617     -131.171827
9.289                0.881536702     -131.434366
9.29                 0.881292195     -131.697457
9.291                0.881048106     -131.961098
9.292                0.880804449      -132.22529
9.293                0.880561232     -132.490029
9.294                0.880318468     -132.755317
9.295                0.880076169      -133.02115
9.296                0.879834344      -133.28753
9.297                0.879593007     -133.554453
9.298                0.879352168      -133.82192
9.299                0.879111838     -134.089928
9.3                   0.87887203     -134.358478
9.301                0.878632756     -134.627567
9.302                0.878394026     -134.897194
9.303                0.878155852     -135.167358
9.304                0.877918247     -135.438058
9.305                0.877681222     -135.709292
9.306                0.877444789     -135.981059
9.307                 0.87720896     -136.253357
9.308                0.876973747     -136.526186
9.309                0.876739162     -136.799543
9.31                 0.876505216     -137.073428
9.311                0.876271923     -137.347838
9.312                0.876039294     -137.622772
9.313                0.875807341     -137.898229
9.314                0.875576077     -138.174206
9.315                0.875345513     -138.450703
9.316                0.875115663     -138.727717
9.317                0.874886537     -139.005247
9.318                 0.87465815     -139.283291
9.319                0.874430512     -139.561847
9.32                 0.874203637     -139.840914
9.321                0.873977537     -140.120489
9.322                0.873752224     -140.400571
9.323                0.873527711     -140.681159
9.324                 0.87330401     -140.962249
9.325                0.873081133      -141.24384
9.326                0.872859094      -141.52593
9.327                0.872637905     -141.808517
9.328                0.872417579       -142.0916
9.329                0.872198127     -142.375175
9.33                 0.871979563      -142.65924
9.331                0.871761899     -142.943795
9.332                0.871545148     -143.228836
9.333                0.871329323     -143.514361
9.334                0.871114435     -143.800368
9.335                0.870900499     -144.086855
9.336                0.870687526     -144.373819
9.337                0.870475529     -144.661258
9.338                0.870264521      -144.94917
9.339                0.870054515     -145.237552
9.34                 0.869845522     -145.526402
9.341                0.869637557     -145.815718
9.342                0.869430631     -146.105496
9.343                0.869224757     -146.395735
9.344                0.869019948     -146.686431
9.345                0.868816216     -146.977583
9.346                0.868613575     -147.269187
9.347                0.868412036     -147.561242
9.348                0.868211613     -147.853743
9.349                0.868012317     -148.146689
9.35                 0.867814162     -148.440076
9.351                 0.86761716     -148.733903
9.352                0.867421324     -149.028166
9.353                0.867226665     -149.322862
9.354                0.867033198     -149.617988
9.355                0.866840933     -149.913542
9.356                0.866649883      -150.20952
9.357                0.866460062      -150.50592
9.358                0.866271481     -150.802738
9.359                0.866084152     -151.099972
9.36                 0.865898088     -151.397619
9.361                0.865713301     -151.695674
9.362                0.865529804     -151.994136
9.363                0.865347608     -152.293001
9.364                0.865166725     -152.592266
9.365                0.864987169     -152.891927
9.366                 0.86480895     -153.191981
9.367                 0.86463208     -153.492426
9.368                0.864456573     -153.793257
9.369                0.864282439     -154.094472
9.37                  0.86410969     -154.396067
9.371                0.863938339     -154.698038
9.372                0.863768396     -155.000383
9.373                0.863599874     -155.303097
9.374                0.863432784     -155.606177
9.375                0.863267138      -155.90962
9.376                0.863102947     -156.213421
9.377                0.862940222     -156.517579
9.378                0.862778975     -156.822088
9.379                0.862619217     -157.126946
9.38                  0.86246096     -157.432147
9.381                0.862304214      -157.73769
9.382                 0.86214899      -158.04357
9.383                0.861995299     -158.349783
9.384                0.861843153     -158.656326
9.385                0.861692562     -158.963195
9.386                0.861543536     -159.270385
9.387                0.861396086     -159.577893
9.388                0.861250223     -159.885716
9.389                0.861105958     -160.193848
9.39                 0.860963299     -160.502287
9.391                0.860822259     -160.811028
9.392                0.860682846     -161.120068
9.393                0.860545071     -161.429401
9.394                0.860408944     -161.739025
9.395                0.860274475     -162.048935
9.396                0.860141673     -162.359127
