! TOUCHSTONE file generated by CST DESIGN STUDIO
! Date and time: Tue Feb  4 17:59:53 2025
! Project name: C:\Work\MatlabApps\UnitCellOptimizationMatlab\CST\unitcell.cst
! Tree item: Tasks\Sweep1\SPara1\S-Parameters
! Header version: 2024
! Port assignment regex: !\s*Touchstone port\s*([0-9]+)\s*=\s*(CST MWS port|CST DES external port|CST DES block port)\s*(.+)\s* \(\"(.*)\"\)(\s*mode\s*([0-9]+))?.*
! Touchstone port assignment:
! Touchstone port 1 = CST DES external port 1 ("")
# GHz S MA R 50
9                    0.959190172       -54.77999
9.001                0.959108171     -54.8521521
9.002                0.959025915      -54.924475
9.003                0.958943402     -54.9969592
9.004                0.958860631     -55.0696051
9.005                0.958777602     -55.1424134
9.006                0.958694314     -55.2153845
9.007                0.958610766      -55.288519
9.008                0.958526957     -55.3618173
9.009                0.958442885     -55.4352799
9.01                 0.958358551     -55.5089074
9.011                0.958273953     -55.5827004
9.012                0.958189091     -55.6566592
9.013                0.958103963     -55.7307845
9.014                0.958018568     -55.8050767
9.015                0.957932906     -55.8795365
9.016                0.957846976     -55.9541642
9.017                0.957760776     -56.0289606
9.018                0.957674307      -56.103926
9.019                0.957587566      -56.179061
9.02                 0.957500553     -56.2543662
9.021                0.957413267     -56.3298421
9.022                0.957325708     -56.4054892
9.023                0.957237873     -56.4813081
9.024                0.957149763     -56.5572993
9.025                0.957061376     -56.6334634
9.026                0.956972711     -56.7098009
9.027                0.956883768     -56.7863124
9.028                0.956794545     -56.8629984
9.029                0.956705041     -56.9398595
9.03                 0.956615256     -57.0168962
9.031                0.956525189     -57.0941091
9.032                0.956434838     -57.1714987
9.033                0.956344203     -57.2490657
9.034                0.956253282     -57.3268105
9.035                0.956162075     -57.4047338
9.036                0.956070581     -57.4828361
9.037                0.955978799      -57.561118
9.038                0.955886727     -57.6395801
9.039                0.955794365     -57.7182229
9.04                 0.955701711      -57.797047
9.041                0.955608765      -57.876053
9.042                0.955515527     -57.9552415
9.043                0.955421993      -58.034613
9.044                0.955328165     -58.1141681
9.045                 0.95523404     -58.1939075
9.046                0.955139618     -58.2738318
9.047                0.955044898     -58.3539414
9.048                0.954949879      -58.434237
9.049                0.954854559     -58.5147193
9.05                 0.954758938     -58.5953887
9.051                0.954663014     -58.6762459
9.052                0.954566787     -58.7572916
9.053                0.954470256     -58.8385262
9.054                0.954373419     -58.9199505
9.055                0.954276276      -59.001565
9.056                0.954178826     -59.0833704
9.057                0.954081066     -59.1653672
9.058                0.953982998      -59.247556
9.059                0.953884618     -59.3299376
9.06                 0.953785927     -59.4125125
9.061                0.953686923     -59.4952813
9.062                0.953587606     -59.5782446
9.063                0.953487973     -59.6614032
9.064                0.953388025     -59.7447575
9.065                0.953287759     -59.8283083
9.066                0.953187176     -59.9120562
9.067                0.953086274     -59.9960018
9.068                0.952985051     -60.0801458
9.069                0.952883507     -60.1644887
9.07                 0.952781641     -60.2490313
9.071                0.952679452     -60.3337742
9.072                0.952576938      -60.418718
9.073                0.952474098     -60.5038635
9.074                0.952370932     -60.5892111
9.075                0.952267438     -60.6747617
9.076                0.952163615     -60.7605158
9.077                0.952059462     -60.8464741
9.078                0.951954978     -60.9326373
9.079                0.951850163      -61.019006
9.08                 0.951745013     -61.1055809
9.081                 0.95163953     -61.1923628
9.082                0.951533711     -61.2793521
9.083                0.951427556     -61.3665497
9.084                0.951321062     -61.4539562
9.085                 0.95121423     -61.5415723
9.086                0.951107059     -61.6293986
9.087                0.950999546     -61.7174359
9.088                0.950891691     -61.8056848
9.089                0.950783492      -61.894146
9.09                  0.95067495     -61.9828203
9.091                0.950566061     -62.0717082
9.092                0.950456826     -62.1608106
9.093                0.950347243      -62.250128
9.094                0.950237312     -62.3396613
9.095                 0.95012703     -62.4294111
9.096                0.950016397     -62.5193781
9.097                0.949905411      -62.609563
9.098                0.949794072     -62.6999665
9.099                0.949682378     -62.7905894
9.1                  0.949570329     -62.8814324
9.101                0.949457922     -62.9724961
9.102                0.949345157     -63.0637813
9.103                0.949232033     -63.1552888
9.104                0.949118548     -63.2470193
9.105                0.949004702     -63.3389734
9.106                0.948890493     -63.4311519
9.107                 0.94877592     -63.5235556
9.108                0.948660982     -63.6161852
9.109                0.948545677     -63.7090414
9.11                 0.948430005      -63.802125
9.111                0.948313964     -63.8954367
9.112                0.948197553     -63.9889773
9.113                0.948080771     -64.0827475
9.114                0.947963617      -64.176748
9.115                0.947846089     -64.2709797
9.116                0.947728187     -64.3654432
9.117                0.947609909     -64.4601394
9.118                0.947491254      -64.555069
9.119                0.947372221     -64.6502328
9.12                 0.947252808     -64.7456315
9.121                0.947133015     -64.8412659
9.122                0.947012839     -64.9371368
9.123                0.946892281      -65.033245
9.124                0.946771339     -65.1295912
9.125                0.946650011     -65.2261762
9.126                0.946528297     -65.3230008
9.127                0.946406194     -65.4200659
9.128                0.946283703     -65.5173721
9.129                0.946160821     -65.6149203
9.13                 0.946037548     -65.7127113
9.131                0.945913882     -65.8107458
9.132                0.945789822     -65.9090247
9.133                0.945665367     -66.0075488
9.134                0.945540516     -66.1063189
9.135                0.945415267     -66.2053358
9.136                0.945289619     -66.3046003
9.137                0.945163571     -66.4041132
9.138                0.945037122     -66.5038753
9.139                0.944910271     -66.6038875
9.14                 0.944783015     -66.7041506
9.141                0.944655355     -66.8046654
9.142                0.944527289     -66.9054327
9.143                0.944398815     -67.0064534
9.144                0.944269932     -67.1077283
9.145                 0.94414064     -67.2092582
9.146                0.944010937     -67.3110441
9.147                0.943880821     -67.4130866
9.148                0.943750291     -67.5153868
9.149                0.943619347     -67.6179453
9.15                 0.943487987     -67.7207631
9.151                0.943356209      -67.823841
9.152                0.943224013       -67.92718
9.153                0.943091397     -68.0307807
9.154                 0.94295836     -68.1346442
9.155                  0.9428249     -68.2387712
9.156                0.942691017     -68.3431627
9.157                 0.94255671     -68.4478195
9.158                0.942421976     -68.5527425
9.159                0.942286815     -68.6579325
9.16                 0.942151226     -68.7633905
9.161                0.942015207     -68.8691173
9.162                0.941878757     -68.9751138
9.163                0.941741875      -69.081381
9.164                0.941604559     -69.1879196
9.165                0.941466809     -69.2947306
9.166                0.941328622     -69.4018149
9.167                0.941189999     -69.5091733
9.168                0.941050937     -69.6168069
9.169                0.940911435     -69.7247165
9.17                 0.940771493     -69.8329029
9.171                0.940631108     -69.9413672
9.172                 0.94049028     -70.0501102
9.173                0.940349007     -70.1591329
9.174                0.940207288     -70.2684361
9.175                0.940065123     -70.3780208
9.176                0.939922508     -70.4878879
9.177                0.939779445     -70.5980384
9.178                 0.93963593     -70.7084732
9.179                0.939491964     -70.8191932
9.18                 0.939347544     -70.9301993
9.181                0.939202669     -71.0414926
9.182                0.939057339     -71.1530739
9.183                0.938911552     -71.2649441
9.184                0.938765306     -71.3771044
9.185                0.938618602     -71.4895555
9.186                0.938471436     -71.6022984
9.187                0.938323809     -71.7153342
9.188                0.938175718     -71.8286638
9.189                0.938027163      -71.942288
9.19                 0.937878143      -72.056208
9.191                0.937728655     -72.1704247
9.192                  0.9375787      -72.284939
9.193                0.937428276     -72.3997519
9.194                0.937277381     -72.5148644
9.195                0.937126015     -72.6302775
9.196                0.936974175     -72.7459922
9.197                0.936821862     -72.8620095
9.198                0.936669074     -72.9783303
9.199                0.936515809     -73.0949557
9.2                  0.936362066     -73.2118866
9.201                0.936207845      -73.329124
9.202                0.936053143      -73.446669
9.203                0.935897961     -73.5645226
9.204                0.935742296     -73.6826857
9.205                0.935586148     -73.8011594
9.206                0.935429515     -73.9199447
9.207                0.935272396     -74.0390426
9.208                 0.93511479     -74.1584541
9.209                0.934956695     -74.2781803
9.21                 0.934798112     -74.3982222
9.211                0.934639038     -74.5185807
9.212                0.934479472     -74.6392571
9.213                0.934319413     -74.7602522
9.214                0.934158861     -74.8815671
9.215                0.933997813     -75.0032029
9.216                 0.93383627     -75.1251605
9.217                0.933674228     -75.2474412
9.218                0.933511689     -75.3700458
9.219                 0.93334865     -75.4929755
9.22                  0.93318511     -75.6162313
9.221                0.933021068     -75.7398143
9.222                0.932856523     -75.8637254
9.223                0.932691475     -75.9879659
9.224                0.932525921     -76.1125368
9.225                0.932359861     -76.2374391
9.226                0.932193294     -76.3626739
9.227                0.932026218     -76.4882422
9.228                0.931858634     -76.6141453
9.229                0.931690538      -76.740384
9.23                 0.931521932     -76.8669596
9.231                0.931352812     -76.9938731
9.232                0.931183179     -77.1211256
9.233                0.931013032     -77.2487182
9.234                0.930842369      -77.376652
9.235                0.930671189     -77.5049281
9.236                0.930499492     -77.6335475
9.237                0.930327275     -77.7625115
9.238                 0.93015454     -77.8918211
9.239                0.929981283     -78.0214773
9.24                 0.929807505     -78.1514814
9.241                0.929633205     -78.2818344
9.242                0.929458381     -78.4125375
9.243                0.929283032     -78.5435917
9.244                0.929107158     -78.6749983
9.245                0.928930758     -78.8067582
9.246                 0.92875383     -78.9388727
9.247                0.928576374     -79.0713429
9.248                 0.92839839     -79.2041699
9.249                0.928219875     -79.3373548
9.25                 0.928040829     -79.4708988
9.251                0.927861251      -79.604803
9.252                0.927681141     -79.7390686
9.253                0.927500497     -79.8736968
9.254                0.927319319     -80.0086886
9.255                0.927137606     -80.1440452
9.256                0.926955357     -80.2797677
9.257                0.926772571     -80.4158574
9.258                0.926589248     -80.5523154
9.259                0.926405386     -80.6891428
9.26                 0.926220985     -80.8263408
9.261                0.926036044     -80.9639106
9.262                0.925850563     -81.1018533
9.263                 0.92566454     -81.2401702
9.264                0.925477975     -81.3788623
9.265                0.925290867     -81.5179309
9.266                0.925103216     -81.6573771
9.267                0.924915021     -81.7972021
9.268                 0.92472628     -81.9374072
9.269                0.924536994     -82.0779934
9.27                 0.924347162     -82.2189619
9.271                0.924156783     -82.3603141
9.272                0.923965857     -82.5020509
9.273                0.923774383     -82.6441738
9.274                 0.92358236     -82.7866837
9.275                0.923389788      -82.929582
9.276                0.923196666     -83.0728698
9.277                0.923002994     -83.2165483
9.278                0.922808772     -83.3606188
9.279                0.922613998     -83.5050824
9.28                 0.922418672     -83.6499404
9.281                0.922222794     -83.7951939
9.282                0.922026363     -83.9408442
9.283                 0.92182938     -84.0868924
9.284                0.921631842     -84.2333399
9.285                0.921433751     -84.3801878
9.286                0.921235106     -84.5274373
9.287                0.921035905     -84.6750896
9.288                 0.92083615      -84.823146
9.289                0.920635839     -84.9716077
9.29                 0.920434973      -85.120476
9.291                0.920233551      -85.269752
9.292                0.920031573     -85.4194369
9.293                0.919829038     -85.5695321
9.294                0.919625946     -85.7200386
9.295                0.919422297     -85.8709579
9.296                0.919218092     -86.0222911
9.297                0.919013329     -86.1740394
9.298                0.918808009      -86.326204
9.299                0.918602131     -86.4787863
9.3                  0.918395696     -86.6317875
9.301                0.918188703     -86.7852087
9.302                0.917981152     -86.9390513
9.303                0.917773043     -87.0933164
9.304                0.917564377     -87.2480054
9.305                0.917355153     -87.4031195
9.306                0.917145371     -87.5586598
9.307                0.916935032     -87.7146278
9.308                0.916724135     -87.8710245
9.309                 0.91651268     -88.0278513
9.31                 0.916300668     -88.1851094
9.311                  0.9160881     -88.3428001
9.312                0.915874974     -88.5009246
9.313                0.915661291     -88.6594841
9.314                0.915447052       -88.81848
9.315                0.915232257     -88.9779135
9.316                0.915016905     -89.1377858
9.317                0.914800999     -89.2980981
9.318                0.914584537     -89.4588518
9.319                 0.91436752     -89.6200481
9.32                 0.914149948     -89.7816883
9.321                0.913931823     -89.9437735
9.322                0.913713144     -90.1063052
9.323                0.913493912     -90.2692844
9.324                0.913274128     -90.4327125
9.325                0.913053791     -90.5965908
9.326                0.912832904     -90.7609205
9.327                0.912611465     -90.9257028
9.328                0.912389477      -91.090939
9.329                0.912166939     -91.2566303
9.33                 0.911943853     -91.4227781
9.331                0.911720218     -91.5893836
9.332                0.911496037      -91.756448
9.333                0.911271309     -91.9239726
9.334                0.911046036     -92.0919586
9.335                0.910820218     -92.2604074
9.336                0.910593857     -92.4293201
9.337                0.910366952      -92.598698
9.338                0.910139507     -92.7685423
9.339                 0.90991152     -92.9388544
9.34                 0.909682994     -93.1096354
9.341                 0.90945393     -93.2808866
9.342                0.909224328     -93.4526093
9.343                 0.90899419     -93.6248047
9.344                0.908763517      -93.797474
9.345                 0.90853231     -93.9706186
9.346                0.908300571     -94.1442396
9.347                0.908068301     -94.3183383
9.348                0.907835501     -94.4929159
9.349                0.907602173     -94.6679736
9.35                 0.907368318     -94.8435128
9.351                0.907133938     -95.0195346
9.352                0.906899034     -95.1960403
9.353                0.906663608     -95.3730311
9.354                0.906427661     -95.5505082
9.355                0.906191195     -95.7284729
9.356                0.905954212     -95.9069264
9.357                0.905716713     -96.0858699
9.358                0.905478701     -96.2653046
9.359                0.905240176     -96.4452318
9.36                 0.905001142     -96.6256526
9.361                  0.9047616     -96.8065684
9.362                0.904521551     -96.9879802
9.363                0.904280999     -97.1698894
9.364                0.904039944     -97.3522971
9.365                 0.90379839     -97.5352044
9.366                0.903556338     -97.7186127
9.367                 0.90331379     -97.9025231
9.368                0.903070749     -98.0869368
9.369                0.902827217      -98.271855
9.37                 0.902583197     -98.4572789
9.371                 0.90233869     -98.6432097
9.372                  0.9020937     -98.8296485
9.373                0.901848228     -99.0165965
9.374                0.901602277     -99.2040549
9.375                0.901355851     -99.3920248
9.376                0.901108951     -99.5805075
9.377                 0.90086158      -99.769504
9.378                0.900613741     -99.9590156
9.379                0.900365437     -100.149043
9.38                 0.900116671     -100.339588
9.381                0.899867446     -100.530652
9.382                0.899617764     -100.722235
9.383                0.899367628     -100.914339
9.384                0.899117043     -101.106965
9.385                 0.89886601     -101.300114
9.386                0.898614534     -101.493786
9.387                0.898362617     -101.687984
9.388                0.898110263     -101.882709
9.389                0.897857474     -102.077961
9.39                 0.897604256     -102.273741
9.391                 0.89735061     -102.470051
9.392                0.897096541     -102.666891
9.393                0.896842051     -102.864264
9.394                0.896587146     -103.062169
9.395                0.896331829     -103.260608
9.396                0.896076102     -103.459582
