! TOUCHSTONE file generated by CST DESIGN STUDIO
! Date and time: Tue Feb  4 17:59:56 2025
! Project name: C:\Work\MatlabApps\UnitCellOptimizationMatlab\CST\unitcell.cst
! Tree item: Tasks\Sweep1\SPara1\S-Parameters
! Header version: 2024
! Port assignment regex: !\s*Touchstone port\s*([0-9]+)\s*=\s*(CST MWS port|CST DES external port|CST DES block port)\s*(.+)\s* \(\"(.*)\"\)(\s*mode\s*([0-9]+))?.*
! Touchstone port assignment:
! Touchstone port 1 = CST DES external port 1 ("")
# GHz S MA R 50
9                    0.964625529     -46.9774457
9.001                0.964565061     -47.0355427
9.002                0.964504409     -47.0937574
9.003                0.964443572     -47.1520902
9.004                0.964382549     -47.2105414
9.005                 0.96432134     -47.2691115
9.006                0.964259945     -47.3278008
9.007                0.964198362     -47.3866095
9.008                0.964136591     -47.4455382
9.009                0.964074631     -47.5045871
9.01                 0.964012482     -47.5637566
9.011                0.963950142     -47.6230471
9.012                0.963887613     -47.6824589
9.013                0.963824892     -47.7419924
9.014                0.963761979      -47.801648
9.015                0.963698873      -47.861426
9.016                0.963635575     -47.9213268
9.017                0.963572082     -47.9813508
9.018                0.963508395     -48.0414983
9.019                0.963444513     -48.1017698
9.02                 0.963380435     -48.1621655
9.021                 0.96331616     -48.2226859
9.022                0.963251688     -48.2833314
9.023                0.963187019     -48.3441023
9.024                0.963122151      -48.404999
9.025                0.963057084     -48.4660219
9.026                0.962991817     -48.5271713
9.027                0.962926349     -48.5884478
9.028                 0.96286068     -48.6498515
9.029                0.962794809      -48.711383
9.03                 0.962728736     -48.7730426
9.031                 0.96266246     -48.8348307
9.032                0.962595979     -48.8967478
9.033                0.962529294     -48.9587941
9.034                0.962462403     -49.0209701
9.035                0.962395307     -49.0832761
9.036                0.962328003     -49.1457127
9.037                0.962260493     -49.2082802
9.038                0.962192774     -49.2709789
9.039                0.962124846     -49.3338093
9.04                 0.962056708     -49.3967718
9.041                0.961988361     -49.4598668
9.042                0.961919802     -49.5230946
9.043                0.961851031     -49.5864558
9.044                0.961782048     -49.6499507
9.045                0.961712852     -49.7135797
9.046                0.961643442     -49.7773433
9.047                0.961573817     -49.8412418
9.048                0.961503977     -49.9052757
9.049                0.961433921     -49.9694453
9.05                 0.961363648     -50.0337512
9.051                0.961293157     -50.0981937
9.052                0.961222448     -50.1627732
9.053                 0.96115152     -50.2274902
9.054                0.961080373      -50.292345
9.055                0.961009004     -50.3573382
9.056                0.960937414     -50.4224702
9.057                0.960865602     -50.4877413
9.058                0.960793568      -50.553152
9.059                0.960721309     -50.6187027
9.06                 0.960648826     -50.6843939
9.061                0.960576118     -50.7502261
9.062                0.960503185     -50.8161995
9.063                0.960430024     -50.8823148
9.064                0.960356636     -50.9485722
9.065                 0.96028302     -51.0149724
9.066                0.960209174     -51.0815156
9.067                0.960135099     -51.1482024
9.068                0.960060793     -51.2150332
9.069                0.959986256     -51.2820085
9.07                 0.959911487     -51.3491286
9.071                0.959836484     -51.4163941
9.072                0.959761248     -51.4838054
9.073                0.959685777      -51.551363
9.074                0.959610071     -51.6190673
9.075                0.959534129     -51.6869187
9.076                 0.95945795     -51.7549178
9.077                0.959381532      -51.823065
9.078                0.959304876     -51.8913608
9.079                0.959227981     -51.9598056
9.08                 0.959150845     -52.0283999
9.081                0.959073469     -52.0971441
9.082                 0.95899585     -52.1660388
9.083                0.958917988     -52.2350844
9.084                0.958839883     -52.3042814
9.085                0.958761534     -52.3736302
9.086                0.958682939     -52.4431314
9.087                0.958604098     -52.5127854
9.088                 0.95852501     -52.5825927
9.089                0.958445674     -52.6525538
9.09                  0.95836609     -52.7226692
9.091                0.958286256     -52.7929393
9.092                0.958206171     -52.8633646
9.093                0.958125836     -52.9339457
9.094                0.958045248      -53.004683
9.095                0.957964407      -53.075577
9.096                0.957883313     -53.1466283
9.097                0.957801963     -53.2178372
9.098                0.957720358     -53.2892044
9.099                0.957638497     -53.3607303
9.1                  0.957556378     -53.4324154
9.101                0.957474001     -53.5042602
9.102                0.957391365     -53.5762652
9.103                0.957308469      -53.648431
9.104                0.957225312     -53.7207581
9.105                0.957141894     -53.7932469
9.106                0.957058212     -53.8658979
9.107                0.956974267     -53.9387118
9.108                0.956890057      -54.011689
9.109                0.956805582       -54.08483
9.11                 0.956720841     -54.1581354
9.111                0.956635832     -54.2316057
9.112                0.956550556     -54.3052413
9.113                 0.95646501     -54.3790429
9.114                0.956379194      -54.453011
9.115                0.956293107      -54.527146
9.116                0.956206748     -54.6014486
9.117                0.956120117     -54.6759193
9.118                0.956033212     -54.7505585
9.119                0.955946032     -54.8253669
9.12                 0.955858576      -54.900345
9.121                0.955770844     -54.9754934
9.122                0.955682835     -55.0508125
9.123                0.955594547     -55.1263029
9.124                 0.95550598     -55.2019652
9.125                0.955417132     -55.2777999
9.126                0.955328003     -55.3538077
9.127                0.955238592     -55.4299889
9.128                0.955148897     -55.5063443
9.129                0.955058918     -55.5828743
9.13                 0.954968654     -55.6595795
9.131                0.954878104     -55.7364605
9.132                0.954787267     -55.8135179
9.133                0.954696141     -55.8907522
9.134                0.954604727      -55.968164
9.135                0.954513022     -56.0457539
9.136                0.954421026     -56.1235224
9.137                0.954328738     -56.2014701
9.138                0.954236158     -56.2795976
9.139                0.954143283     -56.3579055
9.14                 0.954050112     -56.4363944
9.141                0.953956646     -56.5150648
9.142                0.953862883     -56.5939174
9.143                0.953768822     -56.6729527
9.144                0.953674461     -56.7521713
9.145                0.953579801     -56.8315738
9.146                0.953484839     -56.9111609
9.147                0.953389575      -56.990933
9.148                0.953294008     -57.0708909
9.149                0.953198136     -57.1510351
9.15                 0.953101959     -57.2313662
9.151                0.953005476     -57.3118849
9.152                0.952908686     -57.3925916
9.153                0.952811587     -57.4734872
9.154                0.952714179     -57.5545721
9.155                 0.95261646      -57.635847
9.156                 0.95251843     -57.7173126
9.157                0.952420087     -57.7989693
9.158                 0.95232143     -57.8808179
9.159                0.952222459      -57.962859
9.16                 0.952123172     -58.0450932
9.161                0.952023568     -58.1275212
9.162                0.951923646     -58.2101435
9.163                0.951823406     -58.2929608
9.164                0.951722845     -58.3759738
9.165                0.951621963     -58.4591831
9.166                0.951520759     -58.5425893
9.167                0.951419231     -58.6261931
9.168                0.951317379     -58.7099951
9.169                0.951215202      -58.793996
9.17                 0.951112698     -58.8781964
9.171                0.951009866      -58.962597
9.172                0.950906706     -59.0471984
9.173                0.950803215     -59.1320013
9.174                0.950699394     -59.2170064
9.175                0.950595241     -59.3022144
9.176                0.950490754     -59.3876258
9.177                0.950385933     -59.4732414
9.178                0.950280777     -59.5590618
9.179                0.950175284     -59.6450877
9.18                 0.950069453     -59.7313198
9.181                0.949963284     -59.8177588
9.182                0.949856775     -59.9044054
9.183                0.949749924     -59.9912601
9.184                0.949642732     -60.0783238
9.185                0.949535196     -60.1655971
9.186                0.949427316     -60.2530807
9.187                 0.94931909     -60.3407753
9.188                0.949210517     -60.4286816
9.189                0.949101596     -60.5168002
9.19                 0.948992327      -60.605132
9.191                0.948882707     -60.6936776
9.192                0.948772736     -60.7824376
9.193                0.948662412     -60.8714129
9.194                0.948551735     -60.9606041
9.195                0.948440702      -61.050012
9.196                0.948329314     -61.1396372
9.197                0.948217569     -61.2294805
9.198                0.948105465     -61.3195426
9.199                0.947993002     -61.4098242
9.2                  0.947880178     -61.5003261
9.201                0.947766992      -61.591049
9.202                0.947653443     -61.6819936
9.203                 0.94753953     -61.7731607
9.204                0.947425251     -61.8645509
9.205                0.947310606     -61.9561651
9.206                0.947195593      -62.048004
9.207                0.947080211     -62.1400683
9.208                0.946964459     -62.2323588
9.209                0.946848335     -62.3248762
9.21                 0.946731839     -62.4176213
9.211                0.946614969     -62.5105948
9.212                0.946497724     -62.6037975
9.213                0.946380103     -62.6972302
9.214                0.946262104     -62.7908937
9.215                0.946143727     -62.8847886
9.216                0.946024969     -62.9789158
9.217                0.945905831     -63.0732761
9.218                0.945786311     -63.1678702
9.219                0.945666407     -63.2626988
9.22                 0.945546118     -63.3577629
9.221                0.945425443     -63.4530632
9.222                0.945304382     -63.5486003
9.223                0.945182931     -63.6443753
9.224                0.945061091     -63.7403888
9.225                0.944938861     -63.8366416
9.226                0.944816238     -63.9331346
9.227                0.944693221     -64.0298685
9.228                0.944569811     -64.1268441
9.229                0.944446004     -64.2240623
9.23                   0.9443218     -64.3215239
9.231                0.944197198     -64.4192296
9.232                0.944072197     -64.5171804
9.233                0.943946794     -64.6153769
9.234                 0.94382099     -64.7138201
9.235                0.943694782     -64.8125107
9.236                 0.94356817     -64.9114497
9.237                0.943441152     -65.0106377
9.238                0.943313726     -65.1100757
9.239                0.943185893     -65.2097645
9.24                  0.94305765     -65.3097049
9.241                0.942928996     -65.4098978
9.242                 0.94279993     -65.5103441
9.243                0.942670451     -65.6110444
9.244                0.942540557     -65.7119998
9.245                0.942410247     -65.8132111
9.246                 0.94227952     -65.9146791
9.247                0.942148374     -66.0164047
9.248                0.942016809     -66.1183887
9.249                0.941884823     -66.2206321
9.25                 0.941752414     -66.3231356
9.251                0.941619583     -66.4259002
9.252                0.941486326     -66.5289268
9.253                0.941352643     -66.6322161
9.254                0.941218533     -66.7357692
9.255                0.941083995     -66.8395868
9.256                0.940949026     -66.9436699
9.257                0.940813627     -67.0480194
9.258                0.940677795     -67.1526361
9.259                0.940541529     -67.2575209
9.26                 0.940404828     -67.3626748
9.261                0.940267692     -67.4680986
9.262                0.940130117     -67.5737933
9.263                0.939992104     -67.6797598
9.264                0.939853651     -67.7859989
9.265                0.939714756     -67.8925117
9.266                0.939575419     -67.9992989
9.267                0.939435638     -68.1063615
9.268                0.939295411     -68.2137005
9.269                0.939154739     -68.3213168
9.27                 0.939013618     -68.4292113
9.271                0.938872049     -68.5373849
9.272                0.938730029     -68.6458387
9.273                0.938587557     -68.7545734
9.274                0.938444633     -68.8635901
9.275                0.938301255     -68.9728897
9.276                0.938157421     -69.0824731
9.277                 0.93801313     -69.1923414
9.278                0.937868382     -69.3024954
9.279                0.937723174     -69.4129361
9.28                 0.937577506     -69.5236645
9.281                0.937431377     -69.6346816
9.282                0.937284784     -69.7459882
9.283                0.937137727     -69.8575855
9.284                0.936990204     -69.9694743
9.285                0.936842214     -70.0816556
9.286                0.936693757     -70.1941304
9.287                 0.93654483     -70.3068998
9.288                0.936395432     -70.4199646
9.289                0.936245563     -70.5333259
9.29                  0.93609522     -70.6469846
9.291                0.935944403     -70.7609418
9.292                0.935793111     -70.8751985
9.293                0.935641341     -70.9897556
9.294                0.935489093     -71.1046142
9.295                0.935336366     -71.2197753
9.296                0.935183159     -71.3352399
9.297                0.935029469     -71.4510089
9.298                0.934875297     -71.5670835
9.299                 0.93472064     -71.6834646
9.3                  0.934565497     -71.8001532
9.301                0.934409868     -71.9171505
9.302                 0.93425375     -72.0344574
9.303                0.934097143     -72.1520749
9.304                0.933940046     -72.2700041
9.305                0.933782457      -72.388246
9.306                0.933624375     -72.5068018
9.307                0.933465799     -72.6256723
9.308                0.933306728     -72.7448587
9.309                 0.93314716      -72.864362
9.31                 0.932987094     -72.9841833
9.311                0.932826529     -73.1043236
9.312                0.932665465     -73.2247841
9.313                0.932503898     -73.3455656
9.314                 0.93234183     -73.4666695
9.315                0.932179257     -73.5880966
9.316                 0.93201618      -73.709848
9.317                0.931852597      -73.831925
9.318                0.931688506     -73.9543285
9.319                0.931523907     -74.0770595
9.32                 0.931358798     -74.2001193
9.321                0.931193179     -74.3235089
9.322                0.931027048     -74.4472294
9.323                0.930860404     -74.5712818
9.324                0.930693246     -74.6956673
9.325                0.930525573     -74.8203871
9.326                0.930357383     -74.9454421
9.327                0.930188676     -75.0708335
9.328                 0.93001945     -75.1965624
9.329                0.929849704     -75.3226299
9.33                 0.929679438     -75.4490372
9.331                 0.92950865     -75.5757853
9.332                0.929337338     -75.7028754
9.333                0.929165503     -75.8303086
9.334                0.928993143     -75.9580861
9.335                0.928820256     -76.0862089
9.336                0.928646842     -76.2146783
9.337                  0.9284729     -76.3434953
9.338                0.928298429     -76.4726611
9.339                0.928123427     -76.6021768
9.34                 0.927947894     -76.7320436
9.341                0.927771828     -76.8622627
9.342                0.927595229     -76.9928351
9.343                0.927418095     -77.1237621
9.344                0.927240427     -77.2550448
9.345                0.927062221     -77.3866844
9.346                0.926883479      -77.518682
9.347                0.926704198     -77.6510388
9.348                0.926524378     -77.7837559
9.349                0.926344017     -77.9168346
9.35                 0.926163116     -78.0502761
9.351                0.925981672     -78.1840814
9.352                0.925799686     -78.3182518
9.353                0.925617155     -78.4527885
9.354                 0.92543408     -78.5876927
9.355                0.925250459     -78.7229655
9.356                0.925066292     -78.8586081
9.357                0.924881577     -78.9946218
9.358                0.924696314     -79.1310078
9.359                0.924510502     -79.2677672
9.36                  0.92432414     -79.4049012
9.361                0.924137227     -79.5424111
9.362                0.923949763      -79.680298
9.363                0.923761746     -79.8185633
9.364                0.923573177      -79.957208
9.365                0.923384053     -80.0962334
9.366                0.923194376     -80.2356408
9.367                0.923004142     -80.3754313
9.368                0.922813353     -80.5156062
9.369                0.922622007     -80.6561667
9.37                 0.922430104     -80.7971141
9.371                0.922237642     -80.9384495
9.372                0.922044622     -81.0801743
9.373                0.921851043     -81.2222896
9.374                0.921656903     -81.3647967
9.375                0.921462203     -81.5076968
9.376                0.921266941     -81.6509912
9.377                0.921071118     -81.7946811
9.378                0.920874732     -81.9387678
9.379                0.920677783     -82.0832526
9.38                 0.920480271     -82.2281366
9.381                0.920282195     -82.3734211
9.382                0.920083554     -82.5191075
9.383                0.919884348     -82.6651969
9.384                0.919684577     -82.8116907
9.385                 0.91948424       -82.95859
9.386                0.919283337     -83.1058962
9.387                0.919081867     -83.2536105
9.388                0.918879829     -83.4017343
9.389                0.918677224     -83.5502687
9.39                 0.918474052      -83.699215
9.391                0.918270311     -83.8485746
9.392                0.918066002     -83.9983487
9.393                0.917861123     -84.1485386
9.394                0.917655676     -84.2991456
9.395                 0.91744966     -84.4501709
9.396                0.917243073     -84.6016159
