! TOUCHSTONE file generated by CST DESIGN STUDIO
! Date and time: Tue Feb  4 16:05:14 2025
! Project name: C:\Work\MatlabApps\UnitCellOptimizationMatlab\CST\unitcell.cst
! Tree item: Tasks\Sweep1\SPara1\S-Parameters
! Header version: 2024
! Port assignment regex: !\s*Touchstone port\s*([0-9]+)\s*=\s*(CST MWS port|CST DES external port|CST DES block port)\s*(.+)\s* \(\"(.*)\"\)(\s*mode\s*([0-9]+))?.*
! Touchstone port assignment:
! Touchstone port 1 = CST DES external port 1 ("")
# GHz S MA R 50
9                    0.956517553     -64.2097298
9.001                0.956417418     -64.3013952
9.002                0.956316969     -64.3932819
9.003                0.956216207     -64.4853906
9.004                 0.95611513      -64.577722
9.005                0.956013737     -64.6702768
9.006                0.955912027     -64.7630557
9.007                    0.95581     -64.8560595
9.008                0.955707654     -64.9492889
9.009                0.955604988     -65.0427446
9.01                 0.955502001     -65.1364273
9.011                0.955398692     -65.2303377
9.012                0.955295061     -65.3244767
9.013                0.955191105     -65.4188449
9.014                0.955086825     -65.5134431
9.015                0.954982218      -65.608272
9.016                0.954877285     -65.7033324
9.017                0.954772023      -65.798625
9.018                0.954666432     -65.8941505
9.019                0.954560512     -65.9899097
9.02                  0.95445426     -66.0859034
9.021                0.954347675     -66.1821323
9.022                0.954240758     -66.2785972
9.023                0.954133506     -66.3752988
9.024                0.954025919      -66.472238
9.025                0.953917996     -66.5694154
9.026                0.953809735     -66.6668318
9.027                0.953701135      -66.764488
9.028                0.953592196     -66.8623849
9.029                0.953482917     -66.9605231
9.03                 0.953373296     -67.0589034
9.031                0.953263332     -67.1575266
9.032                0.953153024     -67.2563936
9.033                0.953042372     -67.3555051
9.034                0.952931373     -67.4548618
9.035                0.952820028     -67.5544646
9.036                0.952708335     -67.6543143
9.037                0.952596293     -67.7544117
9.038                  0.9524839     -67.8547575
9.039                0.952371157     -67.9553526
9.04                 0.952258061     -68.0561978
9.041                0.952144612     -68.1572938
9.042                0.952030809     -68.2586416
9.043                 0.95191665     -68.3602419
9.044                0.951802135     -68.4620955
9.045                0.951687262     -68.5642033
9.046                0.951572031      -68.666566
9.047                0.951456439     -68.7691845
9.048                0.951340488     -68.8720596
9.049                0.951224174     -68.9751922
9.05                 0.951107497     -69.0785831
9.051                0.950990457      -69.182233
9.052                0.950873051      -69.286143
9.053                0.950755279     -69.3903137
9.054                 0.95063714     -69.4947461
9.055                0.950518633     -69.5994409
9.056                0.950399757     -69.7043991
9.057                 0.95028051     -69.8096214
9.058                0.950160892     -69.9151088
9.059                0.950040901     -70.0208621
9.06                 0.949920536     -70.1268821
9.061                0.949799797     -70.2331697
9.062                0.949678682     -70.3397258
9.063                0.949557191     -70.4465513
9.064                0.949435321     -70.5536469
9.065                0.949313072     -70.6610137
9.066                0.949190444     -70.7686524
9.067                0.949067434     -70.8765639
9.068                0.948944042     -70.9847492
9.069                0.948820267      -71.093209
9.07                 0.948696108     -71.2019444
9.071                0.948571563     -71.3109561
9.072                0.948446632     -71.4202451
9.073                0.948321313     -71.5298122
9.074                0.948195606     -71.6396584
9.075                0.948069509     -71.7497846
9.076                0.947943021     -71.8601916
9.077                0.947816142     -71.9708804
9.078                 0.94768887     -72.0818518
9.079                0.947561204     -72.1931068
9.08                 0.947433143     -72.3046464
9.081                0.947304686     -72.4164713
9.082                0.947175831     -72.5285826
9.083                0.947046579     -72.6409811
9.084                0.946916928     -72.7536678
9.085                0.946786876     -72.8666436
9.086                0.946656423     -72.9799094
9.087                0.946525568     -73.0934662
9.088                 0.94639431     -73.2073149
9.089                0.946262647     -73.3214564
9.09                 0.946130578     -73.4358917
9.091                0.945998103     -73.5506217
9.092                0.945865221     -73.6656474
9.093                 0.94573193     -73.7809697
9.094                0.945598229     -73.8965896
9.095                0.945464118     -74.0125079
9.096                0.945329595     -74.1287258
9.097                0.945194659     -74.2452441
9.098                 0.94505931     -74.3620638
9.099                0.944923546     -74.4791858
9.1                  0.944787366     -74.5966112
9.101                 0.94465077     -74.7143409
9.102                0.944513755     -74.8323758
9.103                0.944376322      -74.950717
9.104                0.944238469     -75.0693654
9.105                0.944100195      -75.188322
9.106                  0.9439615     -75.3075878
9.107                0.943822381     -75.4271638
9.108                0.943682839      -75.547051
9.109                0.943542872     -75.6672503
9.11                  0.94340248     -75.7877627
9.111                 0.94326166     -75.9085893
9.112                0.943120413     -76.0297311
9.113                0.942978737     -76.1511889
9.114                0.942836632      -76.272964
9.115                0.942694095     -76.3950572
9.116                0.942551128     -76.5174696
9.117                0.942407727     -76.6402021
9.118                0.942263894     -76.7632559
9.119                0.942119625     -76.8866318
9.12                 0.941974922      -77.010331
9.121                0.941829782     -77.1343545
9.122                0.941684204     -77.2587032
9.123                0.941538189     -77.3833783
9.124                0.941391735     -77.5083806
9.125                 0.94124484     -77.6337114
9.126                0.941097505     -77.7593716
9.127                0.940949727     -77.8853622
9.128                0.940801507     -78.0116843
9.129                0.940652844     -78.1383389
9.13                 0.940503735     -78.2653272
9.131                0.940354182       -78.39265
9.132                0.940204182     -78.5203085
9.133                0.940053735     -78.6483038
9.134                 0.93990284     -78.7766368
9.135                0.939751496     -78.9053087
9.136                0.939599703     -79.0343205
9.137                0.939447459     -79.1636732
9.138                0.939294764      -79.293368
9.139                0.939141616     -79.4234059
9.14                 0.938988015     -79.5537879
9.141                0.938833961     -79.6845152
9.142                0.938679452     -79.8155888
9.143                0.938524488     -79.9470099
9.144                0.938369067     -80.0787793
9.145                0.938213189     -80.2108984
9.146                0.938056854      -80.343368
9.147                 0.93790006     -80.4761894
9.148                0.937742807     -80.6093636
9.149                0.937585094     -80.7428918
9.15                  0.93742692     -80.8767749
9.151                0.937268285     -81.0110141
9.152                0.937109187     -81.1456105
9.153                0.936949627     -81.2805652
9.154                0.936789603     -81.4158793
9.155                0.936629114     -81.5515538
9.156                0.936468161       -81.68759
9.157                0.936306742     -81.8239889
9.158                0.936144857     -81.9607516
9.159                0.935982505     -82.0978793
9.16                 0.935819685      -82.235373
9.161                0.935656397     -82.3732339
9.162                0.935492641      -82.511463
9.163                0.935328415     -82.6500616
9.164                0.935163719     -82.7890307
9.165                0.934998552     -82.9283714
9.166                0.934832915     -83.0680849
9.167                0.934666805     -83.2081723
9.168                0.934500224     -83.3486348
9.169                0.934333169     -83.4894734
9.17                 0.934165641     -83.6306893
9.171                 0.93399764     -83.7722837
9.172                0.933829164     -83.9142576
9.173                0.933660214     -84.0566123
9.174                0.933490788     -84.1993488
9.175                0.933320887     -84.3424683
9.176                0.933150509      -84.485972
9.177                0.932979655     -84.6298609
9.178                0.932808324     -84.7741363
9.179                0.932636516     -84.9187992
9.18                  0.93246423     -85.0638509
9.181                0.932291466     -85.2092925
9.182                0.932118223     -85.3551251
9.183                0.931944502     -85.5013499
9.184                0.931770302     -85.6479681
9.185                0.931595622     -85.7949807
9.186                0.931420463     -85.9423891
9.187                0.931244823     -86.0901943
9.188                0.931068704     -86.2383974
9.189                0.930892104     -86.3869998
9.19                 0.930715023     -86.5360024
9.191                0.930537462     -86.6854065
9.192                0.930359419     -86.8352133
9.193                0.930180895     -86.9854239
9.194                 0.93000189     -87.1360395
9.195                0.929822404     -87.2870612
9.196                0.929642435     -87.4384903
9.197                0.929461985     -87.5903279
9.198                0.929281054     -87.7425751
9.199                 0.92909964     -87.8952332
9.2                  0.928917745     -88.0483034
9.201                0.928735368     -88.2017867
9.202                0.928552509     -88.3556844
9.203                0.928369168     -88.5099976
9.204                0.928185345     -88.6647276
9.205                 0.92800104     -88.8198755
9.206                0.927816254     -88.9754425
9.207                0.927630986     -89.1314297
9.208                0.927445237     -89.2878384
9.209                0.927259007     -89.4446697
9.21                 0.927072295     -89.6019249
9.211                0.926885103      -89.759605
9.212                 0.92669743     -89.9177113
9.213                0.926509276     -90.0762449
9.214                0.926320643     -90.2352071
9.215                0.926131529     -90.3945989
9.216                0.925941936     -90.5544217
9.217                0.925751864     -90.7146766
9.218                0.925561312     -90.8753647
9.219                0.925370283     -91.0364873
9.22                 0.925178775     -91.1980455
9.221                0.924986789     -91.3600405
9.222                0.924794327     -91.5224735
9.223                0.924601388     -91.6853457
9.224                0.924407972     -91.8486582
9.225                0.924214081     -92.0124122
9.226                0.924019715      -92.176609
9.227                0.923824875     -92.3412497
9.228                 0.92362956     -92.5063354
9.229                0.923433773     -92.6718674
9.23                 0.923237513     -92.8378468
9.231                0.923040781     -93.0042749
9.232                0.922843578     -93.1711527
9.233                0.922645905     -93.3384815
9.234                0.922447762     -93.5062624
9.235                0.922249151     -93.6744966
9.236                0.922050072     -93.8431853
9.237                0.921850526     -94.0123296
9.238                0.921650514     -94.1819308
9.239                0.921450037     -94.3519899
9.24                 0.921249096     -94.5225083
9.241                0.921047692     -94.6934869
9.242                0.920845826      -94.864927
9.243                0.920643499     -95.0368298
9.244                0.920440712     -95.2091964
9.245                0.920237467     -95.3820279
9.246                0.920033764     -95.5553256
9.247                0.919829605     -95.7290906
9.248                 0.91962499      -95.903324
9.249                0.919419922      -96.078027
9.25                 0.919214402     -96.2532008
9.251                 0.91900843     -96.4288464
9.252                0.918802009     -96.6049651
9.253                 0.91859514     -96.7815579
9.254                0.918387824     -96.9586261
9.255                0.918180062     -97.1361707
9.256                0.917971857     -97.3141929
9.257                 0.91776321     -97.4926939
9.258                0.917554122     -97.6716747
9.259                0.917344595     -97.8511364
9.26                  0.91713463     -98.0310803
9.261                0.916924231     -98.2115074
9.262                0.916713397     -98.3924188
9.263                0.916502132     -98.5738157
9.264                0.916290436     -98.7556992
9.265                0.916078313     -98.9380704
9.266                0.915865763     -99.1209303
9.267                0.915652788     -99.3042801
9.268                0.915439392     -99.4881209
9.269                0.915225575     -99.6724537
9.27                  0.91501134     -99.8572798
9.271                0.914796689       -100.0426
9.272                0.914581624     -100.228416
9.273                0.914366148     -100.414728
9.274                0.914150262     -100.601537
9.275                0.913933969     -100.788845
9.276                0.913717272     -100.976653
9.277                0.913500172     -101.164961
9.278                0.913282672     -101.353771
9.279                0.913064775     -101.543084
9.28                 0.912846484     -101.732901
9.281                  0.9126278     -101.923222
9.282                0.912408726     -102.114049
9.283                0.912189266     -102.305384
9.284                0.911969422     -102.497226
9.285                0.911749196     -102.689577
9.286                0.911528592     -102.882438
9.287                0.911307612     -103.075811
9.288                0.911086259     -103.269695
9.289                0.910864536     -103.464092
9.29                 0.910642447     -103.659003
9.291                0.910419994     -103.854429
9.292                0.910197181     -104.050371
9.293                 0.90997401      -104.24683
9.294                0.909750485     -104.443807
9.295                0.909526609     -104.641302
9.296                0.909302386     -104.839317
9.297                0.909077818     -105.037853
9.298                 0.90885291     -105.236911
9.299                0.908627665     -105.436491
9.3                  0.908402085     -105.636595
9.301                0.908176176     -105.837223
9.302                0.907949941     -106.038376
9.303                0.907723382     -106.240056
9.304                0.907496505     -106.442263
9.305                0.907269313     -106.644998
9.306                0.907041809     -106.848261
9.307                0.906813998     -107.052054
9.308                0.906585884     -107.256378
9.309                0.906357471     -107.461233
9.31                 0.906128762     -107.666621
9.311                0.905899762     -107.872542
9.312                0.905670476     -108.078996
9.313                0.905440907     -108.285985
9.314                0.905211059      -108.49351
9.315                0.904980938     -108.701571
9.316                0.904750548      -108.91017
9.317                0.904519893     -109.119306
9.318                0.904288977     -109.328981
9.319                0.904057806     -109.539195
9.32                 0.903826384     -109.749949
9.321                0.903594716     -109.961244
9.322                0.903362806     -110.173081
9.323                 0.90313066      -110.38546
9.324                0.902898282     -110.598382
9.325                0.902665678     -110.811848
9.326                0.902432852     -111.025858
9.327                 0.90219981     -111.240414
9.328                0.901966556     -111.455515
9.329                0.901733097     -111.671162
9.33                 0.901499437     -111.887356
9.331                0.901265582     -112.104098
9.332                0.901031537     -112.321388
9.333                0.900797308     -112.539227
9.334                  0.9005629     -112.757616
9.335                0.900328319     -112.976554
9.336                 0.90009357     -113.196043
9.337                 0.89985866     -113.416083
9.338                0.899623594     -113.636674
9.339                0.899388378     -113.857818
9.34                 0.899153018     -114.079514
9.341                0.898917521     -114.301764
9.342                0.898681891     -114.524567
9.343                0.898446136     -114.747924
9.344                0.898210261     -114.971835
9.345                0.897974273     -115.196302
9.346                0.897738179     -115.421324
9.347                0.897501983     -115.646902
9.348                0.897265694     -115.873036
9.349                0.897029318     -116.099726
9.35                 0.896792861     -116.326974
9.351                 0.89655633     -116.554778
9.352                0.896319732      -116.78314
9.353                0.896083073     -117.012061
9.354                0.895846361     -117.241539
9.355                0.895609602     -117.471576
9.356                0.895372804     -117.702171
9.357                0.895135973     -117.933326
9.358                0.894899117      -118.16504
9.359                0.894662243     -118.397313
9.36                 0.894425358     -118.630146
9.361                 0.89418847     -118.863539
9.362                0.893951586     -119.097491
9.363                0.893714714     -119.332004
9.364                 0.89347786     -119.567078
9.365                0.893241034     -119.802711
9.366                0.893004242     -120.038905
9.367                0.892767492      -120.27566
9.368                0.892530792     -120.512975
9.369                0.892294151     -120.750851
9.37                 0.892057575     -120.989287
9.371                0.891821074     -121.228285
9.372                0.891584655     -121.467842
9.373                0.891348326     -121.707961
9.374                0.891112096      -121.94864
9.375                0.890875972     -122.189879
9.376                0.890639964     -122.431679
9.377                 0.89040408     -122.674039
9.378                0.890168328      -122.91696
9.379                0.889932717      -123.16044
9.38                 0.889697256      -123.40448
9.381                0.889461953     -123.649079
9.382                0.889226817     -123.894238
9.383                0.888991857     -124.139956
9.384                0.888757081     -124.386233
9.385                  0.8885225     -124.633069
9.386                0.888288121     -124.880462
9.387                0.888053954     -125.128414
9.388                0.887820008     -125.376923
9.389                0.887586293     -125.625989
9.39                 0.887352817     -125.875613
9.391                 0.88711959     -126.125792
9.392                0.886886622     -126.376527
9.393                0.886653922     -126.627818
9.394                0.886421499     -126.879664
9.395                0.886189363     -127.132065
9.396                0.885957524     -127.385019
