! TOUCHSTONE file generated by CST DESIGN STUDIO
! Date and time: Tue Feb  4 16:05:20 2025
! Project name: C:\Work\MatlabApps\UnitCellOptimizationMatlab\CST\unitcell.cst
! Tree item: Tasks\Sweep1\SPara1\S-Parameters
! Header version: 2024
! Port assignment regex: !\s*Touchstone port\s*([0-9]+)\s*=\s*(CST MWS port|CST DES external port|CST DES block port)\s*(.+)\s* \(\"(.*)\"\)(\s*mode\s*([0-9]+))?.*
! Touchstone port assignment:
! Touchstone port 1 = CST DES external port 1 ("")
# GHz S MA R 50
9                    0.965328816     -48.6013573
9.001                0.965268208     -48.6622902
9.002                0.965207419      -48.723349
9.003                0.965146447     -48.7845342
9.004                0.965085293     -48.8458461
9.005                0.965023956     -48.9072851
9.006                0.964962434     -48.9688516
9.007                0.964900729     -49.0305459
9.008                0.964838838     -49.0923685
9.009                0.964776761     -49.1543198
9.01                 0.964714498     -49.2164001
9.011                0.964652048     -49.2786098
9.012                 0.96458941     -49.3409494
9.013                0.964526584     -49.4034191
9.014                0.964463569     -49.4660195
9.015                0.964400364     -49.5287509
9.016                0.964336969     -49.5916137
9.017                0.964273383     -49.6546083
9.018                0.964209606     -49.7177352
9.019                0.964145636     -49.7809946
9.02                 0.964081474     -49.8443871
9.021                0.964017117      -49.907913
9.022                0.963952567     -49.9715728
9.023                0.963887822     -50.0353668
9.024                0.963822881     -50.0992955
9.025                0.963757744     -50.1633592
9.026                 0.96369241     -50.2275584
9.027                0.963626878     -50.2918935
9.028                0.963561148      -50.356365
9.029                0.963495219     -50.4209732
9.03                  0.96342909     -50.4857185
9.031                0.963362762     -50.5506014
9.032                0.963296232     -50.6156224
9.033                  0.9632295     -50.6807817
9.034                0.963162566       -50.74608
9.035                0.963095429     -50.8115174
9.036                0.963028088     -50.8770947
9.037                0.962960543      -50.942812
9.038                0.962892792     -51.0086699
9.039                0.962824835     -51.0746689
9.04                 0.962756672     -51.1408093
9.041                0.962688302     -51.2070916
9.042                0.962619723     -51.2735161
9.043                0.962550936     -51.3400835
9.044                0.962481939     -51.4067941
9.045                0.962412732     -51.4736483
9.046                0.962343314     -51.5406466
9.047                0.962273684     -51.6077895
9.048                0.962203842     -51.6750773
9.049                0.962133787     -51.7425106
9.05                 0.962063518     -51.8100898
9.051                0.961993034     -51.8778154
9.052                0.961922335     -51.9456877
9.053                 0.96185142     -52.0137073
9.054                0.961780288     -52.0818746
9.055                0.961708938     -52.1501902
9.056                0.961637371     -52.2186543
9.057                0.961565584     -52.2872676
9.058                0.961493577     -52.3560304
9.059                 0.96142135     -52.4249433
9.06                 0.961348901     -52.4940067
9.061                 0.96127623      -52.563221
9.062                0.961203336     -52.6325868
9.063                0.961130219     -52.7021046
9.064                0.961056877     -52.7717747
9.065                 0.96098331     -52.8415978
9.066                0.960909517     -52.9115742
9.067                0.960835498     -52.9817044
9.068                 0.96076125      -53.051989
9.069                0.960686775     -53.1224283
9.07                  0.96061207      -53.193023
9.071                0.960537136     -53.2637735
9.072                 0.96046197     -53.3346802
9.073                0.960386574     -53.4057437
9.074                0.960310945     -53.4769645
9.075                0.960235083      -53.548343
9.076                0.960158987     -53.6198798
9.077                0.960082656     -53.6915753
9.078                 0.96000609     -53.7634301
9.079                0.959929287     -53.8354446
9.08                 0.959852248     -53.9076194
9.081                 0.95977497      -53.979955
9.082                0.959697454     -54.0524519
9.083                0.959619698     -54.1251105
9.084                0.959541702     -54.1979315
9.085                0.959463464     -54.2709153
9.086                0.959384985     -54.3440624
9.087                0.959306262     -54.4173733
9.088                0.959227296     -54.4908487
9.089                0.959148085     -54.5644889
9.09                 0.959068629     -54.6382945
9.091                0.958988926     -54.7122661
9.092                0.958908977     -54.7864042
9.093                0.958828779     -54.8607092
9.094                0.958748333     -54.9351818
9.095                0.958667637     -55.0098225
9.096                0.958586691     -55.0846317
9.097                0.958505493     -55.1596101
9.098                0.958424043     -55.2347582
9.099                 0.95834234     -55.3100765
9.1                  0.958260383     -55.3855656
9.101                0.958178171     -55.4612259
9.102                0.958095703     -55.5370582
9.103                0.958012979     -55.6130628
9.104                0.957929997     -55.6892404
9.105                0.957846757     -55.7655915
9.106                0.957763257     -55.8421167
9.107                0.957679498     -55.9188165
9.108                0.957595477     -55.9956915
9.109                0.957511195     -56.0727422
9.11                  0.95742665     -56.1499692
9.111                0.957341841     -56.2273732
9.112                0.957256767     -56.3049545
9.113                0.957171429     -56.3827139
9.114                0.957085823     -56.4606519
9.115                 0.95699995      -56.538769
9.116                0.956913809     -56.6170659
9.117                0.956827399     -56.6955431
9.118                0.956740719     -56.7742012
9.119                0.956653768     -56.8530407
9.12                 0.956566545     -56.9320624
9.121                0.956479049     -57.0112667
9.122                 0.95639128     -57.0906542
9.123                0.956303235     -57.1702256
9.124                0.956214915     -57.2499814
9.125                0.956126319     -57.3299222
9.126                0.956037445     -57.4100486
9.127                0.955948292     -57.4903613
9.128                0.955858861     -57.5708608
9.129                0.955769148     -57.6515477
9.13                 0.955679155     -57.7324227
9.131                0.955588879     -57.8134863
9.132                 0.95549832     -57.8947392
9.133                0.955407477     -57.9761819
9.134                0.955316349     -58.0578151
9.135                0.955224935     -58.1396395
9.136                0.955133234     -58.2216555
9.137                0.955041244     -58.3038639
9.138                0.954948966     -58.3862653
9.139                0.954856398     -58.4688603
9.14                 0.954763539     -58.5516495
9.141                0.954670388     -58.6346336
9.142                0.954576944     -58.7178131
9.143                0.954483206     -58.8011888
9.144                0.954389174     -58.8847613
9.145                0.954294845     -58.9685312
9.146                 0.95420022     -59.0524991
9.147                0.954105296     -59.1366658
9.148                0.954010074     -59.2210318
9.149                0.953914553     -59.3055978
9.15                  0.95381873     -59.3903644
9.151                0.953722605     -59.4753324
9.152                0.953626178     -59.5605023
9.153                0.953529447     -59.6458749
9.154                 0.95343241     -59.7314507
9.155                0.953335068     -59.8172305
9.156                0.953237419     -59.9032149
9.157                0.953139462     -59.9894047
9.158                0.953041197     -60.0758003
9.159                0.952942621     -60.1624027
9.16                 0.952843734     -60.2492123
9.161                0.952744535     -60.3362299
9.162                0.952645023     -60.4234562
9.163                0.952545197     -60.5108919
9.164                0.952445056     -60.5985376
9.165                0.952344598     -60.6863941
9.166                0.952243824      -60.774462
9.167                0.952142731      -60.862742
9.168                0.952041319     -60.9512348
9.169                0.951939586     -61.0399412
9.17                 0.951837532     -61.1288618
9.171                0.951735156     -61.2179973
9.172                0.951632455     -61.3073484
9.173                0.951529431     -61.3969159
9.174                0.951426081     -61.4867005
9.175                0.951322404     -61.5767028
9.176                0.951218399     -61.6669236
9.177                0.951114065     -61.7573636
9.178                0.951009402     -61.8480236
9.179                0.950904407     -61.9389042
9.18                  0.95079908     -62.0300062
9.181                0.950693421     -62.1213303
9.182                0.950587427     -62.2128773
9.183                0.950481097     -62.3046478
9.184                0.950374432     -62.3966427
9.185                0.950267428     -62.4888626
9.186                0.950160087     -62.5813083
9.187                0.950052405     -62.6739806
9.188                0.949944383     -62.7668802
9.189                0.949836019     -62.8600078
9.19                 0.949727312     -62.9533642
9.191                0.949618261     -63.0469502
9.192                0.949508865     -63.1407666
9.193                0.949399123      -63.234814
9.194                0.949289033     -63.3290932
9.195                0.949178595     -63.4236051
9.196                0.949067807     -63.5183504
9.197                0.948956669     -63.6133298
9.198                0.948845179     -63.7085442
9.199                0.948733336     -63.8039942
9.2                  0.948621139     -63.8996808
9.201                0.948508587     -63.9956047
9.202                0.948395679     -64.0917666
9.203                0.948282413     -64.1881673
9.204                0.948168789     -64.2848077
9.205                0.948054805     -64.3816886
9.206                0.947940461     -64.4788107
9.207                0.947825755     -64.5761748
9.208                0.947710686     -64.6737818
9.209                0.947595252     -64.7716325
9.21                 0.947479454     -64.8697276
9.211                0.947363289     -64.9680679
9.212                0.947246757     -65.0666544
9.213                0.947129856     -65.1654877
9.214                0.947012585     -65.2645688
9.215                0.946894944     -65.3638984
9.216                 0.94677693     -65.4634774
9.217                0.946658543     -65.5633066
9.218                0.946539782     -65.6633868
9.219                0.946420646     -65.7637189
9.22                 0.946301133     -65.8643037
9.221                0.946181242     -65.9651421
9.222                0.946060973     -66.0662348
9.223                0.945940323     -66.1675828
9.224                0.945819292     -66.2691868
9.225                0.945697879     -66.3710478
9.226                0.945576082     -66.4731666
9.227                0.945453901      -66.575544
9.228                0.945331334     -66.6781809
9.229                0.945208381     -66.7810782
9.23                 0.945085039     -66.8842368
9.231                0.944961308     -66.9876574
9.232                0.944837187      -67.091341
9.233                0.944712674     -67.1952885
9.234                0.944587768     -67.2995007
9.235                0.944462469     -67.4039785
9.236                0.944336775     -67.5087228
9.237                0.944210684     -67.6137345
9.238                0.944084197     -67.7190145
9.239                0.943957311     -67.8245636
9.24                 0.943830025     -67.9303828
9.241                0.943702339      -68.036473
9.242                0.943574251      -68.142835
9.243                 0.94344576     -68.2494698
9.244                0.943316864     -68.3563783
9.245                0.943187564     -68.4635613
9.246                0.943057857     -68.5710199
9.247                0.942927742     -68.6787548
9.248                0.942797219     -68.7867671
9.249                0.942666285     -68.8950577
9.25                 0.942534941     -69.0036274
9.251                0.942403184     -69.1124773
9.252                0.942271014     -69.2216082
9.253                0.942138429     -69.3310211
9.254                0.942005429     -69.4407169
9.255                0.941872012     -69.5506965
9.256                0.941738177      -69.660961
9.257                0.941603923     -69.7715112
9.258                0.941469248     -69.8823481
9.259                0.941334153     -69.9934726
9.26                 0.941198634     -70.1048858
9.261                0.941062692     -70.2165885
9.262                0.940926326     -70.3285818
9.263                0.940789533     -70.4408665
9.264                0.940652313     -70.5534438
9.265                0.940514665     -70.6663144
9.266                0.940376588     -70.7794795
9.267                 0.94023808     -70.8929399
9.268                 0.94009914     -71.0066967
9.269                0.939959768     -71.1207508
9.27                 0.939819962     -71.2351033
9.271                0.939679721     -71.3497551
9.272                0.939539044     -71.4647072
9.273                0.939397929     -71.5799607
9.274                0.939256376     -71.6955164
9.275                0.939114384     -71.8113754
9.276                0.938971951     -71.9275388
9.277                0.938829077     -72.0440075
9.278                 0.93868576     -72.1607825
9.279                0.938541999     -72.2778649
9.28                 0.938397793     -72.3952556
9.281                 0.93825314     -72.5129557
9.282                0.938108041     -72.6309663
9.283                0.937962493     -72.7492882
9.284                0.937816497     -72.8679227
9.285                0.937670049     -72.9868706
9.286                 0.93752315      -73.106133
9.287                0.937375799      -73.225711
9.288                0.937227994     -73.3456057
9.289                0.937079734     -73.4658179
9.29                 0.936931018     -73.5863489
9.291                0.936781846     -73.7071996
9.292                0.936632215     -73.8283712
9.293                0.936482126     -73.9498645
9.294                0.936331577     -74.0716809
9.295                0.936180566     -74.1938211
9.296                0.936029094     -74.3162865
9.297                0.935877158     -74.4390779
9.298                0.935724758     -74.5621965
9.299                0.935571893     -74.6856434
9.3                  0.935418562     -74.8094197
9.301                0.935264764     -74.9335263
9.302                0.935110497     -75.0579644
9.303                0.934955761     -75.1827352
9.304                0.934800555     -75.3078396
9.305                0.934644878     -75.4332787
9.306                0.934488729     -75.5590538
9.307                0.934332106     -75.6851658
9.308                0.934175009     -75.8116158
9.309                0.934017438      -75.938405
9.31                  0.93385939     -76.0655345
9.311                0.933700865     -76.1930054
9.312                0.933541862     -76.3208187
9.313                 0.93338238     -76.4489757
9.314                0.933222419     -76.5774774
9.315                0.933061976     -76.7063249
9.316                0.932901052     -76.8355194
9.317                0.932739646      -76.965062
9.318                0.932577756     -77.0949538
9.319                0.932415381      -77.225196
9.32                 0.932252521     -77.3557897
9.321                0.932089176      -77.486736
9.322                0.931925343     -77.6180361
9.323                0.931761022     -77.7496911
9.324                0.931596212     -77.8817022
9.325                0.931430913     -78.0140704
9.326                0.931265124     -78.1467971
9.327                0.931098843     -78.2798832
9.328                0.930932071     -78.4133301
9.329                0.930764805     -78.5471387
9.33                 0.930597046     -78.6813104
9.331                0.930428792     -78.8158462
9.332                0.930260043     -78.9507474
9.333                0.930090799      -79.086015
9.334                0.929921057     -79.2216504
9.335                0.929750818     -79.3576546
9.336                0.929580081     -79.4940288
9.337                0.929408845     -79.6307742
9.338                0.929237109      -79.767892
9.339                0.929064873     -79.9053834
9.34                 0.928892136     -80.0432496
9.341                0.928718897     -80.1814917
9.342                0.928545156      -80.320111
9.343                0.928370912     -80.4591087
9.344                0.928196164     -80.5984858
9.345                0.928020912     -80.7382438
9.346                0.927845155     -80.8783836
9.347                0.927668892     -81.0189067
9.348                0.927492124     -81.1598141
9.349                0.927314848     -81.3011071
9.35                 0.927137066     -81.4427868
9.351                0.926958776     -81.5848546
9.352                0.926779977     -81.7273116
9.353                 0.92660067      -81.870159
9.354                0.926420853     -82.0133981
9.355                0.926240527     -82.1570301
9.356                 0.92605969     -82.3010562
9.357                0.925878343     -82.4454776
9.358                0.925696484     -82.5902956
9.359                0.925514114     -82.7355114
9.36                 0.925331232     -82.8811262
9.361                0.925147837     -83.0271413
9.362                 0.92496393      -83.173558
9.363                0.924779509     -83.3203773
9.364                0.924594575     -83.4676007
9.365                0.924409127     -83.6152293
9.366                0.924223165     -83.7632644
9.367                0.924036689     -83.9117072
9.368                0.923849698      -84.060559
9.369                0.923662192      -84.209821
9.37                 0.923474171     -84.3594945
9.371                0.923285635     -84.5095808
9.372                0.923096583     -84.6600811
9.373                0.922907015     -84.8109966
9.374                0.922716931     -84.9623286
9.375                0.922526332     -85.1140784
9.376                0.922335216     -85.2662472
9.377                0.922143584     -85.4188363
9.378                0.921951435      -85.571847
9.379                0.921758771     -85.7252806
9.38                 0.921565589     -85.8791382
9.381                0.921371892     -86.0334213
9.382                0.921177678     -86.1881309
9.383                0.920982947     -86.3432685
9.384                0.920787701     -86.4988353
9.385                0.920591938     -86.6548325
9.386                0.920395659     -86.8112615
9.387                0.920198863     -86.9681235
9.388                0.920001552     -87.1254197
9.389                0.919803726     -87.2831516
9.39                 0.919605384     -87.4413203
9.391                0.919406526     -87.5999272
9.392                0.919207154     -87.7589734
9.393                0.919007267     -87.9184604
9.394                0.918806865     -88.0783893
9.395                 0.91860595     -88.2387615
9.396                 0.91840452     -88.3995783
