! TOUCHSTONE file generated by CST DESIGN STUDIO
! Date and time: Tue Feb  4 16:05:09 2025
! Project name: C:\Work\MatlabApps\UnitCellOptimizationMatlab\CST\unitcell.cst
! Tree item: Tasks\Sweep1\SPara1\S-Parameters
! Header version: 2024
! Port assignment regex: !\s*Touchstone port\s*([0-9]+)\s*=\s*(CST MWS port|CST DES external port|CST DES block port)\s*(.+)\s* \(\"(.*)\"\)(\s*mode\s*([0-9]+))?.*
! Touchstone port assignment:
! Touchstone port 1 = CST DES external port 1 ("")
# GHz S MA R 50
9                    0.949740413     -76.8861264
9.001                0.949608193     -77.0084636
9.002                0.949475565       -77.13112
9.003                0.949342528     -77.2540964
9.004                0.949209081     -77.3773938
9.005                0.949075223     -77.5010134
9.006                0.948940953     -77.6249561
9.007                 0.94880627     -77.7492229
9.008                0.948671174     -77.8738148
9.009                0.948535663     -77.9987329
9.01                 0.948399736     -78.1239782
9.011                0.948263393     -78.2495517
9.012                0.948126632     -78.3754544
9.013                0.947989453     -78.5016874
9.014                0.947851855     -78.6282517
9.015                0.947713836     -78.7551483
9.016                0.947575397     -78.8823783
9.017                0.947436536     -79.0099427
9.018                0.947297251     -79.1378425
9.019                0.947157543     -79.2660789
9.02                 0.947017411     -79.3946528
9.021                0.946876853     -79.5235653
9.022                0.946735869     -79.6528175
9.023                0.946594457     -79.7824103
9.024                0.946452618     -79.9123449
9.025                 0.94631035     -80.0426224
9.026                0.946167652     -80.1732437
9.027                0.946024523     -80.3042099
9.028                0.945880964     -80.4355222
9.029                0.945736972     -80.5671815
9.03                 0.945592547      -80.699189
9.031                0.945447688     -80.8315457
9.032                0.945302395     -80.9642527
9.033                0.945156666     -81.0973111
9.034                0.945010502     -81.2307219
9.035                  0.9448639     -81.3644863
9.036                0.944716861     -81.4986052
9.037                0.944569383     -81.6330799
9.038                0.944421466     -81.7679113
9.039                 0.94427311     -81.9031007
9.04                 0.944124312      -82.038649
9.041                0.943975074     -82.1745573
9.042                0.943825393     -82.3108268
9.043                 0.94367527     -82.4474586
9.044                0.943524703     -82.5844537
9.045                0.943373692     -82.7218133
9.046                0.943222236     -82.8595385
9.047                0.943070335     -82.9976303
9.048                0.942917987     -83.1360899
9.049                0.942765193     -83.2749183
9.05                 0.942611951     -83.4141168
9.051                0.942458261     -83.5536864
9.052                0.942304123     -83.6936282
9.053                0.942149535     -83.8339433
9.054                0.941994498     -83.9746329
9.055                 0.94183901     -84.1156981
9.056                0.941683071       -84.25714
9.057                0.941526681     -84.3989597
9.058                0.941369838     -84.5411583
9.059                0.941212543      -84.683737
9.06                 0.941054794      -84.826697
9.061                0.940896592     -84.9700392
9.062                0.940737936      -85.113765
9.063                0.940578825     -85.2578753
9.064                0.940419259     -85.4023714
9.065                0.940259237     -85.5472543
9.066                 0.94009876     -85.6925253
9.067                0.939937826     -85.8381854
9.068                0.939776434     -85.9842358
9.069                0.939614586     -86.1306776
9.07                  0.93945228      -86.277512
9.071                0.939289516     -86.4247401
9.072                0.939126293     -86.5723631
9.073                0.938962612     -86.7203821
9.074                0.938798471     -86.8687982
9.075                0.938633871     -87.0176127
9.076                0.938468812     -87.1668266
9.077                0.938303292     -87.3164411
9.078                0.938137312     -87.4664574
9.079                0.937970871     -87.6168766
9.08                  0.93780397     -87.7676999
9.081                0.937636607     -87.9189284
9.082                0.937468784     -88.0705633
9.083                0.937300499     -88.2226057
9.084                0.937131752     -88.3750568
9.085                0.936962544     -88.5279177
9.086                0.936792873     -88.6811897
9.087                0.936622741     -88.8348739
9.088                0.936452147     -88.9889714
9.089                 0.93628109     -89.1434834
9.09                 0.936109571      -89.298411
9.091                 0.93593759     -89.4537555
9.092                0.935765147     -89.6095179
9.093                0.935592241     -89.7656995
9.094                0.935418873     -89.9223014
9.095                0.935245042     -90.0793248
9.096                 0.93507075     -90.2367708
9.097                0.934895995     -90.3946406
9.098                0.934720778     -90.5529353
9.099                0.934545099     -90.7116563
9.1                  0.934368959     -90.8708045
9.101                0.934192357     -91.0303811
9.102                0.934015293     -91.1903874
9.103                0.933837768     -91.3508245
9.104                0.933659782     -91.5116935
9.105                0.933481335     -91.6729957
9.106                0.933302428     -91.8347321
9.107                 0.93312306      -91.996904
9.108                0.932943233     -92.1595124
9.109                0.932762946     -92.3225587
9.11                 0.932582199     -92.4860439
9.111                0.932400994     -92.6499692
9.112                0.932219331     -92.8143357
9.113                0.932037209     -92.9791447
9.114                 0.93185463     -93.1443972
9.115                0.931671594     -93.3100945
9.116                0.931488102     -93.4762377
9.117                0.931304153      -93.642828
9.118                 0.93111975     -93.8098664
9.119                0.930934891     -93.9773542
9.12                 0.930749578     -94.1452925
9.121                0.930563812     -94.3136826
9.122                0.930377593     -94.4825254
9.123                0.930190921     -94.6518222
9.124                0.930003799     -94.8215741
9.125                0.929816225     -94.9917824
9.126                0.929628202      -95.162448
9.127                 0.92943973     -95.3335722
9.128                0.929250809     -95.5051561
9.129                0.929061442     -95.6772009
9.13                 0.928871627     -95.8497076
9.131                0.928681368     -96.0226775
9.132                0.928490664     -96.1961116
9.133                0.928299516     -96.3700112
9.134                0.928107926     -96.5443773
9.135                0.927915895      -96.719211
9.136                0.927723423     -96.8945135
9.137                0.927530512     -97.0702859
9.138                0.927337164     -97.2465294
9.139                0.927143378      -97.423245
9.14                 0.926949157     -97.6004339
9.141                0.926754501     -97.7780972
9.142                0.926559413      -97.956236
9.143                0.926363893     -98.1348514
9.144                0.926167943     -98.3139445
9.145                0.925971563     -98.4935164
9.146                0.925774757     -98.6735682
9.147                0.925577524     -98.8541011
9.148                0.925379867      -99.035116
9.149                0.925181787     -99.2166142
9.15                 0.924983286     -99.3985966
9.151                0.924784365     -99.5810644
9.152                0.924585026     -99.7640187
9.153                 0.92438527     -99.9474605
9.154                  0.9241851     -100.131391
9.155                0.923984517     -100.315811
9.156                0.923783524     -100.500722
9.157                0.923582121     -100.686124
9.158                 0.92338031      -100.87202
9.159                0.923178095     -101.058409
9.16                 0.922975476     -101.245293
9.161                0.922772456     -101.432673
9.162                0.922569036     -101.620551
9.163                 0.92236522     -101.808926
9.164                0.922161008       -101.9978
9.165                0.921956403     -102.187175
9.166                0.921751408      -102.37705
9.167                0.921546025     -102.567428
9.168                0.921340255     -102.758309
9.169                0.921134102     -102.949694
9.17                 0.920927568     -103.141584
9.171                0.920720654      -103.33398
9.172                0.920513365     -103.526884
9.173                0.920305701     -103.720295
9.174                0.920097667     -103.914216
9.175                0.919889264     -104.108646
9.176                0.919680495     -104.303588
9.177                0.919471362     -104.499042
9.178                 0.91926187     -104.695008
9.179                0.919052019     -104.891488
9.18                 0.918841814     -105.088483
9.181                0.918631257     -105.285994
9.182                0.918420352     -105.484021
9.183                  0.9182091     -105.682566
9.184                0.917997506      -105.88163
9.185                0.917785572     -106.081212
9.186                0.917573301     -106.281315
9.187                0.917360697     -106.481939
9.188                0.917147763     -106.683085
9.189                0.916934502     -106.884754
9.19                 0.916720918     -107.086946
9.191                0.916507014     -107.289663
9.192                0.916292793     -107.492906
9.193                 0.91607826     -107.696675
9.194                0.915863417     -107.900971
9.195                0.915648268     -108.105794
9.196                0.915432817     -108.311147
9.197                0.915217067     -108.517029
9.198                0.915001023     -108.723441
9.199                0.914784689     -108.930384
9.2                  0.914568067     -109.137859
9.201                0.914351162     -109.345867
9.202                0.914133979     -109.554408
9.203                 0.91391652     -109.763483
9.204                0.913698791     -109.973093
9.205                0.913480795     -110.183239
9.206                0.913262537      -110.39392
9.207                0.913044021     -110.605139
9.208                0.912825251     -110.816896
9.209                0.912606232      -111.02919
9.21                 0.912386967     -111.242024
9.211                0.912167463     -111.455398
9.212                0.911947722     -111.669312
9.213                0.911727751     -111.883766
9.214                0.911507552     -112.098763
9.215                0.911287133     -112.314301
9.216                0.911066496     -112.530382
9.217                0.910845647     -112.747007
9.218                0.910624591     -112.964176
9.219                0.910403333     -113.181889
9.22                 0.910181877     -113.400147
9.221                 0.90996023     -113.618951
9.222                0.909738396     -113.838301
9.223                 0.90951638     -114.058197
9.224                0.909294187     -114.278641
9.225                0.909071824     -114.499632
9.226                0.908849295     -114.721172
9.227                0.908626607      -114.94326
9.228                0.908403763     -115.165897
9.229                0.908180771     -115.389083
9.23                 0.907957635      -115.61282
9.231                0.907734361     -115.837106
9.232                0.907510956     -116.061944
9.233                0.907287425     -116.287332
9.234                0.907063774     -116.513272
9.235                0.906840008     -116.739763
9.236                0.906616135     -116.966807
9.237                 0.90639216     -117.194403
9.238                0.906168088     -117.422551
9.239                0.905943928     -117.651253
9.24                 0.905719684     -117.880507
9.241                0.905495363     -118.110315
9.242                0.905270971     -118.340677
9.243                0.905046516     -118.571593
9.244                0.904822002     -118.803063
9.245                0.904597439     -119.035087
9.246                 0.90437283     -119.267666
9.247                0.904148185     -119.500799
9.248                0.903923508     -119.734487
9.249                0.903698808      -119.96873
9.25                 0.903474091     -120.203528
9.251                0.903249364     -120.438881
9.252                0.903024634     -120.674789
9.253                0.902799908     -120.911252
9.254                0.902575194     -121.148271
9.255                0.902350499     -121.385844
9.256                0.902125829     -121.623973
9.257                0.901901193     -121.862657
9.258                0.901676598     -122.101896
9.259                0.901452051      -122.34169
9.26                  0.90122756     -122.582038
9.261                0.901003132     -122.822942
9.262                0.900778775       -123.0644
9.263                0.900554498     -123.306413
9.264                0.900330307     -123.548981
9.265                0.900106211     -123.792102
9.266                0.899882218     -124.035777
9.267                0.899658335     -124.280006
9.268                0.899434571     -124.524789
9.269                0.899210933     -124.770125
9.27                 0.898987431     -125.016014
9.271                0.898764071     -125.262455
9.272                0.898540864     -125.509449
9.273                0.898317816     -125.756994
9.274                0.898094937     -126.005091
9.275                0.897872234     -126.253739
9.276                0.897649717     -126.502938
9.277                0.897427394     -126.752687
9.278                0.897205274     -127.002986
9.279                0.896983365     -127.253834
9.28                 0.896761676     -127.505231
9.281                0.896540217     -127.757176
9.282                0.896318995     -128.009669
9.283                0.896098021     -128.262708
9.284                0.895877302     -128.516295
9.285                0.895656849     -128.770427
9.286                0.895436669     -129.025104
9.287                0.895216774     -129.280326
9.288                 0.89499717     -129.536091
9.289                0.894777869       -129.7924
9.29                 0.894558879      -130.04925
9.291                 0.89434021     -130.306643
9.292                0.894121872     -130.564576
9.293                0.893903872     -130.823048
9.294                0.893686223      -131.08206
9.295                0.893468932      -131.34161
9.296                 0.89325201     -131.601697
9.297                0.893035466     -131.862321
9.298                 0.89281931     -132.123479
9.299                0.892603552     -132.385172
9.3                  0.892388202     -132.647399
9.301                 0.89217327     -132.910157
9.302                0.891958765     -133.173447
9.303                0.891744698     -133.437267
9.304                0.891531079     -133.701616
9.305                0.891317918     -133.966493
9.306                0.891105224     -134.231896
9.307                0.890893009     -134.497825
9.308                0.890681283     -134.764278
9.309                0.890470055     -135.031254
9.31                 0.890259336     -135.298752
9.311                0.890049136      -135.56677
9.312                0.889839467     -135.835307
9.313                0.889630337     -136.104362
9.314                0.889421758     -136.373933
9.315                0.889213741     -136.644019
9.316                0.889006295     -136.914619
9.317                0.888799431      -137.18573
9.318                 0.88859316     -137.457352
9.319                0.888387493     -137.729482
9.32                  0.88818244      -138.00212
9.321                0.887978012     -138.275264
9.322                 0.88777422     -138.548912
9.323                0.887571074     -138.823062
9.324                0.887368585     -139.097713
9.325                0.887166765     -139.372863
9.326                0.886965623      -139.64851
9.327                0.886765171     -139.924653
9.328                0.886565419      -140.20129
9.329                0.886366379     -140.478418
9.33                 0.886168062     -140.756037
9.331                0.885970477     -141.034143
9.332                0.885773638     -141.312736
9.333                0.885577553     -141.591813
9.334                0.885382235     -141.871373
9.335                0.885187694     -142.151412
9.336                0.884993942      -142.43193
9.337                0.884800989     -142.712924
9.338                0.884608846     -142.994392
9.339                0.884417525     -143.276333
9.34                 0.884227036     -143.558742
9.341                0.884037391      -143.84162
9.342                0.883848601     -144.124963
9.343                0.883660677     -144.408769
9.344                0.883473629     -144.693036
9.345                 0.88328747     -144.977761
9.346                0.883102209     -145.262943
9.347                0.882917859     -145.548578
9.348                0.882734429     -145.834665
9.349                0.882551932       -146.1212
9.35                 0.882370379     -146.408183
9.351                 0.88218978     -146.695609
9.352                0.882010146     -146.983477
9.353                0.881831488     -147.271783
9.354                0.881653818     -147.560526
9.355                0.881477147     -147.849703
9.356                0.881301485     -148.139311
9.357                0.881126844     -148.429347
9.358                0.880953234     -148.719809
9.359                0.880780667     -149.010694
9.36                 0.880609152     -149.301999
9.361                0.880438702     -149.593722
9.362                0.880269328     -149.885859
9.363                0.880101039     -150.178408
9.364                0.879933847     -150.471366
9.365                0.879767762     -150.764729
9.366                0.879602796     -151.058496
9.367                0.879438959     -151.352663
9.368                0.879276261     -151.647226
9.369                0.879114714     -151.942184
9.37                 0.878954328     -152.237532
9.371                0.878795114     -152.533269
9.372                0.878637081      -152.82939
9.373                0.878480242     -153.125892
9.374                0.878324605     -153.422773
9.375                0.878170182     -153.720029
9.376                0.878016983     -154.017657
9.377                0.877865018     -154.315653
9.378                0.877714298     -154.614015
9.379                0.877564832     -154.912739
9.38                 0.877416632     -155.211821
9.381                0.877269706     -155.511259
9.382                0.877124065     -155.811049
9.383                0.876979719     -156.111187
9.384                0.876836678      -156.41167
9.385                0.876694952     -156.712495
9.386                 0.87655455     -157.013657
9.387                0.876415483     -157.315154
9.388                0.876277759     -157.616982
9.389                0.876141389     -157.919137
9.39                 0.876006383     -158.221616
9.391                0.875872749     -158.524415
9.392                0.875740496     -158.827529
9.393                0.875609636     -159.130957
9.394                0.875480175     -159.434694
9.395                0.875352125     -159.738735
9.396                0.875225493     -160.043078
