! TOUCHSTONE file generated by CST DESIGN STUDIO
! Date and time: Tue Feb  4 16:05:08 2025
! Project name: C:\Work\MatlabApps\UnitCellOptimizationMatlab\CST\unitcell.cst
! Tree item: Tasks\Sweep1\SPara1\S-Parameters
! Header version: 2024
! Port assignment regex: !\s*Touchstone port\s*([0-9]+)\s*=\s*(CST MWS port|CST DES external port|CST DES block port)\s*(.+)\s* \(\"(.*)\"\)(\s*mode\s*([0-9]+))?.*
! Touchstone port assignment:
! Touchstone port 1 = CST DES external port 1 ("")
# GHz S MA R 50
9                      0.9476392     -81.0706588
9.001                0.947497287     -81.2040155
9.002                0.947354944     -81.3377257
9.003                 0.94721217     -81.4717905
9.004                0.947068964     -81.6062109
9.005                0.946925325     -81.7409882
9.006                0.946781253     -81.8761233
9.007                0.946636747     -82.0116174
9.008                0.946491806     -82.1474715
9.009                 0.94634643     -82.2836868
9.01                 0.946200617     -82.4202644
9.011                0.946054367     -82.5572053
9.012                 0.94590768     -82.6945107
9.013                0.945760554     -82.8321816
9.014                0.945612989     -82.9702192
9.015                0.945464984     -83.1086246
9.016                0.945316539     -83.2473989
9.017                0.945167653     -83.3865431
9.018                0.945018325     -83.5260585
9.019                0.944868555     -83.6659462
9.02                 0.944718341     -83.8062072
9.021                0.944567684     -83.9468426
9.022                0.944416583     -84.0878537
9.023                0.944265037     -84.2292415
9.024                0.944113045     -84.3710071
9.025                0.943960607     -84.5131518
9.026                0.943807723     -84.6556765
9.027                0.943654392     -84.7985824
9.028                0.943500613     -84.9418707
9.029                0.943346385     -85.0855425
9.03                 0.943191709      -85.229599
9.031                0.943036584     -85.3740412
9.032                0.942881009     -85.5188703
9.033                0.942724984     -85.6640875
9.034                0.942568508     -85.8096938
9.035                 0.94241158     -85.9556905
9.036                0.942254202     -86.1020787
9.037                0.942096371     -86.2488594
9.038                0.941938088      -86.396034
9.039                0.941779352     -86.5436034
9.04                 0.941620162      -86.691569
9.041                0.941460519     -86.8399317
9.042                0.941300422     -86.9886928
9.043                0.941139871     -87.1378534
9.044                0.940978865     -87.2874147
9.045                0.940817405     -87.4373778
9.046                0.940655488     -87.5877439
9.047                0.940493117     -87.7385141
9.048                0.940330289     -87.8896896
9.049                0.940167006     -88.0412716
9.05                 0.940003266     -88.1932611
9.051                 0.93983907     -88.3456595
9.052                0.939674417     -88.4984678
9.053                0.939509307     -88.6516871
9.054                 0.93934374     -88.8053187
9.055                0.939177715     -88.9593638
9.056                0.939011234     -89.1138234
9.057                0.938844294     -89.2686988
9.058                0.938676898     -89.4239911
9.059                0.938509043     -89.5797014
9.06                 0.938340731      -89.735831
9.061                0.938171961      -89.892381
9.062                0.938002734     -90.0493526
9.063                0.937833048     -90.2067469
9.064                0.937662905     -90.3645651
9.065                0.937492304     -90.5228084
9.066                0.937321245     -90.6814779
9.067                0.937149729     -90.8405748
9.068                0.936977755     -91.0001003
9.069                0.936805324     -91.1600556
9.07                 0.936632435     -91.3204417
9.071                 0.93645909       -91.48126
9.072                0.936285287     -91.6425114
9.073                0.936111028     -91.8041973
9.074                0.935936313     -91.9663188
9.075                0.935761141      -92.128877
9.076                0.935585513     -92.2918731
9.077                 0.93540943     -92.4553083
9.078                0.935232891     -92.6191837
9.079                0.935055897     -92.7835005
9.08                 0.934878449     -92.9482599
9.081                0.934700546      -93.113463
9.082                0.934522189      -93.279111
9.083                 0.93434338      -93.445205
9.084                0.934164117     -93.6117462
9.085                0.933984402     -93.7787359
9.086                0.933804235      -93.946175
9.087                0.933623616     -94.1140649
9.088                0.933442547     -94.2824065
9.089                0.933261028     -94.4512012
9.09                 0.933079059       -94.62045
9.091                0.932896641     -94.7901542
9.092                0.932713775     -94.9603147
9.093                0.932530461     -95.1309329
9.094                0.932346701     -95.3020099
9.095                0.932162494     -95.4735467
9.096                0.931977843     -95.6455446
9.097                0.931792746     -95.8180046
9.098                0.931607207      -95.990928
9.099                0.931421225     -96.1643158
9.1                    0.9312348     -96.3381693
9.101                0.931047936     -96.5124895
9.102                0.930860631     -96.6872775
9.103                0.930672887     -96.8625346
9.104                0.930484706     -97.0382618
9.105                0.930296088     -97.2144602
9.106                0.930107034      -97.391131
9.107                0.929917546     -97.5682753
9.108                0.929727624     -97.7458942
9.109                0.929537271     -97.9239889
9.11                 0.929346486     -98.1025604
9.111                0.929155272     -98.2816099
9.112                 0.92896363     -98.4611384
9.113                 0.92877156      -98.641147
9.114                0.928579065      -98.821637
9.115                0.928386145     -99.0026093
9.116                0.928192803      -99.184065
9.117                 0.92799904     -99.3660053
9.118                0.927804857     -99.5484313
9.119                0.927610255     -99.7313439
9.12                 0.927415237     -99.9147444
9.121                0.927219804     -100.098634
9.122                0.927023957     -100.283013
9.123                0.926827699     -100.467883
9.124                0.926631031     -100.653246
9.125                0.926433955     -100.839101
9.126                0.926236472     -101.025451
9.127                0.926038585     -101.212295
9.128                0.925840296     -101.399637
9.129                0.925641606     -101.587475
9.13                 0.925442517     -101.775812
9.131                0.925243031     -101.964648
9.132                0.925043151     -102.153985
9.133                0.924842878     -102.343823
9.134                0.924642215     -102.534164
9.135                0.924441164     -102.725008
9.136                0.924239727     -102.916356
9.137                0.924037907      -103.10821
9.138                0.923835705      -103.30057
9.139                0.923633124     -103.493438
9.14                 0.923430166     -103.686815
9.141                0.923226834       -103.8807
9.142                0.923023131     -104.075097
9.143                0.922819059     -104.270004
9.144                 0.92261462     -104.465424
9.145                0.922409817     -104.661357
9.146                0.922204653     -104.857804
9.147                 0.92199913     -105.054766
9.148                0.921793252     -105.252245
9.149                0.921587021      -105.45024
9.15                 0.921380439     -105.648754
9.151                0.921173511     -105.847786
9.152                0.920966238     -106.047338
9.153                0.920758624     -106.247411
9.154                0.920550673     -106.448005
9.155                0.920342386     -106.649121
9.156                0.920133767     -106.850761
9.157                0.919924819     -107.052925
9.158                0.919715547     -107.255614
9.159                0.919505952     -107.458828
9.16                 0.919296038      -107.66257
9.161                0.919085809     -107.866839
9.162                0.918875268     -108.071636
9.163                0.918664419     -108.276962
9.164                0.918453265     -108.482819
9.165                 0.91824181     -108.689206
9.166                0.918030057     -108.896124
9.167                0.917818011     -109.103575
9.168                0.917605675     -109.311559
9.169                0.917393052     -109.520077
9.17                 0.917180147     -109.729129
9.171                0.916966964     -109.938717
9.172                0.916753507     -110.148841
9.173                0.916539779     -110.359501
9.174                0.916325785     -110.570699
9.175                0.916111529     -110.782435
9.176                0.915897016      -110.99471
9.177                0.915682249     -111.207524
9.178                0.915467232     -111.420879
9.179                0.915251971     -111.634775
9.18                  0.91503647     -111.849212
9.181                0.914820733     -112.064191
9.182                0.914604764     -112.279712
9.183                0.914388569     -112.495777
9.184                0.914172152     -112.712387
9.185                0.913955517      -112.92954
9.186                 0.91373867     -113.147239
9.187                0.913521616     -113.365483
9.188                0.913304359     -113.584273
9.189                0.913086904      -113.80361
9.19                 0.912869256     -114.023495
9.191                0.912651421     -114.243927
9.192                0.912433404     -114.464907
9.193                0.912215209     -114.686436
9.194                0.911996843     -114.908514
9.195                0.911778309     -115.131142
9.196                0.911559615      -115.35432
9.197                0.911340765     -115.578048
9.198                0.911121764     -115.802327
9.199                0.910902619     -116.027158
9.2                  0.910683335      -116.25254
9.201                0.910463918     -116.478474
9.202                0.910244373     -116.704961
9.203                0.910024706        -116.932
9.204                0.909804924     -117.159592
9.205                0.909585031     -117.387738
9.206                0.909365035     -117.616437
9.207                0.909144941      -117.84569
9.208                0.908924756     -118.075497
9.209                0.908704485     -118.305859
9.21                 0.908484134     -118.536775
9.211                0.908263711     -118.768246
9.212                0.908043222     -119.000272
9.213                0.907822672     -119.232853
9.214                0.907602069     -119.465989
9.215                0.907381419     -119.699681
9.216                0.907160729     -119.933929
9.217                0.906940006     -120.168732
9.218                0.906719255     -120.404091
9.219                0.906498485     -120.640006
9.22                 0.906277701     -120.876476
9.221                0.906056912     -121.113503
9.222                0.905836123     -121.351086
9.223                0.905615342     -121.589224
9.224                0.905394577     -121.827918
9.225                0.905173834     -122.067169
9.226                 0.90495312     -122.306975
9.227                0.904732444     -122.547336
9.228                0.904511812     -122.788254
9.229                0.904291231     -123.029726
9.23                  0.90407071     -123.271755
9.231                0.903850257     -123.514338
9.232                0.903629877     -123.757476
9.233                 0.90340958     -124.001169
9.234                0.903189374     -124.245417
9.235                0.902969265     -124.490219
9.236                0.902749262     -124.735575
9.237                0.902529372     -124.981484
9.238                0.902309605     -125.227947
9.239                0.902089967     -125.474964
9.24                 0.901870468     -125.722533
9.241                0.901651114     -125.970654
9.242                0.901431916     -126.219327
9.243                 0.90121288     -126.468552
9.244                0.900994015     -126.718328
9.245                 0.90077533     -126.968655
9.246                0.900556833     -127.219532
9.247                0.900338533     -127.470959
9.248                0.900120438     -127.722934
9.249                0.899902557     -127.975458
9.25                 0.899684899     -128.228531
9.251                0.899467472      -128.48215
9.252                0.899250286     -128.736316
9.253                0.899033349     -128.991029
9.254                 0.89881667     -129.246287
9.255                0.898600258     -129.502089
9.256                0.898384123     -129.758436
9.257                0.898168273     -130.015325
9.258                0.897952718     -130.272758
9.259                0.897737466     -130.530731
9.26                 0.897522528     -130.789246
9.261                0.897307912     -131.048301
9.262                0.897093628     -131.307895
9.263                0.896879686     -131.568027
9.264                0.896666094     -131.828696
9.265                0.896452862     -132.089901
9.266                    0.89624     -132.351642
9.267                0.896027518     -132.613917
9.268                0.895815425     -132.876726
9.269                0.895603731     -133.140067
9.27                 0.895392446     -133.403938
9.271                0.895181579      -133.66834
9.272                 0.89497114     -133.933271
9.273                 0.89476114      -134.19873
9.274                0.894551588     -134.464715
9.275                0.894342495     -134.731225
9.276                 0.89413387     -134.998259
9.277                0.893925723     -135.265817
9.278                0.893718065     -135.533895
9.279                0.893510905     -135.802494
9.28                 0.893304254     -136.071611
9.281                0.893098123     -136.341246
9.282                0.892892521     -136.611397
9.283                0.892687458     -136.882063
9.284                0.892482946     -137.153241
9.285                0.892278994     -137.424931
9.286                0.892075613     -137.697131
9.287                0.891872814     -137.969839
9.288                0.891670606     -138.243055
9.289                   0.891469     -138.516775
9.29                 0.891268008     -138.790999
9.291                0.891067638     -139.065725
9.292                0.890867903     -139.340952
9.293                0.890668812     -139.616676
9.294                0.890470377     -139.892898
9.295                0.890272608     -140.169614
9.296                0.890075515     -140.446823
9.297                 0.88987911     -140.724524
9.298                0.889683402     -141.002714
9.299                0.889488404     -141.281391
9.3                  0.889294125     -141.560554
9.301                0.889100576       -141.8402
9.302                0.888907769     -142.120328
9.303                0.888715714     -142.400935
9.304                0.888524421      -142.68202
9.305                0.888333903      -142.96358
9.306                0.888144168     -143.245613
9.307                 0.88795523     -143.528117
9.308                0.887767097     -143.811091
9.309                0.887579782      -144.09453
9.31                 0.887393294     -144.378434
9.311                0.887207646       -144.6628
9.312                0.887022848     -144.947626
9.313                 0.88683891      -145.23291
9.314                0.886655844     -145.518648
9.315                 0.88647366     -145.804839
9.316                 0.88629237     -146.091481
9.317                0.886111983      -146.37857
9.318                0.885932513     -146.666105
9.319                0.885753968     -146.954082
9.32                  0.88557636       -147.2425
9.321                0.885399699     -147.531355
9.322                0.885223998     -147.820645
9.323                0.885049265     -148.110368
9.324                0.884875513      -148.40052
9.325                0.884702752       -148.6911
9.326                0.884530993     -148.982104
9.327                0.884360246     -149.273529
9.328                0.884190523     -149.565373
9.329                0.884021833     -149.857633
9.33                 0.883854189     -150.150306
9.331                0.883687599     -150.443389
9.332                0.883522076      -150.73688
9.333                0.883357629     -151.030775
9.334                 0.88319427     -151.325071
9.335                0.883032008     -151.619766
9.336                0.882870855     -151.914856
9.337                 0.88271082     -152.210338
9.338                0.882551915     -152.506209
9.339                0.882394149     -152.802467
9.34                 0.882237534     -153.099107
9.341                0.882082078     -153.396127
9.342                0.881927793     -153.693524
9.343                0.881774689     -153.991294
9.344                0.881622777     -154.289434
9.345                0.881472065      -154.58794
9.346                0.881322565      -154.88681
9.347                0.881174286      -155.18604
9.348                0.881027238     -155.485627
9.349                0.880881432     -155.785567
9.35                 0.880736877     -156.085857
9.351                0.880593583     -156.386494
9.352                0.880451559     -156.687473
9.353                0.880310817     -156.988792
9.354                0.880171364     -157.290446
9.355                0.880033211     -157.592433
9.356                0.879896367     -157.894748
9.357                0.879760842     -158.197389
9.358                0.879626645     -158.500351
9.359                0.879493786      -158.80363
9.36                 0.879362273     -159.107224
9.361                0.879232116     -159.411128
9.362                0.879103324     -159.715338
9.363                0.878975905     -160.019852
9.364                 0.87884987     -160.324664
9.365                0.878725226     -160.629771
9.366                0.878601982      -160.93517
9.367                0.878480148     -161.240856
9.368                0.878359731     -161.546826
9.369                0.878240741     -161.853075
9.37                 0.878123186       -162.1596
9.371                0.878007073     -162.466396
9.372                0.877892412     -162.773461
9.373                 0.87777921     -163.080788
9.374                0.877667475     -163.388376
9.375                0.877557217     -163.696219
9.376                0.877448441     -164.004314
9.377                0.877341157     -164.312656
9.378                0.877235371     -164.621241
9.379                0.877131092     -164.930065
9.38                 0.877028326     -165.239124
9.381                0.876927082     -165.548414
9.382                0.876827366     -165.857931
9.383                0.876729186      -166.16767
9.384                0.876632548     -166.477626
9.385                 0.87653746     -166.787797
9.386                0.876443929     -167.098177
9.387                 0.87635196     -167.408763
9.388                0.876261562     -167.719549
9.389                0.876172739     -168.030532
9.39                   0.8760855     -168.341707
9.391                0.875999849      -168.65307
9.392                0.875915792     -168.964616
9.393                0.875833337     -169.276341
9.394                0.875752489     -169.588241
9.395                0.875673254     -169.900311
9.396                0.875595637     -170.212547
