! TOUCHSTONE file generated by CST DESIGN STUDIO
! Date and time: Tue Feb  4 16:05:22 2025
! Project name: C:\Work\MatlabApps\UnitCellOptimizationMatlab\CST\unitcell.cst
! Tree item: Tasks\Sweep1\SPara1\S-Parameters
! Header version: 2024
! Port assignment regex: !\s*Touchstone port\s*([0-9]+)\s*=\s*(CST MWS port|CST DES external port|CST DES block port)\s*(.+)\s* \(\"(.*)\"\)(\s*mode\s*([0-9]+))?.*
! Touchstone port assignment:
! Touchstone port 1 = CST DES external port 1 ("")
# GHz S MA R 50
9                    0.967340386     -45.0572949
9.001                 0.96728803     -45.1125721
9.002                 0.96723552     -45.1679582
9.003                0.967182853     -45.2234535
9.004                0.967130029     -45.2790583
9.005                0.967077048      -45.334773
9.006                 0.96702391     -45.3905978
9.007                0.966970614     -45.4465331
9.008                0.966917159     -45.5025792
9.009                0.966863545     -45.5587365
9.01                 0.966809771     -45.6150053
9.011                0.966755837     -45.6713859
9.012                0.966701742     -45.7278786
9.013                0.966647486     -45.7844838
9.014                0.966593068     -45.8412019
9.015                0.966538487     -45.8980331
9.016                0.966483744     -45.9549778
9.017                0.966428837     -46.0120363
9.018                0.966373766      -46.069209
9.019                 0.96631853     -46.1264962
9.02                 0.966263129     -46.1838983
9.021                0.966207562     -46.2414155
9.022                0.966151829     -46.2990484
9.023                0.966095929     -46.3567971
9.024                0.966039861      -46.414662
9.025                0.965983626     -46.4726436
9.026                0.965927222     -46.5307421
9.027                0.965870648     -46.5889578
9.028                0.965813905     -46.6472913
9.029                0.965756992     -46.7057427
9.03                 0.965699908     -46.7643125
9.031                0.965642652      -46.823001
9.032                0.965585224     -46.8818085
9.033                0.965527624     -46.9407355
9.034                 0.96546985     -46.9997823
9.035                0.965411903     -47.0589492
9.036                0.965353781     -47.1182367
9.037                0.965295484      -47.177645
9.038                0.965237011     -47.2371746
9.039                0.965178362     -47.2968257
9.04                 0.965119536     -47.3565989
9.041                0.965060533     -47.4164944
9.042                0.965001352     -47.4765127
9.043                0.964941993      -47.536654
9.044                0.964882454     -47.5969188
9.045                0.964822735     -47.6573074
9.046                0.964762835     -47.7178203
9.047                0.964702755     -47.7784578
9.048                0.964642493     -47.8392202
9.049                0.964582048      -47.900108
9.05                 0.964521421     -47.9611216
9.051                 0.96446061     -48.0222612
9.052                0.964399615     -48.0835274
9.053                0.964338435     -48.1449205
9.054                0.964277069     -48.2064408
9.055                0.964215517     -48.2680889
9.056                0.964153779      -48.329865
9.057                0.964091853     -48.3917695
9.058                0.964029739      -48.453803
9.059                0.963967437     -48.5159656
9.06                 0.963904945     -48.5782579
9.061                0.963842263     -48.6406803
9.062                0.963779391      -48.703233
9.063                0.963716327     -48.7659167
9.064                0.963653071     -48.8287315
9.065                0.963589623      -48.891678
9.066                0.963525982     -48.9547566
9.067                0.963462146     -49.0179676
9.068                0.963398116     -49.0813115
9.069                0.963333891     -49.1447887
9.07                  0.96326947     -49.2083995
9.071                0.963204852     -49.2721445
9.072                0.963140037      -49.336024
9.073                0.963075023     -49.4000384
9.074                0.963009812     -49.4641881
9.075                0.962944401     -49.5284737
9.076                0.962878789     -49.5928954
9.077                0.962812978     -49.6574537
9.078                0.962746964      -49.722149
9.079                0.962680749     -49.7869819
9.08                 0.962614331     -49.8519526
9.081                0.962547709     -49.9170616
9.082                0.962480884     -49.9823094
9.083                0.962413853     -50.0476963
9.084                0.962346617     -50.1132228
9.085                0.962279174     -50.1788894
9.086                0.962211524     -50.2446965
9.087                0.962143667     -50.3106445
9.088                0.962075601     -50.3767339
9.089                0.962007326      -50.442965
9.09                 0.961938841     -50.5093384
9.091                0.961870146     -50.5758545
9.092                0.961801239     -50.6425137
9.093                 0.96173212     -50.7093165
9.094                0.961662788     -50.7762633
9.095                0.961593243     -50.8433546
9.096                0.961523484     -50.9105909
9.097                0.961453509     -50.9779725
9.098                0.961383319     -51.0454999
9.099                0.961312912     -51.1131737
9.1                  0.961242288     -51.1809943
9.101                0.961171446      -51.248962
9.102                0.961100385     -51.3170775
9.103                0.961029104      -51.385341
9.104                0.960957604     -51.4537533
9.105                0.960885882     -51.5223146
9.106                0.960813939     -51.5910254
9.107                0.960741772     -51.6598863
9.108                0.960669383     -51.7288976
9.109                 0.96059677       -51.79806
9.11                 0.960523931     -51.8673738
9.111                0.960450867     -51.9368395
9.112                0.960377577     -52.0064577
9.113                0.960304059     -52.0762287
9.114                0.960230313     -52.1461531
9.115                0.960156339     -52.2162314
9.116                0.960082135      -52.286464
9.117                  0.9600077     -52.3568515
9.118                0.959933034     -52.4273943
9.119                0.959858137     -52.4980929
9.12                 0.959783006     -52.5689478
9.121                0.959707642     -52.6399596
9.122                0.959632044     -52.7111287
9.123                 0.95955621     -52.7824556
9.124                0.959480141     -52.8539408
9.125                0.959403834     -52.9255848
9.126                 0.95932729     -52.9973881
9.127                0.959250508     -53.0693513
9.128                0.959173486     -53.1414748
9.129                0.959096224     -53.2137592
9.13                 0.959018721      -53.286205
9.131                0.958940976     -53.3588126
9.132                0.958862989     -53.4315827
9.133                0.958784758     -53.5045157
9.134                0.958706283     -53.5776121
9.135                0.958627563     -53.6508725
9.136                0.958548597     -53.7242973
9.137                0.958469384     -53.7978872
9.138                0.958389923     -53.8716427
9.139                0.958310214     -53.9455642
9.14                 0.958230256     -54.0196523
9.141                0.958150047     -54.0939076
9.142                0.958069587     -54.1683306
9.143                0.957988875     -54.2429218
9.144                 0.95790791     -54.3176818
9.145                0.957826692     -54.3926111
9.146                0.957745218     -54.4677102
9.147                 0.95766349     -54.5429797
9.148                0.957581505     -54.6184202
9.149                0.957499263     -54.6940322
9.15                 0.957416763     -54.7698162
9.151                0.957334003     -54.8457729
9.152                0.957250984     -54.9219027
9.153                0.957167704     -54.9982062
9.154                0.957084163     -55.0746841
9.155                0.957000358     -55.1513368
9.156                0.956916291     -55.2281649
9.157                0.956831959      -55.305169
9.158                0.956747361     -55.3823496
9.159                0.956662498     -55.4597074
9.16                 0.956577367     -55.5372429
9.161                0.956491968     -55.6149567
9.162                  0.9564063     -55.6928493
9.163                0.956320363     -55.7709214
9.164                0.956234154     -55.8491735
9.165                0.956147674     -55.9276061
9.166                0.956060921       -56.00622
9.167                0.955973895     -56.0850157
9.168                0.955886594     -56.1639938
9.169                0.955799018     -56.2431548
9.17                 0.955711165     -56.3224994
9.171                0.955623035     -56.4020281
9.172                0.955534626     -56.4817416
9.173                0.955445938     -56.5616405
9.174                 0.95535697     -56.6417254
9.175                0.955267721     -56.7219968
9.176                 0.95517819     -56.8024554
9.177                0.955088376     -56.8831018
9.178                0.954998277     -56.9639367
9.179                0.954907894     -57.0449605
9.18                 0.954817224      -57.126174
9.181                0.954726268     -57.2075778
9.182                0.954635024     -57.2891725
9.183                 0.95454349     -57.3709587
9.184                0.954451667      -57.452937
9.185                0.954359553     -57.5351082
9.186                0.954267147     -57.6174727
9.187                0.954174449     -57.7000313
9.188                0.954081456     -57.7827845
9.189                0.953988169     -57.8657331
9.19                 0.953894586     -57.9488776
9.191                0.953800706     -58.0322188
9.192                0.953706528     -58.1157572
9.193                0.953612051     -58.1994935
9.194                0.953517274     -58.2834283
9.195                0.953422197     -58.3675624
9.196                0.953326818     -58.4518963
9.197                0.953231135     -58.5364308
9.198                0.953135149     -58.6211664
9.199                0.953038858     -58.7061039
9.2                  0.952942261     -58.7912439
9.201                0.952845357     -58.8765871
9.202                0.952748145     -58.9621341
9.203                0.952650624     -59.0478857
9.204                0.952552793     -59.1338424
9.205                 0.95245465     -59.2200051
9.206                0.952356196     -59.3063743
9.207                0.952257428     -59.3929508
9.208                0.952158346     -59.4797351
9.209                0.952058949     -59.5667281
9.21                 0.951959235     -59.6539305
9.211                0.951859204     -59.7413428
9.212                0.951758855     -59.8289658
9.213                0.951658186     -59.9168002
9.214                0.951557197     -60.0048467
9.215                0.951455885      -60.093106
9.216                0.951354251     -60.1815789
9.217                0.951252294     -60.2702659
9.218                0.951150011     -60.3591679
9.219                0.951047403     -60.4482855
9.22                 0.950944467     -60.5376195
9.221                0.950841204     -60.6271706
9.222                0.950737611     -60.7169394
9.223                0.950633688     -60.8069268
9.224                0.950529434     -60.8971335
9.225                0.950424847     -60.9875601
9.226                0.950319927     -61.0782075
9.227                0.950214673     -61.1690763
9.228                0.950109082     -61.2601673
9.229                0.950003155     -61.3514812
9.23                  0.94989689     -61.4430188
9.231                0.949790286     -61.5347808
9.232                0.949683342      -61.626768
9.233                0.949576056     -61.7189811
9.234                0.949468429     -61.8114208
9.235                0.949360457     -61.9040881
9.236                0.949252142     -61.9969834
9.237                0.949143481     -62.0901078
9.238                0.949034473     -62.1834619
9.239                0.948925117     -62.2770464
9.24                 0.948815412     -62.3708622
9.241                0.948705357       -62.46491
9.242                0.948594951     -62.5591907
9.243                0.948484192     -62.6537049
9.244                 0.94837308     -62.7484535
9.245                0.948261613     -62.8434372
9.246                0.948149791     -62.9386569
9.247                0.948037611     -63.0341133
9.248                0.947925074     -63.1298072
9.249                0.947812177     -63.2257394
9.25                  0.94769892     -63.3219108
9.251                0.947585302     -63.4183221
9.252                0.947471321      -63.514974
9.253                0.947356976     -63.6118675
9.254                0.947242267     -63.7090034
9.255                0.947127191     -63.8063824
9.256                0.947011748     -63.9040054
9.257                0.946895937     -64.0018731
9.258                0.946779757     -64.0999865
9.259                0.946663205     -64.1983462
9.26                 0.946546282     -64.2969533
9.261                0.946428986     -64.3958084
9.262                0.946311316     -64.4949125
9.263                0.946193271     -64.5942663
9.264                0.946074849     -64.6938707
9.265                0.945956049     -64.7937265
9.266                0.945836871     -64.8938347
9.267                0.945717313     -64.9941959
9.268                0.945597374     -65.0948112
9.269                0.945477052     -65.1956812
9.27                 0.945356347      -65.296807
9.271                0.945235258     -65.3981893
9.272                0.945113782     -65.4998291
9.273                 0.94499192     -65.6017271
9.274                 0.94486967     -65.7038843
9.275                 0.94474703     -65.8063015
9.276                   0.944624     -65.9089796
9.277                0.944500578     -66.0119194
9.278                0.944376763      -66.115122
9.279                0.944252555      -66.218588
9.28                 0.944127951     -66.3223185
9.281                0.944002951     -66.4263143
9.282                0.943877553     -66.5305763
9.283                0.943751757     -66.6351055
9.284                0.943625561     -66.7399026
9.285                0.943498963     -66.8449686
9.286                0.943371964     -66.9503045
9.287                0.943244561      -67.055911
9.288                0.943116753     -67.1617892
9.289                 0.94298854       -67.26794
9.29                 0.942859919     -67.3743642
9.291                0.942730891     -67.4810628
9.292                0.942601453     -67.5880367
9.293                0.942471605     -67.6952868
9.294                0.942341345     -67.8028141
9.295                0.942210672     -67.9106195
9.296                0.942079585      -68.018704
9.297                0.941948083     -68.1270684
9.298                0.941816164     -68.2357137
9.299                0.941683828     -68.3446409
9.3                  0.941551073     -68.4538509
9.301                0.941417898     -68.5633446
9.302                0.941284302     -68.6731231
9.303                0.941150284     -68.7831873
9.304                0.941015842     -68.8935381
9.305                0.940880975     -69.0041764
9.306                0.940745683     -69.1151034
9.307                0.940609964     -69.2263199
9.308                0.940473816     -69.3378269
9.309                 0.94033724     -69.4496254
9.31                 0.940200232     -69.5617164
9.311                0.940062793     -69.6741008
9.312                0.939924921     -69.7867797
9.313                0.939786616      -69.899754
9.314                0.939647875     -70.0130247
9.315                0.939508697     -70.1265928
9.316                0.939369083     -70.2404594
9.317                0.939229029     -70.3546253
9.318                0.939088536     -70.4690917
9.319                0.938947602     -70.5838596
9.32                 0.938806225     -70.6989298
9.321                0.938664406     -70.8143036
9.322                0.938522142     -70.9299818
9.323                0.938379432     -71.0459655
9.324                0.938236276     -71.1622558
9.325                0.938092671     -71.2788536
9.326                0.937948618     -71.3957599
9.327                0.937804115     -71.5129759
9.328                0.937659161     -71.6305026
9.329                0.937513754     -71.7483409
9.33                 0.937367893      -71.866492
9.331                0.937221578     -71.9849569
9.332                0.937074807     -72.1037366
9.333                 0.93692758     -72.2228322
9.334                0.936779894     -72.3422447
9.335                0.936631749     -72.4619753
9.336                0.936483145     -72.5820249
9.337                0.936334078     -72.7023947
9.338                 0.93618455     -72.8230856
9.339                0.936034558     -72.9440988
9.34                 0.935884101     -73.0654354
9.341                0.935733178     -73.1870964
9.342                0.935581789      -73.309083
9.343                0.935429932     -73.4313961
9.344                0.935277606     -73.5540369
9.345                0.935124811     -73.6770064
9.346                0.934971544     -73.8003059
9.347                0.934817805     -73.9239363
9.348                0.934663593     -74.0478988
9.349                0.934508906     -74.1721944
9.35                 0.934353745     -74.2968243
9.351                0.934198107     -74.4217896
9.352                0.934041992     -74.5470914
9.353                0.933885398     -74.6727309
9.354                0.933728326      -74.798709
9.355                0.933570772     -74.9250271
9.356                0.933412738      -75.051686
9.357                0.933254221     -75.1786872
9.358                0.933095221     -75.3060315
9.359                0.932935736     -75.4337202
9.36                 0.932775766     -75.5617545
9.361                 0.93261531     -75.6901354
9.362                0.932454366     -75.8188641
9.363                0.932292934     -75.9479417
9.364                0.932131013     -76.0773695
9.365                0.931968602     -76.2071485
9.366                  0.9318057     -76.3372799
9.367                0.931642306     -76.4677648
9.368                0.931478419     -76.5986045
9.369                0.931314038     -76.7298001
9.37                 0.931149162     -76.8613527
9.371                0.930983791     -76.9932635
9.372                0.930817923     -77.1255338
9.373                0.930651558     -77.2581646
9.374                0.930484694     -77.3911572
9.375                0.930317332     -77.5245127
9.376                0.930149469     -77.6582324
9.377                0.929981105     -77.7923174
9.378                 0.92981224     -77.9267688
9.379                0.929642873      -78.061588
9.38                 0.929473002      -78.196776
9.381                0.929302627     -78.3323342
9.382                0.929131747     -78.4682636
9.383                0.928960361     -78.6045656
9.384                0.928788469     -78.7412412
9.385                 0.92861607     -78.8782918
9.386                0.928443163     -79.0157185
9.387                0.928269747     -79.1535225
9.388                0.928095822     -79.2917051
9.389                0.927921387     -79.4302675
9.39                 0.927746441     -79.5692109
9.391                0.927570983     -79.7085366
9.392                0.927395014     -79.8482457
9.393                0.927218531     -79.9883395
9.394                0.927041535     -80.1288192
9.395                0.926864025     -80.2696861
9.396                   0.926686     -80.4109414
