! TOUCHSTONE file generated by CST DESIGN STUDIO
! Date and time: Tue Feb  4 17:20:05 2025
! Project name: C:\Work\MatlabApps\UnitCellOptimizationMatlab\CST\unitcell.cst
! Tree item: Tasks\Sweep1\SPara1\S-Parameters
! Header version: 2024
! Port assignment regex: !\s*Touchstone port\s*([0-9]+)\s*=\s*(CST MWS port|CST DES external port|CST DES block port)\s*(.+)\s* \(\"(.*)\"\)(\s*mode\s*([0-9]+))?.*
! Touchstone port assignment:
! Touchstone port 1 = CST DES external port 1 ("")
# GHz S MA R 50
9                    0.596478654      -138.35969
9.001                0.595373371     -138.755407
9.002                 0.59427149      -139.15263
9.003                0.593173109     -139.551358
9.004                0.592078327     -139.951592
9.005                0.590987243     -140.353331
9.006                0.589899959     -140.756577
9.007                0.588816575     -141.161327
9.008                0.587737194     -141.567582
9.009                0.586661917     -141.975342
9.01                 0.585590847     -142.384604
9.011                0.584524088     -142.795369
9.012                0.583461744     -143.207635
9.013                0.582403919       -143.6214
9.014                0.581350718     -144.036663
9.015                0.580302247     -144.453422
9.016                0.579258611     -144.871675
9.017                0.578219917     -145.291419
9.018                0.577186271     -145.712653
9.019                0.576157781     -146.135373
9.02                 0.575134555     -146.559577
9.021                0.574116699     -146.985261
9.022                0.573104323     -147.412423
9.023                0.572097534     -147.841057
9.024                0.571096443     -148.271162
9.025                0.570101157     -148.702731
9.026                0.569111785     -149.135762
9.027                0.568128439      -149.57025
9.028                0.567151226     -150.006189
9.029                0.566180258     -150.443575
9.03                 0.565215643     -150.882402
9.031                0.564257492     -151.322665
9.032                0.563305915     -151.764358
9.033                0.562361023     -152.207474
9.034                0.561422924     -152.652008
9.035                0.560491731     -153.097952
9.036                0.559567551     -153.545301
9.037                0.558650497     -153.994045
9.038                0.557740677     -154.444179
9.039                0.556838201     -154.895693
9.04                 0.555943179     -155.348581
9.041                 0.55505572     -155.802833
9.042                0.554175933     -156.258441
9.043                0.553303928     -156.715397
9.044                0.552439812      -157.17369
9.045                0.551583694     -157.633311
9.046                0.550735682     -158.094251
9.047                0.549895883     -158.556498
9.048                0.549064403     -159.020044
9.049                0.548241351     -159.484876
9.05                  0.54742683     -159.950985
9.051                0.546620948     -160.418357
9.052                0.545823807     -160.886983
9.053                0.545035514     -161.356849
9.054                 0.54425617     -161.827944
9.055                 0.54348588     -162.300254
9.056                0.542724744     -162.773767
9.057                0.541972864      -163.24847
9.058                0.541230341     -163.724348
9.059                0.540497274     -164.201389
9.06                 0.539773761     -164.679577
9.061                  0.5390599     -165.158899
9.062                0.538355789     -165.639339
9.063                0.537661523     -166.120883
9.064                0.536977195     -166.603514
9.065                0.536302901     -167.087218
9.066                0.535638732     -167.571977
9.067                 0.53498478     -168.057776
9.068                0.534341135     -168.544598
9.069                0.533707885     -169.032426
9.07                 0.533085118     -169.521242
9.071                 0.53247292     -170.011029
9.072                0.531871377      -170.50177
9.073                0.531280571     -170.993445
9.074                0.530700585     -171.486036
9.075                0.530131499     -171.979525
9.076                0.529573392     -172.473892
9.077                0.529026342     -172.969119
9.078                0.528490425     -173.465185
9.079                0.527965715     -173.962071
9.08                 0.527452285     -174.459756
9.081                0.526950206      -174.95822
9.082                0.526459547     -175.457442
9.083                0.525980375     -175.957402
9.084                0.525512758     -176.458078
9.085                0.525056758     -176.959448
9.086                0.524612437     -177.461492
9.087                0.524179857     -177.964187
9.088                0.523759076      -178.46751
9.089                0.523350149      -178.97144
9.09                 0.522953132     -179.475954
9.091                0.522568077     -179.981029
9.092                0.522195035      179.513357
9.093                0.521834055      179.007229
9.094                0.521485182      178.500609
9.095                0.521148462      177.993521
9.096                0.520823936      177.485989
9.097                0.520511645      176.978036
9.098                0.520211627      176.469687
9.099                0.519923918      175.960966
9.1                  0.519648552      175.451898
9.101                 0.51938556      174.942505
9.102                0.519134971      174.432815
9.103                0.518896814       173.92285
9.104                0.518671112      173.412636
9.105                0.518457889      172.902198
9.106                0.518257165      172.391561
9.107                0.518068958      171.880749
9.108                0.517893283      171.369789
9.109                0.517730156      170.858705
9.11                 0.517579586      170.347523
9.111                0.517441583      169.836268
9.112                0.517316154      169.324965
9.113                0.517203303       168.81364
9.114                0.517103033      168.302319
9.115                0.517015342      167.791026
9.116                0.516940229      167.279787
9.117                0.516877689      166.768628
9.118                0.516827715      166.257573
9.119                0.516790297      165.746649
9.12                 0.516765424      165.235881
9.121                0.516753082      164.725294
9.122                0.516753254      164.214913
9.123                0.516765923      163.704763
9.124                0.516791068       163.19487
9.125                0.516828665      162.685258
9.126                0.516878689      162.175953
9.127                0.516941114      161.666979
9.128                0.517015909      161.158361
9.129                0.517103042      160.650123
9.13                 0.517202481      160.142291
9.131                0.517314188      159.634888
9.132                0.517438126      159.127939
9.133                0.517574254      158.621467
9.134                 0.51772253      158.115497
9.135                 0.51788291      157.610052
9.136                0.518055346      157.105156
9.137                0.518239791      156.600832
9.138                0.518436194      156.097103
9.139                0.518644503      155.593993
9.14                 0.518864663      155.091524
9.141                0.519096617      154.589718
9.142                0.519340308      154.088598
9.143                0.519595677      153.588187
9.144                 0.51986266      153.088505
9.145                0.520141194      152.589575
9.146                0.520431214      152.091418
9.147                0.520732653      151.594055
9.148                0.521045442      151.097507
9.149                 0.52136951      150.601795
9.15                 0.521704786      150.106939
9.151                0.522051196      149.612959
9.152                0.522408664      149.119876
9.153                0.522777115      148.627708
9.154                0.523156469      148.136474
9.155                0.523546646      147.646195
9.156                0.523947567      147.156888
9.157                0.524359148      146.668573
9.158                0.524781306      146.181266
9.159                0.525213956      145.694986
9.16                  0.52565701      145.209751
9.161                0.526110383      144.725577
9.162                0.526573984      144.242482
9.163                0.527047724      143.760482
9.164                0.527531512      143.279594
9.165                0.528025257      142.799832
9.166                0.528528863      142.321214
9.167                0.529042239      141.843754
9.168                0.529565288      141.367468
9.169                0.530097915      140.892369
9.17                 0.530640023      140.418473
9.171                0.531191514      139.945793
9.172                0.531752289      139.474343
9.173                 0.53232225      139.004137
9.174                0.532901297      138.535188
9.175                0.533489328      138.067508
9.176                0.534086242       137.60111
9.177                0.534691938      137.136006
9.178                0.535306313      136.672208
9.179                0.535929264      136.209727
9.18                 0.536560688      135.748575
9.181                0.537200479      135.288762
9.182                0.537848535      134.830299
9.183                 0.53850475      134.373196
9.184                0.539169019      133.917463
9.185                0.539841237       133.46311
9.186                0.540521297      133.010146
9.187                0.541209094      132.558579
9.188                0.541904521       132.10842
9.189                0.542607472      131.659675
9.19                  0.54331784      131.212353
9.191                0.544035519      130.766463
9.192                0.544760401      130.322011
9.193                 0.54549238      129.879004
9.194                0.546231349       129.43745
9.195                  0.5469772      128.997355
9.196                0.547729828      128.558726
9.197                0.548489124      128.121568
9.198                0.549254983      127.685887
9.199                0.550027297       127.25169
9.2                   0.55080596       126.81898
9.201                0.551590866      126.387764
9.202                0.552381909      125.958046
9.203                0.553178982       125.52983
9.204                0.553981979       125.10312
9.205                0.554790797      124.677921
9.206                0.555605328      124.254236
9.207                0.556425469      123.832069
9.208                0.557251115      123.411422
9.209                0.558082161        122.9923
9.21                 0.558918505      122.574704
9.211                0.559760042      122.158636
9.212                 0.56060667      121.744101
9.213                0.561458287      121.331098
9.214                0.562314789      120.919631
9.215                0.563176076      120.509701
9.216                0.564042047      120.101309
9.217                0.564912601      119.694457
9.218                0.565787638      119.289144
9.219                0.566667059      118.885374
9.22                 0.567550765      118.483145
9.221                0.568438657      118.082458
9.222                0.569330638      117.683314
9.223                 0.57022661      117.285712
9.224                0.571126478      116.889652
9.225                0.572030146      116.495135
9.226                0.572937517      116.102159
9.227                0.573848499      115.710724
9.228                0.574762996      115.320829
9.229                0.575680917      114.932472
9.23                 0.576602167      114.545654
9.231                0.577526657      114.160372
9.232                0.578454294      113.776625
9.233                0.579384988      113.394412
9.234                 0.58031865       113.01373
9.235                0.581255191      112.634578
9.236                0.582194523      112.256953
9.237                0.583136558      111.880854
9.238                0.584081211      111.506278
9.239                0.585028395      111.133223
9.24                 0.585978026      110.761685
9.241                0.586930018      110.391664
9.242                0.587884289      110.023155
9.243                0.588840757      109.656155
9.244                0.589799339      109.290662
9.245                0.590759954      108.926673
9.246                0.591722522      108.564184
9.247                0.592686965      108.203191
9.248                0.593653202      107.843692
9.249                0.594621157      107.485683
9.25                 0.595590753       107.12916
9.251                0.596561913       106.77412
9.252                0.597534563      106.420558
9.253                0.598508627      106.068471
9.254                0.599484033      105.717855
9.255                0.600460707      105.368705
9.256                0.601438577      105.021018
9.257                0.602417573      104.674788
9.258                0.603397624      104.330013
9.259                0.604378661      103.986687
9.26                 0.605360615      103.644807
9.261                0.606343418      103.304367
9.262                0.607327003      102.965362
9.263                0.608311304       102.62779
9.264                0.609296256      102.291643
9.265                0.610281794      101.956919
9.266                0.611267855      101.623612
9.267                0.612254376      101.291717
9.268                0.613241294      100.961229
9.269                0.614228549      100.632144
9.27                  0.61521608      100.304456
9.271                0.616203828      99.9781601
9.272                0.617191733      99.6532516
9.273                0.618179738      99.3297251
9.274                0.619167786      99.0075756
9.275                 0.62015582      98.6867977
9.276                0.621143784      98.3673864
9.277                0.622131625      98.0493361
9.278                0.623119287      97.7326418
9.279                0.624106717       97.417298
9.28                 0.625093864      97.1032994
9.281                0.626080676      96.7906406
9.282                  0.6270671      96.4793161
9.283                0.628053088      96.1693206
9.284                 0.62903859      95.8606485
9.285                0.630023558      95.5532945
9.286                0.631007943      95.2472529
9.287                0.631991698      94.9425183
9.288                0.632974777      94.6390851
9.289                0.633957134      94.3369479
9.29                 0.634938725      94.0361009
9.291                0.635919504      93.7365387
9.292                0.636899429      93.4382556
9.293                0.637878457      93.1412461
9.294                0.638856546      92.8455046
9.295                0.639833654      92.5510254
9.296                 0.64080974      92.2578029
9.297                0.641784765      91.9658314
9.298                 0.64275869      91.6751054
9.299                0.643731475      91.3856193
9.3                  0.644703083      91.0973673
9.301                0.645673476      90.8103438
9.302                0.646642618      90.5245432
9.303                0.647610473      90.2399598
9.304                0.648577005       89.956588
9.305                 0.64954218      89.6744222
9.306                0.650505964      89.3934566
9.307                0.651468323      89.1136858
9.308                0.652429224      88.8351039
9.309                0.653388636      88.5577055
9.31                 0.654346526      88.2814849
9.311                0.655302865      88.0064364
9.312                 0.65625762      87.7325545
9.313                0.657210764      87.4598335
9.314                0.658162265      87.1882679
9.315                0.659112097      86.9178521
9.316                0.660060231      86.6485805
9.317                0.661006638      86.3804474
9.318                0.661951293      86.1134475
9.319                 0.66289417       85.847575
9.32                 0.663835241      85.5828246
9.321                0.664774483      85.3191906
9.322                 0.66571187      85.0566676
9.323                0.666647378        84.79525
9.324                0.667580984      84.5349324
9.325                0.668512664      84.2757093
9.326                0.669442395      84.0175753
9.327                0.670370157      83.7605248
9.328                0.671295926      83.5045525
9.329                0.672219682       83.249653
9.33                 0.673141405      82.9958209
9.331                0.674061073      82.7430507
9.332                0.674978668      82.4913372
9.333                 0.67589417      82.2406749
9.334                0.676807561      81.9910586
9.335                0.677718822       81.742483
9.336                0.678627935      81.4949427
9.337                0.679534883      81.2484325
9.338                0.680439649      81.0029471
9.339                0.681342217      80.7584813
9.34                  0.68224257      80.5150298
9.341                0.683140693      80.2725875
9.342                0.684036571      80.0311492
9.343                0.684930189      79.7907097
9.344                0.685821532      79.5512639
9.345                0.686710586      79.3128066
9.346                0.687597338      79.0753328
9.347                0.688481775      78.8388373
9.348                0.689363884      78.6033152
9.349                0.690243652      78.3687613
9.35                 0.691121067      78.1351707
9.351                0.691996118      77.9025383
9.352                0.692868793      77.6708592
9.353                0.693739082      77.4401284
9.354                0.694606973       77.210341
9.355                0.695472456       76.981492
9.356                0.696335522      76.7535766
9.357                0.697196161      76.5265899
9.358                0.698054364      76.3005271
9.359                0.698910121      76.0753833
9.36                 0.699763424      75.8511537
9.361                0.700614266      75.6278335
9.362                0.701462637       75.405418
9.363                0.702308531      75.1839024
9.364                0.703151939      74.9632821
9.365                0.703992855      74.7435522
9.366                0.704831273      74.5247082
9.367                0.705667185      74.3067454
9.368                0.706500586      74.0896591
9.369                 0.70733147      73.8734448
9.37                  0.70815983      73.6580979
9.371                0.708985662      73.4436137
9.372                0.709808962      73.2299879
9.373                0.710629722      73.0172157
9.374                0.711447941      72.8052929
9.375                0.712263612      72.5942147
9.376                0.713076733       72.383977
9.377                0.713887298      72.1745751
9.378                0.714695306      71.9660047
9.379                0.715500752      71.7582614
9.38                 0.716303634      71.5513408
9.381                0.717103948      71.3452387
9.382                0.717901692      71.1399506
9.383                0.718696864      70.9354724
9.384                0.719489462      70.7317996
9.385                0.720279483      70.5289282
9.386                0.721066926      70.3268537
9.387                 0.72185179      70.1255721
9.388                0.722634072      69.9250792
9.389                0.723413773      69.7253707
9.39                 0.724190891      69.5264426
9.391                0.724965425      69.3282907
9.392                0.725737376       69.130911
9.393                0.726506742      68.9342993
9.394                0.727273523      68.7384516
9.395                0.728037721      68.5433639
9.396                0.728799334      68.3490321
