! TOUCHSTONE file generated by CST DESIGN STUDIO
! Date and time: Tue Feb  4 17:20:21 2025
! Project name: C:\Work\MatlabApps\UnitCellOptimizationMatlab\CST\unitcell.cst
! Tree item: Tasks\Sweep1\SPara1\S-Parameters
! Header version: 2024
! Port assignment regex: !\s*Touchstone port\s*([0-9]+)\s*=\s*(CST MWS port|CST DES external port|CST DES block port)\s*(.+)\s* \(\"(.*)\"\)(\s*mode\s*([0-9]+))?.*
! Touchstone port assignment:
! Touchstone port 1 = CST DES external port 1 ("")
# GHz S MA R 50
9                     0.97792608     -37.2551439
9.001                0.977889738     -37.2949154
9.002                0.977853286     -37.3347531
9.003                0.977816724     -37.3746571
9.004                0.977780052     -37.4146276
9.005                0.977743269     -37.4546648
9.006                0.977706374     -37.4947688
9.007                0.977669368     -37.5349399
9.008                0.977632251     -37.5751781
9.009                 0.97759502     -37.6154837
9.01                 0.977557678     -37.6558569
9.011                0.977520222     -37.6962977
9.012                0.977482653     -37.7368065
9.013                0.977444971     -37.7773834
9.014                0.977407174     -37.8180285
9.015                0.977369264     -37.8587421
9.016                0.977331238     -37.8995243
9.017                0.977293098     -37.9403754
9.018                0.977254842     -37.9812954
9.019                 0.97721647     -38.0222846
9.02                 0.977177983     -38.0633431
9.021                0.977139379     -38.1044712
9.022                0.977100658      -38.145669
9.023                 0.97706182     -38.1869368
9.024                0.977022864     -38.2282746
9.025                0.976983791     -38.2696827
9.026                0.976944599     -38.3111613
9.027                0.976905289     -38.3527106
9.028                0.976865859     -38.3943307
9.029                0.976826311     -38.4360219
9.03                 0.976786642     -38.4777843
9.031                0.976746854     -38.5196181
9.032                0.976706945     -38.5615235
9.033                0.976666915     -38.6035007
9.034                0.976626764       -38.64555
9.035                0.976586491     -38.6876714
9.036                0.976546096     -38.7298652
9.037                0.976505579     -38.7721315
9.038                0.976464939     -38.8144707
9.039                0.976424176     -38.8568828
9.04                  0.97638329     -38.8993681
9.041                0.976342279     -38.9419268
9.042                0.976301144      -38.984559
9.043                0.976259885      -39.027265
9.044                  0.9762185     -39.0700449
9.045                 0.97617699      -39.112899
9.046                0.976135354     -39.1558274
9.047                0.976093591     -39.1988304
9.048                0.976051702     -39.2419082
9.049                0.976009686     -39.2850609
9.05                 0.975967542     -39.3282889
9.051                0.975925271     -39.3715921
9.052                0.975882871      -39.414971
9.053                0.975840342     -39.4584256
9.054                0.975797684     -39.5019562
9.055                0.975754897     -39.5455631
9.056                0.975711979     -39.5892463
9.057                0.975668932     -39.6330061
9.058                0.975625753     -39.6768428
9.059                0.975582443     -39.7207564
9.06                 0.975539002     -39.7647474
9.061                0.975495428     -39.8088157
9.062                0.975451722     -39.8529618
9.063                0.975407883     -39.8971857
9.064                0.975363911     -39.9414877
9.065                0.975319805     -39.9858679
9.066                0.975275564     -40.0303267
9.067                0.975231189     -40.0748643
9.068                0.975186679     -40.1194808
9.069                0.975142034     -40.1641764
9.07                 0.975097252     -40.2089514
9.071                0.975052334     -40.2538061
9.072                 0.97500728     -40.2987405
9.073                0.974962087      -40.343755
9.074                0.974916758     -40.3888497
9.075                 0.97487129      -40.434025
9.076                0.974825683     -40.4792809
9.077                0.974779937     -40.5246177
9.078                0.974734052     -40.5700357
9.079                0.974688027     -40.6155351
9.08                 0.974641861     -40.6611161
9.081                0.974595554     -40.7067789
9.082                0.974549106     -40.7525237
9.083                0.974502517     -40.7983509
9.084                0.974455784     -40.8442605
9.085                 0.97440891     -40.8902529
9.086                0.974361891     -40.9363282
9.087                 0.97431473     -40.9824867
9.088                0.974267423     -41.0287287
9.089                0.974219973     -41.0750543
9.09                 0.974172377     -41.1214638
9.091                0.974124635     -41.1679575
9.092                0.974076748     -41.2145355
9.093                0.974028714     -41.2611981
9.094                0.973980532     -41.3079455
9.095                0.973932204      -41.354778
9.096                0.973883727     -41.4016958
9.097                0.973835101     -41.4486992
9.098                0.973786327     -41.4957883
9.099                0.973737403     -41.5429635
9.1                  0.973688329     -41.5902249
9.101                0.973639104     -41.6375729
9.102                0.973589729     -41.6850076
9.103                0.973540202     -41.7325293
9.104                0.973490523     -41.7801383
9.105                0.973440691     -41.8278347
9.106                0.973390706     -41.8756189
9.107                0.973340568     -41.9234911
9.108                0.973290276     -41.9714514
9.109                0.973239829     -42.0195003
9.11                 0.973189227     -42.0676379
9.111                0.973138469     -42.1158645
9.112                0.973087555     -42.1641803
9.113                0.973036485     -42.2125856
9.114                0.972985257     -42.2610806
9.115                0.972933871     -42.3096657
9.116                0.972882328     -42.3583409
9.117                0.972830625     -42.4071067
9.118                0.972778763     -42.4559633
9.119                0.972726741     -42.5049108
9.12                 0.972674559     -42.5539497
9.121                0.972622216       -42.60308
9.122                0.972569711     -42.6523022
9.123                0.972517044     -42.7016164
9.124                0.972464215      -42.751023
9.125                0.972411222     -42.8005221
9.126                0.972358066     -42.8501141
9.127                0.972304745     -42.8997992
9.128                 0.97225126     -42.9495777
9.129                0.972197609     -42.9994498
9.13                 0.972143792     -43.0494159
9.131                0.972089809     -43.0994761
9.132                0.972035659     -43.1496308
9.133                0.971981341     -43.1998803
9.134                0.971926854     -43.2502247
9.135                0.971872199     -43.3006644
9.136                0.971817375     -43.3511996
9.137                 0.97176238     -43.4018307
9.138                0.971707215     -43.4525578
9.139                0.971651879     -43.5033813
9.14                 0.971596371     -43.5543015
9.141                0.971540691     -43.6053186
9.142                0.971484838      -43.656433
9.143                0.971428811     -43.7076448
9.144                 0.97137261     -43.7589544
9.145                0.971316235      -43.810362
9.146                0.971259684      -43.861868
9.147                0.971202957     -43.9134726
9.148                0.971146054     -43.9651761
9.149                0.971088973     -44.0169788
9.15                 0.971031715      -44.068881
9.151                0.970974279      -44.120883
9.152                0.970916663      -44.172985
9.153                0.970858868     -44.2251874
9.154                0.970800893     -44.2774904
9.155                0.970742737     -44.3298944
9.156                0.970684399     -44.3823996
9.157                0.970625879     -44.4350064
9.158                0.970567177     -44.4877149
9.159                0.970508291     -44.5405256
9.16                 0.970449221     -44.5934387
9.161                0.970389966     -44.6464546
9.162                0.970330526     -44.6995734
9.163                0.970270901     -44.7527956
9.164                0.970211088     -44.8061214
9.165                0.970151088     -44.8595511
9.166                0.970090901     -44.9130851
9.167                0.970030525     -44.9667236
9.168                0.969969959      -45.020467
9.169                0.969909204     -45.0743155
9.17                 0.969848258     -45.1282695
9.171                0.969787121     -45.1823292
9.172                0.969725792     -45.2364951
9.173                 0.96966427     -45.2907673
9.174                0.969602555     -45.3451463
9.175                0.969540647     -45.3996323
9.176                0.969478543     -45.4542256
9.177                0.969416244     -45.5089267
9.178                 0.96935375     -45.5637356
9.179                0.969291058     -45.6186529
9.18                  0.96922817     -45.6736788
9.181                0.969165083     -45.7288137
9.182                0.969101797     -45.7840578
9.183                0.969038312     -45.8394115
9.184                0.968974627     -45.8948752
9.185                 0.96891074     -45.9504491
9.186                0.968846653     -46.0061335
9.187                0.968782363     -46.0619289
9.188                0.968717869     -46.1178354
9.189                0.968653172     -46.1738536
9.19                 0.968588271     -46.2299836
9.191                0.968523164     -46.2862259
9.192                0.968457852     -46.3425807
9.193                0.968392332     -46.3990485
9.194                0.968326606     -46.4556294
9.195                0.968260671      -46.512324
9.196                0.968194527     -46.5691325
9.197                0.968128174     -46.6260552
9.198                 0.96806161     -46.6830925
9.199                0.967994835     -46.7402448
9.2                  0.967927848     -46.7975124
9.201                0.967860649     -46.8548956
9.202                0.967793236     -46.9123947
9.203                0.967725609     -46.9700103
9.204                0.967657767     -47.0277425
9.205                0.967589709     -47.0855917
9.206                0.967521435     -47.1435583
9.207                0.967452943     -47.2016427
9.208                0.967384234     -47.2598451
9.209                0.967315305      -47.318166
9.21                 0.967246157     -47.3766058
9.211                0.967176789     -47.4351647
9.212                0.967107199     -47.4938431
9.213                0.967037388     -47.5526414
9.214                0.966967353       -47.61156
9.215                0.966897095     -47.6705992
9.216                0.966826613     -47.7297594
9.217                0.966755905     -47.7890409
9.218                0.966684971     -47.8484442
9.219                0.966613811     -47.9079695
9.22                 0.966542423     -47.9676173
9.221                0.966470806      -48.027388
9.222                 0.96639896     -48.0872819
9.223                0.966326884     -48.1472993
9.224                0.966254576     -48.2074407
9.225                0.966182037     -48.2677065
9.226                0.966109266      -48.328097
9.227                0.966036261     -48.3886125
9.228                0.965963021     -48.4492536
9.229                0.965889546     -48.5100206
9.23                 0.965815836     -48.5709137
9.231                0.965741888     -48.6319336
9.232                0.965667703     -48.6930804
9.233                0.965593279     -48.7543547
9.234                0.965518615     -48.8157568
9.235                0.965443711     -48.8772871
9.236                0.965368566      -48.938946
9.237                0.965293178     -49.0007339
9.238                0.965217548     -49.0626512
9.239                0.965141674     -49.1246982
9.24                 0.965065555     -49.1868755
9.241                 0.96498919     -49.2491833
9.242                0.964912578     -49.3116222
9.243                 0.96483572     -49.3741924
9.244                0.964758612     -49.4368944
9.245                0.964681256     -49.4997287
9.246                0.964603649     -49.5626956
9.247                0.964525791     -49.6257955
9.248                0.964447681     -49.6890288
9.249                0.964369318      -49.752396
9.25                 0.964290701     -49.8158975
9.251                 0.96421183     -49.8795336
9.252                0.964132702     -49.9433049
9.253                0.964053318     -50.0072116
9.254                0.963973677     -50.0712544
9.255                0.963893776     -50.1354335
9.256                0.963813616     -50.1997494
9.257                0.963733196     -50.2642025
9.258                0.963652514     -50.3287933
9.259                 0.96357157     -50.3935221
9.26                 0.963490362     -50.4583894
9.261                 0.96340889     -50.5233957
9.262                0.963327153     -50.5885414
9.263                0.963245149     -50.6538269
9.264                0.963162879     -50.7192526
9.265                0.963080339      -50.784819
9.266                0.962997531     -50.8505266
9.267                0.962914452     -50.9163757
9.268                0.962831103     -50.9823668
9.269                0.962747481     -51.0485004
9.27                 0.962663585     -51.1147769
9.271                0.962579416     -51.1811968
9.272                0.962494971     -51.2477604
9.273                0.962410249     -51.3144684
9.274                0.962325251      -51.381321
9.275                0.962239974     -51.4483188
9.276                0.962154418     -51.5154622
9.277                0.962068581     -51.5827518
9.278                0.961982463     -51.6501878
9.279                0.961896063     -51.7177709
9.28                 0.961809379     -51.7855015
9.281                 0.96172241       -51.85338
9.282                0.961635156     -51.9214069
9.283                0.961547615     -51.9895827
9.284                0.961459787     -52.0579078
9.285                0.961371669     -52.1263828
9.286                0.961283262     -52.1950081
9.287                0.961194563     -52.2637841
9.288                0.961105573     -52.3327114
9.289                 0.96101629     -52.4017905
9.29                 0.960926712     -52.4710217
9.291                0.960836839     -52.5404057
9.292                 0.96074667     -52.6099428
9.293                0.960656203     -52.6796337
9.294                0.960565437     -52.7494787
9.295                0.960474372     -52.8194783
9.296                0.960383006     -52.8896331
9.297                0.960291338     -52.9599436
9.298                0.960199367     -53.0304101
9.299                0.960107091     -53.1010334
9.3                  0.960014511     -53.1718138
9.301                0.959921624     -53.2427518
9.302                0.959828429      -53.313848
9.303                0.959734926     -53.3851028
9.304                0.959641112     -53.4565168
9.305                0.959546988     -53.5280905
9.306                0.959452551     -53.5998243
9.307                0.959357801     -53.6717189
9.308                0.959262737     -53.7437747
9.309                0.959167356     -53.8159922
9.31                 0.959071659      -53.888372
9.311                0.958975644     -53.9609146
9.312                0.958879309     -54.0336205
9.313                0.958782654     -54.1064902
9.314                0.958685678     -54.1795242
9.315                0.958588378     -54.2527232
9.316                0.958490755     -54.3260876
9.317                0.958392806     -54.3996179
9.318                0.958294531     -54.4733147
9.319                0.958195928     -54.5471786
9.32                 0.958096996       -54.62121
9.321                0.957997734     -54.6954095
9.322                0.957898141     -54.7697777
9.323                0.957798215     -54.8443151
9.324                0.957697955     -54.9190223
9.325                 0.95759736     -54.9938997
9.326                0.957496429      -55.068948
9.327                 0.95739516     -55.1441678
9.328                0.957293553     -55.2195594
9.329                0.957191605     -55.2951237
9.33                 0.957089316      -55.370861
9.331                0.956986684     -55.4467719
9.332                0.956883708     -55.5228571
9.333                0.956780387      -55.599117
9.334                 0.95667672     -55.6755523
9.335                0.956572705     -55.7521635
9.336                 0.95646834     -55.8289513
9.337                0.956363625     -55.9059161
9.338                0.956258559     -55.9830585
9.339                0.956153139     -56.0603792
9.34                 0.956047366     -56.1378787
9.341                0.955941236     -56.2155576
9.342                 0.95583475     -56.2934165
9.343                0.955727905      -56.371456
9.344                  0.9556207     -56.4496766
9.345                0.955513135     -56.5280791
9.346                0.955405207     -56.6066638
9.347                0.955296916     -56.6854316
9.348                0.955188259     -56.7643829
9.349                0.955079236     -56.8435183
9.35                 0.954969845     -56.9228385
9.351                0.954860085     -57.0023441
9.352                0.954749955     -57.0820357
9.353                0.954639453     -57.1619139
9.354                0.954528577     -57.2419793
9.355                0.954417327     -57.3222325
9.356                0.954305701     -57.4026742
9.357                0.954193697     -57.4833049
9.358                0.954081314     -57.5641254
9.359                0.953968551     -57.6451361
9.36                 0.953855406     -57.7263378
9.361                0.953741879     -57.8077311
9.362                0.953627966     -57.8893166
9.363                0.953513668     -57.9710949
9.364                0.953398982     -58.0530668
9.365                0.953283908     -58.1352327
9.366                0.953168443     -58.2175935
9.367                0.953052586     -58.3001496
9.368                0.952936337     -58.3829018
9.369                0.952819692     -58.4658507
9.37                 0.952702652      -58.548997
9.371                0.952585214     -58.6323414
9.372                0.952467376     -58.7158844
9.373                0.952349139     -58.7996267
9.374                0.952230499      -58.883569
9.375                0.952111456      -58.967712
9.376                0.951992007     -59.0520564
9.377                0.951872153     -59.1366027
9.378                 0.95175189     -59.2213518
9.379                0.951631217     -59.3063042
9.38                 0.951510134     -59.3914606
9.381                0.951388638     -59.4768217
9.382                0.951266728     -59.5623882
9.383                0.951144402     -59.6481609
9.384                 0.95102166     -59.7341402
9.385                0.950898498     -59.8203271
9.386                0.950774917     -59.9067221
9.387                0.950650913     -59.9933259
9.388                0.950526486     -60.0801393
9.389                0.950401635      -60.167163
9.39                 0.950276357     -60.2543976
9.391                 0.95015065     -60.3418438
9.392                0.950024515     -60.4295025
9.393                0.949897948     -60.5173742
9.394                0.949770948     -60.6054597
9.395                0.949643514     -60.6937597
9.396                0.949515644      -60.782275
