! TOUCHSTONE file generated by CST DESIGN STUDIO
! Date and time: Tue Feb  4 17:20:12 2025
! Project name: C:\Work\MatlabApps\UnitCellOptimizationMatlab\CST\unitcell.cst
! Tree item: Tasks\Sweep1\SPara1\S-Parameters
! Header version: 2024
! Port assignment regex: !\s*Touchstone port\s*([0-9]+)\s*=\s*(CST MWS port|CST DES external port|CST DES block port)\s*(.+)\s* \(\"(.*)\"\)(\s*mode\s*([0-9]+))?.*
! Touchstone port assignment:
! Touchstone port 1 = CST DES external port 1 ("")
# GHz S MA R 50
9                    0.913015235     -59.7550098
9.001                0.912773354     -59.8442767
9.002                0.912530531     -59.9337803
9.003                0.912286762     -60.0235215
9.004                0.912042043      -60.113501
9.005                 0.91179637     -60.2037198
9.006                0.911549738     -60.2941788
9.007                0.911302144     -60.3848789
9.008                0.911053584     -60.4758209
9.009                0.910804054     -60.5670059
9.01                  0.91055355     -60.6584345
9.011                0.910302067     -60.7501079
9.012                0.910049602     -60.8420269
9.013                 0.90979615     -60.9341923
9.014                0.909541708     -61.0266052
9.015                0.909286271     -61.1192665
9.016                0.909029834      -61.212177
9.017                0.908772395     -61.3053377
9.018                0.908513948     -61.3987496
9.019                 0.90825449     -61.4924136
9.02                 0.907994016     -61.5863307
9.021                0.907732522     -61.6805017
9.022                0.907470004     -61.7749276
9.023                0.907206458     -61.8696094
9.024                0.906941878     -61.9645481
9.025                0.906676262     -62.0597447
9.026                0.906409604        -62.1552
9.027                0.906141901      -62.250915
9.028                0.905873148     -62.3468909
9.029                 0.90560334     -62.4431284
9.03                 0.905332474     -62.5396287
9.031                0.905060545     -62.6363926
9.032                0.904787549     -62.7334213
9.033                 0.90451348     -62.8307157
9.034                0.904238335     -62.9282767
9.035                 0.90396211     -63.0261055
9.036                  0.9036848      -63.124203
9.037                  0.9034064     -63.2225703
9.038                0.903126905     -63.3212083
9.039                0.902846313     -63.4201181
9.04                 0.902564617     -63.5193007
9.041                0.902281814     -63.6187572
9.042                0.901997898     -63.7184886
9.043                0.901712866      -63.818496
9.044                0.901426713     -63.9187803
9.045                0.901139433     -64.0193426
9.046                0.900851024     -64.1201841
9.047                0.900561479     -64.2213058
9.048                0.900270795     -64.3227086
9.049                0.899978966     -64.4243938
9.05                 0.899685989     -64.5263624
9.051                0.899391858     -64.6286154
9.052                0.899096569      -64.731154
9.053                0.898800117     -64.8339792
9.054                0.898502497     -64.9370922
9.055                0.898203705      -65.040494
9.056                0.897903735     -65.1441858
9.057                0.897602584     -65.2481686
9.058                0.897300247     -65.3524435
9.059                0.896996717     -65.4570118
9.06                 0.896691992     -65.5618745
9.061                0.896386066     -65.6670327
9.062                0.896078934     -65.7724876
9.063                0.895770592     -65.8782403
9.064                0.895461034      -65.984292
9.065                0.895150256     -66.0906438
9.066                0.894838252     -66.1972969
9.067                0.894525019     -66.3042524
9.068                0.894210551     -66.4115115
9.069                0.893894843     -66.5190754
9.07                  0.89357789     -66.6269451
9.071                0.893259688     -66.7351221
9.072                0.892940231     -66.8436073
9.073                0.892619514      -66.952402
9.074                0.892297533     -67.0615074
9.075                0.891974283     -67.1709246
9.076                0.891649758      -67.280655
9.077                0.891323954     -67.3906997
9.078                0.890996865     -67.5010599
9.079                0.890668487     -67.6117368
9.08                 0.890338815     -67.7227318
9.081                0.890007842     -67.8340459
9.082                0.889675566     -67.9456804
9.083                0.889341979     -68.0576367
9.084                0.889007078     -68.1699158
9.085                0.888670857     -68.2825192
9.086                0.888333312      -68.395448
9.087                0.887994436     -68.5087035
9.088                0.887654225      -68.622287
9.089                0.887312674     -68.7361997
9.09                 0.886969777      -68.850443
9.091                0.886625531     -68.9650181
9.092                0.886279928     -69.0799263
9.093                0.885932964     -69.1951689
9.094                0.885584635     -69.3107472
9.095                0.885234934     -69.4266626
9.096                0.884883857     -69.5429163
9.097                0.884531399     -69.6595096
9.098                0.884177554     -69.7764439
9.099                0.883822316     -69.8937206
9.1                  0.883465682     -70.0113408
9.101                0.883107645     -70.1293061
9.102                  0.8827482     -70.2476177
9.103                0.882387343     -70.3662771
9.104                0.882025068     -70.4852854
9.105                0.881661369     -70.6046442
9.106                0.881296241     -70.7243548
9.107                0.880929679     -70.8444185
9.108                0.880561679     -70.9648368
9.109                0.880192234     -71.0856111
9.11                 0.879821339     -71.2067427
9.111                0.879448989      -71.328233
9.112                0.879075178     -71.4500834
9.113                0.878699902     -71.5722955
9.114                0.878323155     -71.6948705
9.115                0.877944932     -71.8178099
9.116                0.877565227     -71.9411151
9.117                0.877184036     -72.0647876
9.118                0.876801352     -72.1888288
9.119                0.876417171     -72.3132402
9.12                 0.876031486     -72.4380232
9.121                0.875644294     -72.5631793
9.122                0.875255588     -72.6887099
9.123                0.874865364     -72.8146165
9.124                0.874473615     -72.9409007
9.125                0.874080337     -73.0675638
9.126                0.873685524     -73.1946074
9.127                 0.87328917      -73.322033
9.128                0.872891272      -73.449842
9.129                0.872491822      -73.578036
9.13                 0.872090817     -73.7066166
9.131                 0.87168825     -73.8355852
9.132                0.871284116     -73.9649433
9.133                 0.87087841     -74.0946925
9.134                0.870471126     -74.2248344
9.135                 0.87006226     -74.3553705
9.136                0.869651806     -74.4863023
9.137                0.869239758     -74.6176314
9.138                0.868826112     -74.7493594
9.139                0.868410862     -74.8814878
9.14                 0.867994002     -75.0140183
9.141                0.867575528     -75.1469524
9.142                0.867155434     -75.2802916
9.143                0.866733714     -75.4140377
9.144                0.866310365     -75.5481922
9.145                0.865885379     -75.6827568
9.146                0.865458753      -75.817733
9.147                 0.86503048     -75.9531224
9.148                0.864600556     -76.0889268
9.149                0.864168975     -76.2251477
9.15                 0.863735732     -76.3617869
9.151                0.863300822     -76.4988458
9.152                 0.86286424     -76.6363263
9.153                 0.86242598       -76.77423
9.154                0.861986038     -76.9125585
9.155                0.861544407     -77.0513135
9.156                0.861101084     -77.1904967
9.157                0.860656062     -77.3301099
9.158                0.860209337     -77.4701547
9.159                0.859760904     -77.6106327
9.16                 0.859310757     -77.7515458
9.161                0.858858891     -77.8928957
9.162                0.858405302      -78.034684
9.163                0.857949984     -78.1769125
9.164                0.857492932      -78.319583
9.165                0.857034141     -78.4626971
9.166                0.856573607     -78.6062567
9.167                0.856111324     -78.7502635
9.168                0.855647287     -78.8947193
9.169                0.855181491     -79.0396259
9.17                 0.854713932      -79.184985
9.171                0.854244604     -79.3307984
9.172                0.853773503     -79.4770679
9.173                0.853300624     -79.6237953
9.174                0.852825962     -79.7709825
9.175                0.852349512     -79.9186312
9.176                0.851871269     -80.0667432
9.177                0.851391229     -80.2153205
9.178                0.850909388     -80.3643648
9.179                0.850425739     -80.5138779
9.18                 0.849940279     -80.6638618
9.181                0.849453003     -80.8143183
9.182                0.848963907     -80.9652492
9.183                0.848472985     -81.1166564
9.184                0.847980233     -81.2685418
9.185                0.847485648     -81.4209074
9.186                0.846989224     -81.5737548
9.187                0.846490956     -81.7270862
9.188                0.845990841     -81.8809033
9.189                0.845488875     -82.0352081
9.19                 0.844985052     -82.1900026
9.191                0.844479368     -82.3452885
9.192                 0.84397182      -82.501068
9.193                0.843462403     -82.6573428
9.194                0.842951113      -82.814115
9.195                0.842437946     -82.9713865
9.196                0.841922897     -83.1291593
9.197                0.841405963     -83.2874353
9.198                 0.84088714     -83.4462166
9.199                0.840366424      -83.605505
9.2                   0.83984381     -83.7653027
9.201                0.839319296     -83.9256115
9.202                0.838792876     -84.0864335
9.203                0.838264549     -84.2477708
9.204                0.837734308     -84.4096252
9.205                0.837202152     -84.5719989
9.206                0.836668077     -84.7348938
9.207                0.836132078     -84.8983121
9.208                0.835594154     -85.0622557
9.209                0.835054299     -85.2267267
9.21                  0.83451251     -85.3917271
9.211                0.833968786     -85.5572591
9.212                0.833423121     -85.7233247
9.213                0.832875514      -85.889926
9.214                 0.83232596      -86.057065
9.215                0.831774457     -86.2247439
9.216                0.831221002     -86.3929648
9.217                0.830665591     -86.5617297
9.218                0.830108223     -86.7310408
9.219                0.829548894     -86.9009001
9.22                 0.828987602     -87.0713099
9.221                0.828424343     -87.2422722
9.222                0.827859116     -87.4137892
9.223                0.827291917     -87.5858631
9.224                0.826722745     -87.7584959
9.225                0.826151597     -87.9316899
9.226                 0.82557847     -88.1054471
9.227                0.825003364     -88.2797699
9.228                0.824426274     -88.4546603
9.229                  0.8238472     -88.6301205
9.23                  0.82326614     -88.8061528
9.231                0.822683091     -88.9827593
9.232                0.822098052     -89.1599423
9.233                0.821511021     -89.3377039
9.234                0.820921997     -89.5160463
9.235                0.820330977     -89.6949718
9.236                0.819737962     -89.8744826
9.237                0.819142949      -90.054581
9.238                0.818545937     -90.2352692
9.239                0.817946925     -90.4165493
9.24                 0.817345912     -90.5984238
9.241                0.816742897     -90.7808948
9.242                0.816137879     -90.9639646
9.243                0.815530858     -91.1476355
9.244                0.814921833     -91.3319097
9.245                0.814310803     -91.5167895
9.246                0.813697769     -91.7022773
9.247                0.813082729     -91.8883753
9.248                0.812465684     -92.0750858
9.249                0.811846633     -92.2624111
9.25                 0.811225577     -92.4503535
9.251                0.810602516     -92.6389154
9.252                 0.80997745     -92.8280991
9.253                0.809350379     -93.0179068
9.254                0.808721305     -93.2083409
9.255                0.808090227     -93.3994038
9.256                0.807457147     -93.5910978
9.257                0.806822065     -93.7834252
9.258                0.806184983     -93.9763884
9.259                0.805545901     -94.1699897
9.26                 0.804904822     -94.3642316
9.261                0.804261746     -94.5591163
9.262                0.803616675     -94.7546463
9.263                 0.80296961     -94.9508239
9.264                0.802320555     -95.1476514
9.265                 0.80166951     -95.3451314
9.266                0.801016478     -95.5432661
9.267                0.800361462     -95.7420579
9.268                0.799704463     -95.9415094
9.269                0.799045484     -96.1416227
9.27                 0.798384528     -96.3424004
9.271                0.797721599     -96.5438449
9.272                0.797056698     -96.7459585
9.273                0.796389829     -96.9487437
9.274                0.795720997      -97.152203
9.275                0.795050203     -97.3563386
9.276                0.794377453     -97.5611531
9.277                0.793702749     -97.7666488
9.278                0.793026097     -97.9728283
9.279                  0.7923475     -98.1796939
9.28                 0.791666962      -98.387248
9.281                0.790984489     -98.5954932
9.282                0.790300084     -98.8044318
9.283                0.789613754     -99.0140663
9.284                0.788925503     -99.2243992
9.285                0.788235336     -99.4354328
9.286                0.787543259     -99.6471697
9.287                0.786849278     -99.8596122
9.288                0.786153399     -100.072763
9.289                0.785455627     -100.286624
9.29                  0.78475597     -100.501198
9.291                0.784054432     -100.716488
9.292                0.783351022     -100.932496
9.293                0.782645746     -101.149224
9.294                0.781938611     -101.366675
9.295                0.781229625     -101.584852
9.296                0.780518795     -101.803756
9.297                0.779806128      -102.02339
9.298                0.779091634     -102.243757
9.299                0.778375319      -102.46486
9.3                  0.777657192       -102.6867
9.301                0.776937262      -102.90928
9.302                0.776215538     -103.132602
9.303                0.775492029      -103.35667
9.304                0.774766744     -103.581485
9.305                0.774039692      -103.80705
9.306                0.773310884     -104.033367
9.307                0.772580329     -104.260439
9.308                0.771848038     -104.488269
9.309                0.771114021     -104.716858
9.31                 0.770378289     -104.946209
9.311                0.769640853     -105.176325
9.312                0.768901723     -105.407207
9.313                0.768160912      -105.63886
9.314                0.767418432     -105.871284
9.315                0.766674293     -106.104482
9.316                0.765928509     -106.338458
9.317                0.765181092     -106.573212
9.318                0.764432055     -106.808748
9.319                 0.76368141     -107.045068
9.32                 0.762929172     -107.282174
9.321                0.762175353     -107.520069
9.322                0.761419967     -107.758755
9.323                0.760663029     -107.998235
9.324                0.759904553     -108.238511
9.325                0.759144553     -108.479585
9.326                0.758383045      -108.72146
9.327                0.757620044     -108.964137
9.328                0.756855565     -109.207621
9.329                0.756089625     -109.451911
9.33                 0.755322238     -109.697012
9.331                0.754553423     -109.942926
9.332                0.753783194     -110.189654
9.333                 0.75301157     -110.437199
9.334                0.752238568     -110.685563
9.335                0.751464204     -110.934749
9.336                0.750688498     -111.184759
9.337                0.749911467     -111.435596
9.338                 0.74913313      -111.68726
9.339                0.748353506     -111.939755
9.34                 0.747572613     -112.193083
9.341                0.746790471     -112.447247
9.342                0.746007101     -112.702247
9.343                0.745222522     -112.958088
9.344                0.744436754     -113.214769
9.345                0.743649818     -113.472295
9.346                0.742861736     -113.730667
9.347                0.742072528     -113.989887
9.348                0.741282217     -114.249958
9.349                0.740490824      -114.51088
9.35                 0.739698372     -114.772658
9.351                0.738904883     -115.035292
9.352                0.738110381     -115.298784
9.353                0.737314889     -115.563138
9.354                0.736518431     -115.828354
9.355                 0.73572103     -116.094435
9.356                0.734922712     -116.361382
9.357                  0.7341235     -116.629199
9.358                0.733323421     -116.897886
9.359                0.732522498     -117.167446
9.36                  0.73172076      -117.43788
9.361                 0.73091823      -117.70919
9.362                0.730114937     -117.981379
9.363                0.729310906     -118.254448
9.364                0.728506165     -118.528399
9.365                0.727700742     -118.803234
9.366                0.726894664     -119.078954
9.367                0.726087959     -119.355562
9.368                0.725280658     -119.633058
9.369                0.724472787     -119.911446
9.37                 0.723664377     -120.190725
9.371                0.722855458     -120.470899
9.372                0.722046059     -120.751968
9.373                0.721236211     -121.033934
9.374                0.720425945       -121.3168
9.375                0.719615291     -121.600565
9.376                0.718804283     -121.885233
9.377                 0.71799295     -122.170803
9.378                0.717181326     -122.457279
9.379                0.716369443     -122.744661
9.38                 0.715557335      -123.03295
9.381                0.714745034     -123.322148
9.382                0.713932575     -123.612256
9.383                0.713119991     -123.903276
9.384                0.712307316     -124.195208
9.385                0.711494587     -124.488054
9.386                0.710681837     -124.781815
9.387                0.709869103     -125.076493
9.388                0.709056421     -125.372088
9.389                0.708243826     -125.668601
9.39                 0.707431355     -125.966033
9.391                0.706619046     -126.264386
9.392                0.705806936      -126.56366
9.393                0.704995062     -126.863857
9.394                0.704183463     -127.164976
9.395                0.703372177     -127.467019
9.396                0.702561243     -127.769986
