! TOUCHSTONE file generated by CST DESIGN STUDIO
! Date and time: Tue Feb  4 17:20:07 2025
! Project name: C:\Work\MatlabApps\UnitCellOptimizationMatlab\CST\unitcell.cst
! Tree item: Tasks\Sweep1\SPara1\S-Parameters
! Header version: 2024
! Port assignment regex: !\s*Touchstone port\s*([0-9]+)\s*=\s*(CST MWS port|CST DES external port|CST DES block port)\s*(.+)\s* \(\"(.*)\"\)(\s*mode\s*([0-9]+))?.*
! Touchstone port assignment:
! Touchstone port 1 = CST DES external port 1 ("")
# GHz S MA R 50
9                    0.717291759     -105.554416
9.001                 0.71630152      -105.81104
9.002                0.715308845     -106.068673
9.003                0.714313755     -106.327317
9.004                0.713316269     -106.586978
9.005                0.712316409     -106.847658
9.006                0.711314196     -107.109364
9.007                0.710309652     -107.372099
9.008                0.709302799     -107.635867
9.009                 0.70829366     -107.900672
9.01                 0.707282257      -108.16652
9.011                0.706268616     -108.433414
9.012                0.705252761     -108.701359
9.013                0.704234716     -108.970359
9.014                0.703214506     -109.240418
9.015                0.702192159      -109.51154
9.016                0.701167699     -109.783731
9.017                0.700141155     -110.056994
9.018                0.699112554     -110.331334
9.019                0.698081924     -110.606755
9.02                 0.697049293     -110.883261
9.021                0.696014692     -111.160857
9.022                 0.69497815     -111.439546
9.023                0.693939697     -111.719335
9.024                0.692899365     -112.000225
9.025                0.691857184     -112.282223
9.026                0.690813188     -112.565332
9.027                0.689767409     -112.849556
9.028                 0.68871988     -113.134901
9.029                0.687670636     -113.421369
9.03                 0.686619711     -113.708966
9.031                 0.68556714     -113.997696
9.032                0.684512959     -114.287563
9.033                0.683457205     -114.578571
9.034                0.682399914     -114.870725
9.035                0.681341125     -115.164028
9.036                0.680280875     -115.458485
9.037                0.679219205     -115.754101
9.038                0.678156153     -116.050879
9.039                0.677091759     -116.348823
9.04                 0.676026066     -116.647938
9.041                0.674959114     -116.948229
9.042                0.673890945     -117.249698
9.043                0.672821603      -117.55235
9.044                0.671751131     -117.856189
9.045                0.670679574      -118.16122
9.046                0.669606977     -118.467446
9.047                0.668533384     -118.774871
9.048                0.667458843       -119.0835
9.049                0.666383401     -119.393336
9.05                 0.665307104     -119.704384
9.051                0.664230003     -120.016646
9.052                0.663152145     -120.330128
9.053                 0.66207358     -120.644833
9.054                 0.66099436     -120.960765
9.055                0.659914535     -121.277927
9.056                0.658834157     -121.596324
9.057                0.657753279     -121.915958
9.058                0.656671954     -122.236835
9.059                0.655590236     -122.558957
9.06                 0.654508181     -122.882328
9.061                0.653425842     -123.206952
9.062                0.652343277     -123.532832
9.063                0.651260543     -123.859972
9.064                0.650177697     -124.188376
9.065                0.649094797     -124.518045
9.066                0.648011903     -124.848985
9.067                0.646929075     -125.181198
9.068                0.645846372     -125.514687
9.069                0.644763857     -125.849457
9.07                  0.64368159     -126.185509
9.071                0.642599636     -126.522847
9.072                0.641518056     -126.861474
9.073                0.640436916     -127.201393
9.074                0.639356281     -127.542607
9.075                0.638276215     -127.885119
9.076                0.637196785     -128.228932
9.077                0.636118058     -128.574048
9.078                0.635040102     -128.920469
9.079                0.633962985     -129.268199
9.08                 0.632886777     -129.617241
9.081                0.631811547     -129.967595
9.082                0.630737366     -130.319266
9.083                0.629664305     -130.672255
9.084                0.628592435     -131.026564
9.085                0.627521831     -131.382195
9.086                0.626452565     -131.739151
9.087                 0.62538471     -132.097433
9.088                0.624318343     -132.457044
9.089                0.623253537     -132.817985
9.09                  0.62219037     -133.180257
9.091                0.621128918     -133.543862
9.092                0.620069259     -133.908803
9.093                0.619011469     -134.275079
9.094                0.617955629     -134.642693
9.095                0.616901817     -135.011646
9.096                0.615850114     -135.381938
9.097                  0.6148006     -135.753571
9.098                0.613753356     -136.126545
9.099                0.612708464     -136.500861
9.1                  0.611666007      -136.87652
9.101                0.610626068     -137.253522
9.102                0.609588729     -137.631868
9.103                0.608554076     -138.011558
9.104                0.607522193     -138.392591
9.105                0.606493166     -138.774969
9.106                 0.60546708      -139.15869
9.107                0.604444022     -139.543755
9.108                0.603424078     -139.930162
9.109                0.602407337     -140.317913
9.11                 0.601393885     -140.707005
9.111                0.600383813     -141.097437
9.112                0.599377207      -141.48921
9.113                0.598374158     -141.882322
9.114                0.597374756      -142.27677
9.115                0.596379091     -142.672555
9.116                0.595387253     -143.069674
9.117                0.594399333     -143.468126
9.118                0.593415424     -143.867908
9.119                0.592435616     -144.269018
9.12                 0.591460003     -144.671455
9.121                0.590488675     -145.075215
9.122                0.589521727     -145.480297
9.123                0.588559252     -145.886696
9.124                0.587601342     -146.294411
9.125                0.586648092     -146.703437
9.126                0.585699596     -147.113773
9.127                0.584755947     -147.525413
9.128                 0.58381724     -147.938354
9.129                0.582883571     -148.352593
9.13                 0.581955032     -148.768125
9.131                 0.58103172     -149.184946
9.132                 0.58011373     -149.603051
9.133                0.579201156     -150.022436
9.134                0.578294094     -150.443095
9.135                0.577392639     -150.865024
9.136                0.576496887     -151.288217
9.137                0.575606933     -151.712668
9.138                0.574722872     -152.138372
9.139                  0.5738448     -152.565322
9.14                 0.572972811     -152.993513
9.141                0.572107002     -153.422938
9.142                0.571247467      -153.85359
9.143                0.570394302     -154.285462
9.144                  0.5695476     -154.718547
9.145                0.568707458     -155.152839
9.146                0.567873968     -155.588328
9.147                0.567047227     -156.025008
9.148                0.566227326      -156.46287
9.149                0.565414361     -156.901905
9.15                 0.564608425     -157.342107
9.151                 0.56380961     -157.783465
9.152                 0.56301801      -158.22597
9.153                0.562233717     -158.669614
9.154                0.561456822     -159.114387
9.155                0.560687417     -159.560279
9.156                0.559925593      -160.00728
9.157                0.559171441     -160.455379
9.158                 0.55842505     -160.904568
9.159                 0.55768651     -161.354833
9.16                  0.55695591     -161.806166
9.161                0.556233337     -162.258554
9.162                 0.55551888     -162.711986
9.163                0.554812624      -163.16645
9.164                0.554114657     -163.621934
9.165                0.553425064     -164.078427
9.166                0.552743929     -164.535915
9.167                0.552071335     -164.994386
9.168                0.551407367     -165.453827
9.169                0.550752106     -165.914225
9.17                 0.550105634     -166.375566
9.171                 0.54946803     -166.837837
9.172                0.548839374     -167.301024
9.173                0.548219745     -167.765112
9.174                 0.54760922     -168.230088
9.175                0.547007875     -168.695936
9.176                0.546415786     -169.162641
9.177                0.545833026      -169.63019
9.178                 0.54525967     -170.098566
9.179                0.544695789     -170.567753
9.18                 0.544141453     -171.037736
9.181                0.543596733       -171.5085
9.182                0.543061697     -171.980027
9.183                0.542536411     -172.452301
9.184                0.542020942     -172.925306
9.185                0.541515354     -173.399024
9.186                 0.54101971     -173.873439
9.187                0.540534073     -174.348534
9.188                0.540058502      -174.82429
9.189                0.539593056      -175.30069
9.19                 0.539137794     -175.777716
9.191                 0.53869277     -176.255351
9.192                0.538258041     -176.733575
9.193                0.537833659      -177.21237
9.194                0.537419675     -177.691719
9.195                 0.53701614     -178.171601
9.196                0.536623102     -178.651998
9.197                0.536240608     -179.132891
9.198                0.535868703     -179.614261
9.199                0.535507432      179.903913
9.2                  0.535156835      179.421649
9.201                0.534816953      178.938967
9.202                0.534487825      178.455888
9.203                0.534169488      177.972431
9.204                0.533861977      177.488616
9.205                0.533565326      177.004464
9.206                0.533279565      176.519995
9.207                0.533004726       176.03523
9.208                0.532740837      175.550189
9.209                0.532487923      175.064892
9.21                  0.53224601      174.579362
9.211                 0.53201512      174.093618
9.212                0.531795275      173.607681
9.213                0.531586493      173.121573
9.214                0.531388792      172.635314
9.215                0.531202188      172.148926
9.216                0.531026693      171.662431
9.217                0.530862321      171.175848
9.218                 0.53070908        170.6892
9.219                0.530566979      170.202507
9.22                 0.530436025      169.715792
9.221                0.530316221      169.229076
9.222                0.530207571      168.742379
9.223                0.530110074      168.255723
9.224                 0.53002373       167.76913
9.225                0.529948535      167.282621
9.226                0.529884485      166.796218
9.227                0.529831572      166.309941
9.228                0.529789789      165.823812
9.229                0.529759125      165.337853
9.23                 0.529739567      164.852084
9.231                0.529731101      164.366526
9.232                0.529733712      163.881202
9.233                0.529747381      163.396131
9.234                 0.52977209      162.911335
9.235                0.529807816      162.426835
9.236                0.529854536      161.942651
9.237                0.529912226      161.458804
9.238                0.529980858      160.975316
9.239                0.530060405      160.492205
9.24                 0.530150836      160.009494
9.241                 0.53025212      159.527202
9.242                0.530364222      159.045349
9.243                0.530487108      158.563956
9.244                 0.53062074      158.083041
9.245                 0.53076508      157.602627
9.246                0.530920088       157.12273
9.247                0.531085722      156.643373
9.248                0.531261939      156.164572
9.249                0.531448693      155.686349
9.25                 0.531645938      155.208721
9.251                0.531853626      154.731709
9.252                0.532071708      154.255329
9.253                0.532300132      153.779601
9.254                0.532538846      153.304544
9.255                0.532787796      152.830175
9.256                0.533046927      152.356512
9.257                0.533316182      151.883573
9.258                0.533595503      151.411376
9.259                 0.53388483      150.939937
9.26                 0.534184104      150.469275
9.261                0.534493261      149.999405
9.262                0.534812238      149.530345
9.263                0.535140972      149.062111
9.264                0.535479396      148.594719
9.265                0.535827444      148.128186
9.266                0.536185047      147.662527
9.267                0.536552137      147.197757
9.268                0.536928643      146.733892
9.269                0.537314495      146.270948
9.27                 0.537709619      145.808938
9.271                0.538113943      145.347878
9.272                0.538527392      144.887782
9.273                0.538949891      144.428664
9.274                0.539381365      143.970538
9.275                0.539821735      143.513417
9.276                0.540270925      143.057316
9.277                0.540728855      142.602247
9.278                0.541195447      142.148222
9.279                 0.54167062      141.695256
9.28                 0.542154292      141.243359
9.281                0.542646383      140.792545
9.282                 0.54314681      140.342824
9.283                 0.54365549       139.89421
9.284                 0.54417234      139.446712
9.285                0.544697275      139.000343
9.286                 0.54523021      138.555113
9.287                0.545771061      138.111032
9.288                0.546319741      137.668112
9.289                0.546876165      137.226362
9.29                 0.547440245      136.785791
9.291                0.548011895       136.34641
9.292                0.548591027      135.908229
9.293                0.549177552      135.471255
9.294                0.549771384      135.035498
9.295                0.550372433      134.600967
9.296                0.550980611       134.16767
9.297                0.551595829      133.735614
9.298                0.552217996      133.304809
9.299                0.552847025       132.87526
9.3                  0.553482825      132.446977
9.301                0.554125306      132.019966
9.302                0.554774378      131.594234
9.303                0.555429952      131.169787
9.304                0.556091937      130.746633
9.305                0.556760244      130.324776
9.306                0.557434781      129.904224
9.307                0.558115459      129.484982
9.308                0.558802187      129.067055
9.309                0.559494876      128.650449
9.31                 0.560193435      128.235169
9.311                0.560897774      127.821219
9.312                0.561607803      127.408605
9.313                0.562323433      126.997331
9.314                0.563044574      126.587401
9.315                0.563771136      126.178818
9.316                 0.56450303      125.771588
9.317                0.565240167      125.365713
9.318                0.565982457      124.961196
9.319                0.566729814      124.558042
9.32                 0.567482147      124.156252
9.321                0.568239368       123.75583
9.322                0.569001391      123.356779
9.323                0.569768127        122.9591
9.324                0.570539489      122.562797
9.325                0.571315391       122.16787
9.326                0.572095745      121.774323
9.327                0.572880466      121.382156
9.328                0.573669467      120.991371
9.329                0.574462664      120.601969
9.33                 0.575259972      120.213953
9.331                0.576061305      119.827322
9.332                0.576866581      119.442077
9.333                0.577675714       119.05822
9.334                0.578488622      118.675751
9.335                0.579305223       118.29467
9.336                0.580125433      117.914977
9.337                0.580949172      117.536672
9.338                0.581776358      117.159756
9.339                 0.58260691      116.784228
9.34                 0.583440748      116.410088
9.341                0.584277792      116.037336
9.342                0.585117964       115.66597
9.343                0.585961184       115.29599
9.344                0.586807375      114.927394
9.345                 0.58765646      114.560183
9.346                 0.58850836      114.194355
9.347                0.589363001      113.829909
9.348                0.590220307      113.466843
9.349                0.591080201      113.105155
9.35                  0.59194261      112.744845
9.351                0.592807461       112.38591
9.352                0.593674679      112.028348
9.353                0.594544192      111.672159
9.354                0.595415928      111.317339
9.355                0.596289815      110.963886
9.356                0.597165784      110.611798
9.357                0.598043763      110.261074
9.358                0.598923683       109.91171
9.359                0.599805476      109.563703
9.36                 0.600689073      109.217053
9.361                0.601574407      108.871754
9.362                 0.60246141      108.527806
9.363                0.603350017      108.185204
9.364                0.604240162      107.843947
9.365                 0.60513178       107.50403
9.366                0.606024807      107.165451
9.367                 0.60691918      106.828208
9.368                0.607814834      106.492295
9.369                0.608711709      106.157711
9.37                 0.609609743      105.824451
9.371                0.610508874      105.492513
9.372                0.611409042      105.161892
9.373                0.612310188      104.832586
9.374                0.613212254       104.50459
9.375                0.614115179      104.177902
9.376                0.615018908      103.852516
9.377                0.615923383       103.52843
9.378                0.616828548      103.205639
9.379                0.617734348       102.88414
9.38                 0.618640727      102.563928
9.381                0.619547631         102.245
9.382                0.620455007      101.927352
9.383                0.621362801      101.610979
9.384                0.622270962      101.295878
9.385                0.623179437      100.982043
9.386                0.624088177      100.669472
9.387                 0.62499713      100.358159
9.388                0.625906247      100.048101
9.389                0.626815479      99.7392933
9.39                 0.627724777      99.4317311
9.391                0.628634094      99.1254103
9.392                0.629543383      98.8203265
9.393                0.630452596      98.5164752
9.394                 0.63136169       98.213852
9.395                0.632270617      97.9124524
9.396                0.633179334      97.6122718
