! TOUCHSTONE file generated by CST DESIGN STUDIO
! Date and time: Tue Feb  4 17:20:14 2025
! Project name: C:\Work\MatlabApps\UnitCellOptimizationMatlab\CST\unitcell.cst
! Tree item: Tasks\Sweep1\SPara1\S-Parameters
! Header version: 2024
! Port assignment regex: !\s*Touchstone port\s*([0-9]+)\s*=\s*(CST MWS port|CST DES external port|CST DES block port)\s*(.+)\s* \(\"(.*)\"\)(\s*mode\s*([0-9]+))?.*
! Touchstone port assignment:
! Touchstone port 1 = CST DES external port 1 ("")
# GHz S MA R 50
9                    0.937622681     -52.5840652
9.001                0.937469125     -52.6545147
9.002                0.937315007     -52.7251295
9.003                0.937160324     -52.7959102
9.004                0.937005075     -52.8668572
9.005                0.936849257     -52.9379713
9.006                0.936692868     -53.0092529
9.007                0.936535905     -53.0807025
9.008                0.936378367     -53.1523209
9.009                 0.93622025     -53.2241085
9.01                 0.936061553      -53.296066
9.011                0.935902273     -53.3681939
9.012                0.935742407     -53.4404927
9.013                0.935581954     -53.5129631
9.014                0.935420911     -53.5856057
9.015                0.935259276     -53.6584211
9.016                0.935097045     -53.7314097
9.017                0.934934217     -53.8045723
9.018                 0.93477079     -53.8779095
9.019                 0.93460676     -53.9514217
9.02                 0.934442125     -54.0251097
9.021                0.934276884      -54.098974
9.022                0.934111033     -54.1730152
9.023                0.933944569      -54.247234
9.024                0.933777492     -54.3216309
9.025                0.933609797     -54.3962065
9.026                0.933441482     -54.4709616
9.027                0.933272545     -54.5458966
9.028                0.933102984     -54.6210123
9.029                0.932932795     -54.6963092
9.03                 0.932761977     -54.7717879
9.031                0.932590526     -54.8474491
9.032                 0.93241844     -54.9232935
9.033                0.932245717     -54.9993216
9.034                0.932072353     -55.0755341
9.035                0.931898347     -55.1519316
9.036                0.931723696     -55.2285148
9.037                0.931548396     -55.3052843
9.038                0.931372446     -55.3822408
9.039                0.931195842     -55.4593849
9.04                 0.931018582     -55.5367172
9.041                0.930840664     -55.6142385
9.042                0.930662084     -55.6919493
9.043                 0.93048284     -55.7698503
9.044                0.930302929     -55.8479423
9.045                0.930122349     -55.9262258
9.046                0.929941097     -56.0047015
9.047                0.929759169     -56.0833702
9.048                0.929576564     -56.1622324
9.049                0.929393278     -56.2412889
9.05                 0.929209309     -56.3205403
9.051                0.929024654     -56.3999873
9.052                 0.92883931     -56.4796306
9.053                0.928653274     -56.5594709
9.054                0.928466543     -56.6395089
9.055                0.928279116     -56.7197452
9.056                0.928090987     -56.8001807
9.057                0.927902156     -56.8808158
9.058                0.927712619     -56.9616515
9.059                0.927522373     -57.0426883
9.06                 0.927331415     -57.1239271
9.061                0.927139743     -57.2053684
9.062                0.926947353      -57.287013
9.063                0.926754243     -57.3688617
9.064                0.926560409     -57.4509151
9.065                0.926365848      -57.533174
9.066                0.926170559     -57.6156391
9.067                0.925974537     -57.6983111
9.068                0.925777779     -57.7811908
9.069                0.925580283     -57.8642789
9.07                 0.925382046     -57.9475761
9.071                0.925183065     -58.0310832
9.072                0.924983336     -58.1148009
9.073                0.924782857       -58.19873
9.074                0.924581624     -58.2828712
9.075                0.924379635     -58.3672253
9.076                0.924176886      -58.451793
9.077                0.923973375     -58.5365751
9.078                0.923769097     -58.6215724
9.079                0.923564051     -58.7067857
9.08                 0.923358232     -58.7922156
9.081                0.923151639      -58.877863
9.082                0.922944267     -58.9637286
9.083                0.922736113     -59.0498133
9.084                0.922527175     -59.1361177
9.085                0.922317448     -59.2226428
9.086                0.922106931     -59.3093893
9.087                0.921895619     -59.3963579
9.088                 0.92168351     -59.4835496
9.089                  0.9214706      -59.570965
9.09                 0.921256886      -59.658605
9.091                0.921042365     -59.7464704
9.092                0.920827033      -59.834562
9.093                0.920610888     -59.9228806
9.094                0.920393925      -60.011427
9.095                0.920176142     -60.1002021
9.096                0.919957535     -60.1892066
9.097                0.919738101     -60.2784415
9.098                0.919517836     -60.3679075
9.099                0.919296738     -60.4576055
9.1                  0.919074803     -60.5475362
9.101                0.918852027     -60.6377007
9.102                0.918628407     -60.7280996
9.103                 0.91840394     -60.8187338
9.104                0.918178622     -60.9096043
9.105                 0.91795245     -61.0007118
9.106                 0.91772542     -61.0920572
9.107                0.917497529     -61.1836413
9.108                0.917268774     -61.2754651
9.109                0.917039151     -61.3675295
9.11                 0.916808656     -61.4598352
9.111                0.916577287     -61.5523831
9.112                0.916345038     -61.6451742
9.113                0.916111908     -61.7382093
9.114                0.915877892     -61.8314893
9.115                0.915642988     -61.9250152
9.116                 0.91540719     -62.0187877
9.117                0.915170496     -62.1128079
9.118                0.914932903     -62.2070765
9.119                0.914694406     -62.3015946
9.12                 0.914455002     -62.3963629
9.121                0.914214688     -62.4913825
9.122                0.913973459     -62.5866543
9.123                0.913731312     -62.6821792
9.124                0.913488244      -62.777958
9.125                 0.91324425     -62.8739918
9.126                0.912999328     -62.9702815
9.127                0.912753473     -63.0668279
9.128                0.912506682     -63.1636321
9.129                0.912258951     -63.2606951
9.13                 0.912010276     -63.3580176
9.131                0.911760654     -63.4556008
9.132                 0.91151008     -63.5534455
9.133                0.911258552     -63.6515527
9.134                0.911006064     -63.7499235
9.135                0.910752615     -63.8485587
9.136                0.910498199     -63.9474593
9.137                0.910242813     -64.0466263
9.138                0.909986453     -64.1460607
9.139                0.909729115     -64.2457635
9.14                 0.909470796     -64.3457357
9.141                0.909211491     -64.4459782
9.142                0.908951197     -64.5464921
9.143                 0.90868991     -64.6472783
9.144                0.908427626      -64.748338
9.145                0.908164341      -64.849672
9.146                0.907900051     -64.9512814
9.147                0.907634752     -65.0531672
9.148                0.907368441     -65.1553305
9.149                0.907101113     -65.2577722
9.15                 0.906832764     -65.3604935
9.151                0.906563391     -65.4634953
9.152                 0.90629299     -65.5667786
9.153                0.906021556     -65.6703446
9.154                0.905749086     -65.7741943
9.155                0.905475575     -65.8783287
9.156                 0.90520102     -65.9827489
9.157                0.904925416     -66.0874559
9.158                 0.90464876     -66.1924509
9.159                0.904371048     -66.2977349
9.16                 0.904092275     -66.4033089
9.161                0.903812437     -66.5091741
9.162                 0.90353153     -66.6153315
9.163                0.903249551     -66.7217822
9.164                0.902966495     -66.8285274
9.165                0.902682358     -66.9355681
9.166                0.902397135     -67.0429054
9.167                0.902110824     -67.1505404
9.168                0.901823419     -67.2584743
9.169                0.901534917     -67.3667081
9.17                 0.901245314      -67.475243
9.171                0.900954604     -67.5840801
9.172                0.900662785     -67.6932205
9.173                0.900369852     -67.8026654
9.174                  0.9000758      -67.912416
9.175                0.899780626     -68.0224733
9.176                0.899484325     -68.1328384
9.177                0.899186894     -68.2435127
9.178                0.898888327     -68.3544972
9.179                0.898588622      -68.465793
9.18                 0.898287772     -68.5774014
9.181                0.897985775     -68.6893235
9.182                0.897682627     -68.8015606
9.183                0.897378322     -68.9141137
9.184                0.897072856     -69.0269841
9.185                0.896766226     -69.1401729
9.186                0.896458427     -69.2536814
9.187                0.896149454     -69.3675108
9.188                0.895839304     -69.4816622
9.189                0.895527972      -69.596137
9.19                 0.895215454     -69.7109362
9.191                0.894901746     -69.8260611
9.192                0.894586843      -69.941513
9.193                 0.89427074     -70.0572931
9.194                0.893953435     -70.1734026
9.195                0.893634922     -70.2898428
9.196                0.893315196     -70.4066148
9.197                0.892994255       -70.52372
9.198                0.892672092     -70.6411596
9.199                0.892348705     -70.7589349
9.2                  0.892024088     -70.8770472
9.201                0.891698237     -70.9954976
9.202                0.891371149     -71.1142876
9.203                0.891042818     -71.2334183
9.204                 0.89071324      -71.352891
9.205                0.890382411     -71.4727071
9.206                0.890050326     -71.5928679
9.207                0.889716981     -71.7133746
9.208                0.889382372     -71.8342286
9.209                0.889046495     -71.9554311
9.21                 0.888709344     -72.0769835
9.211                0.888370916     -72.1988872
9.212                0.888031206     -72.3211434
9.213                0.887690209     -72.4437534
9.214                0.887347922     -72.5667187
9.215                0.887004341     -72.6900405
9.216                0.886659459     -72.8137202
9.217                0.886313274     -72.9377592
9.218                0.885965781     -73.0621588
9.219                0.885616975     -73.1869204
9.22                 0.885266852     -73.3120454
9.221                0.884915408      -73.437535
9.222                0.884562638     -73.5633908
9.223                0.884208537     -73.6896141
9.224                0.883853103     -73.8162063
9.225                0.883496329     -73.9431688
9.226                0.883138212     -74.0705029
9.227                0.882778748     -74.1982102
9.228                0.882417931      -74.326292
9.229                0.882055758     -74.4547497
9.23                 0.881692224     -74.5835848
9.231                0.881327325     -74.7127987
9.232                0.880961057     -74.8423927
9.233                0.880593414     -74.9723685
9.234                0.880224393     -75.1027274
9.235                 0.87985399     -75.2334708
9.236                  0.8794822     -75.3646002
9.237                0.879109018     -75.4961171
9.238                0.878734441      -75.628023
9.239                0.878358464     -75.7603193
9.24                 0.877981083     -75.8930075
9.241                0.877602293     -76.0260891
9.242                 0.87722209     -76.1595656
9.243                 0.87684047     -76.2934384
9.244                0.876457429     -76.4277091
9.245                0.876072962     -76.5623792
9.246                0.875687065     -76.6974502
9.247                0.875299733     -76.8329237
9.248                0.874910964      -76.968801
9.249                0.874520751     -77.1050838
9.25                 0.874129091     -77.2417736
9.251                0.873735981      -77.378872
9.252                0.873341415     -77.5163805
9.253                0.872945389     -77.6543006
9.254                0.872547899     -77.7926339
9.255                0.872148942     -77.9313819
9.256                0.871748513     -78.0705463
9.257                0.871346607     -78.2101286
9.258                0.870943221     -78.3501304
9.259                0.870538351     -78.4905533
9.26                 0.870131992     -78.6313988
9.261                0.869724141     -78.7726685
9.262                0.869314792     -78.9143642
9.263                0.868903944     -79.0564873
9.264                 0.86849159     -79.1990395
9.265                0.868077728     -79.3420224
9.266                0.867662353     -79.4854376
9.267                0.867245462     -79.6292868
9.268                 0.86682705     -79.7735715
9.269                0.866407114     -79.9182936
9.27                 0.865985649     -80.0634545
9.271                0.865562652     -80.2090559
9.272                0.865138118     -80.3550995
9.273                0.864712045      -80.501587
9.274                0.864284428     -80.6485201
9.275                0.863855264     -80.7959003
9.276                0.863424548     -80.9437294
9.277                0.862992278     -81.0920091
9.278                0.862558448     -81.2407411
9.279                0.862123056     -81.3899271
9.28                 0.861686098     -81.5395687
9.281                0.861247571     -81.6896677
9.282                 0.86080747     -81.8402258
9.283                0.860365793     -81.9912447
9.284                0.859922535     -82.1427262
9.285                0.859477693     -82.2946719
9.286                0.859031264     -82.4470837
9.287                0.858583245     -82.5999632
9.288                0.858133631     -82.7533122
9.289                 0.85768242     -82.9071325
9.29                 0.857229608     -83.0614258
9.291                0.856775192     -83.2161939
9.292                0.856319168     -83.3714385
9.293                0.855861534     -83.5271615
9.294                0.855402286     -83.6833646
9.295                0.854941422     -83.8400496
9.296                0.854478937     -83.9972183
9.297                 0.85401483     -84.1548724
9.298                0.853549096     -84.3130139
9.299                0.853081733     -84.4716445
9.3                  0.852612739      -84.630766
9.301                0.852142109     -84.7903802
9.302                0.851669842      -84.950489
9.303                0.851195935     -85.1110941
9.304                0.850720384     -85.2721975
9.305                0.850243187      -85.433801
9.306                0.849764342     -85.5959064
9.307                0.849283846     -85.7585155
9.308                0.848801696     -85.9216303
9.309                0.848317889     -86.0852525
9.31                 0.847832424     -86.2493841
9.311                0.847345299      -86.414027
9.312                0.846856509     -86.5791829
9.313                0.846366054     -86.7448538
9.314                0.845873931     -86.9110415
9.315                0.845380139      -87.077748
9.316                0.844884673     -87.2449752
9.317                0.844387534     -87.4127249
9.318                0.843888719     -87.5809991
9.319                0.843388225     -87.7497997
9.32                 0.842886052     -87.9191285
9.321                0.842382197     -88.0889876
9.322                0.841876658     -88.2593788
9.323                0.841369434      -88.430304
9.324                0.840860524     -88.6017653
9.325                0.840349925     -88.7737645
9.326                0.839837636     -88.9463036
9.327                0.839323656     -89.1193845
9.328                0.838807984     -89.2930092
9.329                0.838290618     -89.4671797
9.33                 0.837771557     -89.6418979
9.331                0.837250801     -89.8171657
9.332                0.836728347     -89.9929852
9.333                0.836204195     -90.1693584
9.334                0.835678345     -90.3462871
9.335                0.835150795     -90.5237734
9.336                0.834621545     -90.7018193
9.337                0.834090594     -90.8804267
9.338                0.833557941     -91.0595978
9.339                0.833023587     -91.2393343
9.34                  0.83248753     -91.4196385
9.341                0.831949771     -91.6005122
9.342                 0.83141031     -91.7819575
9.343                0.830869146     -91.9639764
9.344                0.830326279     -92.1465709
9.345                0.829781709     -92.3297431
9.346                0.829235437     -92.5134949
9.347                0.828687462     -92.6978284
9.348                0.828137786     -92.8827456
9.349                0.827586409     -93.0682486
9.35                 0.827033331     -93.2543395
9.351                0.826478553     -93.4410201
9.352                0.825922076     -93.6282926
9.353                0.825363901     -93.8161591
9.354                0.824804028     -94.0046216
9.355                0.824242459     -94.1936821
9.356                0.823679195     -94.3833427
9.357                0.823114237     -94.5736054
9.358                0.822547587     -94.7644724
9.359                0.821979247     -94.9559456
9.36                 0.821409217     -95.1480272
9.361                0.820837501     -95.3407192
9.362                0.820264099     -95.5340237
9.363                0.819689014     -95.7279428
9.364                0.819112247     -95.9224785
9.365                0.818533802     -96.1176329
9.366                0.817953681     -96.3134081
9.367                0.817371885     -96.5098062
9.368                0.816788419     -96.7068292
9.369                0.816203283     -96.9044793
9.37                 0.815616483     -97.1027585
9.371                0.815028019     -97.3016688
9.372                0.814437897     -97.5012125
9.373                0.813846118     -97.7013916
9.374                0.813252687     -97.9022081
9.375                0.812657607     -98.1036642
9.376                0.812060881     -98.3057619
9.377                0.811462515     -98.5085034
9.378                0.810862511     -98.7118907
9.379                0.810260873      -98.915926
9.38                 0.809657607     -99.1206112
9.381                0.809052717     -99.3259486
9.382                0.808446206     -99.5319401
9.383                0.807838081      -99.738588
9.384                0.807228346     -99.9458942
9.385                0.806617005     -100.153861
9.386                0.806004065      -100.36249
9.387                0.805389531     -100.571784
9.388                0.804773408     -100.781745
9.389                0.804155701     -100.992374
9.39                 0.803536418     -101.203674
9.391                0.802915563     -101.415648
9.392                0.802293144     -101.628296
9.393                0.801669166     -101.841622
9.394                0.801043636     -102.055626
9.395                0.800416561     -102.270312
9.396                0.799787947     -102.485682
