! TOUCHSTONE file generated by CST DESIGN STUDIO
! Date and time: Tue Feb  4 17:20:16 2025
! Project name: C:\Work\MatlabApps\UnitCellOptimizationMatlab\CST\unitcell.cst
! Tree item: Tasks\Sweep1\SPara1\S-Parameters
! Header version: 2024
! Port assignment regex: !\s*Touchstone port\s*([0-9]+)\s*=\s*(CST MWS port|CST DES external port|CST DES block port)\s*(.+)\s* \(\"(.*)\"\)(\s*mode\s*([0-9]+))?.*
! Touchstone port assignment:
! Touchstone port 1 = CST DES external port 1 ("")
# GHz S MA R 50
9                    0.953759199     -47.2325122
9.001                0.953657823       -47.29071
9.002                  0.9535561     -47.3490306
9.003                0.953454026     -47.4074744
9.004                0.953351602     -47.4660418
9.005                0.953248825     -47.5247332
9.006                0.953145694     -47.5835489
9.007                0.953042208     -47.6424893
9.008                0.952938366     -47.7015548
9.009                0.952834165     -47.7607459
9.01                 0.952729606     -47.8200629
9.011                0.952624686     -47.8795061
9.012                0.952519403     -47.9390761
9.013                0.952413758     -47.9987731
9.014                0.952307747     -48.0585977
9.015                 0.95220137     -48.1185501
9.016                0.952094625     -48.1786309
9.017                0.951987512     -48.2388403
9.018                0.951880027     -48.2991789
9.019                0.951772171     -48.3596469
9.02                 0.951663941     -48.4202449
9.021                0.951555336     -48.4809732
9.022                0.951446355     -48.5418323
9.023                0.951336996     -48.6028225
9.024                0.951227258     -48.6639443
9.025                0.951117139     -48.7251981
9.026                0.951006638     -48.7865842
9.027                0.950895753     -48.8481032
9.028                0.950784482     -48.9097555
9.029                0.950672825     -48.9715414
9.03                  0.95056078     -49.0334614
9.031                0.950448345      -49.095516
9.032                0.950335518     -49.1577055
9.033                0.950222299     -49.2200304
9.034                0.950108686      -49.282491
9.035                0.949994676      -49.345088
9.036                0.949880269     -49.4078216
9.037                0.949765463     -49.4706923
9.038                0.949650257     -49.5337006
9.039                0.949534648     -49.5968469
9.04                 0.949418636     -49.6601316
9.041                0.949302218     -49.7235551
9.042                0.949185394     -49.7871181
9.043                 0.94906816     -49.8508207
9.044                0.948950517     -49.9146636
9.045                0.948832463     -49.9786472
9.046                0.948713995     -50.0427719
9.047                0.948595112     -50.1070382
9.048                0.948475812     -50.1714465
9.049                0.948356094     -50.2359973
9.05                 0.948235957      -50.300691
9.051                0.948115398     -50.3655282
9.052                0.947994415     -50.4305092
9.053                0.947873008     -50.4956346
9.054                0.947751175     -50.5609048
9.055                0.947628913     -50.6263202
9.056                0.947506222     -50.6918814
9.057                0.947383099     -50.7575888
9.058                0.947259542     -50.8234429
9.059                0.947135551     -50.8894442
9.06                 0.947011123     -50.9555931
9.061                0.946886257     -51.0218902
9.062                0.946760951     -51.0883358
9.063                0.946635203     -51.1549306
9.064                0.946509011     -51.2216749
9.065                0.946382374     -51.2885692
9.066                0.946255289     -51.3556142
9.067                0.946127756     -51.4228101
9.068                0.945999773     -51.4901576
9.069                0.945871337     -51.5576572
9.07                 0.945742446     -51.6253093
9.071                  0.9456131     -51.6931144
9.072                0.945483296      -51.761073
9.073                0.945353032     -51.8291856
9.074                0.945222307     -51.8974528
9.075                0.945091119     -51.9658751
9.076                0.944959465     -52.0344529
9.077                0.944827345     -52.1031868
9.078                0.944694756     -52.1720772
9.079                0.944561696     -52.2411247
9.08                 0.944428164     -52.3103299
9.081                0.944294157     -52.3796932
9.082                0.944159674     -52.4492151
9.083                0.944024713     -52.5188962
9.084                0.943889272      -52.588737
9.085                0.943753349     -52.6587381
9.086                0.943616943     -52.7288999
9.087                 0.94348005      -52.799223
9.088                 0.94334267     -52.8697079
9.089                  0.9432048     -52.9403552
9.09                 0.943066438     -53.0111653
9.091                0.942927583      -53.082139
9.092                0.942788233     -53.1532766
9.093                0.942648385     -53.2245787
9.094                0.942508038     -53.2960459
9.095                0.942367189     -53.3676788
9.096                0.942225837     -53.4394778
9.097                0.942083979     -53.5114435
9.098                0.941941614     -53.5835766
9.099                 0.94179874     -53.6558774
9.1                  0.941655354     -53.7283467
9.101                0.941511455      -53.800985
9.102                 0.94136704     -53.8737928
9.103                0.941222108     -53.9467706
9.104                0.941076656     -54.0199192
9.105                0.940930682      -54.093239
9.106                0.940784185     -54.1667306
9.107                0.940637162     -54.2403946
9.108                 0.94048961     -54.3142316
9.109                0.940341529     -54.3882421
9.11                 0.940192916     -54.4624267
9.111                0.940043768     -54.5367861
9.112                0.939894084     -54.6113208
9.113                0.939743862     -54.6860314
9.114                0.939593098     -54.7609185
9.115                0.939441792     -54.8359827
9.116                0.939289941     -54.9112245
9.117                0.939137543     -54.9866446
9.118                0.938984595     -55.0622437
9.119                0.938831096     -55.1380222
9.12                 0.938677044     -55.2139808
9.121                0.938522435     -55.2901201
9.122                0.938367268     -55.3664408
9.123                0.938211541     -55.4429434
9.124                0.938055252     -55.5196285
9.125                0.937898397     -55.5964968
9.126                0.937740976     -55.6735489
9.127                0.937582985     -55.7507855
9.128                0.937424422      -55.828207
9.129                0.937265286     -55.9058143
9.13                 0.937105574     -55.9836079
9.131                0.936945283     -56.0615884
9.132                0.936784411     -56.1397565
9.133                0.936622956     -56.2181128
9.134                0.936460916     -56.2966579
9.135                0.936298289     -56.3753926
9.136                0.936135071     -56.4543175
9.137                0.935971261     -56.5334331
9.138                0.935806856     -56.6127403
9.139                0.935641854     -56.6922395
9.14                 0.935476253     -56.7719315
9.141                 0.93531005     -56.8518169
9.142                0.935143242     -56.9318965
9.143                0.934975828     -57.0121708
9.144                0.934807805     -57.0926406
9.145                 0.93463917     -57.1733064
9.146                0.934469922     -57.2541691
9.147                0.934300057     -57.3352292
9.148                0.934129573     -57.4164874
9.149                0.933958468     -57.4979445
9.15                  0.93378674     -57.5796011
9.151                0.933614385     -57.6614578
9.152                0.933441401     -57.7435155
9.153                0.933267787     -57.8257747
9.154                0.933093538     -57.9082362
9.155                0.932918654     -57.9909007
9.156                0.932743131     -58.0737689
9.157                0.932566966     -58.1568415
9.158                0.932390158     -58.2401192
9.159                0.932212703     -58.3236026
9.16                   0.9320346     -58.4072926
9.161                0.931855845     -58.4911898
9.162                0.931676436      -58.575295
9.163                 0.93149637     -58.6596089
9.164                0.931315646     -58.7441321
9.165                0.931134259     -58.8288655
9.166                0.930952208     -58.9138098
9.167                 0.93076949     -58.9989656
9.168                0.930586102     -59.0843338
9.169                0.930402042     -59.1699151
9.17                 0.930217306     -59.2557102
9.171                0.930031893     -59.3417198
9.172                  0.9298458     -59.4279448
9.173                0.929659024     -59.5143859
9.174                0.929471562     -59.6010437
9.175                0.929283411     -59.6879192
9.176                 0.92909457      -59.775013
9.177                0.928905034     -59.8623259
9.178                0.928714802     -59.9498586
9.179                0.928523871     -60.0376121
9.18                 0.928332237     -60.1255869
9.181                0.928139899      -60.213784
9.182                0.927946853      -60.302204
9.183                0.927753097     -60.3908478
9.184                0.927558627     -60.4797161
9.185                0.927363442     -60.5688098
9.186                0.927167537     -60.6581296
9.187                0.926970912     -60.7476764
9.188                0.926773561     -60.8374509
9.189                0.926575484     -60.9274539
9.19                 0.926376676     -61.0176862
9.191                0.926177135     -61.1081487
9.192                0.925976859     -61.1988422
9.193                0.925775844     -61.2897674
9.194                0.925574087     -61.3809253
9.195                0.925371585     -61.4723165
9.196                0.925168337      -61.563942
9.197                0.924964338     -61.6558026
9.198                0.924759586     -61.7478991
9.199                0.924554077     -61.8402323
9.2                   0.92434781     -61.9328031
9.201                 0.92414078     -62.0256123
9.202                0.923932986     -62.1186608
9.203                0.923724423     -62.2119494
9.204                 0.92351509      -62.305479
9.205                0.923304982     -62.3992504
9.206                0.923094098     -62.4932645
9.207                0.922882434     -62.5875222
9.208                0.922669987     -62.6820242
9.209                0.922456753     -62.7767716
9.21                 0.922242731     -62.8717651
9.211                0.922027917     -62.9670057
9.212                0.921812307     -63.0624942
9.213                  0.9215959     -63.1582315
9.214                0.921378691     -63.2542185
9.215                0.921160678     -63.3504561
9.216                0.920941857     -63.4469451
9.217                0.920722226     -63.5436866
9.218                0.920501781     -63.6406813
9.219                 0.92028052     -63.7379302
9.22                 0.920058439     -63.8354342
9.221                0.919835534     -63.9331942
9.222                0.919611804     -64.0312112
9.223                0.919387244      -64.129486
9.224                0.919161852     -64.2280195
9.225                0.918935624     -64.3268128
9.226                0.918708557     -64.4258667
9.227                0.918480649     -64.5251822
9.228                0.918251895     -64.6247601
9.229                0.918022293     -64.7246016
9.23                 0.917791839     -64.8247074
9.231                0.917560531     -64.9250786
9.232                0.917328364      -65.025716
9.233                0.917095336     -65.1266208
9.234                0.916861443     -65.2277937
9.235                0.916626683     -65.3292358
9.236                0.916391052     -65.4309481
9.237                0.916154546     -65.5329316
9.238                0.915917163     -65.6351871
9.239                0.915678899     -65.7377157
9.24                 0.915439751     -65.8405184
9.241                0.915199715     -65.9435962
9.242                0.914958788       -66.04695
9.243                0.914716967     -66.1505809
9.244                0.914474249     -66.2544898
9.245                 0.91423063     -66.3586777
9.246                0.913986107     -66.4631458
9.247                0.913740677     -66.5678949
9.248                0.913494335     -66.6729261
9.249                 0.91324708     -66.7782405
9.25                 0.912998907      -66.883839
9.251                0.912749813     -66.9897226
9.252                0.912499794     -67.0958925
9.253                0.912248848     -67.2023495
9.254                0.911996971     -67.3090949
9.255                0.911744159     -67.4161296
9.256                0.911490409     -67.5234547
9.257                0.911235718     -67.6310712
9.258                0.910980082     -67.7389802
9.259                0.910723498     -67.8471827
9.26                 0.910465962     -67.9556799
9.261                0.910207471     -68.0644727
9.262                0.909948022     -68.1735623
9.263                 0.90968761     -68.2829498
9.264                0.909426233     -68.3926361
9.265                0.909163887     -68.5026225
9.266                0.908900569     -68.6129099
9.267                0.908636275     -68.7234995
9.268                0.908371001     -68.8343925
9.269                0.908104744     -68.9455898
9.27                 0.907837501     -69.0570926
9.271                0.907569268      -69.168902
9.272                0.907300042     -69.2810192
9.273                0.907029819     -69.3934452
9.274                0.906758595     -69.5061812
9.275                0.906486367     -69.6192283
9.276                0.906213132     -69.7325876
9.277                0.905938886     -69.8462603
9.278                0.905663625     -69.9602476
9.279                0.905387346     -70.0745504
9.28                 0.905110046     -70.1891702
9.281                 0.90483172     -70.3041078
9.282                0.904552365     -70.4193646
9.283                0.904271979     -70.5349417
9.284                0.903990556     -70.6508403
9.285                0.903708094     -70.7670615
9.286                0.903424589     -70.8836065
9.287                0.903140037     -71.0004766
9.288                0.902854435     -71.1176728
9.289                0.902567779     -71.2351964
9.29                 0.902280067     -71.3530485
9.291                0.901991293     -71.4712304
9.292                0.901701455     -71.5897433
9.293                0.901410549     -71.7085884
9.294                0.901118571     -71.8277669
9.295                0.900825518       -71.94728
9.296                0.900531386     -72.0671289
9.297                0.900236172     -72.1873149
9.298                0.899939872     -72.3078392
9.299                0.899642482      -72.428703
9.3                  0.899343999     -72.5499076
9.301                0.899044419     -72.6714542
9.302                 0.89874374     -72.7933441
9.303                0.898441956     -72.9155785
9.304                0.898139064     -73.0381587
9.305                0.897835062      -73.161086
9.306                0.897529945     -73.2843615
9.307                0.897223709     -73.4079866
9.308                0.896916352     -73.5319627
9.309                 0.89660787     -73.6562908
9.31                 0.896298258     -73.7809724
9.311                0.895987513     -73.9060087
9.312                0.895675633     -74.0314011
9.313                0.895362613     -74.1571507
9.314                0.895048449      -74.283259
9.315                0.894733139     -74.4097272
9.316                0.894416678     -74.5365567
9.317                0.894099063     -74.6637488
9.318                 0.89378029     -74.7913048
9.319                0.893460356     -74.9192259
9.32                 0.893139258     -75.0475137
9.321                0.892816991     -75.1761693
9.322                0.892493553     -75.3051942
9.323                0.892168939     -75.4345897
9.324                0.891843146     -75.5643571
9.325                0.891516171     -75.6944979
9.326                 0.89118801     -75.8250133
9.327                 0.89085866     -75.9559047
9.328                0.890528117     -76.0871735
9.329                0.890196377     -76.2188211
9.33                 0.889863438     -76.3508489
9.331                0.889529295     -76.4832582
9.332                0.889193945     -76.6160504
9.333                0.888857385      -76.749227
9.334                0.888519611     -76.8827893
9.335                 0.88818062     -77.0167387
9.336                0.887840408     -77.1510767
9.337                0.887498972     -77.2858047
9.338                0.887156309      -77.420924
9.339                0.886812415     -77.5564361
9.34                 0.886467286     -77.6923425
9.341                 0.88612092     -77.8286445
9.342                0.885773313     -77.9653437
9.343                0.885424461     -78.1024413
9.344                0.885074362      -78.239939
9.345                0.884723011     -78.3778381
9.346                0.884370406     -78.5161401
9.347                0.884016543     -78.6548465
9.348                0.883661419     -78.7939587
9.349                0.883305031     -78.9334782
9.35                 0.882947376     -79.0734065
9.351                0.882588449     -79.2137451
9.352                0.882228249     -79.3544954
9.353                0.881866771     -79.4956589
9.354                0.881504013     -79.6372371
9.355                0.881139971     -79.7792316
9.356                0.880774643     -79.9216438
9.357                0.880408024     -80.0644753
9.358                0.880040112     -80.2077275
9.359                0.879670905      -80.351402
9.36                 0.879300398     -80.4955003
9.361                0.878928588     -80.6400239
9.362                0.878555474     -80.7849744
9.363                 0.87818105     -80.9303532
9.364                0.877805316      -81.076162
9.365                0.877428267     -81.2224023
9.366                0.877049901     -81.3690756
9.367                0.876670215     -81.5161835
9.368                0.876289205     -81.6637276
9.369                0.875906869     -81.8117093
9.37                 0.875523205     -81.9601304
9.371                0.875138209     -82.1089923
9.372                0.874751878     -82.2582966
9.373                 0.87436421     -82.4080449
9.374                0.873975202     -82.5582389
9.375                0.873584851       -82.70888
9.376                0.873193154     -82.8599699
9.377                 0.87280011     -83.0115102
9.378                0.872405714     -83.1635026
9.379                0.872009965     -83.3159485
9.38                 0.871612861     -83.4688496
9.381                0.871214398     -83.6222076
9.382                0.870814573      -83.776024
9.383                0.870413386     -83.9303005
9.384                0.870010832     -84.0850387
9.385                 0.86960691     -84.2402403
9.386                0.869201617     -84.3959069
9.387                0.868794951     -84.5520401
9.388                 0.86838691     -84.7086415
9.389                0.867977491      -84.865713
9.39                 0.867566693      -85.023256
9.391                0.867154512     -85.1812722
9.392                0.866740948     -85.3397634
9.393                0.866325996     -85.4987312
9.394                0.865909657     -85.6581772
9.395                0.865491927     -85.8181031
9.396                0.865072805     -85.9785107
