! TOUCHSTONE file generated by CST DESIGN STUDIO
! Date and time: Tue Jan 28 13:43:18 2025
! Project name: C:\Work\MatlabApps\UnitCellOptimizationMatlab\CST\unitcell.cst
! Tree item: Tasks\Sweep1\SPara1\S-Parameters
! Header version: 2024
! Port assignment regex: !\s*Touchstone port\s*([0-9]+)\s*=\s*(CST MWS port|CST DES external port|CST DES block port)\s*(.+)\s* \(\"(.*)\"\)(\s*mode\s*([0-9]+))?.*
! Touchstone port assignment:
! Touchstone port 1 = CST DES external port 1 ("")
# GHz S MA R 50
9                    0.918929462     -65.6469572
9.001                0.918711623     -65.7475511
9.002                0.918493229     -65.8484255
9.003                0.918274278     -65.9495815
9.004                0.918054766     -66.0510202
9.005                0.917834693     -66.1527427
9.006                0.917614054     -66.2547503
9.007                0.917392849     -66.3570439
9.008                0.917171074     -66.4596248
9.009                0.916948727     -66.5624941
9.01                 0.916725806      -66.665653
9.011                0.916502308     -66.7691026
9.012                 0.91627823      -66.872844
9.013                0.916053571     -66.9768785
9.014                0.915828328     -67.0812072
9.015                0.915602498     -67.1858313
9.016                0.915376079     -67.2907519
9.017                0.915149068     -67.3959703
9.018                0.914921463     -67.5014877
9.019                0.914693261     -67.6073052
9.02                  0.91446446      -67.713424
9.021                0.914235057     -67.8198454
9.022                0.914005049     -67.9265705
9.023                0.913774435     -68.0336006
9.024                0.913543211     -68.1409369
9.025                0.913311375     -68.2485807
9.026                0.913078924      -68.356533
9.027                0.912845855     -68.4647953
9.028                0.912612167     -68.5733687
9.029                0.912377856     -68.6822545
9.03                  0.91214292     -68.7914539
9.031                0.911907356     -68.9009682
9.032                0.911671161     -69.0107986
9.033                0.911434333     -69.1209465
9.034                0.911196869      -69.231413
9.035                0.910958767     -69.3421995
9.036                0.910720023     -69.4533072
9.037                0.910480636     -69.5647375
9.038                0.910240601     -69.6764916
9.039                0.909999918     -69.7885708
9.04                 0.909758582     -69.9009765
9.041                0.909516591     -70.0137099
9.042                0.909273943     -70.1267723
9.043                0.909030635     -70.2401652
9.044                0.908786663     -70.3538897
9.045                0.908542026     -70.4679473
9.046                 0.90829672     -70.5823392
9.047                0.908050742     -70.6970668
9.048                 0.90780409     -70.8121315
9.049                0.907556762     -70.9275346
9.05                 0.907308753     -71.0432774
9.051                0.907060062     -71.1593614
9.052                0.906810686     -71.2757879
9.053                0.906560621     -71.3925582
9.054                0.906309865     -71.5096738
9.055                0.906058415      -71.627136
9.056                0.905806268     -71.7449462
9.057                0.905553422     -71.8631059
9.058                0.905299873     -71.9816164
9.059                0.905045619     -72.1004791
9.06                 0.904790657     -72.2196954
9.061                0.904534984     -72.3392668
9.062                0.904278596     -72.4591947
9.063                0.904021492     -72.5794805
9.064                0.903763668     -72.7001256
9.065                0.903505121     -72.8211316
9.066                0.903245849     -72.9424997
9.067                0.902985848     -73.0642315
9.068                0.902725116     -73.1863285
9.069                0.902463649     -73.3087921
9.07                 0.902201446     -73.4316238
9.071                0.901938502      -73.554825
9.072                0.901674815     -73.6783972
9.073                0.901410382      -73.802342
9.074                  0.9011452     -73.9266607
9.075                0.900879266      -74.051355
9.076                0.900612577     -74.1764262
9.077                0.900345131      -74.301876
9.078                0.900076923     -74.4277058
9.079                0.899807952     -74.5539171
9.08                 0.899538215     -74.6805115
9.081                0.899267707     -74.8074906
9.082                0.898996427     -74.9348557
9.083                0.898724372     -75.0626086
9.084                0.898451538     -75.1907507
9.085                0.898177922     -75.3192835
9.086                0.897903522     -75.4482088
9.087                0.897628335     -75.5775279
9.088                0.897352357     -75.7072425
9.089                0.897075586     -75.8373542
9.09                 0.896798019     -75.9678646
9.091                0.896519652     -76.0987751
9.092                0.896240483     -76.2300875
9.093                0.895960509     -76.3618034
9.094                0.895679726     -76.4939243
9.095                0.895398133     -76.6264518
9.096                0.895115725     -76.7593877
9.097                  0.8948325     -76.8927334
9.098                0.894548455     -77.0264906
9.099                0.894263587      -77.160661
9.1                  0.893977894     -77.2952463
9.101                0.893691371     -77.4302479
9.102                0.893404016     -77.5656677
9.103                0.893115827     -77.7015073
9.104                  0.8928268     -77.8377682
9.105                0.892536932     -77.9744523
9.106                 0.89224622     -78.1115612
9.107                0.891954662     -78.2490965
9.108                0.891662255       -78.38706
9.109                0.891368995     -78.5254534
9.11                 0.891074879     -78.6642782
9.111                0.890779906     -78.8035364
9.112                0.890484072     -78.9432295
9.113                0.890187373     -79.0833593
9.114                0.889889808     -79.2239275
9.115                0.889591373     -79.3649358
9.116                0.889292065      -79.506386
9.117                0.888991882     -79.6482799
9.118                 0.88869082      -79.790619
9.119                0.888388877     -79.9334053
9.12                 0.888086051     -80.0766405
9.121                0.887782337     -80.2203263
9.122                0.887477734     -80.3644645
9.123                0.887172238     -80.5090569
9.124                0.886865848     -80.6541053
9.125                0.886558559     -80.7996114
9.126                 0.88625037     -80.9455771
9.127                0.885941277     -81.0920041
9.128                0.885631277     -81.2388942
9.129                0.885320369     -81.3862493
9.13                  0.88500855     -81.5340712
9.131                0.884695815     -81.6823617
9.132                0.884382164     -81.8311225
9.133                0.884067593     -81.9803557
9.134                  0.8837521     -82.1300629
9.135                0.883435682     -82.2802461
9.136                0.883118336      -82.430907
9.137                0.882800061     -82.5820476
9.138                0.882480852     -82.7336697
9.139                0.882160708     -82.8857751
9.14                 0.881839626     -83.0383658
9.141                0.881517604     -83.1914436
9.142                0.881194639     -83.3450104
9.143                0.880870729     -83.4990681
9.144                0.880545871     -83.6536185
9.145                0.880220063     -83.8086636
9.146                0.879893302     -83.9642053
9.147                0.879565586     -84.1202455
9.148                0.879236913     -84.2767861
9.149                 0.87890728      -84.433829
9.15                 0.878576685     -84.5913761
9.151                0.878245125     -84.7494294
9.152                  0.8779126     -84.9079908
9.153                0.877579105     -85.0670623
9.154                0.877244639     -85.2266457
9.155                0.876909201     -85.3867431
9.156                0.876572786     -85.5473564
9.157                0.876235395     -85.7084876
9.158                0.875897024     -85.8701385
9.159                0.875557671     -86.0323113
9.16                 0.875217335     -86.1950078
9.161                0.874876013     -86.3582301
9.162                0.874533704     -86.5219801
9.163                0.874190405     -86.6862598
9.164                0.873846115     -86.8510712
9.165                0.873500831     -87.0164164
9.166                0.873154553     -87.1822972
9.167                0.872807277     -87.3487158
9.168                0.872459004     -87.5156741
9.169                0.872109729     -87.6831741
9.17                 0.871759453     -87.8512179
9.171                0.871408174     -88.0198075
9.172                0.871055889      -88.188945
9.173                0.870702598     -88.3586323
9.174                0.870348298     -88.5288714
9.175                0.869992989     -88.6996645
9.176                0.869636669     -88.8710136
9.177                0.869279336     -89.0429207
9.178                 0.86892099     -89.2153879
9.179                0.868561629     -89.3884173
9.18                 0.868201251     -89.5620108
9.181                0.867839856     -89.7361706
9.182                0.867477443     -89.9108987
9.183                 0.86711401     -90.0861973
9.184                0.866749556     -90.2620683
9.185                0.866384081     -90.4385139
9.186                0.866017583     -90.6155361
9.187                0.865650062      -90.793137
9.188                0.865281517     -90.9713188
9.189                0.864911947     -91.1500835
9.19                 0.864541351     -91.3294331
9.191                0.864169729     -91.5093699
9.192                 0.86379708     -91.6898959
9.193                0.863423403     -91.8710131
9.194                0.863048699     -92.0527238
9.195                0.862672966       -92.23503
9.196                0.862296205     -92.4179338
9.197                0.861918415     -92.6014373
9.198                0.861539596     -92.7855427
9.199                0.861159748     -92.9702521
9.2                  0.860778871     -93.1555676
9.201                0.860396964     -93.3414912
9.202                0.860014028     -93.5280253
9.203                0.859630064     -93.7151717
9.204                 0.85924507     -93.9029328
9.205                0.858859048     -94.0913106
9.206                0.858471997     -94.2803072
9.207                0.858083919     -94.4699249
9.208                0.857694813     -94.6601656
9.209                0.857304681     -94.8510316
9.21                 0.856913523     -95.0425249
9.211                0.856521339     -95.2346478
9.212                0.856128131     -95.4274023
9.213                  0.8557339     -95.6207906
9.214                0.855338646     -95.8148149
9.215                 0.85494237     -96.0094772
9.216                0.854545074     -96.2047797
9.217                0.854146759     -96.4007246
9.218                0.853747427     -96.5973139
9.219                0.853347078     -96.7945498
9.22                 0.852945714     -96.9924345
9.221                0.852543337     -97.1909701
9.222                0.852139948     -97.3901587
9.223                 0.85173555     -97.5900025
9.224                0.851330144     -97.7905036
9.225                0.850923732     -97.9916641
9.226                0.850516317     -98.1934861
9.227                0.850107899     -98.3959719
9.228                0.849698483     -98.5991234
9.229                 0.84928807     -98.8029429
9.23                 0.848876662     -99.0074325
9.231                0.848464263     -99.2125943
9.232                0.848050874     -99.4184304
9.233                0.847636499      -99.624943
9.234                0.847221141      -99.832134
9.235                0.846804803     -100.040006
9.236                0.846387487      -100.24856
9.237                0.845969197       -100.4578
9.238                0.845549937     -100.667726
9.239                 0.84512971     -100.878342
9.24                  0.84470852     -101.089648
9.241                0.844286369     -101.301648
9.242                0.843863263     -101.514343
9.243                0.843439205     -101.727736
9.244                0.843014199     -101.941828
9.245                0.842588249     -102.156622
9.246                 0.84216136      -102.37212
9.247                0.841733537     -102.588323
9.248                0.841304783     -102.805234
9.249                0.840875104     -103.022855
9.25                 0.840444504     -103.241188
9.251                0.840012988     -103.460234
9.252                0.839580562     -103.679997
9.253                 0.83914723     -103.900478
9.254                0.838712999     -104.121678
9.255                0.838277874     -104.343601
9.256                0.837841859     -104.566247
9.257                0.837404962      -104.78962
9.258                0.836967189     -105.013721
9.259                0.836528544     -105.238552
9.26                 0.836089035     -105.464114
9.261                0.835648668     -105.690411
9.262                0.835207449     -105.917443
9.263                0.834765386     -106.145214
9.264                0.834322485     -106.373724
9.265                0.833878752     -106.602976
9.266                0.833434196     -106.832971
9.267                0.832988824     -107.063712
9.268                0.832542642     -107.295201
9.269                0.832095659     -107.527438
9.27                 0.831647883     -107.760427
9.271                0.831199321     -107.994169
9.272                0.830749982     -108.228666
9.273                0.830299873      -108.46392
9.274                0.829849004     -108.699932
9.275                0.829397383     -108.936705
9.276                0.828945018      -109.17424
9.277                 0.82849192     -109.412538
9.278                0.828038096     -109.651603
9.279                0.827583556     -109.891435
9.28                  0.82712831     -110.132036
9.281                0.826672368     -110.373409
9.282                0.826215738     -110.615554
9.283                0.825758432     -110.858473
9.284                0.825300459     -111.102169
9.285                 0.82484183     -111.346642
9.286                0.824382556     -111.591894
9.287                0.823922646     -111.837928
9.288                0.823462113     -112.084745
9.289                0.823000967     -112.332345
9.29                 0.822539219     -112.580732
9.291                0.822076882     -112.829906
9.292                0.821613966     -113.079869
9.293                0.821150484     -113.330622
9.294                0.820686448     -113.582167
9.295                 0.82022187     -113.834506
9.296                0.819756762      -114.08764
9.297                0.819291138      -114.34157
9.298                0.818825009     -114.596298
9.299                 0.81835839     -114.851825
9.3                  0.817891293     -115.108153
9.301                0.817423733     -115.365283
9.302                0.816955721     -115.623216
9.303                0.816487274     -115.881954
9.304                0.816018403     -116.141497
9.305                0.815549125     -116.401848
9.306                0.815079453     -116.663007
9.307                0.814609402     -116.924976
9.308                0.814138988     -117.187756
9.309                0.813668224     -117.451348
9.31                 0.813197127     -117.715752
9.311                0.812725711     -117.980971
9.312                0.812253994     -118.247006
9.313                 0.81178199     -118.513857
9.314                0.811309717     -118.781525
9.315                0.810837189     -119.050011
9.316                0.810364425     -119.319318
9.317                 0.80989144     -119.589444
9.318                0.809418253     -119.860392
9.319                0.808944879     -120.132161
9.32                 0.808471337     -120.404754
9.321                0.807997645     -120.678171
9.322                0.807523819     -120.952412
9.323                0.807049879     -121.227479
9.324                0.806575843     -121.503372
9.325                0.806101729     -121.780091
9.326                0.805627556     -122.057638
9.327                0.805153344     -122.336013
9.328                 0.80467911     -122.615217
9.329                0.804204876      -122.89525
9.33                  0.80373066     -123.176113
9.331                0.803256482     -123.457806
9.332                0.802782363     -123.740329
9.333                0.802308322     -124.023684
9.334                0.801834381      -124.30787
9.335                 0.80136056     -124.592888
9.336                0.800886881     -124.878738
9.337                0.800413363      -125.16542
9.338                 0.79994003     -125.452935
9.339                0.799466902     -125.741283
9.34                 0.798994001     -126.030463
9.341                0.798521349     -126.320477
9.342                 0.79804897     -126.611323
9.343                0.797576884     -126.903003
9.344                0.797105115     -127.195515
9.345                0.796633687      -127.48886
9.346                0.796162621     -127.783038
9.347                0.795691942     -128.078049
9.348                0.795221673     -128.373892
9.349                0.794751837     -128.670568
9.35                  0.79428246     -128.968075
9.351                0.793813564     -129.266413
9.352                0.793345175     -129.565583
9.353                0.792877318     -129.865583
9.354                0.792410016     -130.166414
9.355                0.791943295     -130.468074
9.356                 0.79147718     -130.770563
9.357                0.791011697     -131.073881
9.358                0.790546872     -131.378026
9.359                0.790082729     -131.682998
9.36                 0.789619296     -131.988796
9.361                0.789156598      -132.29542
9.362                0.788694663     -132.602868
9.363                0.788233515      -132.91114
9.364                0.787773183     -133.220234
9.365                0.787313694     -133.530149
9.366                0.786855074     -133.840885
9.367                 0.78639735      -134.15244
9.368                0.785940552     -134.464812
9.369                0.785484705     -134.778002
9.37                 0.785029838     -135.092006
9.371                 0.78457598     -135.406825
9.372                0.784123157     -135.722456
9.373                  0.7836714     -136.038898
9.374                0.783220735     -136.356149
9.375                0.782771193     -136.674208
9.376                0.782322802     -136.993073
9.377                 0.78187559     -137.312743
9.378                0.781429588     -137.633215
9.379                0.780984824     -137.954488
9.38                 0.780541328     -138.276559
9.381                0.780099129     -138.599427
9.382                0.779658258      -138.92309
9.383                0.779218744     -139.247546
9.384                0.778780618     -139.572791
9.385                0.778343909     -139.898825
9.386                0.777908647     -140.225645
9.387                0.777474864     -140.553249
9.388                0.777042589     -140.881633
9.389                0.776611853     -141.210796
9.39                 0.776182688     -141.540735
9.391                0.775755123     -141.871448
9.392                 0.77532919     -142.202931
9.393                 0.77490492     -142.535182
9.394                0.774482343     -142.868199
9.395                0.774061492     -143.201977
9.396                0.773642397     -143.536515
