! TOUCHSTONE file generated by CST DESIGN STUDIO
! Date and time: Tue Jan 28 13:43:11 2025
! Project name: C:\Work\MatlabApps\UnitCellOptimizationMatlab\CST\unitcell.cst
! Tree item: Tasks\Sweep1\SPara1\S-Parameters
! Header version: 2024
! Port assignment regex: !\s*Touchstone port\s*([0-9]+)\s*=\s*(CST MWS port|CST DES external port|CST DES block port)\s*(.+)\s* \(\"(.*)\"\)(\s*mode\s*([0-9]+))?.*
! Touchstone port assignment:
! Touchstone port 1 = CST DES external port 1 ("")
# GHz S MA R 50
9                     0.77496943     -126.777315
9.001                0.774191831     -127.083364
9.002                0.773414765     -127.390353
9.003                0.772638269     -127.698282
9.004                0.771862383     -128.007152
9.005                0.771087147     -128.316963
9.006                  0.7703126     -128.627717
9.007                0.769538783     -128.939414
9.008                0.768765736     -129.252054
9.009                  0.7679935     -129.565637
9.01                 0.767222115     -129.880166
9.011                0.766451625     -130.195639
9.012                 0.76568207     -130.512057
9.013                0.764913492      -130.82942
9.014                0.764145935     -131.147729
9.015                0.763379441     -131.466984
9.016                0.762614053     -131.787184
9.017                0.761849814     -132.108331
9.018                0.761086769     -132.430423
9.019                0.760324961     -132.753461
9.02                 0.759564436     -133.077445
9.021                0.758805237     -133.402375
9.022                0.758047409     -133.728249
9.023                0.757290998     -134.055069
9.024                 0.75653605     -134.382833
9.025                0.755782611     -134.711542
9.026                0.755030726     -135.041194
9.027                0.754280441     -135.371789
9.028                0.753531805     -135.703326
9.029                0.752784864     -136.035805
9.03                 0.752039664     -136.369225
9.031                0.751296255     -136.703585
9.032                0.750554682     -137.038884
9.033                0.749814996      -137.37512
9.034                0.749077243     -137.712294
9.035                0.748341473     -138.050404
9.036                0.747607733     -138.389449
9.037                0.746876075     -138.729426
9.038                0.746146545     -139.070336
9.039                0.745419195     -139.412176
9.04                 0.744694074     -139.754945
9.041                0.743971231     -140.098641
9.042                0.743250717     -140.443263
9.043                0.742532582     -140.788808
9.044                0.741816877     -141.135276
9.045                0.741103653     -141.482663
9.046                 0.74039296     -141.830969
9.047                0.739684849      -142.18019
9.048                0.738979372     -142.530325
9.049                 0.73827658     -142.881372
9.05                 0.737576524     -143.233327
9.051                0.736879257     -143.586189
9.052                 0.73618483     -143.939955
9.053                0.735493294     -144.294623
9.054                0.734804703     -144.650189
9.055                0.734119109      -145.00665
9.056                0.733436563     -145.364005
9.057                0.732757118     -145.722249
9.058                0.732080826     -146.081381
9.059                 0.73140774     -146.441396
9.06                 0.730737913     -146.802291
9.061                0.730071398     -147.164063
9.062                0.729408246     -147.526709
9.063                0.728748511     -147.890224
9.064                0.728092246     -148.254606
9.065                0.727439504      -148.61985
9.066                0.726790336     -148.985953
9.067                0.726144797      -149.35291
9.068                0.725502939     -149.720718
9.069                0.724864815     -150.089373
9.07                 0.724230478     -150.458869
9.071                 0.72359998     -150.829203
9.072                0.722973374     -151.200371
9.073                0.722350713     -151.572367
9.074                0.721732049     -151.945188
9.075                0.721117436     -152.318828
9.076                0.720506925     -152.693282
9.077                0.719900568     -153.068546
9.078                0.719298419     -153.444614
9.079                0.718700528     -153.821481
9.08                 0.718106949     -154.199142
9.081                0.717517733     -154.577592
9.082                0.716932931     -154.956825
9.083                0.716352595     -155.336835
9.084                0.715776776     -155.717617
9.085                0.715205526     -156.099165
9.086                0.714638895     -156.481473
9.087                0.714076935     -156.864535
9.088                0.713519695     -157.248344
9.089                0.712967226     -157.632896
9.09                 0.712419577     -158.018183
9.091                  0.7118768     -158.404198
9.092                0.711338942     -158.790936
9.093                0.710806054      -159.17839
9.094                0.710278184     -159.566552
9.095                0.709755381     -159.955417
9.096                0.709237692     -160.344977
9.097                0.708725167     -160.735224
9.098                0.708217852     -161.126153
9.099                0.707715794     -161.517755
9.1                  0.707219042     -161.910024
9.101                 0.70672764     -162.302951
9.102                0.706241635     -162.696529
9.103                0.705761073     -163.090751
9.104                0.705285999     -163.485609
9.105                0.704816457     -163.881094
9.106                0.704352493       -164.2772
9.107                 0.70389415     -164.673917
9.108                0.703441471     -165.071237
9.109                0.702994499     -165.469153
9.11                 0.702553278     -165.867656
9.111                0.702117848     -166.266737
9.112                0.701688251     -166.666388
9.113                0.701264529     -167.066601
9.114                0.700846721     -167.467365
9.115                0.700434868     -167.868674
9.116                0.700029008     -168.270517
9.117                0.699629181     -168.672886
9.118                0.699235424     -169.075771
9.119                0.698847775     -169.479163
9.12                 0.698466271     -169.883054
9.121                0.698090947     -170.287433
9.122                0.697721841     -170.692291
9.123                0.697358987     -171.097619
9.124                0.697002419     -171.503407
9.125                 0.69665217     -171.909644
9.126                0.696308275     -172.316323
9.127                0.695970764     -172.723431
9.128                0.695639671     -173.130961
9.129                0.695315026     -173.538901
9.13                 0.694996858     -173.947241
9.131                0.694685198     -174.355971
9.132                0.694380075     -174.765082
9.133                0.694081516     -175.174562
9.134                 0.69378955     -175.584401
9.135                0.693504201     -175.994589
9.136                0.693225497     -176.405115
9.137                0.692953461     -176.815969
9.138                 0.69268812      -177.22714
9.139                0.692429495     -177.638617
9.14                 0.692177609      -178.05039
9.141                0.691932486     -178.462447
9.142                0.691694144     -178.874778
9.143                0.691462605     -179.287372
9.144                0.691237889     -179.700218
9.145                0.691020013      179.886695
9.146                0.690808995      179.473379
9.147                0.690604853      179.059844
9.148                0.690407602      178.646101
9.149                0.690217257      178.232163
9.15                 0.690033833      177.818039
9.151                0.689857344      177.403742
9.152                0.689687802      176.989282
9.153                0.689525218      176.574672
9.154                0.689369604      176.159921
9.155                 0.68922097      175.745043
9.156                0.689079324      175.330048
9.157                0.688944675      174.914947
9.158                0.688817031      174.499753
9.159                0.688696397      174.084476
9.16                 0.688582779      173.669129
9.161                0.688476182      173.253723
9.162                 0.68837661      172.838269
9.163                0.688284066      172.422778
9.164                 0.68819855      172.007264
9.165                0.688120066      171.591736
9.166                0.688048612      171.176207
9.167                0.687984188      170.760688
9.168                0.687926793      170.345191
9.169                0.687876423      169.929728
9.17                 0.687833076       169.51431
9.171                0.687796747      169.098948
9.172                 0.68776743      168.683654
9.173                0.687745121       168.26844
9.174                0.687729812      167.853318
9.175                0.687721494      167.438298
9.176                 0.68772016      167.023393
9.177                0.687725799      166.608613
9.178                0.687738401      166.193971
9.179                0.687757954      165.779477
9.18                 0.687784448      165.365144
9.181                0.687817867      164.950982
9.182                0.687858198      164.537003
9.183                0.687905427      164.123218
9.184                0.687959537      163.709639
9.185                0.688020512      163.296276
9.186                0.688088335      162.883142
9.187                0.688162987      162.470247
9.188                 0.68824445      162.057602
9.189                0.688332703      161.645218
9.19                 0.688427725      161.233107
9.191                0.688529496      160.821279
9.192                0.688637993      160.409746
9.193                0.688753192      159.998518
9.194                 0.68887507      159.587606
9.195                0.689003602      159.177021
9.196                0.689138762      158.766773
9.197                0.689280525      158.356874
9.198                0.689428863      157.947334
9.199                0.689583749      157.538163
9.2                  0.689745153      157.129372
9.201                0.689913048      156.720971
9.202                0.690087402      156.312971
9.203                0.690268186      155.905382
9.204                0.690455367      155.498213
9.205                0.690648915      155.091476
9.206                0.690848795      154.685181
9.207                0.691054975      154.279336
9.208                0.691267421      153.873952
9.209                0.691486098       153.46904
9.21                  0.69171097      153.064607
9.211                0.691942002      152.660666
9.212                0.692179157      152.257224
9.213                0.692422397      151.854291
9.214                0.692671685      151.451877
9.215                0.692926983      151.049991
9.216                0.693188252      150.648642
9.217                0.693455451       150.24784
9.218                0.693728542      149.847593
9.219                0.694007482       149.44791
9.22                 0.694292232      149.048801
9.221                0.694582749      148.650273
9.222                0.694878992      148.252337
9.223                0.695180917      147.854999
9.224                0.695488482      147.458269
9.225                0.695801642      147.062155
9.226                0.696120355      146.666666
9.227                0.696444574      146.271809
9.228                0.696774256      145.877592
9.229                0.697109355      145.484025
9.23                 0.697449825      145.091113
9.231                0.697795621      144.698867
9.232                0.698146694      144.307292
9.233                   0.698503      143.916396
9.234                 0.69886449      143.526188
9.235                0.699231116      143.136674
9.236                0.699602831      142.747861
9.237                0.699979587      142.359758
9.238                0.700361334       141.97237
9.239                0.700748025      141.585706
9.24                  0.70113961      141.199771
9.241                0.701536039      140.814572
9.242                0.701937263      140.430117
9.243                0.702343232      140.046411
9.244                0.702753895      139.663461
9.245                0.703169203      139.281274
9.246                0.703589105      138.899856
9.247                 0.70401355      138.519212
9.248                0.704442487      138.139349
9.249                0.704875864      137.760273
9.25                 0.705313632      137.381989
9.251                0.705755737      137.004503
9.252                0.706202129      136.627822
9.253                0.706652756      136.251949
9.254                0.707107566      135.876892
9.255                0.707566507      135.502654
9.256                0.708029526      135.129241
9.257                0.708496573      134.756659
9.258                0.708967594      134.384911
9.259                0.709442538      134.014004
9.26                 0.709921352      133.643942
9.261                0.710403984      133.274728
9.262                0.710890381      132.906369
9.263                0.711380491      132.538869
9.264                0.711874262      132.172231
9.265                0.712371641       131.80646
9.266                0.712872576      131.441561
9.267                0.713377014      131.077537
9.268                0.713884904      130.714391
9.269                0.714396192      130.352129
9.27                 0.714910828      129.990754
9.271                0.715428757      129.630269
9.272                 0.71594993      129.270679
9.273                0.716474292      128.911985
9.274                0.717001793      128.554193
9.275                0.717532381      128.197305
9.276                0.718066004      127.841323
9.277                 0.71860261      127.486253
9.278                0.719142147      127.132095
9.279                0.719684565      126.778854
9.28                 0.720229813      126.426532
9.281                0.720777838      126.075132
9.282                0.721328591      125.724656
9.283                 0.72188202      125.375106
9.284                0.722438075      125.026487
9.285                0.722996706      124.678798
9.286                0.723557862      124.332044
9.287                0.724121493      123.986226
9.288                0.724687549      123.641346
9.289                0.725255981      123.297406
9.29                  0.72582674      122.954408
9.291                0.726399775      122.612355
9.292                0.726975039      122.271247
9.293                0.727552482      121.931086
9.294                0.728132056      121.591874
9.295                0.728713712      121.253613
9.296                0.729297403      120.916304
9.297                0.729883081      120.579948
9.298                0.730470698      120.244547
9.299                0.731060207      119.910101
9.3                  0.731651561      119.576612
9.301                0.732244714      119.244081
9.302                0.732839618      118.912509
9.303                0.733436228      118.581896
9.304                0.734034498      118.252245
9.305                0.734634383      117.923554
9.306                0.735235836      117.595826
9.307                0.735838814       117.26906
9.308                0.736443271      116.943258
9.309                0.737049163      116.618419
9.31                 0.737656446      116.294544
9.311                0.738265076      115.971634
9.312                0.738875011      115.649688
9.313                0.739486206      115.328707
9.314                0.740098618      115.008692
9.315                0.740712207      114.689641
9.316                0.741326929      114.371556
9.317                0.741942742      114.054436
9.318                0.742559606      113.738281
9.319                0.743177479      113.423091
9.32                  0.74379632      113.108865
9.321                0.744416089      112.795604
9.322                0.745036746      112.483308
9.323                0.745658251      112.171974
9.324                0.746280564      111.861604
9.325                0.746903647      111.552197
9.326                0.747527461      111.243753
9.327                0.748151968      110.936269
9.328                0.748777129      110.629747
9.329                0.749402907      110.324185
9.33                 0.750029265      110.019583
9.331                0.750656166       109.71594
9.332                0.751283572      109.413254
9.333                0.751911449      109.111525
9.334                 0.75253976      108.810753
9.335                 0.75316847      108.510936
9.336                0.753797543      108.212072
9.337                0.754426945      107.914162
9.338                0.755056642      107.617204
9.339                0.755686599      107.321196
9.34                 0.756316782      107.026138
9.341                0.756947159      106.732028
9.342                0.757577697      106.438865
9.343                0.758208362      106.146648
9.344                0.758839123      105.855375
9.345                0.759469948      105.565045
9.346                0.760100805      105.275657
9.347                0.760731663      104.987208
9.348                0.761362492      104.699698
9.349                0.761993261      104.413125
9.35                 0.762623939      104.127488
9.351                0.763254498      103.842784
9.352                0.763884907      103.559012
9.353                0.764515139      103.276171
9.354                0.765145164      102.994258
9.355                0.765774953      102.713273
9.356                 0.76640448      102.433212
9.357                0.767033717      102.154075
9.358                0.767662635       101.87586
9.359                0.768291209      101.598564
9.36                 0.768919412      101.322186
9.361                0.769547218      101.046724
9.362                  0.7701746      100.772176
9.363                0.770801535       100.49854
9.364                0.771427995      100.225815
9.365                0.772053957      99.9539967
9.366                0.772679396      99.6830847
9.367                0.773304288      99.4130766
9.368                 0.77392861      99.1439704
9.369                0.774552337      98.8757639
9.37                 0.775175447      98.6084549
9.371                0.775797916      98.3420413
9.372                0.776419724       98.076521
9.373                0.777040847      97.8118917
9.374                0.777661263      97.5481513
9.375                0.778280952      97.2852974
9.376                0.778899891      97.0233279
9.377                0.779518061      96.7622405
9.378                0.780135441      96.5020328
9.379                 0.78075201      96.2427026
9.38                 0.781367749      95.9842476
9.381                0.781982639      95.7266654
9.382                0.782596659      95.4699536
9.383                0.783209791        95.21411
9.384                0.783822017       94.959132
9.385                0.784433318      94.7050174
9.386                0.785043676      94.4517637
9.387                0.785653073      94.1993684
9.388                0.786261492      93.9478292
9.389                0.786868917      93.6971435
9.39                 0.787475329       93.447309
9.391                0.788080713      93.1983231
9.392                0.788685052      92.9501833
9.393                 0.78928833      92.7028872
9.394                0.789890532      92.4564323
9.395                0.790491643       92.210816
9.396                0.791091646      91.9660357
