! TOUCHSTONE file generated by CST DESIGN STUDIO
! Date and time: Tue Feb  4 12:43:34 2025
! Project name: C:\Work\MatlabApps\UnitCellOptimizationMatlab\CST\unitcell.cst
! Tree item: Tasks\Sweep1\SPara1\S-Parameters
! Header version: 2024
! Port assignment regex: !\s*Touchstone port\s*([0-9]+)\s*=\s*(CST MWS port|CST DES external port|CST DES block port)\s*(.+)\s* \(\"(.*)\"\)(\s*mode\s*([0-9]+))?.*
! Touchstone port assignment:
! Touchstone port 1 = CST DES external port 1 ("")
# GHz S MA R 50
9                    0.832880304     -131.792908
9.001                0.832683692     -132.104488
9.002                0.832488341     -132.416993
9.003                 0.83229427     -132.730423
9.004                0.832101495     -133.044778
9.005                0.831910032     -133.360056
9.006                0.831719899     -133.676257
9.007                0.831531112      -133.99338
9.008                0.831343688     -134.311423
9.009                0.831157645     -134.630386
9.01                 0.830972999     -134.950268
9.011                0.830789767     -135.271066
9.012                0.830607967     -135.592781
9.013                0.830427616     -135.915409
9.014                0.830248731     -136.238952
9.015                0.830071329     -136.563405
9.016                0.829895428     -136.888769
9.017                0.829721046     -137.215041
9.018                0.829548199      -137.54222
9.019                0.829376905     -137.870304
9.02                 0.829207182      -138.19929
9.021                0.829039047     -138.529178
9.022                0.828872518     -138.859966
9.023                0.828707612      -139.19165
9.024                0.828544348     -139.524229
9.025                0.828382741     -139.857701
9.026                0.828222812     -140.192064
9.027                0.828064576     -140.527315
9.028                0.827908051     -140.863451
9.029                0.827753256     -141.200471
9.03                 0.827600208     -141.538371
9.031                0.827448924     -141.877149
9.032                0.827299423     -142.216802
9.033                0.827151721     -142.557328
9.034                0.827005837     -142.898723
9.035                0.826861788     -143.240985
9.036                0.826719591      -143.58411
9.037                0.826579265     -143.928095
9.038                0.826440826     -144.272938
9.039                0.826304293     -144.618634
9.04                 0.826169682     -144.965181
9.041                0.826037012     -145.312575
9.042                0.825906299     -145.660812
9.043                 0.82577756     -146.009888
9.044                0.825650814     -146.359801
9.045                0.825526077     -146.710547
9.046                0.825403366      -147.06212
9.047                0.825282699     -147.414519
9.048                0.825164092     -147.767737
9.049                0.825047563     -148.121772
9.05                 0.824933128     -148.476619
9.051                0.824820804     -148.832274
9.052                0.824710608     -149.188733
9.053                0.824602555      -149.54599
9.054                0.824496664     -149.904042
9.055                 0.82439295     -150.262884
9.056                0.824291429     -150.622511
9.057                0.824192118     -150.982919
9.058                0.824095032     -151.344102
9.059                0.824000188     -151.706056
9.06                 0.823907601     -152.068775
9.061                0.823817287     -152.432254
9.062                0.823729262     -152.796489
9.063                 0.82364354     -153.161473
9.064                0.823560138     -153.527203
9.065                 0.82347907     -153.893671
9.066                0.823400351     -154.260872
9.067                0.823323996     -154.628802
9.068                 0.82325002     -154.997454
9.069                0.823178437     -155.366822
9.07                 0.823109262       -155.7369
9.071                0.823042507     -156.107683
9.072                0.822978189     -156.479165
9.073                0.822916319     -156.851338
9.074                0.822856912     -157.224198
9.075                0.822799981     -157.597738
9.076                0.822745539     -157.971951
9.077                0.822693599     -158.346831
9.078                0.822644174     -158.722371
9.079                0.822597277     -159.098566
9.08                 0.822552919     -159.475407
9.081                0.822511112     -159.852889
9.082                 0.82247187     -160.231003
9.083                0.822435202     -160.609745
9.084                0.822401121     -160.989106
9.085                0.822369637     -161.369079
9.086                0.822340762     -161.749657
9.087                0.822314507     -162.130834
9.088                 0.82229088       -162.5126
9.089                0.822269893      -162.89495
9.09                 0.822251556     -163.277876
9.091                0.822235878     -163.661369
9.092                0.822222868     -164.045424
9.093                0.822212535      -164.43003
9.094                0.822204889     -164.815182
9.095                0.822199937     -165.200871
9.096                0.822197688     -165.587089
9.097                0.822198149     -165.973828
9.098                0.822201328     -166.361081
9.099                0.822207233     -166.748838
9.1                  0.822215871     -167.137092
9.101                0.822227247     -167.525834
9.102                0.822241369     -167.915057
9.103                0.822258242     -168.304751
9.104                0.822277873     -168.694909
9.105                0.822300266     -169.085522
9.106                0.822325427      -169.47658
9.107                 0.82235336     -169.868076
9.108                 0.82238407     -170.260001
9.109                0.822417561     -170.652346
9.11                 0.822453837     -171.045102
9.111                0.822492901      -171.43826
9.112                0.822534756     -171.831812
9.113                0.822579405     -172.225747
9.114                 0.82262685     -172.620059
9.115                0.822677093     -173.014736
9.116                0.822730137      -173.40977
9.117                0.822785981     -173.805152
9.118                0.822844628     -174.200873
9.119                0.822906078     -174.596923
9.12                 0.822970331     -174.993293
9.121                0.823037387     -175.389973
9.122                0.823107245     -175.786954
9.123                0.823179906     -176.184227
9.124                0.823255366     -176.581782
9.125                0.823333626     -176.979609
9.126                0.823414683     -177.377699
9.127                0.823498535     -177.776043
9.128                0.823585178     -178.174629
9.129                0.823674611      -178.57345
9.13                  0.82376683     -178.972495
9.131                 0.82386183     -179.371754
9.132                0.823959608     -179.771218
9.133                0.824060159      179.829124
9.134                0.824163479      179.429281
9.135                0.824269562      179.029263
9.136                0.824378403      178.629081
9.137                0.824489995      178.228743
9.138                0.824604332       177.82826
9.139                0.824721408      177.427642
9.14                 0.824841215      177.026899
9.141                0.824963746       176.62604
9.142                0.825088993      176.225077
9.143                0.825216948      175.824019
9.144                0.825347603      175.422875
9.145                0.825480948      175.021657
9.146                0.825616974      174.620374
9.147                0.825755672      174.219036
9.148                0.825897031      173.817654
9.149                0.826041042      173.416237
9.15                 0.826187693      173.014795
9.151                0.826336974       172.61334
9.152                0.826488872       172.21188
9.153                0.826643378      171.810426
9.154                0.826800477      171.408987
9.155                0.826960159      171.007575
9.156                 0.82712241      170.606199
9.157                0.827287217      170.204869
9.158                0.827454567      169.803596
9.159                0.827624445      169.402389
9.16                 0.827796839      169.001258
9.161                0.827971733      168.600213
9.162                0.828149113      168.199265
9.163                0.828328964      167.798424
9.164                 0.82851127      167.397699
9.165                0.828696016        166.9971
9.166                0.828883186      166.596638
9.167                0.829072763      166.196322
9.168                0.829264732      165.796162
9.169                0.829459075      165.396168
9.17                 0.829655775      164.996349
9.171                0.829854815      164.596717
9.172                0.830056178       164.19728
9.173                0.830259844      163.798048
9.174                0.830465797      163.399032
9.175                0.830674017      163.000239
9.176                0.830884486      162.601681
9.177                0.831097185      162.203368
9.178                0.831312094      161.805307
9.179                0.831529195       161.40751
9.18                 0.831748467      161.009985
9.181                0.831969891      160.612742
9.182                0.832193446       160.21579
9.183                0.832419112      159.819139
9.184                0.832646869      159.422799
9.185                0.832876695      159.026777
9.186                 0.83310857      158.631085
9.187                0.833342473       158.23573
9.188                0.833578381      157.840722
9.189                0.833816274       157.44607
9.19                 0.834056129      157.051783
9.191                0.834297925       156.65787
9.192                 0.83454164       156.26434
9.193                 0.83478725      155.871201
9.194                0.835034735      155.478463
9.195                0.835284071      155.086135
9.196                0.835535235      154.694224
9.197                0.835788205       154.30274
9.198                0.836042957      153.911692
9.199                0.836299469      153.521087
9.2                  0.836557717      153.130934
9.201                0.836817677      152.741241
9.202                0.837079327      152.352017
9.203                0.837342642      151.963271
9.204                0.837607599      151.575009
9.205                0.837874174      151.187241
9.206                0.838142343      150.799974
9.207                0.838412082      150.413217
9.208                0.838683367      150.026977
9.209                0.838956174      149.641261
9.21                 0.839230479      149.256079
9.211                0.839506257      148.871437
9.212                0.839783485      148.487344
9.213                0.840062137      148.103805
9.214                0.840342189      147.720831
9.215                0.840623617      147.338426
9.216                0.840906397      146.956599
9.217                0.841190504      146.575358
9.218                0.841475913      146.194709
9.219                  0.8417626      145.814659
9.22                 0.842050541      145.435215
9.221                 0.84233971      145.056384
9.222                0.842630084      144.678174
9.223                0.842921637      144.300591
9.224                0.843214346      143.923641
9.225                0.843508185      143.547331
9.226                0.843803131      143.171668
9.227                0.844099158      142.796658
9.228                0.844396243      142.422308
9.229                0.844694361      142.048624
9.23                 0.844993488      141.675611
9.231                0.845293599      141.303277
9.232                0.845594671      140.931627
9.233                0.845896679      140.560667
9.234                0.846199598      140.190404
9.235                0.846503406      139.820842
9.236                0.846808078      139.451988
9.237                 0.84711359      139.083847
9.238                0.847419918      138.716425
9.239                0.847727039      138.349727
9.24                 0.848034929      137.983758
9.241                0.848343565      137.618525
9.242                0.848652923      137.254032
9.243                 0.84896298      136.890284
9.244                0.849273712      136.527287
9.245                0.849585097      136.165045
9.246                0.849897111      135.803563
9.247                0.850209733      135.442846
9.248                0.850522938      135.082899
9.249                0.850836704      134.723726
9.25                  0.85115101      134.365333
9.251                0.851465832      134.007722
9.252                0.851781148        133.6509
9.253                0.852096936       133.29487
9.254                0.852413175      132.939636
9.255                0.852729843      132.585203
9.256                0.853046917      132.231574
9.257                0.853364377      131.878754
9.258                0.853682201      131.526746
9.259                0.854000368      131.175555
9.26                 0.854318857      130.825184
9.261                0.854637647      130.475636
9.262                0.854956718      130.126916
9.263                0.855276049      129.779026
9.264                0.855595619      129.431971
9.265                0.855915409      129.085753
9.266                0.856235398      128.740377
9.267                0.856555567      128.395844
9.268                0.856875896      128.052158
9.269                0.857196365      127.709323
9.27                 0.857516956       127.36734
9.271                 0.85783765      127.026214
9.272                0.858158426      126.685946
9.273                0.858479268       126.34654
9.274                0.858800155      126.007999
9.275                0.859121071      125.670323
9.276                0.859441996      125.333518
9.277                0.859762913      124.997583
9.278                0.860083803      124.662523
9.279                0.860404651       124.32834
9.28                 0.860725437      123.995034
9.281                0.861046146       123.66261
9.282                0.861366759      123.331068
9.283                0.861687261      123.000411
9.284                0.862007635       122.67064
9.285                0.862327863      122.341758
9.286                0.862647932      122.013767
9.287                0.862967823      121.686667
9.288                0.863287522      121.360461
9.289                0.863607013       121.03515
9.29                  0.86392628      120.710736
9.291                 0.86424531       120.38722
9.292                0.864564085      120.064603
9.293                0.864882593      119.742887
9.294                0.865200818      119.422074
9.295                0.865518746      119.102164
9.296                0.865836363      118.783158
9.297                0.866153655      118.465057
9.298                0.866470608      118.147863
9.299                0.866787209      117.831577
9.3                  0.867103445      117.516198
9.301                0.867419302      117.201729
9.302                0.867734768       116.88817
9.303                0.868049829      116.575521
9.304                0.868364474      116.263783
9.305                0.868678691      115.952956
9.306                0.868992466      115.643042
9.307                0.869305788      115.334041
9.308                0.869618646      115.025953
9.309                0.869931028      114.718778
9.31                 0.870242923      114.412517
9.311                0.870554319      114.107169
9.312                0.870865206      113.802736
9.313                0.871175573      113.499217
9.314                 0.87148541      113.196612
9.315                0.871794706      112.894922
9.316                0.872103452      112.594146
9.317                0.872411637      112.294284
9.318                0.872719251      111.995336
9.319                0.873026285      111.697303
9.32                 0.873332731      111.400182
9.321                0.873638577      111.103976
9.322                0.873943817      110.808682
9.323                 0.87424844      110.514301
9.324                0.874552439      110.220832
9.325                0.874855804      109.928275
9.326                0.875158528       109.63663
9.327                0.875460603      109.345895
9.328                 0.87576202       109.05607
9.329                0.876062773      108.767155
9.33                 0.876362853      108.479148
9.331                0.876662253       108.19205
9.332                0.876960966      107.905859
9.333                0.877258986      107.620575
9.334                0.877556304      107.336196
9.335                0.877852916      107.052722
9.336                0.878148813      106.770152
9.337                 0.87844399      106.488484
9.338                0.878738441      106.207719
9.339                0.879032159      105.927855
9.34                  0.87932514       105.64889
9.341                0.879617376      105.370824
9.342                0.879908864      105.093655
9.343                0.880199597      104.817383
9.344                0.880489569      104.542006
9.345                0.880778777      104.267522
9.346                0.881067216      103.993931
9.347                 0.88135488      103.721232
9.348                0.881641765      103.449422
9.349                0.881927866      103.178501
9.35                  0.88221318      102.908466
9.351                0.882497701      102.639318
9.352                0.882781427      102.371054
9.353                0.883064353      102.103672
9.354                0.883346476      101.837171
9.355                0.883627792       101.57155
9.356                0.883908297      101.306807
9.357                0.884187988       101.04294
9.358                0.884466863      100.779948
9.359                0.884744917      100.517829
9.36                 0.885022149      100.256581
9.361                0.885298554      99.9962032
9.362                0.885574132      99.7366929
9.363                0.885848878      99.4780488
9.364                0.886122791      99.2202689
9.365                0.886395869      98.9633515
9.366                0.886668109      98.7072947
9.367                0.886939509      98.4520968
9.368                0.887210067      98.1977557
9.369                0.887479781      97.9442695
9.37                  0.88774865      97.6916364
9.371                0.888016673      97.4398544
9.372                0.888283847      97.1889216
9.373                0.888550171      96.9388359
9.374                0.888815644      96.6895953
9.375                0.889080264      96.4411978
9.376                0.889344032      96.1936414
9.377                0.889606945       95.946924
9.378                0.889869003      95.7010435
9.379                0.890130205      95.4559978
9.38                 0.890390551      95.2117848
9.381                0.890650039      94.9684024
9.382                 0.89090867      94.7258485
9.383                0.891166443      94.4841208
9.384                0.891423358      94.2432172
9.385                0.891679414      94.0031355
9.386                0.891934611      93.7638734
9.387                 0.89218895      93.5254289
9.388                 0.89244243      93.2877996
9.389                0.892695052      93.0509833
9.39                 0.892946815      92.8149778
9.391                0.893197721      92.5797807
9.392                0.893447769      92.3453898
9.393                 0.89369696      92.1118028
9.394                0.893945294      91.8790173
9.395                0.894192772      91.6470312
9.396                0.894439395      91.4158419
