! TOUCHSTONE file generated by CST DESIGN STUDIO
! Date and time: Tue Feb  4 12:43:41 2025
! Project name: C:\Work\MatlabApps\UnitCellOptimizationMatlab\CST\unitcell.cst
! Tree item: Tasks\Sweep1\SPara1\S-Parameters
! Header version: 2024
! Port assignment regex: !\s*Touchstone port\s*([0-9]+)\s*=\s*(CST MWS port|CST DES external port|CST DES block port)\s*(.+)\s* \(\"(.*)\"\)(\s*mode\s*([0-9]+))?.*
! Touchstone port assignment:
! Touchstone port 1 = CST DES external port 1 ("")
# GHz S MA R 50
9                    0.915187325      -86.260741
9.001                0.915047245      -86.425888
9.002                0.914906678     -86.5915978
9.003                 0.91476562     -86.7578723
9.004                0.914624068     -86.9247137
9.005                0.914482018      -87.092124
9.006                0.914339467     -87.2601054
9.007                0.914196412     -87.4286598
9.008                0.914052848     -87.5977894
9.009                0.913908773     -87.7674963
9.01                 0.913764183     -87.9377826
9.011                0.913619074     -88.1086503
9.012                0.913473443     -88.2801017
9.013                0.913327287     -88.4521387
9.014                0.913180603     -88.6247634
9.015                0.913033385     -88.7979781
9.016                0.912885632     -88.9717848
9.017                 0.91273734     -89.1461856
9.018                0.912588506     -89.3211826
9.019                0.912439125      -89.496778
9.02                 0.912289195     -89.6729738
9.021                0.912138712     -89.8497723
9.022                0.911987674     -90.0271755
9.023                0.911836075     -90.2051855
9.024                0.911683914     -90.3838046
9.025                0.911531186     -90.5630347
9.026                0.911377889     -90.7428781
9.027                0.911224019     -90.9233369
9.028                0.911069572     -91.1044132
9.029                0.910914546     -91.2861092
9.03                 0.910758938      -91.468427
9.031                0.910602743     -91.6513687
9.032                0.910445958     -91.8349365
9.033                0.910288581     -92.0191326
9.034                0.910130609      -92.203959
9.035                0.909972037     -92.3894179
9.036                0.909812863     -92.5755115
9.037                0.909653083     -92.7622419
9.038                0.909492695     -92.9496113
9.039                0.909331695     -93.1376217
9.04                  0.90917008     -93.3262754
9.041                0.909007847     -93.5155745
9.042                0.908844993     -93.7055211
9.043                0.908681515     -93.8961174
9.044                0.908517409     -94.0873655
9.045                0.908352674     -94.2792676
9.046                0.908187305     -94.4718258
9.047                  0.9080213     -94.6650423
9.048                0.907854656     -94.8589191
9.049                 0.90768737     -95.0534585
9.05                 0.907519439     -95.2486625
9.051                 0.90735086     -95.4445333
9.052                 0.90718163     -95.6410731
9.053                0.907011747      -95.838284
9.054                0.906841208      -96.036168
9.055                 0.90667001     -96.2347274
9.056                 0.90649815     -96.4339642
9.057                0.906325626     -96.6338806
9.058                0.906152435     -96.8344787
9.059                0.905978574     -97.0357606
9.06                  0.90580404     -97.2377284
9.061                0.905628832     -97.4403843
9.062                0.905452947     -97.6437303
9.063                0.905276382     -97.8477685
9.064                0.905099135     -98.0525011
9.065                0.904921203     -98.2579301
9.066                0.904742584     -98.4640577
9.067                0.904563275     -98.6708858
9.068                0.904383275     -98.8784167
9.069                0.904202581     -99.0866523
9.07                 0.904021191     -99.2955947
9.071                0.903839103      -99.505246
9.072                0.903656315     -99.7156083
9.073                0.903472824     -99.9266836
9.074                0.903288629     -100.138474
9.075                0.903103727     -100.350981
9.076                0.902918117     -100.564208
9.077                0.902731797     -100.778156
9.078                0.902544765     -100.992827
9.079                0.902357019     -101.208223
9.08                 0.902168558     -101.424346
9.081                0.901979379     -101.641198
9.082                0.901789482     -101.858782
9.083                0.901598865     -102.077099
9.084                0.901407525     -102.296151
9.085                0.901215463      -102.51594
9.086                0.901022676     -102.736468
9.087                0.900829163     -102.957737
9.088                0.900634923     -103.179749
9.089                0.900439954     -103.402506
9.09                 0.900244256     -103.626009
9.091                0.900047828     -103.850261
9.092                0.899850668     -104.075264
9.093                0.899652775      -104.30102
9.094                0.899454149     -104.527529
9.095                0.899254789     -104.754795
9.096                0.899054695     -104.982819
9.097                0.898853864     -105.211602
9.098                0.898652298     -105.441147
9.099                0.898449995     -105.671456
9.1                  0.898246955      -105.90253
9.101                0.898043178     -106.134371
9.102                0.897838663     -106.366981
9.103                 0.89763341     -106.600362
9.104                0.897427419     -106.834514
9.105                0.897220691     -107.069441
9.106                0.897013224     -107.305144
9.107                 0.89680502     -107.541624
9.108                0.896596078     -107.778883
9.109                0.896386398     -108.016923
9.11                 0.896175982     -108.255746
9.111                 0.89596483     -108.495352
9.112                0.895752941     -108.735744
9.113                0.895540318     -108.976924
9.114                 0.89532696     -109.218892
9.115                0.895112869     -109.461651
9.116                0.894898045     -109.705202
9.117                0.894682489     -109.949546
9.118                0.894466203     -110.194685
9.119                0.894249188     -110.440621
9.12                 0.894031445     -110.687354
9.121                0.893812976     -110.934887
9.122                0.893593781     -111.183221
9.123                0.893373864     -111.432357
9.124                0.893153225     -111.682296
9.125                0.892931867     -111.933041
9.126                0.892709791     -112.184591
9.127                0.892486999     -112.436949
9.128                0.892263494     -112.690116
9.129                0.892039278     -112.944094
9.13                 0.891814354     -113.198882
9.131                0.891588723     -113.454483
9.132                 0.89136239     -113.710898
9.133                0.891135355     -113.968128
9.134                0.890907623     -114.226173
9.135                0.890679196     -114.485036
9.136                0.890450077     -114.744718
9.137                 0.89022027     -115.005218
9.138                0.889989778     -115.266539
9.139                0.889758605     -115.528681
9.14                 0.889526754     -115.791646
9.141                0.889294228     -116.055434
9.142                0.889061033     -116.320046
9.143                0.888827171     -116.585483
9.144                0.888592648     -116.851746
9.145                0.888357466     -117.118836
9.146                0.888121632     -117.386753
9.147                0.887885148     -117.655499
9.148                0.887648021     -117.925074
9.149                0.887410254     -118.195478
9.15                 0.887171853     -118.466714
9.151                0.886932823      -118.73878
9.152                0.886693169     -119.011678
9.153                0.886452897     -119.285408
9.154                0.886212012      -119.55997
9.155                0.885970519     -119.835367
9.156                0.885728425     -120.111597
9.157                0.885485736     -120.388661
9.158                0.885242457     -120.666559
9.159                0.884998595     -120.945293
9.16                 0.884754156     -121.224862
9.161                0.884509148     -121.505266
9.162                0.884263576     -121.786506
9.163                0.884017448     -122.068582
9.164                 0.88377077     -122.351494
9.165                0.883523551     -122.635242
9.166                0.883275796     -122.919827
9.167                0.883027514     -123.205248
9.168                0.882778712     -123.491506
9.169                0.882529399     -123.778599
9.17                 0.882279582     -124.066529
9.171                0.882029269     -124.355295
9.172                0.881778469     -124.644897
9.173                0.881527189     -124.935335
9.174                 0.88127544     -125.226609
9.175                0.881023229     -125.518717
9.176                0.880770565      -125.81166
9.177                0.880517459     -126.105438
9.178                0.880263918      -126.40005
9.179                0.880009952     -126.695495
9.18                 0.879755572     -126.991773
9.181                0.879500786     -127.288884
9.182                0.879245605     -127.586826
9.183                0.878990039     -127.885599
9.184                0.878734098     -128.185203
9.185                0.878477793     -128.485637
9.186                0.878221134     -128.786899
9.187                0.877964132     -129.088989
9.188                0.877706798     -129.391906
9.189                0.877449144      -129.69565
9.19                  0.87719118     -130.000218
9.191                0.876932918      -130.30561
9.192                 0.87667437     -130.611825
9.193                0.876415547     -130.918861
9.194                0.876156462     -131.226718
9.195                0.875897126     -131.535394
9.196                0.875637553     -131.844888
9.197                0.875377754     -132.155198
9.198                0.875117742     -132.466323
9.199                 0.87485753     -132.778261
9.2                  0.874597132     -133.091011
9.201                 0.87433656     -133.404571
9.202                0.874075827      -133.71894
9.203                0.873814948     -134.034116
9.204                0.873553935     -134.350096
9.205                0.873292803      -134.66688
9.206                0.873031566     -134.984465
9.207                0.872770237     -135.302849
9.208                0.872508832     -135.622031
9.209                0.872247365     -135.942007
9.21                 0.871985851     -136.262777
9.211                0.871724303     -136.584338
9.212                0.871462738     -136.906687
9.213                0.871201171     -137.229822
9.214                0.870939616     -137.553741
9.215                 0.87067809     -137.878441
9.216                0.870416607     -138.203921
9.217                0.870155185     -138.530176
9.218                0.869893838     -138.857206
9.219                0.869632583     -139.185006
9.22                 0.869371436     -139.513575
9.221                0.869110414     -139.842909
9.222                0.868849533     -140.173005
9.223                0.868588809     -140.503861
9.224                0.868328261     -140.835474
9.225                0.868067904      -141.16784
9.226                0.867807756     -141.500956
9.227                0.867547833      -141.83482
9.228                0.867288155     -142.169427
9.229                0.867028737     -142.504775
9.23                 0.866769599     -142.840861
9.231                0.866510757     -143.177679
9.232                0.866252229     -143.515228
9.233                0.865994034     -143.853504
9.234                0.865736191     -144.192502
9.235                0.865478716      -144.53222
9.236                0.865221629     -144.872652
9.237                0.864964948     -145.213797
9.238                0.864708693     -145.555649
9.239                0.864452881     -145.898204
9.24                 0.864197531     -146.241459
9.241                0.863942664      -146.58541
9.242                0.863688297     -146.930051
9.243                0.863434451      -147.27538
9.244                0.863181144     -147.621391
9.245                0.862928395      -147.96808
9.246                0.862676226     -148.315444
9.247                0.862424654     -148.663476
9.248                  0.8621737     -149.012173
9.249                0.861923383      -149.36153
9.25                 0.861673724     -149.711542
9.251                0.861424743     -150.062205
9.252                0.861176459     -150.413514
9.253                0.860928892     -150.765463
9.254                0.860682063     -151.118047
9.255                0.860435992     -151.471263
9.256                0.860190699     -151.825104
9.257                0.859946205     -152.179565
9.258                 0.85970253     -152.534642
9.259                0.859459694     -152.890328
9.26                 0.859217718     -153.246618
9.261                0.858976622     -153.603508
9.262                0.858736428     -153.960991
9.263                0.858497155     -154.319062
9.264                0.858258825     -154.677715
9.265                0.858021458     -155.036944
9.266                0.857785074     -155.396745
9.267                0.857549695      -155.75711
9.268                0.857315341     -156.118034
9.269                0.857082033     -156.479512
9.27                 0.856849791     -156.841536
9.271                0.856618637     -157.204101
9.272                0.856388591     -157.567202
9.273                0.856159674      -157.93083
9.274                0.855931907     -158.294982
9.275                0.855705309     -158.659649
9.276                0.855479903     -159.024826
9.277                0.855255709     -159.390506
9.278                0.855032746     -159.756683
9.279                0.854811037      -160.12335
9.28                 0.854590601     -160.490501
9.281                0.854371459     -160.858128
9.282                0.854153632     -161.226226
9.283                 0.85393714     -161.594787
9.284                0.853722003     -161.963805
9.285                0.853508241     -162.333272
9.286                0.853295875     -162.703182
9.287                0.853084925     -163.073528
9.288                0.852875412     -163.444302
9.289                0.852667354     -163.815498
9.29                 0.852460773     -164.187108
9.291                0.852255687     -164.559126
9.292                0.852052117     -164.931543
9.293                0.851850082     -165.304353
9.294                0.851649603     -165.677548
9.295                0.851450697     -166.051122
9.296                0.851253385     -166.425065
9.297                0.851057686     -166.799372
9.298                0.850863619     -167.174034
9.299                0.850671203     -167.549043
9.3                  0.850480457     -167.924393
9.301                0.850291399     -168.300075
9.302                0.850104049     -168.676082
9.303                0.849918423     -169.052406
9.304                0.849734542      -169.42904
9.305                0.849552423     -169.805975
9.306                0.849372083     -170.183203
9.307                0.849193541     -170.560717
9.308                0.849016815     -170.938508
9.309                0.848841921     -171.316569
9.31                 0.848668877     -171.694892
9.311                0.848497701     -172.073469
9.312                0.848328409     -172.452291
9.313                0.848161018      -172.83135
9.314                0.847995544     -173.210639
9.315                0.847832004     -173.590149
9.316                0.847670415     -173.969871
9.317                0.847510791     -174.349799
9.318                 0.84735315     -174.729923
9.319                0.847197505     -175.110235
9.32                 0.847043874     -175.490726
9.321                 0.84689227     -175.871389
9.322                0.846742709     -176.252216
9.323                0.846595206     -176.633197
9.324                0.846449774     -177.014324
9.325                0.846306429      -177.39559
9.326                0.846165184     -177.776985
9.327                0.846026052     -178.158501
9.328                0.845889049     -178.540129
9.329                0.845754185     -178.921862
9.33                 0.845621476      -179.30369
9.331                0.845490933     -179.685606
9.332                0.845362569        179.9324
9.333                0.845236396      179.550336
9.334                0.845112427       179.16821
9.335                0.844990673      178.786032
9.336                0.844871145      178.403808
9.337                0.844753854      178.021549
9.338                0.844638813      177.639263
9.339                0.844526031      177.256957
9.34                 0.844415518      176.874642
9.341                0.844307285      176.492325
9.342                0.844201342      176.110014
9.343                0.844097699      175.727719
9.344                0.843996363      175.345448
9.345                0.843897346       174.96321
9.346                0.843800654      174.581013
9.347                0.843706297      174.198865
9.348                0.843614283      173.816776
9.349                 0.84352462      173.434753
9.35                 0.843437315      173.052806
9.351                0.843352375      172.670942
9.352                0.843269808       172.28917
9.353                 0.84318962        171.9075
9.354                0.843111817      171.525938
9.355                0.843036406      171.144494
9.356                0.842963392      170.763176
9.357                0.842892782      170.381992
9.358                0.842824579      170.000952
9.359                0.842758789      169.620062
9.36                 0.842695417      169.239332
9.361                0.842634466      168.858771
9.362                0.842575941      168.478385
9.363                0.842519846      168.098184
9.364                0.842466184      167.718175
9.365                0.842414957      167.338368
9.366                 0.84236617       166.95877
9.367                0.842319823      166.579389
9.368                 0.84227592      166.200234
9.369                0.842234463      165.821312
9.37                 0.842195452      165.442632
9.371                 0.84215889      165.064202
9.372                0.842124776       164.68603
9.373                0.842093113      164.308124
9.374                  0.8420639      163.930491
9.375                0.842037137       163.55314
9.376                0.842012825      163.176079
9.377                0.841990962      162.799315
9.378                0.841971549      162.422856
9.379                0.841954583       162.04671
9.38                 0.841940064      161.670884
9.381                 0.84192799      161.295387
9.382                0.841918359      160.920226
9.383                0.841911169      160.545408
9.384                0.841906417      160.170942
9.385                0.841904101      159.796833
9.386                0.841904217      159.423091
9.387                0.841906763      159.049723
9.388                0.841911734      158.676735
9.389                0.841919128      158.304135
9.39                 0.841928939       157.93193
9.391                0.841941163      157.560128
9.392                0.841955795      157.188735
9.393                0.841972832      156.817759
9.394                0.841992267      156.447207
9.395                0.842014095      156.077086
9.396                 0.84203831      155.707402
