! TOUCHSTONE file generated by CST DESIGN STUDIO
! Date and time: Tue Feb  4 12:43:48 2025
! Project name: C:\Work\MatlabApps\UnitCellOptimizationMatlab\CST\unitcell.cst
! Tree item: Tasks\Sweep1\SPara1\S-Parameters
! Header version: 2024
! Port assignment regex: !\s*Touchstone port\s*([0-9]+)\s*=\s*(CST MWS port|CST DES external port|CST DES block port)\s*(.+)\s* \(\"(.*)\"\)(\s*mode\s*([0-9]+))?.*
! Touchstone port assignment:
! Touchstone port 1 = CST DES external port 1 ("")
# GHz S MA R 50
9                    0.961974362     -59.2517028
9.001                0.961936205     -59.3406624
9.002                 0.96189761     -59.4298611
9.003                0.961858574     -59.5192997
9.004                0.961819095     -59.6089791
9.005                0.961779173     -59.6989001
9.006                0.961738806     -59.7890637
9.007                0.961697991     -59.8794706
9.008                0.961656728     -59.9701217
9.009                0.961615013      -60.061018
9.01                 0.961572847     -60.1521602
9.011                0.961530226     -60.2435493
9.012                 0.96148715     -60.3351862
9.013                0.961443616     -60.4270717
9.014                0.961399622     -60.5192067
9.015                0.961355168     -60.6115921
9.016                 0.96131025     -60.7042289
9.017                0.961264868     -60.7971178
9.018                0.961219019     -60.8902599
9.019                0.961172702      -60.983656
9.02                 0.961125915      -61.077307
9.021                0.961078656     -61.1712138
9.022                0.961030923     -61.2653775
9.023                0.960982714     -61.3597987
9.024                0.960934027     -61.4544786
9.025                0.960884861      -61.549418
9.026                0.960835214     -61.6446179
9.027                0.960785083     -61.7400791
9.028                0.960734467     -61.8358027
9.029                0.960683364     -61.9317895
9.03                 0.960631771     -62.0280406
9.031                0.960579688     -62.1245568
9.032                0.960527111     -62.2213391
9.033                 0.96047404     -62.3183884
9.034                0.960420471     -62.4157058
9.035                0.960366403     -62.5132921
9.036                0.960311835     -62.6111484
9.037                0.960256763     -62.7092756
9.038                0.960201186     -62.8076746
9.039                0.960145101     -62.9063465
9.04                 0.960088508     -63.0052923
9.041                0.960031403     -63.1045129
9.042                0.959973785     -63.2040092
9.043                0.959915651     -63.3037824
9.044                   0.959857     -63.4038333
9.045                0.959797829      -63.504163
9.046                0.959738135     -63.6047725
9.047                0.959677918     -63.7056628
9.048                0.959617175     -63.8068349
9.049                0.959555903     -63.9082898
9.05                 0.959494101     -64.0100284
9.051                0.959431766      -64.112052
9.052                0.959368896     -64.2143614
9.053                0.959305489     -64.3169577
9.054                0.959241542     -64.4198418
9.055                0.959177054      -64.523015
9.056                0.959112021     -64.6264781
9.057                0.959046443     -64.7302323
9.058                0.958980316     -64.8342785
9.059                0.958913638     -64.9386179
9.06                 0.958846407     -65.0432514
9.061                0.958778621     -65.1481802
9.062                0.958710277     -65.2534053
9.063                0.958641372     -65.3589277
9.064                0.958571906     -65.4647485
9.065                0.958501874     -65.5708689
9.066                0.958431275     -65.6772898
9.067                0.958360107     -65.7840124
9.068                0.958288367     -65.8910377
9.069                0.958216052     -65.9983668
9.07                  0.95814316     -66.1060009
9.071                0.958069689     -66.2139409
9.072                0.957995636     -66.3221881
9.073                0.957920999     -66.4307435
9.074                0.957845776     -66.5396081
9.075                0.957769962     -66.6487833
9.076                0.957693558     -66.7582699
9.077                0.957616559     -66.8680693
9.078                0.957538963     -66.9781824
9.079                0.957460768     -67.0886104
9.08                  0.95738197     -67.1993545
9.081                0.957302569     -67.3104157
9.082                 0.95722256     -67.4217953
9.083                0.957141942     -67.5334943
9.084                0.957060711     -67.6455139
9.085                0.956978866     -67.7578553
9.086                0.956896403     -67.8705196
9.087                 0.95681332     -67.9835079
9.088                0.956729614     -68.0968215
9.089                0.956645282     -68.2104615
9.09                 0.956560323     -68.3244291
9.091                0.956474732     -68.4387254
9.092                0.956388508     -68.5533516
9.093                0.956301648     -68.6683089
9.094                0.956214149     -68.7835985
9.095                0.956126008     -68.8992216
9.096                0.956037222     -69.0151794
9.097                0.955947789      -69.131473
9.098                0.955857706     -69.2481037
9.099                 0.95576697     -69.3650728
9.1                  0.955675579     -69.4823813
9.101                0.955583529     -69.6000305
9.102                0.955490817     -69.7180216
9.103                0.955397442     -69.8363559
9.104                0.955303399     -69.9550346
9.105                0.955208687     -70.0740589
9.106                0.955113302     -70.1934301
9.107                0.955017242     -70.3131494
9.108                0.954920502     -70.4332179
9.109                0.954823082     -70.5536371
9.11                 0.954724977     -70.6744081
9.111                0.954626185     -70.7955322
9.112                0.954526703     -70.9170106
9.113                0.954426527     -71.0388447
9.114                0.954325655     -71.1610356
9.115                0.954224085     -71.2835848
9.116                0.954121812     -71.4064933
9.117                0.954018834     -71.5297625
9.118                0.953915148     -71.6533938
9.119                0.953810751     -71.7773883
9.12                  0.95370564     -71.9017475
9.121                0.953599811     -72.0264725
9.122                0.953493263     -72.1515647
9.123                0.953385991     -72.2770254
9.124                0.953277993     -72.4028558
9.125                0.953169265     -72.5290574
9.126                0.953059805     -72.6556314
9.127                0.952949609     -72.7825792
9.128                0.952838674     -72.9099021
9.129                0.952726998     -73.0376013
9.13                 0.952614577     -73.1656783
9.131                0.952501407     -73.2941344
9.132                0.952387486     -73.4229709
9.133                0.952272811     -73.5521892
9.134                0.952157379     -73.6817906
9.135                0.952041185     -73.8117765
9.136                0.951924228     -73.9421482
9.137                0.951806503     -74.0729071
9.138                0.951688008     -74.2040545
9.139                 0.95156874     -74.3355919
9.14                 0.951448695     -74.4675206
9.141                 0.95132787      -74.599842
9.142                0.951206262     -74.7325575
9.143                0.951083867     -74.8656684
9.144                0.950960683     -74.9991762
9.145                0.950836705     -75.1330822
9.146                0.950711932     -75.2673878
9.147                0.950586359     -75.4020945
9.148                0.950459983     -75.5372037
9.149                0.950332802     -75.6727167
9.15                 0.950204811     -75.8086349
9.151                0.950076007     -75.9449599
9.152                0.949946388      -76.081693
9.153                0.949815949     -76.2188356
9.154                0.949684688     -76.3563893
9.155                0.949552601     -76.4943553
9.156                0.949419685     -76.6327351
9.157                0.949285936     -76.7715303
9.158                0.949151352     -76.9107421
9.159                0.949015928     -77.0503722
9.16                 0.948879663     -77.1904218
9.161                0.948742551     -77.3308926
9.162                 0.94860459     -77.4717859
9.163                0.948465777     -77.6131033
9.164                0.948326107     -77.7548461
9.165                0.948185579     -77.8970158
9.166                0.948044188      -78.039614
9.167                0.947901931     -78.1826421
9.168                0.947758805     -78.3261016
9.169                0.947614806     -78.4699939
9.17                 0.947469931     -78.6143207
9.171                0.947324177     -78.7590832
9.172                 0.94717754     -78.9042831
9.173                0.947030017     -79.0499219
9.174                0.946881605      -79.196001
9.175                0.946732299      -79.342522
9.176                0.946582098     -79.4894864
9.177                0.946430997     -79.6368956
9.178                0.946278993     -79.7847513
9.179                0.946126082     -79.9330549
9.18                 0.945972262     -80.0818079
9.181                0.945817529     -80.2310119
9.182                 0.94566188     -80.3806684
9.183                0.945505311     -80.5307789
9.184                0.945347818      -80.681345
9.185                  0.9451894     -80.8323682
9.186                0.945030051     -80.9838501
9.187                0.944869769     -81.1357922
9.188                0.944708551      -81.288196
9.189                0.944546393     -81.4410631
9.19                 0.944383292     -81.5943951
9.191                0.944219245     -81.7481935
9.192                0.944054247     -81.9024599
9.193                0.943888297     -82.0571958
9.194                 0.94372139     -82.2124028
9.195                0.943553524     -82.3680825
9.196                0.943384694     -82.5242365
9.197                0.943214899     -82.6808662
9.198                0.943044133     -82.8379734
9.199                0.942872396     -82.9955595
9.2                  0.942699682     -83.1536262
9.201                0.942525988      -83.312175
9.202                0.942351313     -83.4712076
9.203                0.942175651     -83.6307255
9.204                0.941999001     -83.7907303
9.205                0.941821359     -83.9512236
9.206                0.941642721      -84.112207
9.207                0.941463085     -84.2736822
9.208                0.941282448     -84.4356506
9.209                0.941100805     -84.5981139
9.21                 0.940918155     -84.7610738
9.211                0.940734494     -84.9245317
9.212                0.940549818     -85.0884894
9.213                0.940364126     -85.2529485
9.214                0.940177413     -85.4179104
9.215                0.939989677      -85.583377
9.216                0.939800915     -85.7493497
9.217                0.939611124     -85.9158303
9.218                  0.9394203     -86.0828202
9.219                0.939228441     -86.2503213
9.22                 0.939035544     -86.4183349
9.221                0.938841605     -86.5868629
9.222                0.938646623     -86.7559068
9.223                0.938450594     -86.9254682
9.224                0.938253515     -87.0955488
9.225                0.938055384     -87.2661502
9.226                0.937856197      -87.437274
9.227                0.937655952     -87.6089219
9.228                0.937454646     -87.7810954
9.229                0.937252276     -87.9537963
9.23                  0.93704884     -88.1270262
9.231                0.936844335     -88.3007866
9.232                0.936638758     -88.4750793
9.233                0.936432107     -88.6499058
9.234                0.936224379     -88.8252679
9.235                0.936015571      -89.001167
9.236                0.935805682      -89.177605
9.237                0.935594708     -89.3545833
9.238                0.935382647     -89.5321037
9.239                0.935169497     -89.7101678
9.24                 0.934955255     -89.8887772
9.241                0.934739919     -90.0679335
9.242                0.934523486     -90.2476385
9.243                0.934305955     -90.4278936
9.244                0.934087322     -90.6087007
9.245                0.933867587     -90.7900612
9.246                0.933646746     -90.9719769
9.247                0.933424797     -91.1544493
9.248                 0.93320174     -91.3374801
9.249                 0.93297757      -91.521071
9.25                 0.932752287     -91.7052235
9.251                0.932525888     -91.8899393
9.252                0.932298372     -92.0752201
9.253                0.932069736     -92.2610674
9.254                0.931839979     -92.4474828
9.255                  0.9316091     -92.6344681
9.256                0.931377095     -92.8220248
9.257                0.931143965     -93.0101545
9.258                0.930909706     -93.1988589
9.259                0.930674317     -93.3881396
9.26                 0.930437798     -93.5779982
9.261                0.930200146     -93.7684363
9.262                 0.92996136     -93.9594555
9.263                0.929721439     -94.1510574
9.264                0.929480381     -94.3432437
9.265                0.929238185     -94.5360159
9.266                 0.92899485     -94.7293756
9.267                0.928750375     -94.9233245
9.268                0.928504759     -95.1178641
9.269                   0.928258      -95.312996
9.27                 0.928010099     -95.5087219
9.271                0.927761053     -95.7050432
9.272                0.927510862     -95.9019616
9.273                0.927259525     -96.0994786
9.274                0.927007042     -96.2975959
9.275                0.926753412     -96.4963149
9.276                0.926498634     -96.6956373
9.277                0.926242709     -96.8955646
9.278                0.925985635     -97.0960984
9.279                0.925727412     -97.2972402
9.28                  0.92546804     -97.4989916
9.281                0.925207519      -97.701354
9.282                0.924945848     -97.9043291
9.283                0.924683028     -98.1079184
9.284                0.924419059     -98.3121234
9.285                 0.92415394     -98.5169456
9.286                0.923887673     -98.7223866
9.287                0.923620256     -98.9284478
9.288                0.923351691     -99.1351307
9.289                0.923081978     -99.3424369
9.29                 0.922811118     -99.5503678
9.291                 0.92253911      -99.758925
9.292                0.922265957     -99.9681098
9.293                0.921991658     -100.177924
9.294                0.921716214     -100.388368
9.295                0.921439628     -100.599445
9.296                0.921161898     -100.811155
9.297                0.920883027     -101.023501
9.298                0.920603016     -101.236482
9.299                0.920321867     -101.450102
9.3                   0.92003958      -101.66436
9.301                0.919756157      -101.87926
9.302                  0.9194716     -102.094801
9.303                0.919185911     -102.310986
9.304                0.918899091     -102.527816
9.305                0.918611142     -102.745292
9.306                0.918322067     -102.963415
9.307                0.918031867     -103.182188
9.308                0.917740546      -103.40161
9.309                0.917448104     -103.621685
9.31                 0.917154545     -103.842412
9.311                0.916859871     -104.063793
9.312                0.916564085      -104.28583
9.313                 0.91626719     -104.508524
9.314                0.915969188     -104.731876
9.315                0.915670084     -104.955888
9.316                0.915369879      -105.18056
9.317                0.915068577     -105.405894
9.318                0.914766181     -105.631891
9.319                0.914462696     -105.858553
9.32                 0.914158124      -106.08588
9.321                0.913852469     -106.313874
9.322                0.913545736     -106.542536
9.323                0.913237929     -106.771867
9.324                 0.91292905     -107.001868
9.325                0.912619105     -107.232541
9.326                0.912308099     -107.463886
9.327                0.911996035     -107.695905
9.328                0.911682918     -107.928599
9.329                0.911368753     -108.161969
9.33                 0.911053546     -108.396016
9.331                  0.9107373     -108.630741
9.332                0.910420022     -108.866145
9.333                0.910101716      -109.10223
9.334                0.909782388     -109.338995
9.335                0.909462044     -109.576443
9.336                0.909140689     -109.814573
9.337                 0.90881833     -110.053388
9.338                0.908494972     -110.292888
9.339                0.908170621     -110.533074
9.34                 0.907845285     -110.773947
9.341                0.907518968     -111.015508
9.342                0.907191679     -111.257757
9.343                0.906863424     -111.500696
9.344                0.906534209     -111.744326
9.345                0.906204043     -111.988646
9.346                0.905872931     -112.233659
9.347                0.905540882     -112.479365
9.348                0.905207903     -112.725764
9.349                0.904874001     -112.972858
9.35                 0.904539185     -113.220647
9.351                0.904203463     -113.469132
9.352                0.903866843     -113.718313
9.353                0.903529333     -113.968191
9.354                0.903190941     -114.218768
9.355                0.902851677     -114.470042
9.356                0.902511549     -114.722016
9.357                0.902170567      -114.97469
9.358                0.901828738     -115.228064
9.359                0.901486074     -115.482139
9.36                 0.901142582     -115.736915
9.361                0.900798274     -115.992393
9.362                0.900453158     -116.248573
9.363                0.900107245     -116.505456
9.364                0.899760545     -116.763042
9.365                0.899413068     -117.021331
9.366                0.899064825     -117.280325
9.367                0.898715827     -117.540023
9.368                0.898366084     -117.800426
9.369                0.898015607     -118.061533
9.37                 0.897664408     -118.323346
9.371                0.897312498     -118.585864
9.372                0.896959889     -118.849088
9.373                0.896606592     -119.113018
9.374                 0.89625262     -119.377654
9.375                0.895897984     -119.642997
9.376                0.895542697     -119.909045
9.377                0.895186771       -120.1758
9.378                0.894830219     -120.443262
9.379                0.894473053      -120.71143
9.38                 0.894115287     -120.980305
9.381                0.893756935     -121.249886
9.382                0.893398008     -121.520174
9.383                0.893038521     -121.791168
9.384                0.892678488     -122.062869
9.385                0.892317923     -122.335275
9.386                0.891956839     -122.608388
9.387                0.891595251     -122.882206
9.388                0.891233173      -123.15673
9.389                 0.89087062     -123.431959
9.39                 0.890507608     -123.707893
9.391                 0.89014415     -123.984532
9.392                0.889780262     -124.261876
9.393                0.889415959     -124.539923
9.394                0.889051258     -124.818673
9.395                0.888686173     -125.098127
9.396                0.888320721     -125.378283
