! TOUCHSTONE file generated by CST DESIGN STUDIO
! Date and time: Tue Feb  4 18:40:52 2025
! Project name: C:\Work\MatlabApps\UnitCellOptimizationMatlab\CST\unitcell.cst
! Tree item: Tasks\Sweep1\SPara1\S-Parameters
! Header version: 2024
! Port assignment regex: !\s*Touchstone port\s*([0-9]+)\s*=\s*(CST MWS port|CST DES external port|CST DES block port)\s*(.+)\s* \(\"(.*)\"\)(\s*mode\s*([0-9]+))?.*
! Touchstone port assignment:
! Touchstone port 1 = CST DES external port 1 ("")
# GHz S MA R 50
9                    0.965644818     -48.0702405
9.001                0.965579069      -48.130552
9.002                0.965513119     -48.1909861
9.003                0.965446968     -48.2515434
9.004                0.965380614     -48.3122242
9.005                0.965314057     -48.3730288
9.006                0.965247297     -48.4339576
9.007                0.965180332     -48.4950111
9.008                0.965113163     -48.5561896
9.009                0.965045788     -48.6174934
9.01                 0.964978207      -48.678923
9.011                 0.96491042     -48.7404788
9.012                0.964842425      -48.802161
9.013                0.964774223     -48.8639702
9.014                0.964705811     -48.9259068
9.015                0.964637191      -48.987971
9.016                0.964568361     -49.0501633
9.017                0.964499321     -49.1124841
9.018                0.964430069     -49.1749338
9.019                0.964360606     -49.2375127
9.02                  0.96429093     -49.3002214
9.021                0.964221042     -49.3630601
9.022                 0.96415094     -49.4260293
9.023                0.964080623     -49.4891294
9.024                0.964010092     -49.5523608
9.025                0.963939345     -49.6157238
9.026                0.963868382      -49.679219
9.027                0.963797202     -49.7428467
9.028                0.963725804     -49.8066072
9.029                0.963654188     -49.8705012
9.03                 0.963582353     -49.9345288
9.031                0.963510299     -49.9986906
9.032                0.963438024      -50.062987
9.033                0.963365528     -50.1274184
9.034                0.963292811     -50.1919852
9.035                0.963219872     -50.2566878
9.036                0.963146709     -50.3215267
9.037                0.963073323     -50.3865022
9.038                0.962999713     -50.4516148
9.039                0.962925877      -50.516865
9.04                 0.962851816     -50.5822532
9.041                0.962777528     -50.6477797
9.042                0.962703013      -50.713445
9.043                 0.96262827     -50.7792496
9.044                0.962553299     -50.8451939
9.045                0.962478098     -50.9112783
9.046                0.962402668     -50.9775033
9.047                0.962327007     -51.0438693
9.048                0.962251114     -51.1103767
9.049                0.962174989      -51.177026
9.05                 0.962098632     -51.2438177
9.051                 0.96202204     -51.3107521
9.052                0.961945215     -51.3778298
9.053                0.961868154     -51.4450511
9.054                0.961790858     -51.5124166
9.055                0.961713325     -51.5799266
9.056                0.961635555     -51.6475817
9.057                0.961557547     -51.7153823
9.058                  0.9614793     -51.7833288
9.059                0.961400814     -51.8514218
9.06                 0.961322087     -51.9196616
9.061                0.961243119     -51.9880487
9.062                 0.96116391     -52.0565837
9.063                0.961084458     -52.1252669
9.064                0.961004763     -52.1940989
9.065                0.960924824     -52.2630801
9.066                 0.96084464     -52.3322109
9.067                 0.96076421      -52.401492
9.068                0.960683534     -52.4709236
9.069                0.960602611     -52.5405063
9.07                  0.96052144     -52.6102407
9.071                 0.96044002     -52.6801271
9.072                0.960358351      -52.750166
9.073                0.960276431      -52.820358
9.074                 0.96019426     -52.8907035
9.075                0.960111838     -52.9612031
9.076                0.960029163     -53.0318571
9.077                0.959946234     -53.1026661
9.078                0.959863051     -53.1736306
9.079                0.959779613     -53.2447511
9.08                 0.959695919      -53.316028
9.081                0.959611969      -53.387462
9.082                 0.95952776     -53.4590534
9.083                0.959443294     -53.5308028
9.084                0.959358568     -53.6027106
9.085                0.959273583     -53.6747775
9.086                0.959188336     -53.7470039
9.087                0.959102828     -53.8193903
9.088                0.959017058     -53.8919372
9.089                0.958931024     -53.9646451
9.09                 0.958844726     -54.0375146
9.091                0.958758163     -54.1105462
9.092                0.958671334     -54.1837404
9.093                0.958584238     -54.2570977
9.094                0.958496875     -54.3306186
9.095                0.958409243     -54.4043037
9.096                0.958321343     -54.4781534
9.097                0.958233172     -54.5521684
9.098                 0.95814473     -54.6263492
9.099                0.958056016     -54.7006962
9.1                  0.957967029     -54.7752101
9.101                0.957877769     -54.8498913
9.102                0.957788235     -54.9247405
9.103                0.957698425      -54.999758
9.104                0.957608339     -55.0749446
9.105                0.957517975     -55.1503007
9.106                0.957427334     -55.2258269
9.107                0.957336414     -55.3015237
9.108                0.957245214     -55.3773917
9.109                0.957153733     -55.4534314
9.11                 0.957061971     -55.5296434
9.111                0.956969926     -55.6060283
9.112                0.956877598     -55.6825866
9.113                0.956784986     -55.7593188
9.114                0.956692088     -55.8362256
9.115                0.956598904     -55.9133076
9.116                0.956505434     -55.9905651
9.117                0.956411675      -56.067999
9.118                0.956317627     -56.1456096
9.119                0.956223289     -56.2233976
9.12                 0.956128661     -56.3013636
9.121                0.956033741     -56.3795082
9.122                0.955938528     -56.4578319
9.123                0.955843022     -56.5363353
9.124                0.955747222      -56.615019
9.125                0.955651125     -56.6938836
9.126                0.955554733     -56.7729297
9.127                0.955458043     -56.8521578
9.128                0.955361054     -56.9315687
9.129                0.955263767     -57.0111627
9.13                 0.955166179     -57.0909407
9.131                 0.95506829     -57.1709031
9.132                0.954970099     -57.2510506
9.133                0.954871605     -57.3313837
9.134                0.954772806     -57.4119031
9.135                0.954673703     -57.4926095
9.136                0.954574293     -57.5735033
9.137                0.954474577     -57.6545852
9.138                0.954374552     -57.7358559
9.139                0.954274218      -57.817316
9.14                 0.954173575      -57.898966
9.141                 0.95407262     -57.9808066
9.142                0.953971353     -58.0628385
9.143                0.953869774     -58.1450622
9.144                 0.95376788     -58.2274784
9.145                0.953665671     -58.3100877
9.146                0.953563146     -58.3928908
9.147                0.953460305     -58.4758883
9.148                0.953357145     -58.5590808
9.149                0.953253666      -58.642469
9.15                 0.953149867     -58.7260535
9.151                0.953045747      -58.809835
9.152                0.952941304     -58.8938141
9.153                0.952836539     -58.9779915
9.154                0.952731449     -59.0623678
9.155                0.952626034     -59.1469437
9.156                0.952520293     -59.2317198
9.157                0.952414225     -59.3166969
9.158                0.952307828     -59.4018755
9.159                0.952201102     -59.4872564
9.16                 0.952094045     -59.5728402
9.161                0.951986657     -59.6586275
9.162                0.951878936     -59.7446192
9.163                0.951770881     -59.8308157
9.164                0.951662492     -59.9172179
9.165                0.951553767     -60.0038263
9.166                0.951444706     -60.0906418
9.167                0.951335306     -60.1776649
9.168                0.951225567     -60.2648964
9.169                0.951115489     -60.3523369
9.17                 0.951005069     -60.4399871
9.171                0.950894307     -60.5278478
9.172                0.950783202     -60.6159196
9.173                0.950671752     -60.7042033
9.174                0.950559957     -60.7926995
9.175                0.950447816      -60.881409
9.176                0.950335327     -60.9703324
9.177                0.950222489     -61.0594705
9.178                0.950109301      -61.148824
9.179                0.949995762     -61.2383937
9.18                 0.949881871     -61.3281801
9.181                0.949767627     -61.4181841
9.182                0.949653029     -61.5084064
9.183                0.949538076     -61.5988476
9.184                0.949422766     -61.6895086
9.185                0.949307098     -61.7803901
9.186                0.949191072     -61.8714928
9.187                0.949074685     -61.9628174
9.188                0.948957938     -62.0543648
9.189                0.948840829     -62.1461355
9.19                 0.948723356     -62.2381305
9.191                0.948605519     -62.3303503
9.192                0.948487317     -62.4227959
9.193                0.948368748     -62.5154679
9.194                0.948249811      -62.608367
9.195                0.948130505     -62.7014942
9.196                 0.94801083       -62.79485
9.197                0.947890783     -62.8884354
9.198                0.947770363     -62.9822509
9.199                 0.94764957     -63.0762976
9.2                  0.947528403      -63.170576
9.201                 0.94740686      -63.265087
9.202                0.947284939     -63.3598313
9.203                0.947162641     -63.4548098
9.204                0.947039963     -63.5500232
9.205                0.946916905     -63.6454723
9.206                0.946793466      -63.741158
9.207                0.946669643     -63.8370809
9.208                0.946545437     -63.9332419
9.209                0.946420845     -64.0296419
9.21                 0.946295867     -64.1262815
9.211                0.946170502     -64.2231616
9.212                0.946044748     -64.3202831
9.213                0.945918604     -64.4176466
9.214                 0.94579207     -64.5152531
9.215                0.945665143     -64.6131034
9.216                0.945537823     -64.7111982
9.217                0.945410108     -64.8095384
9.218                0.945281997     -64.9081249
9.219                 0.94515349     -65.0069584
9.22                 0.945024584     -65.1060398
9.221                0.944895279     -65.2053699
9.222                0.944765574     -65.3049495
9.223                0.944635467     -65.4047796
9.224                0.944504957     -65.5048609
9.225                0.944374043     -65.6051943
9.226                0.944242724     -65.7057806
9.227                0.944110998     -65.8066207
9.228                0.943978865     -65.9077154
9.229                0.943846322     -66.0090657
9.23                  0.94371337     -66.1106723
9.231                0.943580006     -66.2125361
9.232                 0.94344623      -66.314658
9.233                0.943312041     -66.4170389
9.234                0.943177436     -66.5196796
9.235                0.943042415      -66.622581
9.236                0.942906977      -66.725744
9.237                 0.94277112     -66.8291695
9.238                0.942634844     -66.9328584
9.239                0.942498147     -67.0368115
9.24                 0.942361027     -67.1410297
9.241                0.942223485     -67.2455139
9.242                0.942085517     -67.3502651
9.243                0.941947124     -67.4552841
9.244                0.941808304     -67.5605719
9.245                0.941669056     -67.6661293
9.246                0.941529378     -67.7719572
9.247                 0.94138927     -67.8780566
9.248                 0.94124873     -67.9844283
9.249                0.941107756     -68.0910734
9.25                 0.940966349     -68.1979927
9.251                0.940824506     -68.3051871
9.252                0.940682226     -68.4126576
9.253                0.940539508     -68.5204051
9.254                0.940396352     -68.6284305
9.255                0.940252755     -68.7367348
9.256                0.940108716     -68.8453189
9.257                0.939964235     -68.9541838
9.258                0.939819309     -69.0633304
9.259                0.939673939     -69.1727596
9.26                 0.939528122     -69.2824725
9.261                0.939381857     -69.3924699
9.262                0.939235144     -69.5027528
9.263                 0.93908798     -69.6133222
9.264                0.938940366     -69.7241791
9.265                0.938792299     -69.8353244
9.266                0.938643778     -69.9467591
9.267                0.938494802     -70.0584841
9.268                0.938345371     -70.1705005
9.269                0.938195482     -70.2828092
9.27                 0.938045135     -70.3954112
9.271                0.937894328     -70.5083076
9.272                 0.93774306     -70.6214992
9.273                 0.93759133     -70.7349871
9.274                0.937439137     -70.8487723
9.275                 0.93728648     -70.9628558
9.276                0.937133357     -71.0772385
9.277                0.936979767     -71.1919216
9.278                0.936825709     -71.3069059
9.279                0.936671182     -71.4221926
9.28                 0.936516185     -71.5377826
9.281                0.936360716     -71.6536769
9.282                0.936204775     -71.7698767
9.283                0.936048359     -71.8863828
9.284                0.935891469     -72.0031963
9.285                0.935734102     -72.1203184
9.286                0.935576258     -72.2377499
9.287                0.935417936     -72.3554919
9.288                0.935259134     -72.4735456
9.289                 0.93509985     -72.5919118
9.29                 0.934940085     -72.7105917
9.291                0.934779837     -72.8295864
9.292                0.934619105     -72.9488968
9.293                0.934457887      -73.068524
9.294                0.934296183     -73.1884692
9.295                 0.93413399     -73.3087333
9.296                0.933971309     -73.4293174
9.297                0.933808139     -73.5502227
9.298                0.933644477     -73.6714501
9.299                0.933480322     -73.7930007
9.3                  0.933315675     -73.9148757
9.301                0.933150533      -74.037076
9.302                0.932984896     -74.1596029
9.303                0.932818762     -74.2824574
9.304                 0.93265213     -74.4056405
9.305                   0.932485     -74.5291534
9.306                 0.93231737     -74.6529972
9.307                0.932149238      -74.777173
9.308                0.931980605     -74.9016818
9.309                0.931811469     -75.0265248
9.31                 0.931641828     -75.1517031
9.311                0.931471683     -75.2772179
9.312                0.931301031     -75.4030701
9.313                0.931129872      -75.529261
9.314                0.930958205     -75.6557917
9.315                0.930786028     -75.7826633
9.316                0.930613341     -75.9098769
9.317                0.930440143     -76.0374336
9.318                0.930266432     -76.1653347
9.319                0.930092208     -76.2935812
9.32                  0.92991747     -76.4221743
9.321                0.929742216     -76.5511151
9.322                0.929566446     -76.6804048
9.323                0.929390158     -76.8100445
9.324                0.929213353     -76.9400353
9.325                0.929036028     -77.0703786
9.326                0.928858183     -77.2010753
9.327                0.928679817     -77.3321266
9.328                0.928500929     -77.4635338
9.329                0.928321518      -77.595298
9.33                 0.928141584     -77.7274203
9.331                0.927961124      -77.859902
9.332                0.927780139     -77.9927442
9.333                0.927598628      -78.125948
9.334                0.927416589     -78.2595148
9.335                0.927234022     -78.3934456
9.336                0.927050926     -78.5277417
9.337                  0.9268673     -78.6624043
9.338                0.926683144     -78.7974344
9.339                0.926498455     -78.9328334
9.34                 0.926313235     -79.0686025
9.341                0.926127481     -79.2047428
9.342                0.925941194     -79.3412556
9.343                0.925754371      -79.478142
9.344                0.925567014     -79.6154032
9.345                 0.92537912     -79.7530406
9.346                0.925190689     -79.8910553
9.347                 0.92500172     -80.0294484
9.348                0.924812214     -80.1682214
9.349                0.924622168     -80.3073753
9.35                 0.924431582     -80.4469114
9.351                0.924240456     -80.5868309
9.352                0.924048789     -80.7271351
9.353                 0.92385658     -80.8678252
9.354                0.923663829     -81.0089024
9.355                0.923470535      -81.150368
9.356                0.923276697     -81.2922232
9.357                0.923082315     -81.4344692
9.358                0.922887389     -81.5771074
9.359                0.922691917     -81.7201389
9.36                 0.922495899     -81.8635651
9.361                0.922299335     -82.0073871
9.362                0.922102225     -82.1516062
9.363                0.921904567     -82.2962238
9.364                0.921706361      -82.441241
9.365                0.921507607      -82.586659
9.366                0.921308304     -82.7324793
9.367                0.921108452      -82.878703
9.368                0.920908051     -83.0253315
9.369                0.920707099     -83.1723659
9.37                 0.920505598     -83.3198076
9.371                0.920303546     -83.4676579
9.372                0.920100943     -83.6159179
9.373                0.919897788     -83.7645891
9.374                0.919694082     -83.9136727
9.375                0.919489824       -84.06317
9.376                0.919285015     -84.2130822
9.377                0.919079652     -84.3634106
9.378                0.918873738     -84.5141567
9.379                 0.91866727     -84.6653215
9.38                  0.91846025     -84.8169065
9.381                0.918252677     -84.9689129
9.382                 0.91804455     -85.1213421
9.383                0.917835871     -85.2741952
9.384                0.917626638     -85.4274738
9.385                0.917416851     -85.5811789
9.386                0.917206511      -85.735312
9.387                0.916995618     -85.8898743
9.388                0.916784171     -86.0448672
9.389                0.916572171      -86.200292
9.39                 0.916359617     -86.3561499
9.391                 0.91614651     -86.5124423
9.392                 0.91593285     -86.6691705
9.393                0.915718637     -86.8263359
9.394                0.915503871     -86.9839396
9.395                0.915288552     -87.1419832
9.396                0.915072681     -87.3004677
