! TOUCHSTONE file generated by CST DESIGN STUDIO
! Date and time: Tue Feb  4 18:40:38 2025
! Project name: C:\Work\MatlabApps\UnitCellOptimizationMatlab\CST\unitcell.cst
! Tree item: Tasks\Sweep1\SPara1\S-Parameters
! Header version: 2024
! Port assignment regex: !\s*Touchstone port\s*([0-9]+)\s*=\s*(CST MWS port|CST DES external port|CST DES block port)\s*(.+)\s* \(\"(.*)\"\)(\s*mode\s*([0-9]+))?.*
! Touchstone port assignment:
! Touchstone port 1 = CST DES external port 1 ("")
# GHz S MA R 50
9                    0.941647023     -83.3703726
9.001                0.941481914     -83.5126571
9.002                0.941316243     -83.6553292
9.003                0.941150009       -83.79839
9.004                 0.94098321     -83.9418407
9.005                0.940815846     -84.0856826
9.006                0.940647916     -84.2299168
9.007                0.940479419     -84.3745445
9.008                0.940310353     -84.5195668
9.009                0.940140719      -84.664985
9.01                 0.939970514     -84.8108003
9.011                0.939799739     -84.9570138
9.012                0.939628392     -85.1036268
9.013                0.939456473     -85.2506404
9.014                 0.93928398     -85.3980558
9.015                0.939110913     -85.5458743
9.016                0.938937272      -85.694097
9.017                0.938763054     -85.8427252
9.018                 0.93858826       -85.99176
9.019                0.938412888     -86.1412026
9.02                 0.938236938     -86.2910543
9.021                 0.93806041     -86.4413163
9.022                0.937883302     -86.5919897
9.023                0.937705614     -86.7430758
9.024                0.937527345     -86.8945759
9.025                0.937348494      -87.046491
9.026                0.937169061     -87.1988224
9.027                0.936989046     -87.3515714
9.028                0.936808447     -87.5047392
9.029                0.936627264     -87.6583269
9.03                 0.936445496     -87.8123359
9.031                0.936263144     -87.9667672
9.032                0.936080205     -88.1216222
9.033                0.935896681      -88.276902
9.034                 0.93571257      -88.432608
9.035                0.935527872     -88.5887412
9.036                0.935342587      -88.745303
9.037                0.935156713     -88.9022945
9.038                0.934970251      -89.059717
9.039                0.934783201     -89.2175717
9.04                 0.934595561     -89.3758599
9.041                0.934407333     -89.5345827
9.042                0.934218514     -89.6937414
9.043                0.934029105     -89.8533373
9.044                0.933839107     -90.0133715
9.045                0.933648517     -90.1738453
9.046                0.933457337     -90.3347599
9.047                0.933265567     -90.4961165
9.048                0.933073205     -90.6579165
9.049                0.932880252     -90.8201609
9.05                 0.932686707     -90.9828511
9.051                0.932492572     -91.1459882
9.052                0.932297845     -91.3095736
9.053                0.932102526     -91.4736084
9.054                0.931906616     -91.6380938
9.055                0.931710114     -91.8030311
9.056                0.931513021     -91.9684216
9.057                0.931315337     -92.1342664
9.058                0.931117062     -92.3005668
9.059                0.930918195     -92.4673241
9.06                 0.930718738     -92.6345393
9.061                0.930518689     -92.8022139
9.062                0.930318051     -92.9703489
9.063                0.930116822     -93.1389457
9.064                0.929915003     -93.3080054
9.065                0.929712594     -93.4775294
9.066                0.929509596     -93.6475187
9.067                0.929306009     -93.8179746
9.068                0.929101834     -93.9888984
9.069                 0.92889707     -94.1602913
9.07                 0.928691719     -94.3321545
9.071                0.928485781     -94.5044892
9.072                0.928279256     -94.6772966
9.073                0.928072145      -94.850578
9.074                0.927864449     -95.0243345
9.075                0.927656168     -95.1985674
9.076                0.927447303     -95.3732779
9.077                0.927237854     -95.5484672
9.078                0.927027823     -95.7241365
9.079                0.926817211     -95.9002871
9.08                 0.926606017       -96.07692
9.081                0.926394243     -96.2540366
9.082                 0.92618189      -96.431638
9.083                0.925968959     -96.6097255
9.084                 0.92575545     -96.7883002
9.085                0.925541365     -96.9673632
9.086                0.925326705     -97.1469159
9.087                0.925111471     -97.3269594
9.088                0.924895663     -97.5074949
9.089                0.924679284     -97.6885235
9.09                 0.924462335     -97.8700465
9.091                0.924244816      -98.052065
9.092                0.924026728     -98.2345802
9.093                0.923808075     -98.4175932
9.094                0.923588856     -98.6011054
9.095                0.923369072     -98.7851177
9.096                0.923148727     -98.9696314
9.097                0.922927821     -99.1546476
9.098                0.922706355     -99.3401675
9.099                0.922484332     -99.5261923
9.1                  0.922261752      -99.712723
9.101                0.922038618     -99.8997608
9.102                0.921814932     -100.087307
9.103                0.921590694     -100.275362
9.104                0.921365908     -100.463929
9.105                0.921140574     -100.653006
9.106                0.920914696     -100.842597
9.107                0.920688274     -101.032701
9.108                0.920461311     -101.223321
9.109                0.920233809     -101.414456
9.11                 0.920005769     -101.606109
9.111                0.919777195      -101.79828
9.112                0.919548089      -101.99097
9.113                0.919318452     -102.184181
9.114                0.919088288     -102.377914
9.115                0.918857597     -102.572169
9.116                0.918626384     -102.766948
9.117                 0.91839465     -102.962252
9.118                0.918162398     -103.158082
9.119                0.917929631     -103.354438
9.12                  0.91769635     -103.551323
9.121                 0.91746256     -103.748737
9.122                0.917228262      -103.94668
9.123                 0.91699346     -104.145155
9.124                0.916758156     -104.344162
9.125                0.916522354     -104.543702
9.126                0.916286056     -104.743776
9.127                0.916049265     -104.944385
9.128                0.915811984     -105.145531
9.129                0.915574218     -105.347213
9.13                 0.915335968     -105.549434
9.131                0.915097238     -105.752193
9.132                0.914858032     -105.955493
9.133                0.914618353     -106.159334
9.134                0.914378204     -106.363717
9.135                0.914137589     -106.568642
9.136                0.913896511     -106.774111
9.137                0.913654975     -106.980126
9.138                0.913412983     -107.186685
9.139                 0.91317054     -107.393792
9.14                  0.91292765     -107.601446
9.141                0.912684316     -107.809648
9.142                0.912440542     -108.018399
9.143                0.912196333     -108.227701
9.144                0.911951692     -108.437553
9.145                0.911706624     -108.647958
9.146                0.911461132     -108.858915
9.147                0.911215222     -109.070425
9.148                0.910968898      -109.28249
9.149                0.910722163      -109.49511
9.15                 0.910475023     -109.708286
9.151                0.910227483     -109.922019
9.152                0.909979545     -110.136309
9.153                0.909731217     -110.351157
9.154                0.909482501     -110.566565
9.155                0.909233404     -110.782532
9.156                0.908983929      -110.99906
9.157                0.908734082     -111.216149
9.158                0.908483869       -111.4338
9.159                0.908233293     -111.652014
9.16                 0.907982361     -111.870791
9.161                0.907731078     -112.090132
9.162                0.907479448     -112.310038
9.163                0.907227478     -112.530509
9.164                0.906975173     -112.751547
9.165                0.906722538     -112.973151
9.166                0.906469579     -113.195322
9.167                0.906216302     -113.418061
9.168                0.905962713     -113.641368
9.169                0.905708817     -113.865244
9.17                  0.90545462      -114.08969
9.171                0.905200129     -114.314706
9.172                0.904945349     -114.540293
9.173                0.904690287     -114.766451
9.174                0.904434949      -114.99318
9.175                0.904179341     -115.220482
9.176                0.903923469     -115.448356
9.177                0.903667341     -115.676803
9.178                0.903410962     -115.905824
9.179                0.903154339     -116.135419
9.18                  0.90289748     -116.365588
9.181                 0.90264039     -116.596331
9.182                0.902383077      -116.82765
9.183                0.902125547     -117.059545
9.184                0.901867807     -117.292015
9.185                0.901609866     -117.525061
9.186                0.901351729     -117.758684
9.187                0.901093404     -117.992884
9.188                0.900834898      -118.22766
9.189                0.900576219     -118.463014
9.19                 0.900317375     -118.698946
9.191                0.900058372     -118.935455
9.192                0.899799219     -119.172543
9.193                0.899539923     -119.410208
9.194                0.899280492     -119.648452
9.195                0.899020934     -119.887274
9.196                0.898761257     -120.126675
9.197                0.898501468     -120.366655
9.198                0.898241577     -120.607213
9.199                0.897981591     -120.848351
9.2                  0.897721519     -121.090067
9.201                0.897461368     -121.332362
9.202                0.897201148     -121.575237
9.203                0.896940866      -121.81869
9.204                0.896680532     -122.062723
9.205                0.896420155     -122.307334
9.206                0.896159742     -122.552524
9.207                0.895899303     -122.798293
9.208                0.895638846     -123.044641
9.209                0.895378382     -123.291568
9.21                 0.895117918     -123.539072
9.211                0.894857464     -123.787155
9.212                0.894597029     -124.035816
9.213                0.894336623     -124.285055
9.214                0.894076254     -124.534871
9.215                0.893815933     -124.785265
9.216                0.893555669     -125.036236
9.217                0.893295472     -125.287783
9.218                0.893035351     -125.539907
9.219                0.892775316     -125.792607
9.22                 0.892515377     -126.045883
9.221                0.892255544     -126.299734
9.222                0.891995826     -126.554159
9.223                0.891736235     -126.809159
9.224                 0.89147678     -127.064733
9.225                0.891217471     -127.320881
9.226                0.890958319     -127.577601
9.227                0.890699335     -127.834893
9.228                0.890440527     -128.092758
9.229                0.890181908     -128.351193
9.23                 0.889923488     -128.610199
9.231                0.889665278     -128.869775
9.232                0.889407287      -129.12992
9.233                0.889149528     -129.390634
9.234                 0.88889201     -129.651915
9.235                0.888634746     -129.913764
9.236                0.888377745     -130.176178
9.237                 0.88812102     -130.439159
9.238                0.887864581     -130.702703
9.239                 0.88760844     -130.966812
9.24                 0.887352607     -131.231483
9.241                0.887097095     -131.496716
9.242                0.886841914      -131.76251
9.243                0.886587077     -132.028864
9.244                0.886332594     -132.295777
9.245                0.886078478     -132.563248
9.246                0.885824741     -132.831276
9.247                0.885571393      -133.09986
9.248                0.885318447     -133.368998
9.249                0.885065915      -133.63869
9.25                 0.884813808     -133.908934
9.251                0.884562139      -134.17973
9.252                 0.88431092     -134.451075
9.253                0.884060163     -134.722969
9.254                0.883809879     -134.995411
9.255                0.883560082     -135.268398
9.256                0.883310784     -135.541931
9.257                0.883061997     -135.816006
9.258                0.882813733     -136.090624
9.259                0.882566004     -136.365781
9.26                 0.882318825     -136.641478
9.261                0.882072205     -136.917713
9.262                 0.88182616     -137.194483
9.263                  0.8815807     -137.471788
9.264                 0.88133584     -137.749625
9.265                0.881091591     -138.027994
9.266                0.880847966     -138.306892
9.267                0.880604978     -138.586318
9.268                 0.88036264      -138.86627
9.269                0.880120966     -139.146746
9.27                 0.879879967     -139.427745
9.271                0.879639656     -139.709264
9.272                0.879400048     -139.991303
9.273                0.879161155     -140.273858
9.274                0.878922989     -140.556929
9.275                0.878685564     -140.840512
9.276                0.878448894     -141.124607
9.277                0.878212991     -141.409211
9.278                0.877977868     -141.694322
9.279                 0.87774354     -141.979938
9.28                 0.877510018     -142.266056
9.281                0.877277316     -142.552676
9.282                0.877045448     -142.839794
9.283                0.876814427     -143.127409
9.284                0.876584266     -143.415517
9.285                0.876354979     -143.704118
9.286                0.876126578     -143.993208
9.287                0.875899077     -144.282785
9.288                0.875672491     -144.572847
9.289                0.875446831     -144.863392
9.29                 0.875222111     -145.154417
9.291                0.874998345     -145.445919
9.292                0.874775547     -145.737896
9.293                0.874553729     -146.030345
9.294                0.874332905     -146.323265
9.295                0.874113088     -146.616652
9.296                0.873894292     -146.910503
9.297                 0.87367653     -147.204816
9.298                0.873459816     -147.499589
9.299                0.873244163     -147.794818
9.3                  0.873029584     -148.090502
9.301                0.872816093     -148.386636
9.302                0.872603703     -148.683218
9.303                0.872392427     -148.980245
9.304                0.872182279     -149.277715
9.305                0.871973272     -149.575625
9.306                0.871765419      -149.87397
9.307                0.871558734      -150.17275
9.308                 0.87135323     -150.471959
9.309                0.871148919     -150.771596
9.31                 0.870945816     -151.071658
9.311                0.870743933      -151.37214
9.312                0.870543283     -151.673041
9.313                0.870343879     -151.974356
9.314                0.870145736     -152.276083
9.315                0.869948864     -152.578218
9.316                0.869753278     -152.880758
9.317                0.869558991       -153.1837
9.318                0.869366014      -153.48704
9.319                0.869174362     -153.790775
9.32                 0.868984046     -154.094901
9.321                 0.86879508     -154.399416
9.322                0.868607476     -154.704315
9.323                0.868421247     -155.009595
9.324                0.868236405     -155.315253
9.325                0.868052963     -155.621285
9.326                0.867870933     -155.927687
9.327                0.867690328     -156.234456
9.328                 0.86751116     -156.541588
9.329                0.867333441     -156.849079
9.33                 0.867157183     -157.156926
9.331                0.866982399     -157.465124
9.332                  0.8668091     -157.773671
9.333                0.866637298     -158.082562
9.334                0.866467006     -158.391793
9.335                0.866298235     -158.701361
9.336                0.866130997     -159.011262
9.337                0.865965302     -159.321491
9.338                0.865801164     -159.632046
9.339                0.865638593      -159.94292
9.34                 0.865477601     -160.254112
9.341                0.865318199     -160.565616
9.342                0.865160398     -160.877429
9.343                0.865004209     -161.189547
9.344                0.864849643     -161.501965
9.345                0.864696711     -161.814679
9.346                0.864545424     -162.127685
9.347                0.864395792      -162.44098
9.348                0.864247827     -162.754558
9.349                0.864101538     -163.068415
9.35                 0.863956936     -163.382547
9.351                0.863814031     -163.696951
9.352                0.863672833     -164.011621
9.353                0.863533352     -164.326553
9.354                0.863395598     -164.641743
9.355                0.863259581     -164.957186
9.356                 0.86312531     -165.272878
9.357                0.862992796     -165.588815
9.358                0.862862047     -165.904992
9.359                0.862733072     -166.221404
9.36                 0.862605881     -166.538047
9.361                0.862480483     -166.854917
9.362                0.862356887      -167.17201
9.363                0.862235101     -167.489319
9.364                0.862115134     -167.806841
9.365                0.861996995     -168.124572
9.366                0.861880691     -168.442506
9.367                0.861766232     -168.760639
9.368                0.861653624     -169.078966
9.369                0.861542877     -169.397483
9.37                 0.861433997     -169.716185
9.371                0.861326993     -170.035067
9.372                0.861221872     -170.354124
9.373                 0.86111864     -170.673352
9.374                0.861017306     -170.992746
9.375                0.860917877     -171.312301
9.376                0.860820358     -171.632013
9.377                0.860724758     -171.951876
9.378                0.860631082     -172.271885
9.379                0.860539337     -172.592036
9.38                 0.860449529     -172.912325
9.381                0.860361665     -173.232745
9.382                 0.86027575     -173.553293
9.383                0.860191789     -173.873962
9.384                0.860109789      -174.19475
9.385                0.860029755     -174.515649
9.386                0.859951692     -174.836656
9.387                0.859875606     -175.157766
9.388                0.859801501     -175.478973
9.389                0.859729382     -175.800274
9.39                 0.859659253     -176.121661
9.391                 0.85959112     -176.443132
9.392                0.859524986      -176.76468
9.393                0.859460855     -177.086301
9.394                0.859398732     -177.407989
9.395                 0.85933862     -177.729741
9.396                0.859280522      -178.05155
