! TOUCHSTONE file generated by CST DESIGN STUDIO
! Date and time: Tue Feb  4 18:40:36 2025
! Project name: C:\Work\MatlabApps\UnitCellOptimizationMatlab\CST\unitcell.cst
! Tree item: Tasks\Sweep1\SPara1\S-Parameters
! Header version: 2024
! Port assignment regex: !\s*Touchstone port\s*([0-9]+)\s*=\s*(CST MWS port|CST DES external port|CST DES block port)\s*(.+)\s* \(\"(.*)\"\)(\s*mode\s*([0-9]+))?.*
! Touchstone port assignment:
! Touchstone port 1 = CST DES external port 1 ("")
# GHz S MA R 50
9                    0.938717695     -88.0388209
9.001                0.938540531     -88.1943193
9.002                0.938362792     -88.3502458
9.003                0.938184478     -88.5066018
9.004                0.938005588     -88.6633885
9.005                0.937826121     -88.8206071
9.006                0.937646077     -88.9782589
9.007                0.937465455      -89.136345
9.008                0.937284255     -89.2948669
9.009                0.937102477     -89.4538256
9.01                 0.936920121     -89.6132225
9.011                0.936737184     -89.7730588
9.012                0.936553669     -89.9333357
9.013                0.936369573     -90.0940546
9.014                0.936184898     -90.2552165
9.015                0.935999642     -90.4168229
9.016                0.935813805     -90.5788749
9.017                0.935627387     -90.7413738
9.018                0.935440388     -90.9043208
9.019                0.935252807     -91.0677172
9.02                 0.935064645     -91.2315643
9.021                0.934875902     -91.3958632
9.022                0.934686576     -91.5606153
9.023                0.934496668     -91.7258217
9.024                0.934306179     -91.8914838
9.025                0.934115107     -92.0576028
9.026                0.933923454     -92.2241799
9.027                0.933731218     -92.3912164
9.028                  0.9335384     -92.5587135
9.029                0.933345001     -92.7266725
9.03                 0.933151019     -92.8950945
9.031                0.932956456      -93.063981
9.032                0.932761311     -93.2333331
9.033                0.932565585      -93.403152
9.034                0.932369278      -93.573439
9.035                 0.93217239     -93.7441954
9.036                0.931974921     -93.9154223
9.037                0.931776871     -94.0871211
9.038                0.931578242     -94.2592929
9.039                0.931379033      -94.431939
9.04                 0.931179245     -94.6050606
9.041                0.930978877     -94.7786591
9.042                0.930777932     -94.9527355
9.043                0.930576408     -95.1272911
9.044                0.930374308     -95.3023273
9.045                 0.93017163     -95.4778451
9.046                0.929968376     -95.6538458
9.047                0.929764546     -95.8303307
9.048                0.929560142      -96.007301
9.049                0.929355163     -96.1847578
9.05                 0.929149611     -96.3627025
9.051                0.928943486     -96.5411362
9.052                0.928736789     -96.7200601
9.053                0.928529521     -96.8994755
9.054                0.928321683     -97.0793835
9.055                0.928113276     -97.2597854
9.056                  0.9279043     -97.4406824
9.057                0.927694757     -97.6220757
9.058                0.927484648     -97.8039665
9.059                0.927273973     -97.9863559
9.06                 0.927062735     -98.1692452
9.061                0.926850933     -98.3526356
9.062                 0.92663857     -98.5365282
9.063                0.926425646     -98.7209242
9.064                0.926212163     -98.9058248
9.065                0.925998122     -99.0912313
9.066                0.925783524     -99.2771446
9.067                0.925568372     -99.4635662
9.068                0.925352666      -99.650497
9.069                0.925136407     -99.8379382
9.07                 0.924919598     -100.025891
9.071                 0.92470224     -100.214357
9.072                0.924484334     -100.403336
9.073                0.924265883     -100.592831
9.074                0.924046888     -100.782842
9.075                 0.92382735      -100.97337
9.076                0.923607272     -101.164416
9.077                0.923386655     -101.355983
9.078                0.923165502      -101.54807
9.079                0.922943814     -101.740678
9.08                 0.922721594      -101.93381
9.081                0.922498842     -102.127466
9.082                0.922275563     -102.321647
9.083                0.922051757     -102.516354
9.084                0.921827426     -102.711588
9.085                0.921602574     -102.907351
9.086                0.921377203     -103.103644
9.087                0.921151314     -103.300467
9.088                 0.92092491     -103.497821
9.089                0.920697994     -103.695708
9.09                 0.920470568     -103.894129
9.091                0.920242636     -104.093085
9.092                0.920014198     -104.292577
9.093                0.919785259     -104.492605
9.094                 0.91955582     -104.693172
9.095                0.919325886     -104.894277
9.096                0.919095457     -105.095922
9.097                0.918864539     -105.298108
9.098                0.918633133     -105.500836
9.099                0.918401242     -105.704107
9.1                   0.91816887     -105.907922
9.101                0.917936019     -106.112282
9.102                0.917702693     -106.317187
9.103                0.917468896      -106.52264
9.104                 0.91723463      -106.72864
9.105                0.916999899     -106.935188
9.106                0.916764707     -107.142287
9.107                0.916529056     -107.349936
9.108                0.916292951     -107.558136
9.109                0.916056394     -107.766888
9.11                 0.915819391     -107.976194
9.111                0.915581944     -108.186054
9.112                0.915344058     -108.396469
9.113                0.915105735      -108.60744
9.114                0.914866981     -108.818968
9.115                  0.9146278     -109.031053
9.116                0.914388194     -109.243697
9.117                0.914148169     -109.456899
9.118                0.913907729     -109.670662
9.119                0.913666878     -109.884986
9.12                  0.91342562     -110.099871
9.121                 0.91318396     -110.315319
9.122                0.912941902      -110.53133
9.123                0.912699451     -110.747905
9.124                0.912456611     -110.965045
9.125                0.912213387      -111.18275
9.126                0.911969785     -111.401021
9.127                0.911725808      -111.61986
9.128                0.911481462     -111.839265
9.129                0.911236751      -112.05924
9.13                 0.910991681     -112.279783
9.131                0.910746257     -112.500895
9.132                0.910500484     -112.722578
9.133                0.910254367     -112.944832
9.134                0.910007911     -113.167657
9.135                0.909761123     -113.391055
9.136                0.909514007     -113.615025
9.137                0.909266569     -113.839569
9.138                0.909018815     -114.064686
9.139                 0.90877075     -114.290378
9.14                  0.90852238     -114.516645
9.141                0.908273711     -114.743487
9.142                0.908024749     -114.970906
9.143                0.907775501       -115.1989
9.144                0.907525971     -115.427472
9.145                0.907276166     -115.656622
9.146                0.907026093     -115.886349
9.147                0.906775757     -116.116655
9.148                0.906525166     -116.347539
9.149                0.906274325     -116.579002
9.15                 0.906023241     -116.811045
9.151                0.905771921     -117.043668
9.152                0.905520371     -117.276872
9.153                0.905268599     -117.510656
9.154                 0.90501661      -117.74502
9.155                0.904764413     -117.979966
9.156                0.904512013     -118.215494
9.157                0.904259419     -118.451603
9.158                0.904006637     -118.688294
9.159                0.903753674     -118.925568
9.16                 0.903500539     -119.163424
9.161                0.903247237     -119.401862
9.162                0.902993777     -119.640884
9.163                0.902740167     -119.880488
9.164                0.902486413     -120.120676
9.165                0.902232524     -120.361447
9.166                0.901978508     -120.602801
9.167                0.901724372     -120.844738
9.168                0.901470124     -121.087259
9.169                0.901215772     -121.330364
9.17                 0.900961325     -121.574052
9.171                0.900706791     -121.818323
9.172                0.900452178     -122.063178
9.173                0.900197494     -122.308617
9.174                0.899942747     -122.554638
9.175                0.899687947     -122.801244
9.176                0.899433102     -123.048432
9.177                0.899178221     -123.296203
9.178                0.898923312     -123.544557
9.179                0.898668384     -123.793494
9.18                 0.898413446     -124.043014
9.181                0.898158507     -124.293116
9.182                0.897903576     -124.543799
9.183                0.897648663     -124.795065
9.184                0.897393776     -125.046912
9.185                0.897138925     -125.299341
9.186                 0.89688412      -125.55235
9.187                0.896629369      -125.80594
9.188                0.896374682     -126.060109
9.189                 0.89612007     -126.314859
9.19                 0.895865541     -126.570188
9.191                0.895611105     -126.826095
9.192                0.895356773     -127.082581
9.193                0.895102554     -127.339645
9.194                0.894848458     -127.597286
9.195                0.894594495     -127.855504
9.196                0.894340676     -128.114298
9.197                 0.89408701     -128.373667
9.198                0.893833509     -128.633611
9.199                0.893580182      -128.89413
9.2                  0.893327039     -129.155222
9.201                0.893074092     -129.416887
9.202                0.892821351     -129.679124
9.203                0.892568827     -129.941933
9.204                 0.89231653     -130.205312
9.205                0.892064471     -130.469261
9.206                0.891812661     -130.733778
9.207                0.891561111     -130.998864
9.208                0.891309833     -131.264517
9.209                0.891058836     -131.530735
9.21                 0.890808133     -131.797519
9.211                0.890557734     -132.064868
9.212                0.890307651     -132.332779
9.213                0.890057895     -132.601253
9.214                0.889808478     -132.870287
9.215                0.889559411     -133.139882
9.216                0.889310706     -133.410035
9.217                0.889062373     -133.680746
9.218                0.888814426     -133.952014
9.219                0.888566875     -134.223836
9.22                 0.888319733     -134.496213
9.221                0.888073011     -134.769143
9.222                0.887826721     -135.042624
9.223                0.887580876     -135.316655
9.224                0.887335486     -135.591234
9.225                0.887090565     -135.866361
9.226                0.886846124     -136.142034
9.227                0.886602176     -136.418251
9.228                0.886358733     -136.695011
9.229                0.886115806     -136.972312
9.23                 0.885873409     -137.250153
9.231                0.885631554     -137.528533
9.232                0.885390253     -137.807448
9.233                0.885149519     -138.086899
9.234                0.884909365     -138.366883
9.235                0.884669802     -138.647399
9.236                0.884430843     -138.928444
9.237                0.884192502     -139.210018
9.238                 0.88395479     -139.492117
9.239                0.883717721     -139.774741
9.24                 0.883481307     -140.057887
9.241                0.883245561     -140.341554
9.242                0.883010496      -140.62574
9.243                0.882776125     -140.910442
9.244                0.882542461     -141.195658
9.245                0.882309516     -141.481388
9.246                0.882077304     -141.767627
9.247                0.881845838     -142.054376
9.248                 0.88161513      -142.34163
9.249                0.881385194     -142.629388
9.25                 0.881156043     -142.917649
9.251                 0.88092769     -143.206409
9.252                0.880700147     -143.495666
9.253                0.880473429     -143.785418
9.254                0.880247548     -144.075663
9.255                0.880022517     -144.366399
9.256                 0.87979835     -144.657622
9.257                 0.87957506     -144.949331
9.258                 0.87935266     -145.241522
9.259                0.879131163     -145.534195
9.26                 0.878910582     -145.827345
9.261                0.878690931      -146.12097
9.262                0.878472223     -146.415069
9.263                0.878254471     -146.709637
9.264                0.878037689     -147.004673
9.265                0.877821889     -147.300174
9.266                0.877607084     -147.596137
9.267                0.877393289     -147.892558
9.268                0.877180516     -148.189437
9.269                0.876968779     -148.486768
9.27                  0.87675809     -148.784551
9.271                0.876548463     -149.082781
9.272                0.876339911     -149.381456
9.273                0.876132447     -149.680573
9.274                0.875926084     -149.980129
9.275                0.875720836     -150.280121
9.276                0.875516715     -150.580545
9.277                0.875313735     -150.881399
9.278                0.875111908      -151.18268
9.279                0.874911248     -151.484383
9.28                 0.874711768     -151.786507
9.281                 0.87451348     -152.089048
9.282                0.874316398     -152.392002
9.283                0.874120534     -152.695366
9.284                0.873925902     -152.999138
9.285                0.873732513     -153.303313
9.286                0.873540381     -153.607888
9.287                0.873349519      -153.91286
9.288                0.873159939     -154.218225
9.289                0.872971654     -154.523979
9.29                 0.872784676      -154.83012
9.291                0.872599018     -155.136644
9.292                0.872414692     -155.443547
9.293                0.872231712     -155.750825
9.294                0.872050088     -156.058475
9.295                0.871869834     -156.366493
9.296                0.871690962     -156.674875
9.297                0.871513484     -156.983618
9.298                0.871337412     -157.292718
9.299                0.871162758     -157.602171
9.3                  0.870989533     -157.911973
9.301                0.870817751      -158.22212
9.302                0.870647423     -158.532609
9.303                 0.87047856     -158.843435
9.304                0.870311174     -159.154595
9.305                0.870145277     -159.466085
9.306                 0.86998088       -159.7779
9.307                0.869817995     -160.090036
9.308                0.869656633      -160.40249
9.309                0.869496805     -160.715257
9.31                 0.869338522     -161.028334
9.311                0.869181796     -161.341716
9.312                0.869026638     -161.655398
9.313                0.868873057     -161.969377
9.314                0.868721066     -162.283649
9.315                0.868570675     -162.598209
9.316                0.868421894     -162.913053
9.317                0.868274733     -163.228176
9.318                0.868129204     -163.543575
9.319                0.867985316     -163.859245
9.32                  0.86784308     -164.175181
9.321                0.867702505     -164.491379
9.322                0.867563602     -164.807835
9.323                 0.86742638     -165.124545
9.324                0.867290849     -165.441503
9.325                0.867157018     -165.758705
9.326                0.867024898     -166.076147
9.327                0.866894496     -166.393825
9.328                0.866765823     -166.711733
9.329                0.866638888     -167.029867
9.33                 0.866513699     -167.348222
9.331                0.866390265     -167.666794
9.332                0.866268596     -167.985579
9.333                0.866148699     -168.304571
9.334                0.866030582     -168.623766
9.335                0.865914255     -168.943159
9.336                0.865799725     -169.262745
9.337                   0.865687      -169.58252
9.338                0.865576089     -169.902479
9.339                0.865466998     -170.222617
9.34                 0.865359736     -170.542929
9.341                0.865254309     -170.863411
9.342                0.865150726     -171.184057
9.343                0.865048993     -171.504863
9.344                0.864949117     -171.825824
9.345                0.864851105     -172.146935
9.346                0.864754963     -172.468192
9.347                0.864660699     -172.789588
9.348                0.864568319      -173.11112
9.349                0.864477828     -173.432783
9.35                 0.864389233     -173.754571
9.351                 0.86430254     -174.076479
9.352                0.864217754     -174.398503
9.353                0.864134881     -174.720638
9.354                0.864053927     -175.042878
9.355                0.863974896     -175.365218
9.356                0.863897794     -175.687655
9.357                0.863822626     -176.010182
9.358                0.863749396     -176.332794
9.359                0.863678109     -176.655487
9.36                 0.863608769     -176.978255
9.361                0.863541381     -177.301094
9.362                0.863475949     -177.623998
9.363                0.863412476     -177.946963
9.364                0.863350967     -178.269982
9.365                0.863291425     -178.593052
9.366                0.863233853     -178.916167
9.367                0.863178254     -179.239322
9.368                0.863124633     -179.562511
9.369                 0.86307299     -179.885731
9.37                  0.86302333      179.791025
9.371                0.862975655      179.467762
9.372                0.862929966      179.144484
9.373                0.862886267      178.821196
9.374                0.862844559      178.497904
9.375                0.862804845      178.174613
9.376                0.862767125      177.851328
9.377                0.862731401      177.528055
9.378                0.862697674      177.204797
9.379                0.862665947       176.88156
9.38                 0.862636218       176.55835
9.381                0.862608491      176.235171
9.382                0.862582764      175.912029
9.383                0.862559038      175.588929
9.384                0.862537314      175.265875
9.385                0.862517592      174.942873
9.386                0.862499871      174.619928
9.387                0.862484152      174.297045
9.388                0.862470433      173.974229
9.389                0.862458715      173.651485
9.39                 0.862448995      173.328818
9.391                0.862441275      173.006233
9.392                0.862435551      172.683736
9.393                0.862431823      172.361331
9.394                0.862430089      172.039023
9.395                0.862430348      171.716817
9.396                0.862432598      171.394719
