! TOUCHSTONE file generated by CST DESIGN STUDIO
! Date and time: Tue Feb  4 18:40:43 2025
! Project name: C:\Work\MatlabApps\UnitCellOptimizationMatlab\CST\unitcell.cst
! Tree item: Tasks\Sweep1\SPara1\S-Parameters
! Header version: 2024
! Port assignment regex: !\s*Touchstone port\s*([0-9]+)\s*=\s*(CST MWS port|CST DES external port|CST DES block port)\s*(.+)\s* \(\"(.*)\"\)(\s*mode\s*([0-9]+))?.*
! Touchstone port assignment:
! Touchstone port 1 = CST DES external port 1 ("")
# GHz S MA R 50
9                      0.9511891     -69.0369482
9.001                0.951062018     -69.1414332
9.002                0.950934513     -69.2461819
9.003                0.950806583     -69.3511951
9.004                0.950678226     -69.4564737
9.005                0.950549443     -69.5620185
9.006                 0.95042023     -69.6678304
9.007                0.950290588     -69.7739103
9.008                0.950160515     -69.8802591
9.009                0.950030009     -69.9868776
9.01                  0.94989907     -70.0937667
9.011                0.949767696     -70.2009274
9.012                0.949635885     -70.3083604
9.013                0.949503637     -70.4160667
9.014                 0.94937095     -70.5240472
9.015                0.949237823     -70.6323028
9.016                0.949104255     -70.7408343
9.017                0.948970244     -70.8496427
9.018                 0.94883579     -70.9587288
9.019                 0.94870089     -71.0680936
9.02                 0.948565543      -71.177738
9.021                 0.94842975     -71.2876629
9.022                0.948293507     -71.3978693
9.023                0.948156814     -71.5083579
9.024                0.948019669     -71.6191298
9.025                0.947882072     -71.7301859
9.026                 0.94774402     -71.8415271
9.027                0.947605513     -71.9531543
9.028                 0.94746655     -72.0650684
9.029                0.947327129     -72.1772705
9.03                 0.947187249     -72.2897614
9.031                0.947046908      -72.402542
9.032                0.946906106     -72.5156134
9.033                0.946764841     -72.6289764
9.034                0.946623112     -72.7426321
9.035                0.946480917     -72.8565813
9.036                0.946338255     -72.9708251
9.037                0.946195126     -73.0853643
9.038                0.946051528     -73.2001999
9.039                0.945907459      -73.315333
9.04                 0.945762918     -73.4307644
9.041                0.945617904     -73.5464951
9.042                0.945472417     -73.6625262
9.043                0.945326453     -73.7788585
9.044                0.945180013     -73.8954931
9.045                0.945033096      -74.012431
9.046                0.944885699      -74.129673
9.047                0.944737821     -74.2472203
9.048                0.944589462     -74.3650738
9.049                 0.94444062     -74.4832345
9.05                 0.944291294     -74.6017033
9.051                0.944141483     -74.7204813
9.052                0.943991185     -74.8395695
9.053                0.943840399     -74.9589689
9.054                0.943689125     -75.0786805
9.055                 0.94353736     -75.1987053
9.056                0.943385103     -75.3190443
9.057                0.943232355     -75.4396986
9.058                0.943079112      -75.560669
9.059                0.942925374     -75.6819568
9.06                  0.94277114     -75.8035628
9.061                0.942616409     -75.9254881
9.062                0.942461179     -76.0477338
9.063                0.942305449     -76.1703009
9.064                0.942149218     -76.2931903
9.065                0.941992486     -76.4164032
9.066                0.941835249     -76.5399406
9.067                0.941677509     -76.6638035
9.068                0.941519262      -76.787993
9.069                0.941360509     -76.9125101
9.07                 0.941201248     -77.0373558
9.071                0.941041478     -77.1625313
9.072                0.940881198     -77.2880376
9.073                0.940720406     -77.4138757
9.074                0.940559102     -77.5400466
9.075                0.940397284     -77.6665516
9.076                0.940234951     -77.7933916
9.077                0.940072103     -77.9205676
9.078                0.939908738     -78.0480809
9.079                0.939744854     -78.1759324
9.08                 0.939580451     -78.3041232
9.081                0.939415529     -78.4326544
9.082                0.939250084     -78.5615271
9.083                0.939084118     -78.6907423
9.084                0.938917628     -78.8203012
9.085                0.938750613     -78.9502049
9.086                0.938583073     -79.0804544
9.087                0.938415006     -79.2110508
9.088                0.938246412     -79.3419953
9.089                0.938077289     -79.4732889
9.09                 0.937907636     -79.6049328
9.091                0.937737452      -79.736928
9.092                0.937566737     -79.8692756
9.093                0.937395489     -80.0019768
9.094                0.937223707     -80.1350327
9.095                0.937051391     -80.2684444
9.096                0.936878539      -80.402213
9.097                 0.93670515     -80.5363396
9.098                0.936531224     -80.6708254
9.099                0.936356759     -80.8056714
9.1                  0.936181755     -80.9408789
9.101                0.936006211     -81.0764489
9.102                0.935830125     -81.2123826
9.103                0.935653497     -81.3486811
9.104                0.935476326     -81.4853455
9.105                0.935298611      -81.622377
9.106                0.935120351     -81.7597768
9.107                0.934941546     -81.8975459
9.108                0.934762194     -82.0356855
9.109                0.934582295     -82.1741968
9.11                 0.934401847     -82.3130809
9.111                0.934220851      -82.452339
9.112                0.934039305     -82.5919722
9.113                0.933857208     -82.7319817
9.114                 0.93367456     -82.8723686
9.115                 0.93349136     -83.0131341
9.116                0.933307607     -83.1542794
9.117                  0.9331233     -83.2958056
9.118                0.932938439     -83.4377139
9.119                0.932753023     -83.5800055
9.12                 0.932567052     -83.7226816
9.121                0.932380524     -83.8657432
9.122                0.932193438     -84.0091917
9.123                0.932005796     -84.1530281
9.124                0.931817595     -84.2972536
9.125                0.931628835     -84.4418695
9.126                0.931439515     -84.5868769
9.127                0.931249635      -84.732277
9.128                0.931059195     -84.8780709
9.129                0.930868193       -85.02426
9.13                  0.93067663     -85.1708453
9.131                0.930484504      -85.317828
9.132                0.930291815     -85.4652094
9.133                0.930098563     -85.6129907
9.134                0.929904747     -85.7611729
9.135                0.929710367     -85.9097574
9.136                0.929515422     -86.0587454
9.137                0.929319912      -86.208138
9.138                0.929123837     -86.3579364
9.139                0.928927195     -86.5081418
9.14                 0.928729987     -86.6587555
9.141                0.928532213     -86.8097787
9.142                0.928333872     -86.9612125
9.143                0.928134963     -87.1130582
9.144                0.927935487      -87.265317
9.145                0.927735444       -87.41799
9.146                0.927534832     -87.5710786
9.147                0.927333652     -87.7245839
9.148                0.927131903     -87.8785071
9.149                0.926929586     -88.0328495
9.15                   0.9267267     -88.1876122
9.151                0.926523245     -88.3427965
9.152                0.926319221     -88.4984036
9.153                0.926114628     -88.6544348
9.154                0.925909466     -88.8108912
9.155                0.925703734      -88.967774
9.156                0.925497433     -89.1250845
9.157                0.925290563      -89.282824
9.158                0.925083124     -89.4409935
9.159                0.924875115     -89.5995944
9.16                 0.924666538     -89.7586279
9.161                0.924457391     -89.9180952
9.162                0.924247676     -90.0779976
9.163                0.924037392     -90.2383361
9.164                0.923826539     -90.3991122
9.165                0.923615118     -90.5603269
9.166                0.923403129     -90.7219816
9.167                0.923190572     -90.8840775
9.168                0.922977448     -91.0466157
9.169                0.922763756     -91.2095975
9.17                 0.922549498     -91.3730242
9.171                0.922334673     -91.5368969
9.172                0.922119282      -91.701217
9.173                0.921903325     -91.8659855
9.174                0.921686804     -92.0312038
9.175                0.921469717      -92.196873
9.176                0.921252067     -92.3629945
9.177                0.921033852     -92.5295693
9.178                0.920815075     -92.6965988
9.179                0.920595736     -92.8640842
9.18                 0.920375835     -93.0320266
9.181                0.920155372     -93.2004273
9.182                 0.91993435     -93.3692876
9.183                0.919712767     -93.5386087
9.184                0.919490626     -93.7083917
9.185                0.919267927     -93.8786379
9.186                0.919044671     -94.0493485
9.187                0.918820859     -94.2205247
9.188                0.918596492     -94.3921678
9.189                 0.91837157     -94.5642789
9.19                 0.918146094     -94.7368593
9.191                0.917920067     -94.9099102
9.192                0.917693488     -95.0834327
9.193                0.917466359     -95.2574282
9.194                0.917238681     -95.4318978
9.195                0.917010455     -95.6068427
9.196                0.916781683     -95.7822641
9.197                0.916552365     -95.9581632
9.198                0.916322504     -96.1345412
9.199                0.916092099     -96.3113994
9.2                  0.915861153     -96.4887388
9.201                0.915629668     -96.6665608
9.202                0.915397644     -96.8448665
9.203                0.915165083      -97.023657
9.204                0.914931986     -97.2029336
9.205                0.914698356     -97.3826975
9.206                0.914464194     -97.5629498
9.207                0.914229501     -97.7436918
9.208                0.913994279     -97.9249245
9.209                 0.91375853     -98.1066492
9.21                 0.913522256      -98.288867
9.211                0.913285459     -98.4715791
9.212                 0.91304814     -98.6547867
9.213                0.912810302     -98.8384909
9.214                0.912571946     -99.0226929
9.215                0.912333074     -99.2073939
9.216                0.912093689     -99.3925949
9.217                0.911853793     -99.5782971
9.218                0.911613387     -99.7645018
9.219                0.911372475     -99.9512099
9.22                 0.911131057     -100.138423
9.221                0.910889138     -100.326141
9.222                0.910646718     -100.514367
9.223                0.910403801       -100.7031
9.224                0.910160389     -100.892343
9.225                0.909916485     -101.082096
9.226                 0.90967209      -101.27236
9.227                0.909427208     -101.463137
9.228                0.909181841     -101.654427
9.229                0.908935992     -101.846232
9.23                 0.908689664     -102.038553
9.231                 0.90844286      -102.23139
9.232                0.908195582     -102.424746
9.233                0.907947834      -102.61862
9.234                0.907699618     -102.813015
9.235                0.907450938      -103.00793
9.236                0.907201797     -103.203368
9.237                0.906952197     -103.399329
9.238                0.906702142     -103.595815
9.239                0.906451636     -103.792825
9.24                 0.906200681     -103.990362
9.241                0.905949282     -104.188426
9.242                0.905697441     -104.387019
9.243                0.905445162     -104.586141
9.244                0.905192448     -104.785793
9.245                0.904939304     -104.985977
9.246                0.904685733     -105.186693
9.247                0.904431739     -105.387943
9.248                0.904177325     -105.589727
9.249                0.903922496     -105.792046
9.25                 0.903667255     -105.994902
9.251                0.903411606     -106.198294
9.252                0.903155554     -106.402225
9.253                0.902899103     -106.606695
9.254                0.902642256     -106.811705
9.255                0.902385018     -107.017256
9.256                0.902127394     -107.223349
9.257                0.901869387     -107.429985
9.258                0.901611003     -107.637164
9.259                0.901352245     -107.844888
9.26                 0.901093119     -108.053157
9.261                0.900833628     -108.261973
9.262                0.900573779     -108.471335
9.263                0.900313574     -108.681246
9.264                0.900053021     -108.891706
9.265                0.899792122     -109.102715
9.266                0.899530884     -109.314275
9.267                0.899269311     -109.526386
9.268                0.899007408     -109.739049
9.269                0.898745182     -109.952265
9.27                 0.898482636     -110.166034
9.271                0.898219776     -110.380359
9.272                0.897956609     -110.595238
9.273                0.897693138     -110.810673
9.274                 0.89742937     -111.026665
9.275                0.897165311     -111.243214
9.276                0.896900965     -111.460321
9.277                 0.89663634     -111.677987
9.278                 0.89637144     -111.896213
9.279                0.896106272     -112.114999
9.28                 0.895840842     -112.334345
9.281                0.895575155     -112.554253
9.282                0.895309218     -112.774723
9.283                0.895043037     -112.995756
9.284                0.894776619     -113.217352
9.285                0.894509969     -113.439512
9.286                0.894243095     -113.662236
9.287                0.893976002     -113.885526
9.288                0.893708698     -114.109381
9.289                0.893441189     -114.333802
9.29                 0.893173481      -114.55879
9.291                0.892905582     -114.784346
9.292                0.892637498     -115.010469
9.293                0.892369237      -115.23716
9.294                0.892100805      -115.46442
9.295                 0.89183221     -115.692249
9.296                0.891563459     -115.920647
9.297                0.891294559     -116.149615
9.298                0.891025518     -116.379154
9.299                0.890756342     -116.609264
9.3                   0.89048704     -116.839945
9.301                0.890217619     -117.071197
9.302                0.889948087     -117.303021
9.303                0.889678452     -117.535418
9.304                0.889408721     -117.768386
9.305                0.889138902     -118.001928
9.306                0.888869003     -118.236043
9.307                0.888599033     -118.470731
9.308                   0.888329     -118.705992
9.309                0.888058911     -118.941828
9.31                 0.887788775     -119.178237
9.311                0.887518601     -119.415221
9.312                0.887248397     -119.652779
9.313                0.886978171     -119.890911
9.314                0.886707933     -120.129618
9.315                 0.88643769       -120.3689
9.316                0.886167453     -120.608756
9.317                0.885897228     -120.849188
9.318                0.885627027     -121.090194
9.319                0.885356857     -121.331776
9.32                 0.885086727     -121.573932
9.321                0.884816647     -121.816664
9.322                0.884546627      -122.05997
9.323                0.884276675     -122.303852
9.324                0.884006801     -122.548308
9.325                0.883737014     -122.793339
9.326                0.883467324     -123.038945
9.327                0.883197741     -123.285125
9.328                0.882928275      -123.53188
9.329                0.882658934     -123.779209
9.33                  0.88238973     -124.027112
9.331                0.882120672     -124.275589
9.332                 0.88185177     -124.524639
9.333                0.881583034     -124.774263
9.334                0.881314474      -125.02446
9.335                0.881046102     -125.275229
9.336                0.880777926     -125.526571
9.337                0.880509958     -125.778485
9.338                0.880242208      -126.03097
9.339                0.879974687     -126.284027
9.34                 0.879707405     -126.537655
9.341                0.879440373     -126.791853
9.342                0.879173602     -127.046621
9.343                0.878907102     -127.301958
9.344                0.878640886     -127.557864
9.345                0.878374962     -127.814338
9.346                0.878109344     -128.071381
9.347                0.877844041      -128.32899
9.348                0.877579066     -128.587166
9.349                0.877314429     -128.845908
9.35                 0.877050142     -129.105215
9.351                0.876786216     -129.365087
9.352                0.876522662     -129.625522
9.353                0.876259493      -129.88652
9.354                0.875996721     -130.148081
9.355                0.875734355     -130.410203
9.356                0.875472409     -130.672886
9.357                0.875210895     -130.936128
9.358                0.874949824      -131.19993
9.359                0.874689207     -131.464289
9.36                 0.874429058     -131.729205
9.361                0.874169388     -131.994678
9.362                 0.87391021     -132.260705
9.363                0.873651535     -132.527287
9.364                0.873393376     -132.794421
9.365                0.873135745     -133.062107
9.366                0.872878655     -133.330344
9.367                0.872622118     -133.599131
9.368                0.872366146     -133.868466
9.369                0.872110753     -134.138348
9.37                  0.87185595     -134.408776
9.371                 0.87160175     -134.679749
9.372                0.871348166     -134.951266
9.373                0.871095211     -135.223325
9.374                0.870842897     -135.495924
9.375                0.870591238     -135.769063
9.376                0.870340246      -136.04274
9.377                0.870089935     -136.316954
9.378                0.869840316     -136.591703
9.379                0.869591404     -136.866985
9.38                 0.869343211     -137.142799
9.381                 0.86909575     -137.419144
9.382                0.868849035     -137.696018
9.383                0.868603079     -137.973419
9.384                0.868357894     -138.251346
9.385                0.868113495     -138.529797
9.386                0.867869894      -138.80877
9.387                0.867627105     -139.088264
9.388                0.867385141     -139.368276
9.389                0.867144016     -139.648806
9.39                 0.866903742      -139.92985
9.391                0.866664334     -140.211408
9.392                0.866425805     -140.493477
9.393                0.866188168     -140.776055
9.394                0.865951437     -141.059141
9.395                0.865715625     -141.342732
9.396                0.865480747     -141.626827
