! TOUCHSTONE file generated by CST DESIGN STUDIO
! Date and time: Tue Feb  4 17:41:44 2025
! Project name: C:\Work\MatlabApps\UnitCellOptimizationMatlab\CST\unitcell.cst
! Tree item: Tasks\Sweep1\SPara1\S-Parameters
! Header version: 2024
! Port assignment regex: !\s*Touchstone port\s*([0-9]+)\s*=\s*(CST MWS port|CST DES external port|CST DES block port)\s*(.+)\s* \(\"(.*)\"\)(\s*mode\s*([0-9]+))?.*
! Touchstone port assignment:
! Touchstone port 1 = CST DES external port 1 ("")
# GHz S MA R 50
9                    0.946379984     -51.4682149
9.001                 0.94625422     -51.5363502
9.002                0.946128009     -51.6046431
9.003                0.946001348     -51.6730942
9.004                0.945874236      -51.741704
9.005                0.945746671     -51.8104731
9.006                0.945618651      -51.879402
9.007                0.945490174     -51.9484913
9.008                0.945361239     -52.0177414
9.009                0.945231843     -52.0871529
9.01                 0.945101984     -52.1567264
9.011                 0.94497166     -52.2264623
9.012                0.944840871     -52.2963614
9.013                0.944709613      -52.366424
9.014                0.944577885     -52.4366508
9.015                0.944445684     -52.5070423
9.016                 0.94431301     -52.5775991
9.017                0.944179859     -52.6483217
9.018                 0.94404623     -52.7192108
9.019                0.943912121     -52.7902667
9.02                  0.94377753     -52.8614902
9.021                0.943642455     -52.9328818
9.022                0.943506893     -53.0044421
9.023                0.943370844     -53.0761715
9.024                0.943234305     -53.1480709
9.025                0.943097273     -53.2201406
9.026                0.942959747     -53.2923812
9.027                0.942821725     -53.3647935
9.028                0.942683204     -53.4373778
9.029                0.942544183      -53.510135
9.03                  0.94240466     -53.5830654
9.031                0.942264632     -53.6561697
9.032                0.942124098     -53.7294486
9.033                0.941983054     -53.8029026
9.034                  0.9418415     -53.8765322
9.035                0.941699433     -53.9503382
9.036                 0.94155685     -54.0243212
9.037                0.941413751     -54.0984816
9.038                0.941270132     -54.1728202
9.039                0.941125991     -54.2473375
9.04                 0.940981326     -54.3220342
9.041                0.940836136     -54.3969108
9.042                0.940690418     -54.4719681
9.043                0.940544169     -54.5472066
9.044                0.940397387      -54.622627
9.045                0.940250071     -54.6982298
9.046                0.940102218     -54.7740157
9.047                0.939953826     -54.8499854
9.048                0.939804892     -54.9261395
9.049                0.939655415     -55.0024786
9.05                 0.939505392     -55.0790033
9.051                 0.93935482     -55.1557144
9.052                0.939203698     -55.2326124
9.053                0.939052023      -55.309698
9.054                0.938899793     -55.3869719
9.055                0.938747006     -55.4644347
9.056                0.938593659      -55.542087
9.057                 0.93843975     -55.6199296
9.058                0.938285276      -55.697963
9.059                0.938130236      -55.776188
9.06                 0.937974627     -55.8546053
9.061                0.937818446     -55.9332154
9.062                0.937661692     -56.0120191
9.063                0.937504361      -56.091017
9.064                0.937346451     -56.1702099
9.065                0.937187961     -56.2495984
9.066                0.937028887     -56.3291831
9.067                0.936869227     -56.4089649
9.068                0.936708979     -56.4889443
9.069                 0.93654814     -56.5691221
9.07                 0.936386708      -56.649499
9.071                 0.93622468     -56.7300756
9.072                0.936062055     -56.8108527
9.073                0.935898828      -56.891831
9.074                0.935734999     -56.9730111
9.075                0.935570563     -57.0543939
9.076                 0.93540552     -57.1359799
9.077                0.935239866       -57.21777
9.078                0.935073599     -57.2997648
9.079                0.934906716     -57.3819651
9.08                 0.934739214     -57.4643716
9.081                0.934571092      -57.546985
9.082                0.934402347     -57.6298061
9.083                0.934232975     -57.7128356
9.084                0.934062975     -57.7960742
9.085                0.933892343     -57.8795226
9.086                0.933721078     -57.9631817
9.087                0.933549176     -58.0470522
9.088                0.933376635     -58.1311348
9.089                0.933203452     -58.2154302
9.09                 0.933029625     -58.2999393
9.091                0.932855151     -58.3846628
9.092                0.932680027     -58.4696014
9.093                 0.93250425      -58.554756
9.094                0.932327819     -58.6401272
9.095                0.932150729     -58.7257159
9.096                0.931972979     -58.8115229
9.097                0.931794566     -58.8975489
9.098                0.931615486     -58.9837946
9.099                0.931435738      -59.070261
9.1                  0.931255318     -59.1569488
9.101                0.931074223     -59.2438587
9.102                0.930892452     -59.3309916
9.103                0.930710001     -59.4183483
9.104                0.930526867     -59.5059295
9.105                0.930343047     -59.5937362
9.106                0.930158539      -59.681769
9.107                 0.92997334     -59.7700288
9.108                0.929787446     -59.8585164
9.109                0.929600856     -59.9472327
9.11                 0.929413566     -60.0361785
9.111                0.929225574     -60.1253545
9.112                0.929036875     -60.2147616
9.113                0.928847469     -60.3044008
9.114                0.928657351     -60.3942727
9.115                0.928466518     -60.4843782
9.116                0.928274969     -60.5747182
9.117                0.928082699     -60.6652935
9.118                0.927889707      -60.756105
9.119                0.927695988     -60.8471536
9.12                  0.92750154       -60.93844
9.121                 0.92730636     -61.0299651
9.122                0.927110445     -61.1217299
9.123                0.926913792     -61.2137352
9.124                0.926716398     -61.3059818
9.125                 0.92651826     -61.3984707
9.126                0.926319375     -61.4912027
9.127                0.926119739     -61.5841787
9.128                0.925919351     -61.6773995
9.129                0.925718206     -61.7708662
9.13                 0.925516302     -61.8645795
9.131                0.925313635     -61.9585404
9.132                0.925110203     -62.0527497
9.133                0.924906002     -62.1472085
9.134                0.924701029     -62.2419175
9.135                0.924495282     -62.3368777
9.136                0.924288756     -62.4320901
9.137                0.924081449     -62.5275554
9.138                0.923873358     -62.6232748
9.139                0.923664479      -62.719249
9.14                  0.92345481     -62.8154791
9.141                0.923244346      -62.911966
9.142                0.923033086     -63.0087105
9.143                0.922821025     -63.1057137
9.144                 0.92260816     -63.2029765
9.145                0.922394489     -63.3004999
9.146                0.922180008     -63.3982847
9.147                0.921964713      -63.496332
9.148                0.921748602     -63.5946428
9.149                0.921531671      -63.693218
9.15                 0.921313916     -63.7920585
9.151                0.921095336     -63.8911654
9.152                0.920875925     -63.9905396
9.153                0.920655682     -64.0901821
9.154                0.920434602     -64.1900939
9.155                0.920212682      -64.290276
9.156                0.919989919     -64.3907294
9.157                 0.91976631     -64.4914551
9.158                0.919541851     -64.5924541
9.159                0.919316539     -64.6937274
9.16                  0.91909037     -64.7952761
9.161                0.918863342      -64.897101
9.162                0.918635449     -64.9992033
9.163                0.918406691     -65.1015841
9.164                0.918177061     -65.2042442
9.165                0.917946559     -65.3071847
9.166                0.917715179     -65.4104068
9.167                0.917482918     -65.5139114
9.168                0.917249774     -65.6176995
9.169                0.917015742     -65.7217723
9.17                 0.916780819     -65.8261308
9.171                0.916545002      -65.930776
9.172                0.916308286     -66.0357091
9.173                 0.91607067      -66.140931
9.174                0.915832148     -66.2464428
9.175                0.915592718     -66.3522457
9.176                0.915352375     -66.4583407
9.177                0.915111117     -66.5647289
9.178                 0.91486894     -66.6714114
9.179                 0.91462584     -66.7783892
9.18                 0.914381814     -66.8856635
9.181                0.914136858     -66.9932355
9.182                0.913890968     -67.1011061
9.183                0.913644142     -67.2092765
9.184                0.913396375     -67.3177479
9.185                0.913147663     -67.4265213
9.186                0.912898004     -67.5355978
9.187                0.912647393     -67.6449787
9.188                0.912395826      -67.754665
9.189                0.912143301     -67.8646579
9.19                 0.911889814     -67.9749586
9.191                 0.91163536     -68.0855681
9.192                0.911379937     -68.1964876
9.193                 0.91112354     -68.3077183
9.194                0.910866166     -68.4192614
9.195                0.910607811      -68.531118
9.196                0.910348472     -68.6432893
9.197                0.910088144     -68.7557765
9.198                0.909826824     -68.8685807
9.199                0.909564509     -68.9817031
9.2                  0.909301194      -69.095145
9.201                0.909036876     -69.2089075
9.202                0.908771552     -69.3229919
9.203                0.908505216     -69.4373993
9.204                0.908237866     -69.5521309
9.205                0.907969498      -69.667188
9.206                0.907700109     -69.7825718
9.207                0.907429693     -69.8982835
9.208                0.907158248     -70.0143244
9.209                 0.90688577     -70.1306956
9.21                 0.906612255     -70.2473984
9.211                0.906337699     -70.3644341
9.212                0.906062098     -70.4818039
9.213                0.905785449     -70.5995091
9.214                0.905507748     -70.7175508
9.215                0.905228991     -70.8359305
9.216                0.904949174     -70.9546494
9.217                0.904668294     -71.0737086
9.218                0.904386346     -71.1931096
9.219                0.904103327     -71.3128536
9.22                 0.903819232     -71.4329419
9.221                0.903534059     -71.5533757
9.222                0.903247803     -71.6741565
9.223                 0.90296046     -71.7952854
9.224                0.902672027     -71.9167638
9.225                  0.9023825      -72.038593
9.226                0.902091875     -72.1607744
9.227                0.901800147     -72.2833092
9.228                0.901507314     -72.4061988
9.229                0.901213371     -72.5294445
9.23                 0.900918314     -72.6530477
9.231                0.900622141     -72.7770097
9.232                0.900324845     -72.9013318
9.233                0.900026425     -73.0260155
9.234                0.899726876      -73.151062
9.235                0.899426194     -73.2764728
9.236                0.899124376     -73.4022491
9.237                0.898821416     -73.5283925
9.238                0.898517313     -73.6549042
9.239                0.898212061     -73.7817857
9.24                 0.897905657     -73.9090383
9.241                0.897598097     -74.0366634
9.242                0.897289378     -74.1646625
9.243                0.896979494      -74.293037
9.244                0.896668444     -74.4217882
9.245                0.896356222     -74.5509176
9.246                0.896042824     -74.6804266
9.247                0.895728248     -74.8103166
9.248                0.895412489     -74.9405891
9.249                0.895095543     -75.0712455
9.25                 0.894777406     -75.2022873
9.251                0.894458075     -75.3337158
9.252                0.894137546     -75.4655326
9.253                0.893815815     -75.5977391
9.254                0.893492878     -75.7303368
9.255                0.893168732     -75.8633272
9.256                0.892843372     -75.9967116
9.257                0.892516795     -76.1304917
9.258                0.892188996     -76.2646689
9.259                0.891859973     -76.3992447
9.26                 0.891529721     -76.5342205
9.261                0.891198237     -76.6695979
9.262                0.890865517     -76.8053784
9.263                0.890531557     -76.9415636
9.264                0.890196353     -77.0781548
9.265                0.889859902     -77.2151537
9.266                  0.8895222     -77.3525618
9.267                0.889183243     -77.4903805
9.268                0.888843028     -77.6286116
9.269                 0.88850155     -77.7672564
9.27                 0.888158807     -77.9063166
9.271                0.887814793     -78.0457937
9.272                0.887469507     -78.1856892
9.273                0.887122944     -78.3260048
9.274                  0.8867751      -78.466742
9.275                0.886425972     -78.6079023
9.276                0.886075556     -78.7494875
9.277                0.885723849     -78.8914989
9.278                0.885370847     -79.0339383
9.279                0.885016546     -79.1768073
9.28                 0.884660944     -79.3201074
9.281                0.884304035     -79.4638402
9.282                0.883945818     -79.6080074
9.283                0.883586288     -79.7526107
9.284                0.883225442     -79.8976515
9.285                0.882863276     -80.0431315
9.286                0.882499787     -80.1890525
9.287                0.882134972     -80.3354159
9.288                0.881768826     -80.4822235
9.289                0.881401348      -80.629477
9.29                 0.881032533     -80.7771779
9.291                0.880662378     -80.9253279
9.292                0.880290879     -81.0739288
9.293                0.879918034     -81.2229821
9.294                0.879543839     -81.3724896
9.295                0.879168291     -81.5224529
9.296                0.878791386     -81.6728737
9.297                0.878413122     -81.8237537
9.298                0.878033495     -81.9750947
9.299                0.877652502     -82.1268982
9.3                   0.87727014     -82.2791661
9.301                0.876886405        -82.4319
9.302                0.876501296     -82.5851017
9.303                0.876114808     -82.7387728
9.304                0.875726938     -82.8929152
9.305                0.875337684     -83.0475305
9.306                0.874947043     -83.2026204
9.307                0.874555012     -83.3581868
9.308                0.874161587     -83.5142314
9.309                0.873766767     -83.6707558
9.31                 0.873370547      -83.827762
9.311                0.872972926     -83.9852516
9.312                  0.8725739     -84.1432264
9.313                0.872173468     -84.3016882
9.314                0.871771625     -84.4606388
9.315                 0.87136837     -84.6200799
9.316                  0.8709637     -84.7800133
9.317                0.870557612     -84.9404409
9.318                0.870150104     -85.1013644
9.319                0.869741173     -85.2627856
9.32                 0.869330817     -85.4247063
9.321                0.868919033     -85.5871284
9.322                0.868505819     -85.7500536
9.323                0.868091173     -85.9134839
9.324                0.867675092     -86.0774209
9.325                0.867257574     -86.2418665
9.326                0.866838618     -86.4068226
9.327                 0.86641822      -86.572291
9.328                0.865996378     -86.7382735
9.329                0.865573091     -86.9047721
9.33                 0.865148357     -87.0717884
9.331                0.864722174     -87.2393245
9.332                0.864294539     -87.4073821
9.333                0.863865451     -87.5759631
9.334                0.863434908     -87.7450694
9.335                0.863002908     -87.9147029
9.336                 0.86256945     -88.0848654
9.337                0.862134532     -88.2555588
9.338                0.861698153      -88.426785
9.339                 0.86126031     -88.5985459
9.34                 0.860821003     -88.7708434
9.341                 0.86038023     -88.9436793
9.342                0.859937989     -89.1170556
9.343                 0.85949428     -89.2909742
9.344                0.859049101      -89.465437
9.345                 0.85860245     -89.6404458
9.346                0.858154328     -89.8160027
9.347                0.857704733     -89.9921094
9.348                0.857253663      -90.168768
9.349                0.856801119     -90.3459804
9.35                 0.856347099     -90.5237484
9.351                0.855891602     -90.7020741
9.352                0.855434628     -90.8809593
9.353                0.854976176      -91.060406
9.354                0.854516246     -91.2404161
9.355                0.854054837     -91.4209916
9.356                0.853591949     -91.6021344
9.357                0.853127581     -91.7838465
9.358                0.852661734     -91.9661298
9.359                0.852194406     -92.1489862
9.36                 0.851725599     -92.3324178
9.361                0.851255311     -92.5164264
9.362                0.850783544     -92.7010141
9.363                0.850310297     -92.8861828
9.364                0.849835571     -93.0719344
9.365                0.849359366      -93.258271
9.366                0.848881681     -93.4451945
9.367                0.848402519     -93.6327069
9.368                 0.84792188     -93.8208101
9.369                0.847439763     -94.0095061
9.37                 0.846956171      -94.198797
9.371                0.846471103     -94.3886846
9.372                0.845984562     -94.5791709
9.373                0.845496547     -94.7702581
9.374                0.845007061     -94.9619479
9.375                0.844516104     -95.1542424
9.376                0.844023678     -95.3471436
9.377                0.843529785     -95.5406535
9.378                0.843034425     -95.7347741
9.379                0.842537601     -95.9295073
9.38                 0.842039315     -96.1248551
9.381                0.841539568     -96.3208196
9.382                0.841038362     -96.5174026
9.383                  0.8405357     -96.7146063
9.384                0.840031584     -96.9124325
9.385                0.839526015     -97.1108834
9.386                0.839018998     -97.3099608
9.387                0.838510534     -97.5096668
9.388                0.838000625     -97.7100033
9.389                0.837489276     -97.9109723
9.39                 0.836976488     -98.1125759
9.391                0.836462265     -98.3148159
9.392                 0.83594661     -98.5176945
9.393                0.835429526     -98.7212135
9.394                0.834911017      -98.925375
9.395                0.834391086      -99.130181
9.396                0.833869738     -99.3356333
