! TOUCHSTONE file generated by CST DESIGN STUDIO
! Date and time: Tue Feb  4 17:41:37 2025
! Project name: C:\Work\MatlabApps\UnitCellOptimizationMatlab\CST\unitcell.cst
! Tree item: Tasks\Sweep1\SPara1\S-Parameters
! Header version: 2024
! Port assignment regex: !\s*Touchstone port\s*([0-9]+)\s*=\s*(CST MWS port|CST DES external port|CST DES block port)\s*(.+)\s* \(\"(.*)\"\)(\s*mode\s*([0-9]+))?.*
! Touchstone port assignment:
! Touchstone port 1 = CST DES external port 1 ("")
# GHz S MA R 50
9                    0.810001551     -90.7485048
9.001                0.809347548     -90.9413385
9.002                0.808691267     -91.1348668
9.003                0.808032706     -91.3290925
9.004                0.807371864     -91.5240188
9.005                0.806708741     -91.7196484
9.006                0.806043334     -91.9159845
9.007                0.805375645     -92.1130301
9.008                0.804705672     -92.3107881
9.009                0.804033415     -92.5092616
9.01                 0.803358873     -92.7084536
9.011                0.802682047     -92.9083671
9.012                0.802002937     -93.1090053
9.013                0.801321542     -93.3103711
9.014                0.800637864     -93.5124677
9.015                0.799951902     -93.7152981
9.016                0.799263659     -93.9188654
9.017                0.798573133     -94.1231727
9.018                0.797880328     -94.3282231
9.019                0.797185243     -94.5340197
9.02                  0.79648788     -94.7405656
9.021                0.795788242      -94.947864
9.022                0.795086328      -95.155918
9.023                0.794382143     -95.3647307
9.024                0.793675687     -95.5743054
9.025                0.792966964     -95.7846451
9.026                0.792255975      -95.995753
9.027                0.791542723     -96.2076323
9.028                0.790827212     -96.4202863
9.029                0.790109444      -96.633718
9.03                 0.789389424     -96.8479308
9.031                0.788667153     -97.0629277
9.032                0.787942637      -97.278712
9.033                0.787215879      -97.495287
9.034                0.786486884     -97.7126558
9.035                0.785755655     -97.9308217
9.036                0.785022198      -98.149788
9.037                0.784286517     -98.3695579
9.038                0.783548618     -98.5901346
9.039                0.782808505     -98.8115214
9.04                 0.782066185     -99.0337215
9.041                0.781321663     -99.2567383
9.042                0.780574945     -99.4805751
9.043                0.779826038      -99.705235
9.044                0.779074949     -99.9307214
9.045                0.778321683     -100.157038
9.046                0.777566248     -100.384187
9.047                0.776808652     -100.612173
9.048                0.776048902     -100.840998
9.049                0.775287006     -101.070666
9.05                 0.774522972     -101.301181
9.051                0.773756808     -101.532545
9.052                0.772988524     -101.764762
9.053                0.772218128     -101.997836
9.054                0.771445629     -102.231769
9.055                0.770671037     -102.466565
9.056                0.769894362     -102.702227
9.057                0.769115614     -102.938759
9.058                0.768334804     -103.176164
9.059                0.767551941     -103.414445
9.06                 0.766767038     -103.653606
9.061                0.765980106      -103.89365
9.062                0.765191155      -104.13458
9.063                0.764400199       -104.3764
9.064                 0.76360725     -104.619112
9.065                 0.76281232     -104.862721
9.066                0.762015422      -105.10723
9.067                0.761216569     -105.352642
9.068                0.760415776      -105.59896
9.069                0.759613056     -105.846188
9.07                 0.758808423     -106.094328
9.071                0.758001892     -106.343386
9.072                0.757193479     -106.593363
9.073                0.756383198     -106.844262
9.074                0.755571065     -107.096089
9.075                0.754757097     -107.348845
9.076                0.753941309     -107.602534
9.077                0.753123719     -107.857159
9.078                0.752304344     -108.112724
9.079                0.751483201     -108.369232
9.08                 0.750660308     -108.626686
9.081                0.749835685      -108.88509
9.082                0.749009348     -109.144447
9.083                0.748181318     -109.404759
9.084                0.747351615     -109.666032
9.085                0.746520257     -109.928266
9.086                0.745687266     -110.191467
9.087                0.744852662     -110.455637
9.088                0.744016465     -110.720779
9.089                0.743178699     -110.986897
9.09                 0.742339384     -111.253994
9.091                0.741498544     -111.522072
9.092                  0.7406562     -111.791136
9.093                0.739812376     -112.061189
9.094                0.738967097     -112.332233
9.095                0.738120385     -112.604272
9.096                0.737272265     -112.877309
9.097                0.736422763     -113.151347
9.098                0.735571904     -113.426389
9.099                0.734719714     -113.702438
9.1                  0.733866219     -113.979498
9.101                0.733011445     -114.257571
9.102                0.732155421     -114.536661
9.103                0.731298173      -114.81677
9.104                 0.73043973     -115.097902
9.105                0.729580121     -115.380059
9.106                0.728719374     -115.663245
9.107                 0.72785752     -115.947462
9.108                0.726994588     -116.232714
9.109                0.726130609     -116.519003
9.11                 0.725265613     -116.806332
9.111                0.724399633     -117.094705
9.112                0.723532701     -117.384123
9.113                0.722664848      -117.67459
9.114                0.721796107     -117.966109
9.115                0.720926513     -118.258682
9.116                0.720056099     -118.552312
9.117                  0.7191849     -118.847002
9.118                 0.71831295     -119.142754
9.119                0.717440285     -119.439571
9.12                 0.716566942     -119.737457
9.121                0.715692955     -120.036412
9.122                0.714818364      -120.33644
9.123                0.713943204     -120.637544
9.124                0.713067514     -120.939726
9.125                0.712191333     -121.242988
9.126                0.711314699     -121.547332
9.127                0.710437653     -121.852762
9.128                0.709560234      -122.15928
9.129                0.708682482     -122.466887
9.13                  0.70780444     -122.775586
9.131                0.706926148      -123.08538
9.132                 0.70604765      -123.39627
9.133                0.705168987     -123.708259
9.134                0.704290203     -124.021348
9.135                0.703411341      -124.33554
9.136                0.702532447     -124.650837
9.137                0.701653564     -124.967241
9.138                0.700774739     -125.284753
9.139                0.699896017     -125.603376
9.14                 0.699017444     -125.923112
9.141                0.698139068     -126.243961
9.142                0.697260936     -126.565926
9.143                0.696383096     -126.889009
9.144                0.695505597     -127.213211
9.145                0.694628488     -127.538533
9.146                0.693751818     -127.864978
9.147                0.692875638     -128.192546
9.148                0.691999999     -128.521239
9.149                0.691124951     -128.851059
9.15                 0.690250546     -129.182005
9.151                0.689376838     -129.514081
9.152                0.688503877     -129.847286
9.153                0.687631719     -130.181622
9.154                0.686760417     -130.517091
9.155                0.685890024     -130.853691
9.156                0.685020597     -131.191426
9.157                0.684152191     -131.530295
9.158                0.683284861     -131.870299
9.159                0.682418665      -132.21144
9.16                 0.681553659     -132.553716
9.161                  0.6806899     -132.897129
9.162                0.679827448      -133.24168
9.163                 0.67896636     -133.587369
9.164                0.678106695     -133.934195
9.165                0.677248514      -134.28216
9.166                0.676391875     -134.631263
9.167                0.675536841     -134.981504
9.168                0.674683472     -135.332883
9.169                 0.67383183     -135.685401
9.17                 0.672981976     -136.039056
9.171                0.672133975      -136.39385
9.172                0.671287887      -136.74978
9.173                0.670443779     -137.106847
9.174                0.669601713      -137.46505
9.175                0.668761754     -137.824389
9.176                0.667923968     -138.184862
9.177                 0.66708842      -138.54647
9.178                0.666255176      -138.90921
9.179                0.665424304     -139.273082
9.18                  0.66459587     -139.638085
9.181                0.663769942     -140.004218
9.182                0.662946588     -140.371479
9.183                0.662125878     -140.739867
9.184                 0.66130788      -141.10938
9.185                0.660492665     -141.480017
9.186                0.659680303     -141.851776
9.187                0.658870865     -142.224656
9.188                0.658064422     -142.598653
9.189                0.657261047     -142.973767
9.19                 0.656460813     -143.349995
9.191                0.655663792     -143.727335
9.192                0.654870059     -144.105785
9.193                0.654079689     -144.485342
9.194                0.653292757     -144.866003
9.195                 0.65250934     -145.247767
9.196                0.651729514      -145.63063
9.197                0.650953357      -146.01459
9.198                0.650180948     -146.399643
9.199                0.649412366     -146.785786
9.2                  0.648647693     -147.173017
9.201                 0.64788701     -147.561332
9.202                  0.6471304     -147.950727
9.203                0.646377947       -148.3412
9.204                0.645629736     -148.732746
9.205                0.644885856     -149.125362
9.206                0.644146394     -149.519044
9.207                0.643411441     -149.913789
9.208                0.642681089     -150.309591
9.209                0.641955434     -150.706447
9.21                 0.641234573     -151.104353
9.211                0.640518606     -151.503304
9.212                0.639807634     -151.903295
9.213                0.639101766     -152.304322
9.214                0.638401111     -152.706379
9.215                0.637705784     -153.109462
9.216                0.637015902     -153.513565
9.217                0.636331592     -153.918683
9.218                0.635652982     -154.324809
9.219                0.634980209     -154.731936
9.22                 0.634313418     -155.140059
9.221                 0.63365276     -155.549169
9.222                0.632998398     -155.959259
9.223                0.632350501      -156.37032
9.224                0.631709253     -156.782342
9.225                0.631074847     -157.195314
9.226                0.630447491     -157.609223
9.227                0.629827405     -158.024057
9.228                0.629214825     -158.439797
9.229                0.628610001     -158.856425
9.23                 0.628013194     -159.273919
9.231                 0.62742468     -159.692253
9.232                0.626844742     -160.111396
9.233                0.626273666      -160.53131
9.234                0.625711731     -160.951952
9.235                0.625159196      -161.37327
9.236                0.624616282     -161.795203
9.237                0.624083146     -162.217681
9.238                0.623559845      -162.64062
9.239                0.623046292     -163.063929
9.24                 0.622542206     -163.487506
9.241                0.622047053     -163.911242
9.242                0.621559986     -164.335029
9.243                0.621079798     -164.758765
9.244                0.620604906     -165.182371
9.245                 0.62013337     -165.605797
9.246                0.619662995     -166.029043
9.247                0.619191489      -166.45217
9.248                  0.6187167     -166.875305
9.249                0.618236888     -167.298636
9.25                 0.617750969     -167.722405
9.251                0.617258691     -168.146874
9.252                0.616760676     -168.572303
9.253                0.616258327      -168.99892
9.254                0.615753625     -169.426899
9.255                0.615248868     -169.856348
9.256                 0.61474641     -170.287312
9.257                0.614248456     -170.719781
9.258                0.613756922     -171.153698
9.259                0.613273363     -171.588979
9.26                 0.612798973     -172.025524
9.261                0.612334607     -172.463227
9.262                0.611880834      -172.90198
9.263                0.611437992     -173.341687
9.264                0.611006245     -173.782255
9.265                0.610585631     -174.223604
9.266                0.610176097     -174.665663
9.267                0.609777536     -175.108371
9.268                0.609389805     -175.551672
9.269                0.609012744     -175.995521
9.27                 0.608646187     -176.439877
9.271                0.608289972     -176.884705
9.272                0.607943941     -177.329972
9.273                0.607607947     -177.775651
9.274                0.607281857     -178.221717
9.275                0.606965548     -178.668147
9.276                0.606658908      -179.11492
9.277                0.606361841     -179.562017
9.278                0.606074257      179.990581
9.279                0.605796079      179.542892
9.28                 0.605527239      179.094931
9.281                0.605267675      178.646717
9.282                0.605017336      178.198263
9.283                0.604776175      177.749586
9.284                0.604544151      177.300701
9.285                0.604321228      176.851624
9.286                0.604107376      176.402368
9.287                0.603902566      175.952949
9.288                0.603706774      175.503381
9.289                0.603519979       175.05368
9.29                 0.603342161       174.60386
9.291                0.603173304      174.153936
9.292                0.603013392      173.703922
9.293                 0.60286241      173.253834
9.294                0.602720346      172.803686
9.295                0.602587187      172.353493
9.296                0.602462921       171.90327
9.297                0.602347537      171.453032
9.298                0.602241024      171.002793
9.299                 0.60214337       170.55257
9.3                  0.602054565      170.102375
9.301                0.601974598      169.652226
9.302                0.601903457      169.202136
9.303                 0.60184113      168.752121
9.304                0.601787605      168.302196
9.305                 0.60174287      167.852376
9.306                 0.60170691      167.402675
9.307                0.601679712       166.95311
9.308                0.601661262      166.503694
9.309                0.601651543      166.054444
9.31                  0.60165054      165.605373
9.311                0.601658235      165.156498
9.312                0.601674611      164.707833
9.313                0.601699649      164.259393
9.314                0.601733329      163.811193
9.315                0.601775631      163.363247
9.316                0.601826533      162.915572
9.317                0.601886012      162.468181
9.318                0.601954046      162.021089
9.319                 0.60203061      161.574311
9.32                 0.602115679      161.127862
9.321                0.602209226      160.681755
9.322                0.602311223      160.236007
9.323                0.602421643      159.790631
9.324                0.602540456      159.345641
9.325                0.602667632      158.901053
9.326                 0.60280314      158.456879
9.327                0.602946947      158.013135
9.328                0.603099019      157.569833
9.329                0.603259323       157.12699
9.33                 0.603427823      156.684617
9.331                0.603604483      156.242729
9.332                0.603789266       155.80134
9.333                0.603982133      155.360463
9.334                0.604183046      154.920111
9.335                0.604391965      154.480299
9.336                0.604608847      154.041038
9.337                0.604833653      153.602344
9.338                0.605066338      153.164227
9.339                0.605306859      152.726702
9.34                 0.605555172      152.289781
9.341                0.605811231      151.853476
9.342                 0.60607499      151.417801
9.343                0.606346401      150.982767
9.344                0.606625418      150.548388
9.345                 0.60691199      150.114674
9.346                0.607206069      149.681638
9.347                0.607507604      149.249293
9.348                0.607816545      148.817649
9.349                0.608132838      148.386718
9.35                 0.608456433      147.956511
9.351                0.608787275      147.527041
9.352                0.609125312      147.098318
9.353                0.609470487      146.670352
9.354                0.609822746      146.243156
9.355                0.610182033      145.816739
9.356                0.610548291      145.391113
9.357                0.610921463      144.966287
9.358                0.611301492      144.542272
9.359                 0.61168832      144.119078
9.36                 0.612081886      143.696715
9.361                0.612482133      143.275192
9.362                0.612888999       142.85452
9.363                0.613302426      142.434707
9.364                0.613722351      142.015764
9.365                0.614148713      141.597699
9.366                0.614581451      141.180521
9.367                0.615020502      140.764239
9.368                0.615465805      140.348862
9.369                0.615917294      139.934398
9.37                 0.616374909      139.520856
9.371                0.616838583      139.108243
9.372                0.617308255      138.696569
9.373                0.617783858       138.28584
9.374                0.618265329      137.876065
9.375                0.618752602       137.46725
9.376                0.619245612      137.059404
9.377                0.619744294      136.652534
9.378                0.620248581      136.246647
9.379                0.620758409      135.841749
9.38                  0.62127371      135.437848
9.381                0.621794419      135.034949
9.382                0.622320469      134.633061
9.383                0.622851793      134.232188
9.384                0.623388325      133.832337
9.385                0.623929997      133.433514
9.386                0.624476743      133.035724
9.387                0.625028496      132.638974
9.388                0.625585188      132.243269
9.389                0.626146752      131.848615
9.39                 0.626713122      131.455016
9.391                0.627284229      131.062477
9.392                0.627860007      130.671004
9.393                0.628440389      130.280601
9.394                0.629025306      129.891273
9.395                0.629614693      129.503025
9.396                0.630208481       129.11586
