! TOUCHSTONE file generated by CST DESIGN STUDIO
! Date and time: Tue Feb  4 17:41:35 2025
! Project name: C:\Work\MatlabApps\UnitCellOptimizationMatlab\CST\unitcell.cst
! Tree item: Tasks\Sweep1\SPara1\S-Parameters
! Header version: 2024
! Port assignment regex: !\s*Touchstone port\s*([0-9]+)\s*=\s*(CST MWS port|CST DES external port|CST DES block port)\s*(.+)\s* \(\"(.*)\"\)(\s*mode\s*([0-9]+))?.*
! Touchstone port assignment:
! Touchstone port 1 = CST DES external port 1 ("")
# GHz S MA R 50
9                    0.732867885     -111.260748
9.001                0.731966557     -111.534874
9.002                0.731063681     -111.810051
9.003                0.730159283     -112.086282
9.004                0.729253388     -112.363571
9.005                0.728346025     -112.641921
9.006                 0.72743722     -112.921336
9.007                   0.726527      -113.20182
9.008                0.725615395     -113.483377
9.009                0.724702433     -113.766009
9.01                 0.723788144     -114.049722
9.011                0.722872557     -114.334517
9.012                0.721955702       -114.6204
9.013                0.721037611     -114.907373
9.014                0.720118315     -115.195439
9.015                0.719197846     -115.484603
9.016                0.718276236     -115.774869
9.017                0.717353519     -116.066238
9.018                0.716429728     -116.358716
9.019                0.715504897     -116.652304
9.02                 0.714579061     -116.947008
9.021                0.713652256     -117.242829
9.022                0.712724516     -117.539772
9.023                0.711795879      -117.83784
9.024                0.710866382     -118.137036
9.025                0.709936061     -118.437363
9.026                0.709004955     -118.738825
9.027                0.708073103     -119.041425
9.028                0.707140543     -119.345165
9.029                0.706207316      -119.65005
9.03                 0.705273463     -119.956082
9.031                0.704339023     -120.263265
9.032                0.703404039       -120.5716
9.033                0.702468553     -120.881093
9.034                0.701532607     -121.191744
9.035                0.700596245     -121.503558
9.036                 0.69965951     -121.816538
9.037                0.698722448     -122.130685
9.038                0.697785104     -122.446003
9.039                0.696847522     -122.762495
9.04                  0.69590975     -123.080163
9.041                0.694971834      -123.39901
9.042                0.694033822     -123.719039
9.043                0.693095762     -124.040253
9.044                0.692157703     -124.362653
9.045                0.691219694     -124.686242
9.046                0.690281786     -125.011023
9.047                0.689344027     -125.336998
9.048                0.688406471     -125.664169
9.049                0.687469168     -125.992539
9.05                 0.686532171      -126.32211
9.051                0.685595533     -126.652884
9.052                0.684659307     -126.984863
9.053                0.683723548     -127.318049
9.054                0.682788311     -127.652444
9.055                0.681853651      -127.98805
9.056                0.680919623     -128.324869
9.057                0.679986285     -128.662902
9.058                0.679053693     -129.002152
9.059                0.678121906     -129.342619
9.06                 0.677190982     -129.684306
9.061                 0.67626098     -130.027213
9.062                0.675331959     -130.371343
9.063                 0.67440398     -130.716696
9.064                0.673477103     -131.063274
9.065                0.672551389     -131.411078
9.066                0.671626901     -131.760109
9.067                0.670703701     -132.110368
9.068                0.669781852     -132.461855
9.069                0.668861418     -132.814573
9.07                 0.667942462     -133.168521
9.071                 0.66702505     -133.523699
9.072                0.666109247      -133.88011
9.073                0.665195118     -134.237752
9.074                 0.66428273     -134.596626
9.075                 0.66337215     -134.956734
9.076                0.662463445     -135.318074
9.077                0.661556683     -135.680646
9.078                0.660651933     -136.044452
9.079                0.659749264     -136.409489
9.08                 0.658848744      -136.77576
9.081                0.657950444     -137.143262
9.082                0.657054435     -137.511995
9.083                0.656160787     -137.881959
9.084                0.655269572     -138.253153
9.085                0.654380861     -138.625576
9.086                0.653494727     -138.999228
9.087                0.652611243     -139.374106
9.088                0.651730482     -139.750211
9.089                0.650852517      -140.12754
9.09                 0.649977422     -140.506092
9.091                0.649105272     -140.885866
9.092                0.648236141      -141.26686
9.093                0.647370106     -141.649072
9.094                 0.64650724     -142.032499
9.095                0.645647621     -142.417141
9.096                0.644791324     -142.802994
9.097                0.643938426     -143.190056
9.098                0.643089005     -143.578326
9.099                0.642243136     -143.967799
9.1                  0.641400898     -144.358473
9.101                0.640562369     -144.750345
9.102                0.639727626     -145.143413
9.103                0.638896748     -145.537673
9.104                0.638069814      -145.93312
9.105                0.637246901     -146.329753
9.106                 0.63642809     -146.727567
9.107                0.635613459     -147.126558
9.108                0.634803088     -147.526722
9.109                0.633997056     -147.928055
9.11                 0.633195443     -148.330553
9.111                0.632398328      -148.73421
9.112                0.631605792     -149.139023
9.113                0.630817914     -149.544987
9.114                0.630034774     -149.952096
9.115                0.629256454     -150.360345
9.116                0.628483032     -150.769729
9.117                0.627714589     -151.180242
9.118                0.626951205     -151.591879
9.119                 0.62619296     -152.004633
9.12                 0.625439934     -152.418499
9.121                0.624692208      -152.83347
9.122                0.623949861     -153.249541
9.123                0.623212974     -153.666703
9.124                0.622481625     -154.084951
9.125                0.621755896     -154.504278
9.126                0.621035864     -154.924676
9.127                0.620321609     -155.346138
9.128                0.619613212     -155.768656
9.129                0.618910749     -156.192223
9.13                   0.6182143     -156.616832
9.131                0.617523944     -157.042472
9.132                0.616839758     -157.469138
9.133                 0.61616182     -157.896819
9.134                0.615490208     -158.325508
9.135                0.614824998     -158.755196
9.136                0.614166268     -159.185873
9.137                0.613514093      -159.61753
9.138                 0.61286855     -160.050158
9.139                0.612229713     -160.483748
9.14                 0.611597658     -160.918289
9.141                 0.61097246     -161.353772
9.142                0.610354192     -161.790186
9.143                0.609742927     -162.227521
9.144                0.609138739     -162.665767
9.145                  0.6085417     -163.104912
9.146                0.607951881     -163.544946
9.147                0.607369353     -163.985858
9.148                0.606794187     -164.427637
9.149                0.606226453     -164.870271
9.15                 0.605666218     -165.313747
9.151                0.605113553     -165.758056
9.152                0.604568524     -166.203184
9.153                0.604031197     -166.649119
9.154                0.603501639     -167.095848
9.155                0.602979916     -167.543361
9.156                 0.60246609     -167.991642
9.157                0.601960226     -168.440681
9.158                0.601462386     -168.890463
9.159                0.600972631     -169.340975
9.16                 0.600491023     -169.792204
9.161                0.600017622     -170.244136
9.162                0.599552485     -170.696757
9.163                 0.59909567     -171.150054
9.164                0.598647235     -171.604013
9.165                0.598207235     -172.058618
9.166                0.597775724     -172.513857
9.167                0.597352757     -172.969713
9.168                0.596938386     -173.426173
9.169                0.596532661     -173.883221
9.17                 0.596135634     -174.340843
9.171                0.595747353     -174.799023
9.172                0.595367865     -175.257746
9.173                0.594997219     -175.716996
9.174                0.594635459     -176.176759
9.175                0.594282629     -176.637017
9.176                0.593938772     -177.097756
9.177                0.593603931      -177.55896
9.178                0.593278144     -178.020611
9.179                0.592961453     -178.482695
9.18                 0.592653893     -178.945195
9.181                0.592355503     -179.408094
9.182                0.592066316     -179.871375
9.183                0.591786367      179.664977
9.184                0.591515688       179.20098
9.185                0.591254309       178.73665
9.186                0.591002262      178.272005
9.187                0.590759573      177.807061
9.188                 0.59052627      177.341836
9.189                0.590302378      176.876346
9.19                 0.590087921       176.41061
9.191                0.589882921      175.944644
9.192                0.589687399      175.478465
9.193                0.589501375      175.012092
9.194                0.589324867      174.545541
9.195                0.589157892      174.078831
9.196                0.589000464      173.611978
9.197                0.588852597      173.145001
9.198                0.588714303      172.677917
9.199                0.588585593      172.210744
9.2                  0.588466476        171.7435
9.201                0.588356959      171.276202
9.202                0.588257048      170.808868
9.203                0.588166749      170.341517
9.204                0.588086064      169.874165
9.205                0.588014994      169.406831
9.206                0.587953539      168.939532
9.207                0.587901699      168.472287
9.208                0.587859469      168.005113
9.209                0.587826846      167.538028
9.21                 0.587803823      167.071049
9.211                0.587790392      166.604195
9.212                0.587786545      166.137483
9.213                0.587792271      165.670931
9.214                0.587807558      165.204556
9.215                0.587832392      164.738376
9.216                0.587866759      164.272409
9.217                0.587910641      163.806672
9.218                0.587964021      163.341183
9.219                0.588026879      162.875958
9.22                 0.588099195      162.411016
9.221                0.588180946      161.946373
9.222                0.588272108      161.482047
9.223                0.588372656      161.018055
9.224                0.588482564      160.554413
9.225                0.588601803      160.091139
9.226                0.588730344       159.62825
9.227                0.588868157      159.165761
9.228                0.589015209      158.703691
9.229                0.589171467      158.242054
9.23                 0.589336896      157.780869
9.231                 0.58951146      157.320151
9.232                0.589695122      156.859915
9.233                0.589887843       156.40018
9.234                0.590089583      155.940959
9.235                  0.5903003      155.482269
9.236                0.590519954      155.024126
9.237                0.590748499      154.566546
9.238                0.590985891      154.109543
9.239                0.591232084      153.653133
9.24                 0.591487031      153.197331
9.241                0.591750684      152.742152
9.242                0.592022993      152.287611
9.243                0.592303908      151.833722
9.244                0.592593377        151.3805
9.245                0.592891348       150.92796
9.246                0.593197766      150.476116
9.247                0.593512578      150.024981
9.248                0.593835727      149.574569
9.249                0.594167157      149.124895
9.25                  0.59450681      148.675972
9.251                0.594854628      148.227812
9.252                0.595210551       147.78043
9.253                0.595574518      147.333839
9.254                 0.59594647       146.88805
9.255                0.596326343      146.443077
9.256                0.596714075      145.998933
9.257                0.597109602      145.555629
9.258                0.597512859      145.113178
9.259                0.597923782      144.671591
9.26                 0.598342305      144.230881
9.261                 0.59876836      143.791058
9.262                0.599201882      143.352135
9.263                0.599642801      142.914122
9.264                0.600091049      142.477031
9.265                0.600546557      142.040872
9.266                0.601009255      141.605655
9.267                0.601479074      141.171392
9.268                0.601955941      140.738092
9.269                0.602439786      140.305766
9.27                 0.602930536      139.874423
9.271                 0.60342812      139.444073
9.272                0.603932464      139.014725
9.273                0.604443495      138.586389
9.274                0.604961141      138.159074
9.275                0.605485325      137.732788
9.276                0.606015975       137.30754
9.277                0.606553015      136.883339
9.278                0.607096371      136.460193
9.279                0.607645967       136.03811
9.28                 0.608201727      135.617098
9.281                0.608763576      135.197165
9.282                0.609331437      134.778318
9.283                0.609905235      134.360565
9.284                0.610484892      133.943912
9.285                0.611070332      133.528367
9.286                0.611661479      133.113936
9.287                0.612258255      132.700627
9.288                0.612860583      132.288445
9.289                0.613468387      131.877396
9.29                 0.614081589      131.467487
9.291                0.614700111      131.058724
9.292                0.615323877      130.651112
9.293                0.615952809      130.244657
9.294                0.616586831      129.839364
9.295                0.617225864      129.435238
9.296                0.617869831      129.032284
9.297                0.618518657      128.630507
9.298                0.619172262      128.229911
9.299                0.619830571      127.830502
9.3                  0.620493507      127.432283
9.301                0.621160992      127.035259
9.302                0.621832951      126.639432
9.303                0.622509307      126.244808
9.304                0.623189983       125.85139
9.305                0.623874904      125.459181
9.306                0.624563994      125.068185
9.307                0.625257177      124.678404
9.308                0.625954378      124.289843
9.309                0.626655521      123.902502
9.31                 0.627360532      123.516386
9.311                0.628069337      123.131497
9.312                 0.62878186      122.747837
9.313                0.629498028      122.365409
9.314                0.630217767      121.984214
9.315                0.630941004      121.604255
9.316                0.631667665      121.225533
9.317                0.632397678       120.84805
9.318                0.633130971      120.471807
9.319                0.633867472      120.096807
9.32                 0.634607109       119.72305
9.321                 0.63534981      119.350537
9.322                0.636095506       118.97927
9.323                0.636844125      118.609249
9.324                0.637595598      118.240475
9.325                0.638349855      117.872949
9.326                0.639106827      117.506672
9.327                0.639866445      117.141643
9.328                0.640628641      116.777863
9.329                0.641393347      116.415332
9.33                 0.642160497      116.054051
9.331                0.642930022      115.694019
9.332                0.643701858      115.335236
9.333                0.644475937      114.977701
9.334                0.645252194      114.621416
9.335                0.646030566      114.266378
9.336                0.646810986      113.912587
9.337                0.647593392      113.560044
9.338                 0.64837772      113.208746
9.339                0.649163907      112.858693
9.34                 0.649951891      112.509885
9.341                 0.65074161      112.162319
9.342                0.651533003      111.815996
9.343                0.652326009      111.470913
9.344                0.653120568       111.12707
9.345                 0.65391662      110.784465
9.346                0.654714106      110.443096
9.347                0.655512968      110.102963
9.348                0.656313148      109.764062
9.349                0.657114588      109.426394
9.35                 0.657917232      109.089955
9.351                0.658721023      108.754744
9.352                0.659525905      108.420759
9.353                0.660331823      108.087998
9.354                0.661138722      107.756459
9.355                 0.66194655       107.42614
9.356                0.662755251      107.097038
9.357                0.663564773      106.769151
9.358                0.664375065      106.442478
9.359                0.665186073      106.117015
9.36                 0.665997747      105.792759
9.361                0.666810036       105.46971
9.362                 0.66762289      105.147863
9.363                0.668436259      104.827217
9.364                0.669250096      104.507768
9.365                 0.67006435      104.189514
9.366                0.670878975      103.872451
9.367                0.671693924      103.556578
9.368                0.672509149      103.241892
9.369                0.673324605      102.928388
9.37                 0.674140245      102.616065
9.371                0.674956026       102.30492
9.372                0.675771903      101.994948
9.373                0.676587831      101.686148
9.374                0.677403768      101.378515
9.375                0.678219671      101.072047
9.376                0.679035497      100.766741
9.377                0.679851206      100.462592
9.378                0.680666756      100.159599
9.379                0.681482107      99.8577572
9.38                 0.682297218      99.5570634
9.381                0.683112051      99.2575144
9.382                0.683926566      98.9591066
9.383                0.684740725      98.6618366
9.384                 0.68555449      98.3657008
9.385                0.686367825      98.0706958
9.386                0.687180692      97.7768179
9.387                0.687993055      97.4840636
9.388                0.688804879      97.1924292
9.389                0.689616128      96.9019111
9.39                 0.690426769      96.6125057
9.391                0.691236766      96.3242091
9.392                0.692046086      96.0370178
9.393                0.692854696       95.750928
9.394                0.693662564       95.465936
9.395                0.694469658      95.1820379
9.396                0.695275946      94.8992299
