! TOUCHSTONE file generated by CST DESIGN STUDIO
! Date and time: Tue Feb  4 17:41:48 2025
! Project name: C:\Work\MatlabApps\UnitCellOptimizationMatlab\CST\unitcell.cst
! Tree item: Tasks\Sweep1\SPara1\S-Parameters
! Header version: 2024
! Port assignment regex: !\s*Touchstone port\s*([0-9]+)\s*=\s*(CST MWS port|CST DES external port|CST DES block port)\s*(.+)\s* \(\"(.*)\"\)(\s*mode\s*([0-9]+))?.*
! Touchstone port assignment:
! Touchstone port 1 = CST DES external port 1 ("")
# GHz S MA R 50
9                    0.967193802     -42.9549091
9.001                0.967129665     -43.0049227
9.002                 0.96706533     -43.0550338
9.003                0.967000794      -43.105243
9.004                0.966936057     -43.1555504
9.005                0.966871119     -43.2059563
9.006                0.966805979      -43.256461
9.007                0.966740635     -43.3070648
9.008                0.966675088     -43.3577681
9.009                0.966609336      -43.408571
9.01                 0.966543379     -43.4594739
9.011                0.966477216     -43.5104771
9.012                0.966410845     -43.5615809
9.013                0.966344268     -43.6127856
9.014                0.966277481     -43.6640914
9.015                0.966210485     -43.7154987
9.016                 0.96614328     -43.7670077
9.017                0.966075863     -43.8186189
9.018                0.966008235     -43.8703324
9.019                0.965940394     -43.9221486
9.02                  0.96587234     -43.9740678
9.021                0.965804071     -44.0260903
9.022                0.965735588     -44.0782163
9.023                0.965666889     -44.1304463
9.024                0.965597974     -44.1827805
9.025                0.965528841     -44.2352192
9.026                 0.96545949     -44.2877627
9.027                 0.96538992     -44.3404114
9.028                0.965320129     -44.3931656
9.029                0.965250119     -44.4460255
9.03                 0.965179886     -44.4989915
9.031                0.965109431      -44.552064
9.032                0.965038753     -44.6052431
9.033                0.964967851     -44.6585294
9.034                0.964896723     -44.7119229
9.035                 0.96482537     -44.7654242
9.036                 0.96475379     -44.8190335
9.037                0.964681983     -44.8727511
9.038                0.964609947     -44.9265774
9.039                0.964537681     -44.9805127
9.04                 0.964465186     -45.0345573
9.041                0.964392459     -45.0887116
9.042                  0.9643195     -45.1429758
9.043                0.964246309     -45.1973504
9.044                0.964172883     -45.2518356
9.045                0.964099223     -45.3064318
9.046                0.964025327     -45.3611393
9.047                0.963951195     -45.4159584
9.048                0.963876826     -45.4708895
9.049                0.963802217      -45.525933
9.05                  0.96372737     -45.5810891
9.051                0.963652283     -45.6363583
9.052                0.963576954     -45.6917408
9.053                0.963501383      -45.747237
9.054                 0.96342557     -45.8028473
9.055                0.963349512     -45.8585719
9.056                 0.96327321     -45.9144113
9.057                0.963196662     -45.9703658
9.058                0.963119867     -46.0264357
9.059                0.963042824     -46.0826214
9.06                 0.962965533     -46.1389233
9.061                0.962887991     -46.1953417
9.062                  0.9628102     -46.2518769
9.063                0.962732157     -46.3085294
9.064                0.962653861     -46.3652994
9.065                0.962575311     -46.4221874
9.066                0.962496507     -46.4791936
9.067                0.962417448     -46.5363186
9.068                0.962338132     -46.5935625
9.069                0.962258559     -46.6509259
9.07                 0.962178727      -46.708409
9.071                0.962098635     -46.7660122
9.072                0.962018283      -46.823736
9.073                 0.96193767     -46.8815806
9.074                0.961856794     -46.9395465
9.075                0.961775654      -46.997634
9.076                 0.96169425     -47.0558435
9.077                 0.96161258     -47.1141753
9.078                0.961530643     -47.1726299
9.079                0.961448439     -47.2312077
9.08                 0.961365966     -47.2899089
9.081                0.961283223     -47.3487341
9.082                0.961200209     -47.4076835
9.083                0.961116923     -47.4667576
9.084                0.961033364     -47.5259568
9.085                0.960949532     -47.5852814
9.086                0.960865424     -47.6447318
9.087                 0.96078104     -47.7043085
9.088                0.960696378     -47.7640117
9.089                0.960611438      -47.823842
9.09                 0.960526219     -47.8837997
9.091                0.960440719     -47.9438853
9.092                0.960354938      -48.004099
9.093                0.960268873     -48.0644413
9.094                0.960182525     -48.1249127
9.095                0.960095892     -48.1855135
9.096                0.960008973     -48.2462441
9.097                0.959921766     -48.3071049
9.098                0.959834271     -48.3680964
9.099                0.959746487     -48.4292189
9.1                  0.959658412     -48.4904729
9.101                0.959570045     -48.5518587
9.102                0.959481385     -48.6133769
9.103                0.959392432     -48.6750277
9.104                0.959303183     -48.7368117
9.105                0.959213637     -48.7987292
9.106                0.959123794     -48.8607807
9.107                0.959033652     -48.9229666
9.108                0.958943211     -48.9852873
9.109                0.958852468     -49.0477433
9.11                 0.958761423     -49.1103349
9.111                0.958670074     -49.1730626
9.112                0.958578421     -49.2359269
9.113                0.958486462     -49.2989281
9.114                0.958394196     -49.3620667
9.115                0.958301621     -49.4253432
9.116                0.958208737      -49.488758
9.117                0.958115542     -49.5523114
9.118                0.958022035      -49.616004
9.119                0.957928215     -49.6798362
9.12                 0.957834081     -49.7438085
9.121                0.957739631     -49.8079213
9.122                0.957644864      -49.872175
9.123                0.957549779     -49.9365701
9.124                0.957454374      -50.001107
9.125                0.957358649     -50.0657863
9.126                0.957262601     -50.1306082
9.127                 0.95716623     -50.1955735
9.128                0.957069535     -50.2606823
9.129                0.956972514     -50.3259353
9.13                 0.956875166      -50.391333
9.131                 0.95677749     -50.4568756
9.132                0.956679483     -50.5225638
9.133                0.956581146      -50.588398
9.134                0.956482476     -50.6543787
9.135                0.956383473     -50.7205063
9.136                0.956284135     -50.7867813
9.137                 0.95618446     -50.8532042
9.138                0.956084448     -50.9197754
9.139                0.955984096     -50.9864955
9.14                 0.955883405     -51.0533649
9.141                0.955782372     -51.1203842
9.142                0.955680995     -51.1875537
9.143                0.955579274      -51.254874
9.144                0.955477208     -51.3223456
9.145                0.955374794     -51.3899689
9.146                0.955272032     -51.4577445
9.147                 0.95516892     -51.5256728
9.148                0.955065456     -51.5937544
9.149                 0.95496164     -51.6619897
9.15                 0.954857469     -51.7303792
9.151                0.954752944     -51.7989235
9.152                0.954648061     -51.8676231
9.153                0.954542819     -51.9364784
9.154                0.954437218       -52.00549
9.155                0.954331256     -52.0746583
9.156                0.954224931      -52.143984
9.157                0.954118242     -52.2134674
9.158                0.954011187     -52.2831092
9.159                0.953903766     -52.3529097
9.16                 0.953795976     -52.4228697
9.161                0.953687816     -52.4929895
9.162                0.953579284     -52.5632697
9.163                0.953470379     -52.6337109
9.164                0.953361101     -52.7043135
9.165                0.953251446     -52.7750781
9.166                0.953141414     -52.8460053
9.167                0.953031003     -52.9170955
9.168                0.952920211     -52.9883493
9.169                0.952809038     -53.0597672
9.17                 0.952697481     -53.1313498
9.171                0.952585539     -53.2030976
9.172                 0.95247321     -53.2750112
9.173                0.952360494     -53.3470911
9.174                0.952247388     -53.4193379
9.175                0.952133891     -53.4917521
9.176                0.952020001     -53.5643342
9.177                0.951905716     -53.6370849
9.178                0.951791036     -53.7100047
9.179                0.951675958     -53.7830941
9.18                 0.951560482     -53.8563537
9.181                0.951444604     -53.9297841
9.182                0.951328325     -54.0033858
9.183                0.951211641     -54.0771595
9.184                0.951094552     -54.1511056
9.185                0.950977056     -54.2252249
9.186                0.950859151     -54.2995177
9.187                0.950740836     -54.3739848
9.188                0.950622109     -54.4486266
9.189                0.950502968     -54.5234438
9.19                 0.950383412      -54.598437
9.191                0.950263439     -54.6736068
9.192                0.950143048     -54.7489537
9.193                0.950022236     -54.8244784
9.194                0.949901002     -54.9001813
9.195                0.949779345     -54.9760633
9.196                0.949657262     -55.0521247
9.197                0.949534752     -55.1283663
9.198                0.949411814     -55.2047886
9.199                0.949288444     -55.2813923
9.2                  0.949164643     -55.3581779
9.201                0.949040408     -55.4351461
9.202                0.948915737     -55.5122975
9.203                0.948790629     -55.5896327
9.204                0.948665082     -55.6671522
9.205                0.948539094     -55.7448569
9.206                0.948412663     -55.8227472
9.207                0.948285788     -55.9008238
9.208                0.948158467     -55.9790873
9.209                0.948030697     -56.0575384
9.21                 0.947902478     -56.1361777
9.211                0.947773808     -56.2150058
9.212                0.947644684     -56.2940233
9.213                0.947515105      -56.373231
9.214                0.947385069     -56.4526294
9.215                0.947254574     -56.5322192
9.216                0.947123618     -56.6120011
9.217                  0.9469922     -56.6919756
9.218                0.946860318     -56.7721435
9.219                 0.94672797     -56.8525055
9.22                 0.946595153     -56.9330621
9.221                0.946461867      -57.013814
9.222                0.946328109      -57.094762
9.223                0.946193877     -57.1759066
9.224                 0.94605917     -57.2572485
9.225                0.945923986     -57.3387885
9.226                0.945788322     -57.4205271
9.227                0.945652177     -57.5024652
9.228                0.945515549     -57.5846032
9.229                0.945378436      -57.666942
9.23                 0.945240835     -57.7494823
9.231                0.945102746     -57.8322246
9.232                0.944964166     -57.9151697
9.233                0.944825094     -57.9983184
9.234                0.944685526     -58.0816712
9.235                0.944545462     -58.1652289
9.236                0.944404899     -58.2489922
9.237                0.944263835     -58.3329619
9.238                0.944122269     -58.4171385
9.239                0.943980198     -58.5015229
9.24                 0.943837621     -58.5861157
9.241                0.943694535     -58.6709176
9.242                0.943550938     -58.7559295
9.243                0.943406828     -58.8411519
9.244                0.943262204     -58.9265857
9.245                0.943117063     -59.0122315
9.246                0.942971403     -59.0980901
9.247                0.942825222     -59.1841623
9.248                0.942678518     -59.2704487
9.249                 0.94253129     -59.3569501
9.25                 0.942383534     -59.4436672
9.251                0.942235249     -59.5306008
9.252                0.942086433     -59.6177517
9.253                0.941937083     -59.7051206
9.254                0.941787199     -59.7927082
9.255                0.941636776     -59.8805153
9.256                0.941485814     -59.9685427
9.257                 0.94133431     -60.0567912
9.258                0.941182262     -60.1452614
9.259                0.941029669     -60.2339542
9.26                 0.940876527     -60.3228703
9.261                0.940722834     -60.4120106
9.262                0.940568589     -60.5013758
9.263                 0.94041379     -60.5909666
9.264                0.940258433     -60.6807839
9.265                0.940102518     -60.7708285
9.266                0.939946041     -60.8611011
9.267                0.939789001     -60.9516026
9.268                0.939631395     -61.0423337
9.269                0.939473222     -61.1332953
9.27                 0.939314478     -61.2244881
9.271                0.939155162      -61.315913
9.272                0.938995272     -61.4075707
9.273                0.938834804     -61.4994622
9.274                0.938673758     -61.5915881
9.275                0.938512131     -61.6839493
9.276                 0.93834992     -61.7765467
9.277                0.938187123     -61.8693811
9.278                0.938023738     -61.9624533
9.279                0.937859762     -62.0557641
9.28                 0.937695194     -62.1493144
9.281                0.937530031      -62.243105
9.282                0.937364271     -62.3371367
9.283                0.937197912     -62.4314105
9.284                 0.93703095     -62.5259271
9.285                0.936863384     -62.6206875
9.286                0.936695212     -62.7156924
9.287                 0.93652643     -62.8109427
9.288                0.936357038     -62.9064393
9.289                0.936187031     -63.0021831
9.29                 0.936016409     -63.0981748
9.291                0.935845169     -63.1944155
9.292                0.935673308      -63.290906
9.293                0.935500823     -63.3876472
9.294                0.935327714     -63.4846398
9.295                0.935153976     -63.5818849
9.296                0.934979608     -63.6793834
9.297                0.934804608      -63.777136
9.298                0.934628972     -63.8751438
9.299                0.934452699     -63.9734076
9.3                  0.934275785     -64.0719283
9.301                 0.93409823     -64.1707068
9.302                0.933920029     -64.2697441
9.303                0.933741182      -64.369041
9.304                0.933561684     -64.4685985
9.305                0.933381534     -64.5684175
9.306                 0.93320073     -64.6684989
9.307                0.933019268     -64.7688437
9.308                0.932837147     -64.8694528
9.309                0.932654364     -64.9703271
9.31                 0.932470916     -65.0714675
9.311                0.932286801     -65.1728751
9.312                0.932102016     -65.2745507
9.313                0.931916559     -65.3764954
9.314                0.931730427       -65.47871
9.315                0.931543619     -65.5811955
9.316                 0.93135613     -65.6839529
9.317                0.931167959     -65.7869832
9.318                0.930979103     -65.8902873
9.319                 0.93078956     -65.9938662
9.32                 0.930599327     -66.0977209
9.321                0.930408402     -66.2018523
9.322                0.930216781     -66.3062614
9.323                0.930024463     -66.4109493
9.324                0.929831445     -66.5159169
9.325                0.929637723     -66.6211653
9.326                0.929443296     -66.7266953
9.327                0.929248162     -66.8325081
9.328                0.929052316     -66.9386046
9.329                0.928855758     -67.0449858
9.33                 0.928658484     -67.1516528
9.331                0.928460491     -67.2586066
9.332                0.928261777     -67.3658482
9.333                0.928062339     -67.4733785
9.334                0.927862175     -67.5811988
9.335                0.927661282     -67.6893099
9.336                0.927459658      -67.797713
9.337                0.927257299      -67.906409
9.338                0.927054203     -68.0153991
9.339                0.926850368     -68.1246842
9.34                  0.92664579     -68.2342655
9.341                0.926440468     -68.3441439
9.342                0.926234397     -68.4543205
9.343                0.926027577     -68.5647965
9.344                0.925820004     -68.6755729
9.345                0.925611675     -68.7866507
9.346                0.925402587      -68.898031
9.347                0.925192739     -69.0097149
9.348                0.924982127     -69.1217036
9.349                0.924770749      -69.233998
9.35                 0.924558601     -69.3465993
9.351                0.924345681     -69.4595086
9.352                0.924131988     -69.5727269
9.353                0.923917516     -69.6862555
9.354                0.923702265     -69.8000953
9.355                0.923486231     -69.9142476
9.356                0.923269412     -70.0287134
9.357                0.923051804     -70.1434938
9.358                0.922833406       -70.25859
9.359                0.922614214     -70.3740031
9.36                 0.922394226     -70.4897343
9.361                0.922173438     -70.6057846
9.362                0.921951849     -70.7221553
9.363                0.921729455     -70.8388474
9.364                0.921506254     -70.9558621
9.365                0.921282243     -71.0732007
9.366                0.921057419     -71.1908641
9.367                 0.92083178     -71.3088537
9.368                0.920605322     -71.4271705
9.369                0.920378043     -71.5458157
9.37                  0.92014994     -71.6647906
9.371                0.919921011     -71.7840963
9.372                0.919691252     -71.9037339
9.373                0.919460661     -72.0237047
9.374                0.919229235     -72.1440099
9.375                0.918996972     -72.2646506
9.376                0.918763868      -72.385628
9.377                0.918529922     -72.5069434
9.378                0.918295129      -72.628598
9.379                0.918059488      -72.750593
9.38                 0.917822995     -72.8729296
9.381                0.917585648      -72.995609
9.382                0.917347444     -73.1186324
9.383                0.917108381     -73.2420011
9.384                0.916868455     -73.3657163
9.385                0.916627663     -73.4897793
9.386                0.916386004     -73.6141913
9.387                0.916143474     -73.7389535
9.388                0.915900071     -73.8640672
9.389                0.915655792     -73.9895336
9.39                 0.915410633     -74.1153541
9.391                0.915164593     -74.2415298
9.392                0.914917668      -74.368062
9.393                0.914669856     -74.4949521
9.394                0.914421155     -74.6222013
9.395                 0.91417156     -74.7498108
9.396                0.913921071      -74.877782
