! TOUCHSTONE file generated by CST DESIGN STUDIO
! Date and time: Tue Feb  4 14:11:42 2025
! Project name: C:\Work\MatlabApps\UnitCellOptimizationMatlab\CST\unitcell.cst
! Tree item: Tasks\Sweep1\SPara1\S-Parameters
! Header version: 2024
! Port assignment regex: !\s*Touchstone port\s*([0-9]+)\s*=\s*(CST MWS port|CST DES external port|CST DES block port)\s*(.+)\s* \(\"(.*)\"\)(\s*mode\s*([0-9]+))?.*
! Touchstone port assignment:
! Touchstone port 1 = CST DES external port 1 ("")
# GHz S MA R 50
9                    0.944090917     -78.1062629
9.001                0.943939906     -78.2338004
9.002                0.943788394      -78.361677
9.003                0.943636381     -78.4898938
9.004                0.943483864     -78.6184519
9.005                0.943330843     -78.7473523
9.006                0.943177316     -78.8765962
9.007                0.943023284     -79.0061846
9.008                0.942868743     -79.1361186
9.009                0.942713694     -79.2663993
9.01                 0.942558135     -79.3970278
9.011                0.942402065     -79.5280053
9.012                0.942245483     -79.6593327
9.013                0.942088389     -79.7910113
9.014                0.941930779     -79.9230421
9.015                0.941772655     -80.0554262
9.016                0.941614015     -80.1881647
9.017                0.941454857     -80.3212589
9.018                 0.94129518     -80.4547097
9.019                0.941134984     -80.5885182
9.02                 0.940974268     -80.7226858
9.021                0.940813031     -80.8572133
9.022                 0.94065127      -80.992102
9.023                0.940488987      -81.127353
9.024                0.940326178     -81.2629674
9.025                0.940162845     -81.3989464
9.026                0.939998985     -81.5352911
9.027                0.939834597     -81.6720026
9.028                0.939669681      -81.809082
9.029                0.939504236     -81.9465306
9.03                  0.93933826     -82.0843495
9.031                0.939171753     -82.2225397
9.032                0.939004714     -82.3611025
9.033                0.938837142      -82.500039
9.034                0.938669036     -82.6393504
9.035                0.938500395     -82.7790377
9.036                0.938331219     -82.9191023
9.037                0.938161506     -83.0595451
9.038                0.937991255     -83.2003675
9.039                0.937820466     -83.3415705
9.04                 0.937649139     -83.4831554
9.041                0.937477271     -83.6251232
9.042                0.937304862     -83.7674752
9.043                0.937131912     -83.9102125
9.044                0.936958419     -84.0533364
9.045                0.936784384     -84.1968479
9.046                0.936609805     -84.3407482
9.047                0.936434681     -84.4850387
9.048                0.936259011     -84.6297203
9.049                0.936082796     -84.7747943
9.05                 0.935906034     -84.9202619
9.051                0.935728724     -85.0661243
9.052                0.935550867     -85.2123826
9.053                 0.93537246     -85.3590381
9.054                0.935193505     -85.5060919
9.055                0.935013999     -85.6535453
9.056                0.934833942     -85.8013994
9.057                0.934653335     -85.9496554
9.058                0.934472175     -86.0983146
9.059                0.934290463      -86.247378
9.06                 0.934108198      -86.396847
9.061                 0.93392538     -86.5467227
9.062                0.933742008     -86.6970063
9.063                0.933558081     -86.8476991
9.064                0.933373599     -86.9988022
9.065                0.933188562     -87.1503168
9.066                0.933002969     -87.3022442
9.067                 0.93281682     -87.4545855
9.068                0.932630114      -87.607342
9.069                0.932442851     -87.7605149
9.07                  0.93225503     -87.9141054
9.071                0.932066652     -88.0681147
9.072                0.931877716     -88.2225441
9.073                0.931688221     -88.3773946
9.074                0.931498167     -88.5326677
9.075                0.931307554     -88.6883643
9.076                0.931116383     -88.8444859
9.077                0.930924651     -89.0010336
9.078                 0.93073236     -89.1580087
9.079                0.930539509     -89.3154122
9.08                 0.930346098     -89.4732456
9.081                0.930152127     -89.6315099
9.082                0.929957595     -89.7902065
9.083                0.929762504     -89.9493364
9.084                0.929566851     -90.1089011
9.085                0.929370639     -90.2689016
9.086                0.929173865     -90.4293392
9.087                0.928976531     -90.5902152
9.088                0.928778637     -90.7515307
9.089                0.928580182      -90.913287
9.09                 0.928381167     -91.0754853
9.091                0.928181592     -91.2381268
9.092                0.927981456     -91.4012128
9.093                0.927780761     -91.5647445
9.094                0.927579506      -91.728723
9.095                0.927377691     -91.8931497
9.096                0.927175316     -92.0580257
9.097                0.926972383     -92.2233523
9.098                0.926768891     -92.3891306
9.099                 0.92656484      -92.555362
9.1                  0.926360232     -92.7220477
9.101                0.926155065     -92.8891887
9.102                0.925949341     -93.0567865
9.103                0.925743061     -93.2248422
9.104                0.925536223      -93.393357
9.105                 0.92532883     -93.5623321
9.106                0.925120882     -93.7317687
9.107                0.924912378     -93.9016682
9.108                0.924703321     -94.0720316
9.109                0.924493709     -94.2428603
9.11                 0.924283545     -94.4141553
9.111                0.924072828      -94.585918
9.112                 0.92386156     -94.7581495
9.113                0.923649741     -94.9308511
9.114                0.923437372     -95.1040239
9.115                0.923224454     -95.2776692
9.116                0.923010988     -95.4517882
9.117                0.922796974      -95.626382
9.118                0.922582413     -95.8014519
9.119                0.922367307     -95.9769991
9.12                 0.922151656     -96.1530247
9.121                0.921935462     -96.3295301
9.122                0.921718726     -96.5065162
9.123                0.921501448     -96.6839845
9.124                 0.92128363     -96.8619359
9.125                0.921065272     -97.0403718
9.126                0.920846378     -97.2192933
9.127                0.920626946     -97.3987016
9.128                 0.92040698     -97.5785979
9.129                0.920186479     -97.7589833
9.13                 0.919965447     -97.9398591
9.131                0.919743883     -98.1212263
9.132                0.919521789     -98.3030862
9.133                0.919299168     -98.4854399
9.134                 0.91907602     -98.6682887
9.135                0.918852347     -98.8516335
9.136                0.918628151     -99.0354757
9.137                0.918403434     -99.2198163
9.138                0.918178196     -99.4046565
9.139                0.917952441     -99.5899975
9.14                 0.917726169     -99.7758403
9.141                0.917499383     -99.9621862
9.142                0.917272084     -100.149036
9.143                0.917044275     -100.336392
9.144                0.916815957     -100.524253
9.145                0.916587133     -100.712623
9.146                0.916357804       -100.9015
9.147                0.916127973     -101.090888
9.148                0.915897642     -101.280787
9.149                0.915666813     -101.471197
9.15                 0.915435489     -101.662121
9.151                0.915203672     -101.853558
9.152                0.914971363     -102.045511
9.153                0.914738566      -102.23798
9.154                0.914505284     -102.430967
9.155                0.914271518     -102.624472
9.156                0.914037271     -102.818497
9.157                0.913802546     -103.013042
9.158                0.913567346     -103.208109
9.159                0.913331673     -103.403699
9.16                  0.91309553     -103.599812
9.161                 0.91285892      -103.79645
9.162                0.912621846     -103.993614
9.163                0.912384311     -104.191305
9.164                0.912146317     -104.389523
9.165                0.911907869     -104.588271
9.166                0.911668969     -104.787548
9.167                 0.91142962     -104.987356
9.168                0.911189825     -105.187696
9.169                0.910949589     -105.388569
9.17                 0.910708913     -105.589976
9.171                0.910467802     -105.791917
9.172                0.910226259     -105.994394
9.173                0.909984288     -106.197408
9.174                0.909741892      -106.40096
9.175                0.909499075      -106.60505
9.176                0.909255841     -106.809679
9.177                0.909012193     -107.014849
9.178                0.908768135      -107.22056
9.179                0.908523671     -107.426814
9.18                 0.908278805      -107.63361
9.181                0.908033542     -107.840951
9.182                0.907787884     -108.048836
9.183                0.907541837     -108.257268
9.184                0.907295405     -108.466245
9.185                0.907048591     -108.675771
9.186                0.906801401     -108.885844
9.187                0.906553838     -109.096467
9.188                0.906305907     -109.307639
9.189                0.906057613     -109.519363
9.19                 0.905808961     -109.731638
9.191                0.905559954     -109.944465
9.192                0.905310598     -110.157845
9.193                0.905060897     -110.371779
9.194                0.904810857     -110.586268
9.195                0.904560482     -110.801312
9.196                0.904309777     -111.016913
9.197                0.904058748      -111.23307
9.198                0.903807399     -111.449784
9.199                0.903555736     -111.667057
9.2                  0.903303764     -111.884889
9.201                0.903051488      -112.10328
9.202                0.902798915     -112.322232
9.203                0.902546049     -112.541744
9.204                0.902292895     -112.761819
9.205                0.902039461     -112.982455
9.206                 0.90178575     -113.203654
9.207                 0.90153177     -113.425416
9.208                0.901277526     -113.647742
9.209                0.901023023     -113.870633
9.21                 0.900768269     -114.094089
9.211                0.900513268     -114.318111
9.212                0.900258028     -114.542698
9.213                0.900002554     -114.767853
9.214                0.899746853     -114.993574
9.215                0.899490931     -115.219863
9.216                0.899234794     -115.446721
9.217                 0.89897845     -115.674147
9.218                0.898721904     -115.902141
9.219                0.898465163     -116.130706
9.22                 0.898208235      -116.35984
9.221                0.897951125     -116.589545
9.222                0.897693841      -116.81982
9.223                 0.89743639     -117.050666
9.224                0.897178779     -117.282083
9.225                0.896921015     -117.514072
9.226                0.896663105     -117.746633
9.227                0.896405057     -117.979767
9.228                0.896146877     -118.213473
9.229                0.895888574     -118.447751
9.23                 0.895630155     -118.682603
9.231                0.895371627     -118.918028
9.232                0.895112998     -119.154027
9.233                0.894854276     -119.390599
9.234                0.894595468     -119.627745
9.235                0.894336583     -119.865465
9.236                0.894077629      -120.10376
9.237                0.893818614     -120.342628
9.238                0.893559545     -120.582071
9.239                0.893300431     -120.822088
9.24                  0.89304128      -121.06268
9.241                0.892782101     -121.303847
9.242                0.892522902     -121.545588
9.243                0.892263691     -121.787903
9.244                0.892004478     -122.030793
9.245                0.891745271     -122.274258
9.246                0.891486078     -122.518297
9.247                0.891226909      -122.76291
9.248                0.890967772     -123.008098
9.249                0.890708676      -123.25386
9.25                 0.890449631     -123.500195
9.251                0.890190646     -123.747105
9.252                0.889931729     -123.994588
9.253                 0.88967289     -124.242645
9.254                0.889414139     -124.491275
9.255                0.889155484     -124.740477
9.256                0.888896936     -124.990253
9.257                0.888638504       -125.2406
9.258                0.888380198      -125.49152
9.259                0.888122027     -125.743012
9.26                 0.887864001     -125.995074
9.261                0.887606131     -126.247708
9.262                0.887348425     -126.500912
9.263                0.887090895     -126.754686
9.264                0.886833549      -127.00903
9.265                0.886576399     -127.263943
9.266                0.886319455     -127.519424
9.267                0.886062727     -127.775474
9.268                0.885806225     -128.032091
9.269                 0.88554996     -128.289275
9.27                 0.885293943     -128.547025
9.271                0.885038183     -128.805341
9.272                0.884782693     -129.064222
9.273                0.884527481     -129.323667
9.274                 0.88427256     -129.583675
9.275                 0.88401794     -129.844247
9.276                0.883763632      -130.10538
9.277                0.883509648     -130.367075
9.278                0.883255997      -130.62933
9.279                0.883002692     -130.892145
9.28                 0.882749743     -131.155519
9.281                0.882497162      -131.41945
9.282                0.882244961     -131.683938
9.283                 0.88199315     -131.948982
9.284                0.881741741     -132.214581
9.285                0.881490745     -132.480734
9.286                0.881240175      -132.74744
9.287                0.880990042     -133.014698
9.288                0.880740357     -133.282506
9.289                0.880491132     -133.550864
9.29                 0.880242379      -133.81977
9.291                0.879994111     -134.089224
9.292                0.879746338     -134.359223
9.293                0.879499073     -134.629767
9.294                0.879252328     -134.900855
9.295                0.879006115     -135.172485
9.296                0.878760446     -135.444656
9.297                0.878515333     -135.717366
9.298                0.878270789     -135.990615
9.299                0.878026826       -136.2644
9.3                  0.877783456      -136.53872
9.301                0.877540691     -136.813574
9.302                0.877298545      -137.08896
9.303                0.877057028     -137.364877
9.304                0.876816155     -137.641324
9.305                0.876575937     -137.918297
9.306                0.876336388     -138.195797
9.307                0.876097519      -138.47382
9.308                0.875859343     -138.752367
9.309                0.875621874     -139.031434
9.31                 0.875385123      -139.31102
9.311                0.875149104     -139.591123
9.312                0.874913829     -139.871742
9.313                0.874679312     -140.152874
9.314                0.874445565     -140.434518
9.315                  0.8742126     -140.716671
9.316                0.873980432     -140.999333
9.317                0.873749072       -141.2825
9.318                0.873518534     -141.566171
9.319                0.873288831     -141.850344
9.32                 0.873059976     -142.135016
9.321                0.872831981     -142.420186
9.322                0.872604861     -142.705851
9.323                0.872378627      -142.99201
9.324                0.872153294     -143.278659
9.325                0.871928873     -143.565798
9.326                0.871705379     -143.853423
9.327                0.871482824     -144.141532
9.328                0.871261222     -144.430123
9.329                0.871040585     -144.719193
9.33                 0.870820927     -145.008741
9.331                0.870602261     -145.298763
9.332                  0.8703846     -145.589258
9.333                0.870167957     -145.880222
9.334                0.869952346     -146.171653
9.335                0.869737779     -146.463549
9.336                0.869524269     -146.755907
9.337                 0.86931183     -147.048724
9.338                0.869100476     -147.341998
9.339                0.868890217     -147.635725
9.34                  0.86868107     -147.929904
9.341                0.868473045     -148.224532
9.342                0.868266156     -148.519605
9.343                0.868060416     -148.815121
9.344                0.867855839     -149.111077
9.345                0.867652437      -149.40747
9.346                0.867450224     -149.704298
9.347                0.867249211     -150.001556
9.348                0.867049413     -150.299243
9.349                0.866850841     -150.597355
9.35                  0.86665351     -150.895889
9.351                0.866457431     -151.194842
9.352                0.866262618     -151.494212
9.353                0.866069083     -151.793993
9.354                0.865876839     -152.094185
9.355                0.865685899     -152.394783
9.356                0.865496276     -152.695784
9.357                0.865307981     -152.997185
9.358                0.865121027     -153.298982
9.359                0.864935428     -153.601173
9.36                 0.864751196     -153.903753
9.361                0.864568342      -154.20672
9.362                0.864386879      -154.51007
9.363                 0.86420682       -154.8138
9.364                0.864028176     -155.117905
9.365                0.863850961     -155.422383
9.366                0.863675185      -155.72723
9.367                0.863500862     -156.032442
9.368                0.863328003     -156.338016
9.369                0.863156619     -156.643948
9.37                 0.862986723     -156.950235
9.371                0.862818327     -157.256872
9.372                0.862651442     -157.563857
9.373                 0.86248608     -157.871184
9.374                0.862322252     -158.178851
9.375                0.862159971     -158.486854
9.376                0.861999246     -158.795188
9.377                 0.86184009      -159.10385
9.378                0.861682513     -159.412836
9.379                0.861526527     -159.722142
9.38                 0.861372143     -160.031765
9.381                0.861219372     -160.341699
9.382                0.861068224     -160.651941
9.383                0.860918711     -160.962488
9.384                0.860770842     -161.273334
9.385                0.860624629     -161.584476
9.386                0.860480082      -161.89591
9.387                0.860337211     -162.207632
9.388                0.860196027     -162.519637
9.389                0.860056539     -162.831922
9.39                 0.859918757     -163.144481
9.391                0.859782692     -163.457311
9.392                0.859648354     -163.770408
9.393                0.859515751     -164.083766
9.394                0.859384893     -164.397383
9.395                0.859255791     -164.711253
9.396                0.859128453     -165.025373
