! TOUCHSTONE file generated by CST DESIGN STUDIO
! Date and time: Tue Feb  4 14:11:55 2025
! Project name: C:\Work\MatlabApps\UnitCellOptimizationMatlab\CST\unitcell.cst
! Tree item: Tasks\Sweep1\SPara1\S-Parameters
! Header version: 2024
! Port assignment regex: !\s*Touchstone port\s*([0-9]+)\s*=\s*(CST MWS port|CST DES external port|CST DES block port)\s*(.+)\s* \(\"(.*)\"\)(\s*mode\s*([0-9]+))?.*
! Touchstone port assignment:
! Touchstone port 1 = CST DES external port 1 ("")
# GHz S MA R 50
9                    0.959937863     -55.4156546
9.001                 0.95985348     -55.4894869
9.002                0.959768825     -55.5634844
9.003                0.959683895     -55.6376475
9.004                0.959598689      -55.711977
9.005                0.959513207     -55.7864731
9.006                0.959427448     -55.8611366
9.007                0.959341411     -55.9359678
9.008                0.959255096     -56.0109674
9.009                  0.9591685     -56.0861359
9.01                 0.959081623     -56.1614738
9.011                0.958994465     -56.2369816
9.012                0.958907023     -56.3126599
9.013                0.958819299     -56.3885092
9.014                0.958731289     -56.4645301
9.015                0.958642995     -56.5407231
9.016                0.958554414     -56.6170887
9.017                0.958465545     -56.6936276
9.018                0.958376388     -56.7703402
9.019                0.958286942     -56.8472271
9.02                 0.958197206     -56.9242889
9.021                0.958107179     -57.0015261
9.022                 0.95801686     -57.0789393
9.023                0.957926247     -57.1565291
9.024                0.957835341     -57.2342959
9.025                0.957744139     -57.3122404
9.026                0.957652642     -57.3903632
9.027                0.957560847     -57.4686647
9.028                0.957468755     -57.5471456
9.029                0.957376364     -57.6258065
9.03                 0.957283673     -57.7046479
9.031                0.957190681     -57.7836705
9.032                0.957097387     -57.8628747
9.033                0.957003791     -57.9422611
9.034                0.956909891     -58.0218304
9.035                0.956815686     -58.1015832
9.036                0.956721175       -58.18152
9.037                0.956626357     -58.2616414
9.038                0.956531232      -58.341948
9.039                0.956435798     -58.4224404
9.04                 0.956340054     -58.5031192
9.041                0.956243999      -58.583985
9.042                0.956147632     -58.6650384
9.043                0.956050952       -58.74628
9.044                0.955953959     -58.8277104
9.045                0.955856651     -58.9093303
9.046                0.955759026     -58.9911401
9.047                0.955661085     -59.0731406
9.048                0.955562826     -59.1553324
9.049                0.955464248      -59.237716
9.05                  0.95536535     -59.3202921
9.051                 0.95526613     -59.4030614
9.052                0.955166589     -59.4860243
9.053                0.955066724     -59.5691817
9.054                0.954966535      -59.652534
9.055                0.954866021      -59.736082
9.056                 0.95476518     -59.8198262
9.057                0.954664012     -59.9037672
9.058                0.954562515     -59.9879059
9.059                0.954460689     -60.0722426
9.06                 0.954358533     -60.1567782
9.061                0.954256044     -60.2415133
9.062                0.954153223     -60.3264484
9.063                0.954050068     -60.4115843
9.064                0.953946578     -60.4969216
9.065                0.953842753     -60.5824609
9.066                 0.95373859      -60.668203
9.067                0.953634089     -60.7541484
9.068                0.953529249     -60.8402978
9.069                0.953424068      -60.926652
9.07                 0.953318546     -61.0132115
9.071                0.953212682      -61.099977
9.072                0.953106473     -61.1869492
9.073                0.952999921     -61.2741288
9.074                0.952893022     -61.3615165
9.075                0.952785776     -61.4491128
9.076                0.952678183     -61.5369186
9.077                 0.95257024     -61.6249344
9.078                0.952461947      -61.713161
9.079                0.952353302     -61.8015991
9.08                 0.952244305     -61.8902493
9.081                0.952134955     -61.9791124
9.082                0.952025249      -62.068189
9.083                0.951915188     -62.1574798
9.084                 0.95180477     -62.2469856
9.085                0.951693993      -62.336707
9.086                0.951582857     -62.4266447
9.087                0.951471361     -62.5167995
9.088                0.951359503      -62.607172
9.089                0.951247283      -62.697763
9.09                 0.951134699     -62.7885732
9.091                0.951021749     -62.8796033
9.092                0.950908434     -62.9708541
9.093                0.950794751     -63.0623261
9.094                0.950680699     -63.1540203
9.095                0.950566279     -63.2459372
9.096                0.950451487     -63.3380777
9.097                0.950336323     -63.4304424
9.098                0.950220786     -63.5230321
9.099                0.950104875     -63.6158476
9.1                  0.949988589     -63.7088896
9.101                0.949871926     -63.8021587
9.102                0.949754885     -63.8956559
9.103                0.949637465     -63.9893817
9.104                0.949519665      -64.083337
9.105                0.949401483     -64.1775226
9.106                0.949282919     -64.2719391
9.107                0.949163972     -64.3665874
9.108                0.949044639     -64.4614681
9.109                0.948924921     -64.5565822
9.11                 0.948804815     -64.6519302
9.111                0.948684321     -64.7475131
9.112                0.948563437     -64.8433315
9.113                0.948442162     -64.9393863
9.114                0.948320495     -65.0356782
9.115                0.948198435      -65.132208
9.116                0.948075981     -65.2289765
9.117                0.947953131     -65.3259845
9.118                0.947829884     -65.4232328
9.119                0.947706239     -65.5207221
9.12                 0.947582195     -65.6184533
9.121                 0.94745775     -65.7164271
9.122                0.947332904     -65.8146444
9.123                0.947207654      -65.913106
9.124                0.947082001     -66.0118126
9.125                0.946955942      -66.110765
9.126                0.946829477     -66.2099642
9.127                0.946702604     -66.3094108
9.128                0.946575322     -66.4091058
9.129                 0.94644763     -66.5090499
9.13                 0.946319527     -66.6092439
9.131                0.946191011     -66.7096887
9.132                0.946062081     -66.8103851
9.133                0.945932736      -66.911334
9.134                0.945802974     -67.0125361
9.135                0.945672795     -67.1139923
9.136                0.945542198     -67.2157035
9.137                 0.94541118     -67.3176704
9.138                0.945279741      -67.419894
9.139                 0.94514788     -67.5223751
9.14                 0.945015595     -67.6251145
9.141                0.944882885     -67.7281131
9.142                0.944749749     -67.8313717
9.143                0.944616185     -67.9348912
9.144                0.944482193     -68.0386725
9.145                0.944347771     -68.1427164
9.146                0.944212918     -68.2470238
9.147                0.944077633     -68.3515956
9.148                0.943941914     -68.4564326
9.149                 0.94380576     -68.5615357
9.15                  0.94366917     -68.6669058
9.151                0.943532143     -68.7725438
9.152                0.943394678     -68.8784506
9.153                0.943256772      -68.984627
9.154                0.943118426     -69.0910739
9.155                0.942979637     -69.1977923
9.156                0.942840405      -69.304783
9.157                0.942700729      -69.412047
9.158                0.942560606      -69.519585
9.159                0.942420036     -69.6273981
9.16                 0.942279018     -69.7354872
9.161                 0.94213755     -69.8438531
9.162                0.941995631     -69.9524968
9.163                 0.94185326     -70.0614192
9.164                0.941710436     -70.1706212
9.165                0.941567157     -70.2801037
9.166                0.941423423     -70.3898677
9.167                0.941279231     -70.4999141
9.168                0.941134581     -70.6102438
9.169                0.940989471     -70.7208577
9.17                 0.940843901     -70.8317569
9.171                0.940697869     -70.9429422
9.172                0.940551374     -71.0544146
9.173                0.940404414      -71.166175
9.174                0.940256988     -71.2782243
9.175                0.940109096     -71.3905636
9.176                0.939960736     -71.5031938
9.177                0.939811906     -71.6161159
9.178                0.939662606     -71.7293307
9.179                0.939512834     -71.8428393
9.18                 0.939362589     -71.9566427
9.181                 0.93921187     -72.0707418
9.182                0.939060675     -72.1851375
9.183                0.938909004     -72.2998309
9.184                0.938756855      -72.414823
9.185                0.938604227     -72.5301147
9.186                0.938451119     -72.6457069
9.187                 0.93829753     -72.7616008
9.188                0.938143458     -72.8777973
9.189                0.937988902     -72.9942973
9.19                 0.937833861      -73.111102
9.191                0.937678334     -73.2282122
9.192                 0.93752232      -73.345629
9.193                0.937365817     -73.4633534
9.194                0.937208824     -73.5813864
9.195                0.937051341      -73.699729
9.196                0.936893365     -73.8183822
9.197                0.936734896     -73.9373471
9.198                0.936575933     -74.0566247
9.199                0.936416475     -74.1762159
9.2                  0.936256519     -74.2961219
9.201                0.936096066     -74.4163436
9.202                0.935935114     -74.5368821
9.203                0.935773662     -74.6577384
9.204                0.935611708     -74.7789135
9.205                0.935449252     -74.9004086
9.206                0.935286293     -75.0222246
9.207                0.935122828     -75.1443626
9.208                0.934958858     -75.2668237
9.209                0.934794382     -75.3896088
9.21                 0.934629397     -75.5127191
9.211                0.934463903     -75.6361556
9.212                0.934297898     -75.7599194
9.213                0.934131383     -75.8840115
9.214                0.933964355     -76.0084331
9.215                0.933796813     -76.1331851
9.216                0.933628757     -76.2582686
9.217                0.933460186     -76.3836848
9.218                0.933291097     -76.5094347
9.219                0.933121491     -76.6355194
9.22                 0.932951367       -76.76194
9.221                0.932780722     -76.8886975
9.222                0.932609556     -77.0157931
9.223                0.932437869     -77.1432278
9.224                0.932265658     -77.2710028
9.225                0.932092924     -77.3991191
9.226                0.931919665     -77.5275779
9.227                0.931745879     -77.6563802
9.228                0.931571567     -77.7855272
9.229                0.931396727       -77.91502
9.23                 0.931221358     -78.0448596
9.231                0.931045459     -78.1750473
9.232                0.930869029      -78.305584
9.233                0.930692067      -78.436471
9.234                0.930514573     -78.5677094
9.235                0.930336545     -78.6993003
9.236                0.930157982     -78.8312447
9.237                0.929978884      -78.963544
9.238                 0.92979925     -79.0961991
9.239                0.929619078     -79.2292112
9.24                 0.929438368     -79.3625816
9.241                0.929257119     -79.4963112
9.242                0.929075329     -79.6304013
9.243                   0.928893     -79.7648529
9.244                0.928710128     -79.8996674
9.245                0.928526714     -80.0348457
9.246                0.928342757     -80.1703891
9.247                0.928158255     -80.3062987
9.248                0.927973209     -80.4425757
9.249                0.927787617     -80.5792213
9.25                 0.927601479     -80.7162365
9.251                0.927414793     -80.8536227
9.252                0.927227559     -80.9913808
9.253                0.927039777     -81.1295122
9.254                0.926851445      -81.268018
9.255                0.926662563     -81.4068994
9.256                 0.92647313     -81.5461575
9.257                0.926283146     -81.6857936
9.258                0.926092609     -81.8258088
9.259                0.925901519     -81.9662043
9.26                 0.925709876     -82.1069813
9.261                0.925517679     -82.2481409
9.262                0.925324927     -82.3896845
9.263                0.925131619     -82.5316131
9.264                0.924937756     -82.6739281
9.265                0.924743336     -82.8166305
9.266                0.924548359     -82.9597216
9.267                0.924352824     -83.1032025
9.268                0.924156731     -83.2470746
9.269                0.923960079     -83.3913389
9.27                 0.923762868     -83.5359968
9.271                0.923565098     -83.6810494
9.272                0.923366767     -83.8264979
9.273                0.923167876     -83.9723436
9.274                0.922968424     -84.1185877
9.275                0.922768411     -84.2652313
9.276                0.922567836     -84.4122758
9.277                0.922366698     -84.5597223
9.278                0.922164998     -84.7075721
9.279                0.921962736     -84.8558264
9.28                  0.92175991     -85.0044864
9.281                0.921556521     -85.1535533
9.282                0.921352568     -85.3030285
9.283                0.921148051     -85.4529131
9.284                 0.92094297     -85.6032083
9.285                0.920737324     -85.7539154
9.286                0.920531114     -85.9050357
9.287                0.920324339     -86.0565703
9.288                0.920116999     -86.2085205
9.289                0.919909095     -86.3608876
9.29                 0.919700625     -86.5136729
9.291                0.919491589     -86.6668774
9.292                0.919281989     -86.8205026
9.293                0.919071823     -86.9745496
9.294                0.918861092     -87.1290197
9.295                0.918649795     -87.2839142
9.296                0.918437933     -87.4392342
9.297                0.918225506     -87.5949811
9.298                0.918012514     -87.7511561
9.299                0.917798957     -87.9077605
9.3                  0.917584834     -88.0647955
9.301                0.917370147     -88.2222624
9.302                0.917154896     -88.3801624
9.303                 0.91693908     -88.5384968
9.304                0.916722699     -88.6972669
9.305                0.916505755     -88.8564738
9.306                0.916288248      -89.016119
9.307                0.916070177     -89.1762036
9.308                0.915851543     -89.3367288
9.309                0.915632346     -89.4976961
9.31                 0.915412588     -89.6591065
9.311                0.915192268     -89.8209615
9.312                0.914971386     -89.9832622
9.313                0.914749944     -90.1460099
9.314                0.914527941     -90.3092059
9.315                0.914305379     -90.4728514
9.316                0.914082257     -90.6369477
9.317                0.913858578     -90.8014961
9.318                 0.91363434     -90.9664979
9.319                0.913409545     -91.1319542
9.32                 0.913184194     -91.2978664
9.321                0.912958286     -91.4642358
9.322                0.912731824     -91.6310635
9.323                0.912504808     -91.7983509
9.324                0.912277239     -91.9660992
9.325                0.912049117     -92.1343097
9.326                0.911820443     -92.3029836
9.327                0.911591219     -92.4721223
9.328                0.911361446     -92.6417269
9.329                0.911131123     -92.8117987
9.33                 0.910900254     -92.9823391
9.331                0.910668838     -93.1533492
9.332                0.910436876     -93.3248302
9.333                0.910204371     -93.4967836
9.334                0.909971322     -93.6692105
9.335                0.909737732     -93.8421121
9.336                0.909503602     -94.0154898
9.337                0.909268932     -94.1893447
9.338                0.909033725     -94.3636782
9.339                0.908797981     -94.5384915
9.34                 0.908561703     -94.7137858
9.341                0.908324891     -94.8895623
9.342                0.908087547     -95.0658224
9.343                0.907849673     -95.2425672
9.344                 0.90761127     -95.4197981
9.345                 0.90737234     -95.5975162
9.346                0.907132885     -95.7757227
9.347                0.906892906      -95.954419
9.348                0.906652406     -96.1336062
9.349                0.906411385     -96.3132856
9.35                 0.906169846     -96.4934584
9.351                0.905927791     -96.6741258
9.352                0.905685221     -96.8552891
9.353                 0.90544214     -97.0369494
9.354                0.905198548     -97.2191081
9.355                0.904954448     -97.4017662
9.356                0.904709842     -97.5849251
9.357                0.904464732     -97.7685859
9.358                0.904219121     -97.9527498
9.359                 0.90397301      -98.137418
9.36                 0.903726403     -98.3225918
9.361                0.903479301     -98.5082723
9.362                0.903231706     -98.6944607
9.363                0.902983623     -98.8811582
9.364                0.902735052      -99.068366
9.365                0.902485997     -99.2560853
9.366                 0.90223646     -99.4443173
9.367                0.901986444      -99.633063
9.368                0.901735951     -99.8223237
9.369                0.901484985     -100.012101
9.37                 0.901233549     -100.202395
9.371                0.900981644     -100.393208
9.372                0.900729275      -100.58454
9.373                0.900476444     -100.776393
9.374                0.900223154     -100.968768
9.375                0.899969409     -101.161666
9.376                0.899715212     -101.355088
9.377                0.899460565     -101.549035
9.378                0.899205472     -101.743509
9.379                0.898949937     -101.938511
9.38                 0.898693963     -102.134041
9.381                0.898437554     -102.330101
9.382                0.898180712     -102.526691
9.383                0.897923443     -102.723814
9.384                0.897665748     -102.921469
9.385                0.897407632     -103.119659
9.386                  0.8971491     -103.318384
9.387                0.896890153     -103.517645
9.388                0.896630798     -103.717443
9.389                0.896371037      -103.91778
9.39                 0.896110874     -104.118656
9.391                0.895850314     -104.320073
9.392                0.895589361     -104.522031
9.393                0.895328019     -104.724531
9.394                0.895066292     -104.927575
9.395                0.894804185     -105.131164
9.396                0.894541703     -105.335297
