! TOUCHSTONE file generated by CST DESIGN STUDIO
! Date and time: Tue Feb  4 14:11:40 2025
! Project name: C:\Work\MatlabApps\UnitCellOptimizationMatlab\CST\unitcell.cst
! Tree item: Tasks\Sweep1\SPara1\S-Parameters
! Header version: 2024
! Port assignment regex: !\s*Touchstone port\s*([0-9]+)\s*=\s*(CST MWS port|CST DES external port|CST DES block port)\s*(.+)\s* \(\"(.*)\"\)(\s*mode\s*([0-9]+))?.*
! Touchstone port assignment:
! Touchstone port 1 = CST DES external port 1 ("")
# GHz S MA R 50
9                    0.940905125     -82.9016209
9.001                0.940741169     -83.0422209
9.002                0.940576683     -83.1832019
9.003                0.940411664     -83.3245649
9.004                0.940246112     -83.4663112
9.005                0.940080027     -83.6084419
9.006                0.939913407     -83.7509583
9.007                0.939746252     -83.8938614
9.008                 0.93957856     -84.0371526
9.009                0.939410331     -84.1808328
9.01                 0.939241565     -84.3249035
9.011                0.939072259     -84.4693657
9.012                0.938902414     -84.6142205
9.013                0.938732029     -84.7594694
9.014                0.938561103     -84.9051133
9.015                0.938389635     -85.0511535
9.016                0.938217625     -85.1975912
9.017                0.938045071     -85.3444276
9.018                0.937871974     -85.4916639
9.019                0.937698331     -85.6393012
9.02                 0.937524144     -85.7873409
9.021                 0.93734941     -85.9357841
9.022                 0.93717413      -86.084632
9.023                0.936998303     -86.2338858
9.024                0.936821928     -86.3835467
9.025                0.936645004     -86.5336159
9.026                0.936467532     -86.6840947
9.027                 0.93628951     -86.8349842
9.028                0.936110937     -86.9862857
9.029                0.935931814     -87.1380004
9.03                  0.93575214     -87.2901294
9.031                0.935571914     -87.4426741
9.032                0.935391136     -87.5956356
9.033                0.935209806     -87.7490152
9.034                0.935027922      -87.902814
9.035                0.934845485     -88.0570334
9.036                0.934662493     -88.2116744
9.037                0.934478948     -88.3667384
9.038                0.934294848     -88.5222266
9.039                0.934110193     -88.6781401
9.04                 0.933924982     -88.8344803
9.041                0.933739216     -88.9912483
9.042                0.933552894     -89.1484454
9.043                0.933366016     -89.3060728
9.044                0.933178582     -89.4641317
9.045                 0.93299059     -89.6226234
9.046                0.932802042      -89.781549
9.047                0.932612937     -89.9409099
9.048                0.932423275     -90.1007073
9.049                0.932233055     -90.2609423
9.05                 0.932042278     -90.4216162
9.051                0.931850943     -90.5827303
9.052                0.931659051     -90.7442858
9.053                0.931466601     -90.9062838
9.054                0.931273594     -91.0687258
9.055                0.931080028     -91.2316128
9.056                0.930885906     -91.3949461
9.057                0.930691226     -91.5587269
9.058                0.930495988     -91.7229565
9.059                0.930300193     -91.8876362
9.06                  0.93010384      -92.052767
9.061                0.929906931     -92.2183504
9.062                0.929709465     -92.3843874
9.063                0.929511442     -92.5508794
9.064                0.929312863     -92.7178275
9.065                0.929113728     -92.8852331
9.066                0.928914037     -93.0530972
9.067                 0.92871379     -93.2214212
9.068                0.928512989     -93.3902063
9.069                0.928311633     -93.5594537
9.07                 0.928109722     -93.7291646
9.071                0.927907257     -93.8993403
9.072                 0.92770424     -94.0699819
9.073                0.927500669     -94.2410908
9.074                0.927296546     -94.4126681
9.075                0.927091871      -94.584715
9.076                0.926886646     -94.7572328
9.077                0.926680869     -94.9302227
9.078                0.926474543     -95.1036859
9.079                0.926267668     -95.2776236
9.08                 0.926060245      -95.452037
9.081                0.925852274     -95.6269274
9.082                0.925643756     -95.8022959
9.083                0.925434692     -95.9781437
9.084                0.925225084     -96.1544722
9.085                0.925014931     -96.3312824
9.086                0.924804235     -96.5085756
9.087                0.924592996     -96.6863529
9.088                0.924381217     -96.8646156
9.089                0.924168897     -97.0433649
9.09                 0.923956039     -97.2226019
9.091                0.923742643     -97.4023279
9.092                 0.92352871      -97.582544
9.093                0.923314241     -97.7632514
9.094                0.923099239     -97.9444513
9.095                0.922883703     -98.1261449
9.096                0.922667636     -98.3083334
9.097                0.922451039     -98.4910178
9.098                0.922233912     -98.6741995
9.099                0.922016259     -98.8578795
9.1                   0.92179808     -99.0420591
9.101                0.921579376     -99.2267393
9.102                 0.92136015     -99.4119214
9.103                0.921140403     -99.5976065
9.104                0.920920136     -99.7837957
9.105                0.920699352     -99.9704902
9.106                0.920478051     -100.157691
9.107                0.920256237       -100.3454
9.108                 0.92003391     -100.533617
9.109                0.919811073     -100.722344
9.11                 0.919587728     -100.911582
9.111                0.919363876     -101.101332
9.112                 0.91913952     -101.291595
9.113                0.918914661     -101.482372
9.114                0.918689302     -101.673665
9.115                0.918463446     -101.865475
9.116                0.918237093     -102.057802
9.117                0.918010247     -102.250647
9.118                 0.91778291     -102.444013
9.119                0.917555084     -102.637899
9.12                 0.917326772     -102.832307
9.121                0.917097976     -103.027238
9.122                0.916868699     -103.222693
9.123                0.916638943     -103.418674
9.124                0.916408711      -103.61518
9.125                0.916178005     -103.812213
9.126                0.915946829     -104.009775
9.127                0.915715184     -104.207866
9.128                0.915483075     -104.406488
9.129                0.915250504      -104.60564
9.13                 0.915017474     -104.805325
9.131                0.914783987     -105.005544
9.132                0.914550047     -105.206296
9.133                0.914315658     -105.407584
9.134                0.914080822     -105.609408
9.135                0.913845542     -105.811769
9.136                0.913609822     -106.014669
9.137                0.913373665     -106.218108
9.138                0.913137075     -106.422087
9.139                0.912900054     -106.626607
9.14                 0.912662608     -106.831669
9.141                0.912424738     -107.037273
9.142                 0.91218645     -107.243422
9.143                0.911947746     -107.450116
9.144                 0.91170863     -107.657355
9.145                0.911469107      -107.86514
9.146                 0.91122918     -108.073473
9.147                0.910988852     -108.282355
9.148                0.910748129     -108.491785
9.149                0.910507014     -108.701766
9.15                 0.910265511     -108.912297
9.151                0.910023625      -109.12338
9.152                 0.90978136     -109.335016
9.153                 0.90953872     -109.547205
9.154                0.909295709     -109.759948
9.155                0.909052333     -109.973246
9.156                0.908808595     -110.187099
9.157                  0.9085645     -110.401509
9.158                0.908320054     -110.616477
9.159                 0.90807526     -110.832002
9.16                 0.907830123     -111.048086
9.161                0.907584649     -111.264729
9.162                0.907338842     -111.481933
9.163                0.907092708     -111.699697
9.164                0.906846251     -111.918023
9.165                0.906599476     -112.136912
9.166                0.906352389     -112.356363
9.167                0.906104996     -112.576377
9.168                0.905857301     -112.796956
9.169                 0.90560931       -113.0181
9.17                 0.905361028     -113.239809
9.171                0.905112461     -113.462084
9.172                0.904863615     -113.684925
9.173                0.904614495     -113.908334
9.174                0.904365107     -114.132311
9.175                0.904115458     -114.356856
9.176                0.903865552     -114.581969
9.177                0.903615397     -114.807652
9.178                0.903364997     -115.033905
9.179                 0.90311436     -115.260728
9.18                 0.902863491     -115.488122
9.181                0.902612398     -115.716087
9.182                0.902361085     -115.944624
9.183                 0.90210956     -116.173733
9.184                0.901857829     -116.403415
9.185                0.901605899     -116.633669
9.186                0.901353776     -116.864497
9.187                0.901101468     -117.095898
9.188                 0.90084898     -117.327874
9.189                0.900596321     -117.560424
9.19                 0.900343496     -117.793548
9.191                0.900090514     -118.027248
9.192                0.899837381     -118.261522
9.193                0.899584104     -118.496372
9.194                0.899330691     -118.731798
9.195                0.899077149       -118.9678
9.196                0.898823485     -119.204378
9.197                0.898569708     -119.441532
9.198                0.898315824     -119.679263
9.199                0.898061841     -119.917571
9.2                  0.897807768     -120.156455
9.201                0.897553611     -120.395917
9.202                0.897299379     -120.635955
9.203                 0.89704508     -120.876571
9.204                0.896790722     -121.117763
9.205                0.896536312     -121.359533
9.206                 0.89628186      -121.60188
9.207                0.896027373     -121.844805
9.208                0.895772861     -122.088306
9.209                 0.89551833     -122.332385
9.21                  0.89526379      -122.57704
9.211                 0.89500925     -122.822273
9.212                0.894754718     -123.068083
9.213                0.894500203     -123.314469
9.214                0.894245713     -123.561432
9.215                0.893991258     -123.808972
9.216                0.893736846     -124.057087
9.217                0.893482488     -124.305779
9.218                0.893228191     -124.555046
9.219                0.892973965      -124.80489
9.22                 0.892719819     -125.055308
9.221                0.892465763     -125.306301
9.222                0.892211806     -125.557869
9.223                0.891957957     -125.810011
9.224                0.891704227     -126.062727
9.225                0.891450624     -126.316016
9.226                0.891197159     -126.569879
9.227                0.890943842     -126.824314
9.228                0.890690682     -127.079321
9.229                0.890437688       -127.3349
9.23                 0.890184873      -127.59105
9.231                0.889932244     -127.847771
9.232                0.889679813     -128.105062
9.233                 0.88942759     -128.362922
9.234                0.889175584     -128.621351
9.235                0.888923807     -128.880348
9.236                0.888672269     -129.139912
9.237                0.888420981     -129.400043
9.238                0.888169952      -129.66074
9.239                0.887919194     -129.922003
9.24                 0.887668717      -130.18383
9.241                0.887418533      -130.44622
9.242                0.887168651     -130.709174
9.243                0.886919084     -130.972689
9.244                0.886669841     -131.236766
9.245                0.886420934     -131.501403
9.246                0.886172375     -131.766599
9.247                0.885924173     -132.032353
9.248                0.885676341     -132.298665
9.249                 0.88542889     -132.565533
9.25                 0.885181831     -132.832956
9.251                0.884935176     -133.100933
9.252                0.884688936     -133.369463
9.253                0.884443122     -133.638545
9.254                0.884197747     -133.908178
9.255                0.883952821      -134.17836
9.256                0.883708357     -134.449091
9.257                0.883464366     -134.720368
9.258                 0.88322086     -134.992191
9.259                0.882977852     -135.264559
9.26                 0.882735352      -135.53747
9.261                0.882493374     -135.810922
9.262                0.882251928     -136.084915
9.263                0.882011027     -136.359446
9.264                0.881770683     -136.634515
9.265                0.881530909      -136.91012
9.266                0.881291716     -137.186258
9.267                0.881053117      -137.46293
9.268                0.880815124     -137.740133
9.269                 0.88057775     -138.017866
9.27                 0.880341006     -138.296126
9.271                0.880104906     -138.574913
9.272                0.879869461     -138.854224
9.273                0.879634685     -139.134058
9.274                0.879400589     -139.414413
9.275                0.879167186     -139.695287
9.276                 0.87893449     -139.976678
9.277                0.878702512     -140.258585
9.278                0.878471265     -140.541005
9.279                0.878240762     -140.823937
9.28                 0.878011016     -141.107379
9.281                0.877782039     -141.391328
9.282                0.877553845     -141.675782
9.283                0.877326445     -141.960741
9.284                0.877099853     -142.246201
9.285                0.876874082      -142.53216
9.286                0.876649145     -142.818616
9.287                0.876425054     -143.105567
9.288                0.876201822      -143.39301
9.289                0.875979463     -143.680945
9.29                 0.875757988     -143.969367
9.291                0.875537412     -144.258275
9.292                0.875317747     -144.547667
9.293                0.875099006     -144.837539
9.294                0.874881202     -145.127891
9.295                0.874664348     -145.418718
9.296                0.874448457     -145.710019
9.297                0.874233542     -146.001791
9.298                0.874019615     -146.294032
9.299                0.873806691     -146.586739
9.3                  0.873594781     -146.879909
9.301                  0.8733839      -147.17354
9.302                0.873174059     -147.467629
9.303                0.872965272     -147.762173
9.304                0.872757552     -148.057169
9.305                0.872550911     -148.352616
9.306                0.872345363     -148.648509
9.307                 0.87214092     -148.944846
9.308                0.871937596     -149.241625
9.309                0.871735403     -149.538842
9.31                 0.871534354     -149.836494
9.311                0.871334462     -150.134578
9.312                0.871135739     -150.433092
9.313                0.870938199     -150.732032
9.314                0.870741855     -151.031395
9.315                0.870546718     -151.331178
9.316                0.870352802     -151.631378
9.317                0.870160119     -151.931992
9.318                0.869968682     -152.233016
9.319                0.869778503     -152.534447
9.32                 0.869589595     -152.836283
9.321                0.869401971     -153.138519
9.322                0.869215642     -153.441152
9.323                0.869030622     -153.744179
9.324                0.868846923     -154.047597
9.325                0.868664556     -154.351402
9.326                0.868483534     -154.655591
9.327                 0.86830387      -154.96016
9.328                0.868125576     -155.265105
9.329                0.867948663     -155.570424
9.33                 0.867773143     -155.876112
9.331                0.867599029     -156.182165
9.332                0.867426333     -156.488582
9.333                0.867255065     -156.795356
9.334                0.867085239     -157.102486
9.335                0.866916866     -157.409966
9.336                0.866749956     -157.717794
9.337                0.866584523     -158.025965
9.338                0.866420577     -158.334476
9.339                0.866258129     -158.643323
9.34                 0.866097192     -158.952502
9.341                0.865937776     -159.262009
9.342                0.865779892      -159.57184
9.343                0.865623551     -159.881991
9.344                0.865468765     -160.192459
9.345                0.865315544     -160.503238
9.346                0.865163899     -160.814326
9.347                0.865013841     -161.125717
9.348                 0.86486538     -161.437409
9.349                0.864718527     -161.749396
9.35                 0.864573292     -162.061675
9.351                0.864429686     -162.374241
9.352                0.864287718     -162.687091
9.353                0.864147399     -163.000219
9.354                0.864008739     -163.313623
9.355                0.863871747     -163.627296
9.356                0.863736434     -163.941236
9.357                0.863602809     -164.255438
9.358                0.863470881     -164.569898
9.359                 0.86334066      -164.88461
9.36                 0.863212155     -165.199571
9.361                0.863085376     -165.514777
9.362                0.862960331     -165.830222
9.363                 0.86283703     -166.145903
9.364                0.862715481     -166.461814
9.365                0.862595693     -166.777952
9.366                0.862477674     -167.094312
9.367                0.862361433      -167.41089
9.368                0.862246978      -167.72768
9.369                0.862134318     -168.044678
9.37                 0.862023459     -168.361879
9.371                0.861914411      -168.67928
9.372                0.861807181     -168.996875
9.373                0.861701777      -169.31466
9.374                0.861598205     -169.632629
9.375                0.861496474     -169.950779
9.376                0.861396591     -170.269104
9.377                0.861298562     -170.587601
9.378                0.861202394     -170.906263
9.379                0.861108095     -171.225086
9.38                  0.86101567     -171.544066
9.381                0.860925127     -171.863198
9.382                0.860836471     -172.182477
9.383                0.860749709     -172.501897
9.384                0.860664847     -172.821455
9.385                 0.86058189     -173.141146
9.386                0.860500844     -173.460964
9.387                0.860421715     -173.780904
9.388                0.860344508     -174.100963
9.389                0.860269228     -174.421134
9.39                 0.860195881     -174.741413
9.391                0.860124471     -175.061796
9.392                0.860055002     -175.382276
9.393                 0.85998748      -175.70285
9.394                0.859921909     -176.023512
9.395                0.859858293     -176.344257
9.396                0.859796636     -176.665081
