! TOUCHSTONE file generated by CST DESIGN STUDIO
! Date and time: Tue Feb  4 14:11:52 2025
! Project name: C:\Work\MatlabApps\UnitCellOptimizationMatlab\CST\unitcell.cst
! Tree item: Tasks\Sweep1\SPara1\S-Parameters
! Header version: 2024
! Port assignment regex: !\s*Touchstone port\s*([0-9]+)\s*=\s*(CST MWS port|CST DES external port|CST DES block port)\s*(.+)\s* \(\"(.*)\"\)(\s*mode\s*([0-9]+))?.*
! Touchstone port assignment:
! Touchstone port 1 = CST DES external port 1 ("")
# GHz S MA R 50
9                    0.956966728      -59.622393
9.001                0.956870195      -59.704963
9.002                0.956773343     -59.7877258
9.003                 0.95667617      -59.870682
9.004                0.956578676     -59.9538322
9.005                 0.95648086     -60.0371771
9.006                0.956382721     -60.1207173
9.007                0.956284257     -60.2044533
9.008                0.956185468      -60.288386
9.009                0.956086353     -60.3725157
9.01                  0.95598691     -60.4568433
9.011                0.955887138     -60.5413694
9.012                0.955787037     -60.6260945
9.013                0.955686604     -60.7110193
9.014                 0.95558584     -60.7961446
9.015                0.955484743     -60.8814708
9.016                0.955383313     -60.9669987
9.017                0.955281547     -61.0527289
9.018                0.955179445     -61.1386621
9.019                0.955077005     -61.2247989
9.02                 0.954974228       -61.31114
9.021                 0.95487111      -61.397686
9.022                0.954767653     -61.4844377
9.023                0.954663854     -61.5713956
9.024                0.954559712     -61.6585604
9.025                0.954455226     -61.7459329
9.026                0.954350395     -61.8335136
9.027                0.954245218     -61.9213033
9.028                0.954139694     -62.0093027
9.029                0.954033822     -62.0975123
9.03                 0.953927601      -62.185933
9.031                0.953821029     -62.2745653
9.032                0.953714105       -62.36341
9.033                0.953606828     -62.4524678
9.034                0.953499198     -62.5417393
9.035                0.953391213     -62.6312252
9.036                0.953282871     -62.7209263
9.037                0.953174172     -62.8108432
9.038                0.953065115     -62.9009767
9.039                0.952955698     -62.9913274
9.04                 0.952845921     -63.0818961
9.041                0.952735781     -63.1726834
9.042                0.952625279     -63.2636901
9.043                0.952514412     -63.3549169
9.044                 0.95240318     -63.4463645
9.045                0.952291582     -63.5380336
9.046                0.952179616     -63.6299249
9.047                0.952067282     -63.7220393
9.048                0.951954577     -63.8143773
9.049                0.951841501     -63.9069398
9.05                 0.951728053     -63.9997274
9.051                0.951614232     -64.0927409
9.052                0.951500036      -64.185981
9.053                0.951385464     -64.2794485
9.054                0.951270515     -64.3731441
9.055                0.951155188     -64.4670686
9.056                0.951039482     -64.5612227
9.057                0.950923395     -64.6556071
9.058                0.950806927     -64.7502227
9.059                0.950690076     -64.8450701
9.06                  0.95057284     -64.9401501
9.061                 0.95045522     -65.0354635
9.062                0.950337213     -65.1310111
9.063                0.950218818     -65.2267935
9.064                0.950100034     -65.3228117
9.065                0.949980861     -65.4190663
9.066                0.949861296     -65.5155581
9.067                0.949741339     -65.6122879
9.068                0.949620988     -65.7092565
9.069                0.949500243     -65.8064647
9.07                 0.949379101     -65.9039132
9.071                0.949257562     -66.0016029
9.072                0.949135625     -66.0995345
9.073                0.949013288     -66.1977088
9.074                 0.94889055     -66.2961266
9.075                 0.94876741     -66.3947887
9.076                0.948643867     -66.4936959
9.077                0.948519919     -66.5928491
9.078                0.948395565      -66.692249
9.079                0.948270805     -66.7918964
9.08                 0.948145636     -66.8917921
9.081                0.948020058      -66.991937
9.082                0.947894069     -67.0923319
9.083                0.947767669     -67.1929776
9.084                0.947640855     -67.2938749
9.085                0.947513627     -67.3950247
9.086                0.947385983     -67.4964277
9.087                0.947257923     -67.5980848
9.088                0.947129445     -67.6999969
9.089                0.947000547     -67.8021647
9.09                 0.946871229     -67.9045891
9.091                 0.94674149     -68.0072711
9.092                0.946611327     -68.1102113
9.093                 0.94648074     -68.2134106
9.094                0.946349728       -68.31687
9.095                0.946218289     -68.4205902
9.096                0.946086422     -68.5245721
9.097                0.945954127     -68.6288166
9.098                  0.9458214     -68.7333246
9.099                0.945688243     -68.8380968
9.1                  0.945554652     -68.9431342
9.101                0.945420627     -69.0484376
9.102                0.945286167      -69.154008
9.103                0.945151271     -69.2598461
9.104                0.945015936     -69.3659529
9.105                0.944880163     -69.4723292
9.106                0.944743949      -69.578976
9.107                0.944607294     -69.6858941
9.108                0.944470196     -69.7930844
9.109                0.944332654     -69.9005478
9.11                 0.944194667     -70.0082852
9.111                0.944056234     -70.1162976
9.112                0.943917352     -70.2245857
9.113                0.943778022     -70.3331505
9.114                0.943638242     -70.4419929
9.115                 0.94349801     -70.5511139
9.116                0.943357325     -70.6605143
9.117                0.943216187     -70.7701951
9.118                0.943074593     -70.8801571
9.119                0.942932543     -70.9904013
9.12                 0.942790036     -71.1009287
9.121                 0.94264707     -71.2117401
9.122                0.942503643     -71.3228365
9.123                0.942359755     -71.4342188
9.124                0.942215405      -71.545888
9.125                0.942070591     -71.6578449
9.126                0.941925312     -71.7700906
9.127                0.941779567      -71.882626
9.128                0.941633354      -71.995452
9.129                0.941486673     -72.1085696
9.13                 0.941339522     -72.2219797
9.131                0.941191899     -72.3356833
9.132                0.941043805     -72.4496814
9.133                0.940895236     -72.5639749
9.134                0.940746194     -72.6785648
9.135                0.940596675      -72.793452
9.136                0.940446679     -72.9086376
9.137                0.940296204     -73.0241224
9.138                 0.94014525     -73.1399075
9.139                0.939993815     -73.2559939
9.14                 0.939841899     -73.3723825
9.141                0.939689499     -73.4890744
9.142                0.939536614     -73.6060704
9.143                0.939383244     -73.7233717
9.144                0.939229388     -73.8409792
9.145                0.939075043     -73.9588939
9.146                0.938920209     -74.0771167
9.147                0.938764885     -74.1956488
9.148                 0.93860907     -74.3144911
9.149                0.938452762     -74.4336446
9.15                  0.93829596     -74.5531104
9.151                0.938138663     -74.6728894
9.152                 0.93798087     -74.7929826
9.153                0.937822579     -74.9133912
9.154                 0.93766379     -75.0341161
9.155                0.937504502     -75.1551583
9.156                0.937344713     -75.2765188
9.157                0.937184422     -75.3981988
9.158                0.937023628     -75.5201992
9.159                 0.93686233     -75.6425211
9.16                 0.936700526     -75.7651655
9.161                0.936538216     -75.8881335
9.162                0.936375399     -76.0114261
9.163                0.936212073     -76.1350443
9.164                0.936048237     -76.2589892
9.165                 0.93588389     -76.3832619
9.166                0.935719032     -76.5078634
9.167                 0.93555366     -76.6327948
9.168                0.935387775     -76.7580572
9.169                0.935221374     -76.8836515
9.17                 0.935054457      -77.009579
9.171                0.934887023     -77.1358406
9.172                 0.93471907     -77.2624374
9.173                0.934550598     -77.3893705
9.174                0.934381606      -77.516641
9.175                0.934212092       -77.64425
9.176                0.934042055     -77.7721986
9.177                0.933871495     -77.9004877
9.178                0.933700411     -78.0291187
9.179                0.933528801     -78.1580924
9.18                 0.933356664     -78.2874101
9.181                   0.933184     -78.4170728
9.182                0.933010807     -78.5470816
9.183                0.932837085     -78.6774376
9.184                0.932662832      -78.808142
9.185                0.932488048     -78.9391958
9.186                0.932312731     -79.0706002
9.187                0.932136881     -79.2023563
9.188                0.931960497     -79.3344651
9.189                0.931783578     -79.4669279
9.19                 0.931606122     -79.5997457
9.191                 0.93142813     -79.7329197
9.192                0.931249599     -79.8664509
9.193                 0.93107053     -80.0003406
9.194                0.930890921     -80.1345898
9.195                0.930710772     -80.2691997
9.196                0.930530081     -80.4041714
9.197                0.930348848     -80.5395061
9.198                0.930167072     -80.6752049
9.199                0.929984752     -80.8112689
9.2                  0.929801888     -80.9476994
9.201                0.929618478     -81.0844974
9.202                0.929434521     -81.2216641
9.203                0.929250018     -81.3592006
9.204                0.929064967     -81.4971082
9.205                0.928879367     -81.6353879
9.206                0.928693218      -81.774041
9.207                0.928506519     -81.9130686
9.208                0.928319269     -82.0524718
9.209                0.928131468     -82.1922519
9.21                 0.927943115     -82.3324099
9.211                0.927754209     -82.4729472
9.212                0.927564749     -82.6138648
9.213                0.927374736     -82.7551639
9.214                0.927184167     -82.8968457
9.215                0.926993044     -83.0389114
9.216                0.926801364     -83.1813622
9.217                0.926609128     -83.3241993
9.218                0.926416335     -83.4674238
9.219                0.926222984     -83.6110369
9.22                 0.926029075     -83.7550398
9.221                0.925834607     -83.8994338
9.222                0.925639581       -84.04422
9.223                0.925443994     -84.1893996
9.224                0.925247847     -84.3349738
9.225                 0.92505114     -84.4809438
9.226                0.924853871     -84.6273108
9.227                0.924656041     -84.7740761
9.228                0.924457649     -84.9212407
9.229                0.924258695      -85.068806
9.23                 0.924059179     -85.2167732
9.231                0.923859099     -85.3651434
9.232                0.923658456     -85.5139178
9.233                0.923457249     -85.6630978
9.234                0.923255479     -85.8126844
9.235                0.923053144      -85.962679
9.236                0.922850244     -86.1130826
9.237                0.922646781     -86.2638967
9.238                0.922442752     -86.4151223
9.239                0.922238158     -86.5667607
9.24                 0.922032999     -86.7188131
9.241                0.921827274     -86.8712808
9.242                0.921620984     -87.0241649
9.243                0.921414129     -87.1774667
9.244                0.921206707     -87.3311875
9.245                 0.92099872     -87.4853284
9.246                0.920790168     -87.6398908
9.247                0.920581049     -87.7948757
9.248                0.920371364     -87.9502845
9.249                0.920161114     -88.1061184
9.25                 0.919950298     -88.2623787
9.251                0.919738917     -88.4190665
9.252                 0.91952697     -88.5761831
9.253                0.919314458     -88.7337297
9.254                 0.91910138     -88.8917076
9.255                0.918887738     -89.0501181
9.256                 0.91867353     -89.2089623
9.257                0.918458758     -89.3682415
9.258                0.918243422     -89.5279569
9.259                0.918027522     -89.6881098
9.26                 0.917811058     -89.8487014
9.261                0.917594031      -90.009733
9.262                0.917376441     -90.1712059
9.263                0.917158288     -90.3331211
9.264                0.916939573     -90.4954801
9.265                0.916720297      -90.658284
9.266                0.916500459     -90.8215341
9.267                0.916280061     -90.9852316
9.268                0.916059102     -91.1493777
9.269                0.915837584     -91.3139738
9.27                 0.915615508     -91.4790211
9.271                0.915392873     -91.6445207
9.272                 0.91516968      -91.810474
9.273                0.914945931     -91.9768821
9.274                0.914721625     -92.1437464
9.275                0.914496765     -92.3110681
9.276                0.914271349     -92.4788483
9.277                 0.91404538     -92.6470884
9.278                0.913818859     -92.8157896
9.279                0.913591785     -92.9849532
9.28                 0.913364161     -93.1545803
9.281                0.913135986     -93.3246722
9.282                0.912907263     -93.4952301
9.283                0.912677992     -93.6662553
9.284                0.912448174     -93.8377491
9.285                 0.91221781     -94.0097125
9.286                0.911986902      -94.182147
9.287                0.911755451     -94.3550537
9.288                0.911523457     -94.5284338
9.289                0.911290923     -94.7022886
9.29                 0.911057849     -94.8766192
9.291                0.910824238      -95.051427
9.292                 0.91059009     -95.2267132
9.293                0.910355406     -95.4024789
9.294                0.910120189     -95.5787253
9.295                0.909884439     -95.7554538
9.296                0.909648159     -95.9326656
9.297                 0.90941135     -96.1103617
9.298                0.909174014     -96.2885435
9.299                0.908936151     -96.4672121
9.3                  0.908697765     -96.6463689
9.301                0.908458857     -96.8260149
9.302                0.908219428     -97.0061513
9.303                 0.90797948     -97.1867794
9.304                0.907739017     -97.3679004
9.305                0.907498038     -97.5495155
9.306                0.907256547     -97.7316258
9.307                0.907014545     -97.9142326
9.308                0.906772035      -98.097337
9.309                0.906529018     -98.2809402
9.31                 0.906285497     -98.4650434
9.311                0.906041475     -98.6496477
9.312                0.905796952     -98.8347544
9.313                0.905551933     -99.0203646
9.314                0.905306418     -99.2064795
9.315                0.905060411     -99.3931002
9.316                0.904813914     -99.5802279
9.317                 0.90456693     -99.7678638
9.318                 0.90431946     -99.9560089
9.319                0.904071509     -100.144665
9.32                 0.903823078     -100.333832
9.321                 0.90357417     -100.523512
9.322                0.903324788     -100.713705
9.323                0.903074935     -100.904414
9.324                0.902824614     -101.095639
9.325                0.902573828     -101.287381
9.326                0.902322579     -101.479641
9.327                0.902070872     -101.672421
9.328                0.901818708     -101.865721
9.329                0.901566091     -102.059543
9.33                 0.901313025     -102.253888
9.331                0.901059512     -102.448756
9.332                0.900805556      -102.64415
9.333                0.900551161     -102.840069
9.334                 0.90029633     -103.036515
9.335                0.900041066      -103.23349
9.336                0.899785373     -103.430994
9.337                0.899529255     -103.629027
9.338                0.899272715     -103.827592
9.339                0.899015758      -104.02669
9.34                 0.898758386      -104.22632
9.341                0.898500604     -104.426485
9.342                0.898242417     -104.627186
9.343                0.897983827     -104.828423
9.344                0.897724839     -105.030197
9.345                0.897465457     -105.232509
9.346                0.897205685     -105.435361
9.347                0.896945528     -105.638753
9.348                 0.89668499     -105.842686
9.349                0.896424075     -106.047162
9.35                 0.896162788     -106.252181
9.351                0.895901133     -106.457744
9.352                0.895639115     -106.663852
9.353                0.895376739     -106.870506
9.354                0.895114009     -107.077707
9.355                 0.89485093     -107.285456
9.356                0.894587507     -107.493754
9.357                0.894323745     -107.702601
9.358                0.894059649     -107.911999
9.359                0.893795224     -108.121948
9.36                 0.893530475      -108.33245
9.361                0.893265408     -108.543504
9.362                0.893000027     -108.755113
9.363                0.892734339     -108.967276
9.364                0.892468347     -109.179995
9.365                0.892202059     -109.393271
9.366                0.891935479     -109.607104
9.367                0.891668614     -109.821494
9.368                0.891401468     -110.036444
9.369                0.891134048     -110.251953
9.37                  0.89086636     -110.468023
9.371                0.890598409     -110.684654
9.372                0.890330202     -110.901846
9.373                0.890061744     -111.119601
9.374                0.889793042      -111.33792
9.375                0.889524102     -111.556802
9.376                 0.88925493     -111.776249
9.377                0.888985533     -111.996261
9.378                0.888715918      -112.21684
9.379                 0.88844609     -112.437985
9.38                 0.888176056     -112.659697
9.381                0.887905823     -112.881977
9.382                0.887635398     -113.104826
9.383                0.887364788     -113.328244
9.384                0.887093999     -113.552231
9.385                0.886823039     -113.776789
9.386                0.886551915     -114.001918
9.387                0.886280633     -114.227618
9.388                0.886009201      -114.45389
9.389                0.885737627     -114.680734
9.39                 0.885465917     -114.908151
9.391                 0.88519408     -115.136142
9.392                0.884922123     -115.364706
9.393                0.884650053     -115.593845
9.394                0.884377878     -115.823558
9.395                0.884105606     -116.053846
9.396                0.883833245     -116.284711
